LTspice 24.0.9 for Windows
Circuit: * GA CMOS Amp | W=4.90954619751816e-05 L=9.367948372454444e-07 Vbias=0.8833230674733304
Start Time: Mon Sep  8 18:43:05 2025
solver = Normal
Maximum thread count: 2
tnom = 27
temp = 27
method = modified trap
AsciiRawFile = 1
Instance "m1": Length shorter than recommended for a level 3 MOSFET.
Direct Newton iteration for .op point succeeded.
Semiconductor Device Operating Points:
                        --- MOSFET Transistors ---
Name:          m1
Model:        n_1u
Id:          6.41e-05
Vgs:         8.83e-01
Vds:         1.16e+00
Vbs:         0.00e+00
Vth:         8.01e-01
Vdsat:       1.16e-01
Gm:          8.79e-04
Gds:         7.60e-06
Gmb:         2.01e-04
Cbd:         0.00e+00
Cbs:         0.00e+00
Cgsov:       9.82e-15
Cgdov:       9.82e-15
Cgbov:       7.37e-17
Cgs:         4.16e-14
Cgd:         0.00e+00
Cgb:         0.00e+00



gain_db: MAX(db(v(out)/v(g)))=(30.3237dB,56.2369°) FROM 1 TO 1e+09
gain_lin: MAX(mag(v(out)/v(g)))=(18.242dB,0°) FROM 1 TO 1e+09

Measurement "fc" FAIL'ed

Total elapsed time: 0.579 seconds.

