Title: * GA CMOS Amp | W=3.6894509621203945e-06 L=8.110081631600551e-07 Vbias=1.5
Date: Sat Sep  6 22:15:48 2025
Plotname: AC Analysis
Flags: complex forward log
No. Variables: 13
No. Points:          901
Offset:    0.0000000000000000e+00
Command: Linear Technology Corporation LTspice
Variables:
	0	frequency	frequency
	1	V(out)	voltage
	2	V(g)	voltage
	3	V(vdd)	voltage
	4	V(m1#dbody)	voltage
	5	V(m1#sbody)	voltage
	6	Id(M1)	device_current
	7	Ig(M1)	device_current
	8	Ib(M1)	device_current
	9	Is(M1)	device_current
	10	I(Rload)	device_current
	11	I(Vg)	device_current
	12	I(Vdd)	device_current
Values:
0		1.000000000000000e+00,0.000000000000000e+00
	-9.054943253940425e-03,1.030005872015281e-09
	1.000000000000000e+00,0.000000000000000e+00
	0.000000000000000e+00,0.000000000000000e+00
	1.099603894149204e-04,8.615819337640210e-14
	1.099603894828195e-04,8.685202595851269e-14
	9.054943253940428e-07,-1.030005872015281e-13
	6.655963686281212e-05,7.390197258018815e-13
	-5.864554109729634e-05,-4.628094278251098e-14
	-8.819590090909819e-06,-5.897381958178424e-13
	-9.054943253940426e-07,1.030005872015281e-13
	-6.655963686297284e-05,-7.390197258018814e-13
	-9.054943253940426e-07,1.030005872015281e-13
1		1.023292992280754e+00,0.000000000000000e+00
	-9.054943253940425e-03,1.053997790841264e-09
	1.000000000000000e+00,0.000000000000000e+00
	0.000000000000000e+00,0.000000000000000e+00
	1.099603894149204e-04,8.816507550964234e-14
	1.099603894828195e-04,8.887506952873216e-14
	9.054943253940428e-07,-1.053997790841264e-13
	6.655963686281212e-05,7.562337065703096e-13
	-5.864554109729634e-05,-4.735896442549002e-14
	-8.819590090909819e-06,-6.034749630606932e-13
	-9.054943253940426e-07,1.053997790841264e-13
	-6.655963686297284e-05,-7.562337065703097e-13
	-9.054943253940426e-07,1.053997790841264e-13
2		1.047128548050899e+00,0.000000000000000e+00
	-9.054943253940425e-03,1.078548553247261e-09
	1.000000000000000e+00,0.000000000000000e+00
	0.000000000000000e+00,0.000000000000000e+00
	1.099603894149204e-04,9.021870393292054e-14
	1.099603894828195e-04,9.094523583721640e-14
	9.054943253940428e-07,-1.078548553247261e-13
	6.655963686281212e-05,7.738486524598977e-13
	-5.864554109729634e-05,-4.846209641827746e-14
	-8.819590090909819e-06,-6.175317007168942e-13
	-9.054943253940426e-07,1.078548553247261e-13
	-6.655963686297284e-05,-7.738486524598977e-13
	-9.054943253940426e-07,1.078548553247261e-13
3		1.071519305237606e+00,0.000000000000000e+00
	-9.054943253940425e-03,1.103671176372468e-09
	1.000000000000000e+00,0.000000000000000e+00
	0.000000000000000e+00,0.000000000000000e+00
	1.099603894149204e-04,9.232016750720969e-14
	1.099603894828195e-04,9.306362251354405e-14
	9.054943253940428e-07,-1.103671176372468e-13
	6.655963686281212e-05,7.918739031481181e-13
	-5.864554109729634e-05,-4.959092365605756e-14
	-8.819590090909819e-06,-6.319158618548138e-13
	-9.054943253940426e-07,1.103671176372468e-13
	-6.655963686297284e-05,-7.918739031481181e-13
	-9.054943253940426e-07,1.103671176372468e-13
4		1.096478196143185e+00,0.000000000000000e+00
	-9.054943253940425e-03,1.129378980564203e-09
	1.000000000000000e+00,0.000000000000000e+00
	0.000000000000000e+00,0.000000000000000e+00
	1.099603894149204e-04,9.447058045631303e-14
	1.099603894828195e-04,9.523135275437102e-14
	9.054943253940428e-07,-1.129378980564203e-13
	6.655963686281212e-05,8.103190158614780e-13
	-5.864554109729634e-05,-5.074604465797357e-14
	-8.819590090909819e-06,-6.466350731470841e-13
	-9.054943253940426e-07,1.129378980564203e-13
	-6.655963686297284e-05,-8.103190158614777e-13
	-9.054943253940426e-07,1.129378980564203e-13
5		1.122018454301963e+00,0.000000000000000e+00
	-9.054943253940425e-03,1.155685596440531e-09
	1.000000000000000e+00,0.000000000000000e+00
	0.000000000000000e+00,0.000000000000000e+00
	1.099603894149204e-04,9.667108295764031e-14
	1.099603894828195e-04,9.744957591896438e-14
	9.054943253940428e-07,-1.155685596440531e-13
	6.655963686281212e-05,8.291937704428876e-13
	-5.864554109729634e-05,-5.192807188447056e-14
	-8.819590090909819e-06,-6.616971389143640e-13
	-9.054943253940426e-07,1.155685596440531e-13
	-6.655963686297284e-05,-8.291937704428877e-13
	-9.054943253940426e-07,1.155685596440531e-13
6		1.148153621496882e+00,0.000000000000000e+00
	-9.054943253940425e-03,1.182604972117399e-09
	1.000000000000000e+00,0.000000000000000e+00
	0.000000000000000e+00,0.000000000000000e+00
	1.099603894149204e-04,9.892284174674477e-14
	1.099603894828195e-04,9.971946813860757e-14
	9.054943253940428e-07,-1.182604972117399e-13
	6.655963686281212e-05,8.485081745370633e-13
	-5.864554109729634e-05,-5.313763206202997e-14
	-8.819590090909819e-06,-6.771100452632934e-13
	-9.054943253940426e-07,1.182604972117399e-13
	-6.655963686297284e-05,-8.485081745370631e-13
	-9.054943253940426e-07,1.182604972117399e-13
7		1.174897554939529e+00,0.000000000000000e+00
	-9.054943253940425e-03,1.210151380604111e-09
	1.000000000000000e+00,0.000000000000000e+00
	0.000000000000000e+00,0.000000000000000e+00
	1.099603894149204e-04,1.012270507359420e-13
	1.099603894828195e-04,1.020422329402011e-13
	9.054943253940428e-07,-1.210151380604111e-13
	6.655963686281212e-05,8.682724688967117e-13
	-5.864554109729634e-05,-5.437536651546839e-14
	-8.819590090909819e-06,-6.928819643208322e-13
	-9.054943253940426e-07,1.210151380604111e-13
	-6.655963686297284e-05,-8.682724688967116e-13
	-9.054943253940426e-07,1.210151380604111e-13
8		1.202264434617413e+00,0.000000000000000e+00
	-9.054943253940425e-03,1.238339427371067e-09
	1.000000000000000e+00,0.000000000000000e+00
	0.000000000000000e+00,0.000000000000000e+00
	1.099603894149204e-04,1.035849316473378e-13
	1.099603894828195e-04,1.044191018843881e-13
	9.054943253940428e-07,-1.238339427371066e-13
	6.655963686281212e-05,8.884971328123142e-13
	-5.864554109729634e-05,-5.564193150797639e-14
	-8.819590090909819e-06,-7.090212585672312e-13
	-9.054943253940426e-07,1.238339427371067e-13
	-6.655963686297284e-05,-8.884971328123142e-13
	-9.054943253940426e-07,1.238339427371067e-13
9		1.230268770812381e+00,0.000000000000000e+00
	-9.054943253940425e-03,1.267184058093774e-09
	1.000000000000000e+00,0.000000000000000e+00
	0.000000000000000e+00,0.000000000000000e+00
	1.099603894149204e-04,1.059977346606016e-13
	1.099603894828195e-04,1.068513352185444e-13
	9.054943253940428e-07,-1.267184058093773e-13
	6.655963686281212e-05,9.091928896683834e-13
	-5.864554109729634e-05,-5.693799858907792e-14
	-8.819590090909819e-06,-7.255364852699283e-13
	-9.054943253940426e-07,1.267184058093774e-13
	-6.655963686297284e-05,-9.091928896683835e-13
	-9.054943253940426e-07,1.267184058093774e-13
10		1.258925411794167e+00,0.000000000000000e+00
	-9.054943253940425e-03,1.296700566577247e-09
	1.000000000000000e+00,0.000000000000000e+00
	0.000000000000000e+00,0.000000000000000e+00
	1.099603894149204e-04,1.084667390758285e-13
	1.099603894828195e-04,1.093402225449782e-13
	9.054943253940428e-07,-1.296700566577247e-13
	6.655963686281212e-05,9.303707126291458e-13
	-5.864554109729634e-05,-5.826425495069490e-14
	-8.819590090909819e-06,-7.424364010207262e-13
	-9.054943253940426e-07,1.296700566577247e-13
	-6.655963686297284e-05,-9.303707126291458e-13
	-9.054943253940426e-07,1.296700566577247e-13
11		1.288249551693134e+00,0.000000000000000e+00
	-9.054943253940425e-03,1.326904602864981e-09
	1.000000000000000e+00,0.000000000000000e+00
	0.000000000000000e+00,0.000000000000000e+00
	1.099603894149204e-04,1.109932539918403e-13
	1.099603894828195e-04,1.118870835046943e-13
	9.054943253940428e-07,-1.326904602864981e-13
	6.655963686281212e-05,9.520418304566563e-13
	-5.864554109729634e-05,-5.962140379150533e-14
	-8.819590090909819e-06,-7.597299663786529e-13
	-9.054943253940426e-07,1.326904602864981e-13
	-6.655963686297284e-05,-9.520418304566563e-13
	-9.054943253940426e-07,1.326904602864981e-13
12		1.318256738556407e+00,0.000000000000000e+00
	-9.054943253940425e-03,1.357812181536811e-09
	1.000000000000000e+00,0.000000000000000e+00
	0.000000000000000e+00,0.000000000000000e+00
	1.099603894149204e-04,1.135786190002880e-13
	1.099603894828195e-04,1.144932684770853e-13
	9.054943253940428e-07,-1.357812181536812e-13
	6.655963686281212e-05,9.742177334644384e-13
	-5.864554109729634e-05,-6.101016468978859e-14
	-8.819590090909819e-06,-7.774263506209684e-13
	-9.054943253940426e-07,1.357812181536812e-13
	-6.655963686297284e-05,-9.742177334644382e-13
	-9.054943253940426e-07,1.357812181536812e-13
13		1.348962882591653e+00,0.000000000000000e+00
	-9.054943253940425e-03,1.389439690200062e-09
	1.000000000000000e+00,0.000000000000000e+00
	0.000000000000000e+00,0.000000000000000e+00
	1.099603894149204e-04,1.162242048959205e-13
	1.099603894828195e-04,1.171601592959204e-13
	9.054943253940428e-07,-1.389439690200062e-13
	6.655963686281212e-05,9.969101796097991e-13
	-5.864554109729634e-05,-6.243127398495539e-14
	-8.819590090909819e-06,-7.955349366048375e-13
	-9.054943253940426e-07,1.389439690200063e-13
	-6.655963686297284e-05,-9.969101796097991e-13
	-9.054943253940426e-07,1.389439690200063e-13
14		1.380384264602885e+00,0.000000000000000e+00
	-9.054943253940425e-03,1.421803898178466e-09
	1.000000000000000e+00,0.000000000000000e+00
	0.000000000000000e+00,0.000000000000000e+00
	1.099603894149204e-04,1.189314144033979e-13
	1.099603894828195e-04,1.198891699820121e-13
	9.054943253940428e-07,-1.421803898178465e-13
	6.655963686281212e-05,1.020131200728056e-12
	-5.864554109729634e-05,-6.388548516796457e-14
	-8.819590090909819e-06,-8.140653257422443e-13
	-9.054943253940426e-07,1.421803898178466e-13
	-6.655963686297284e-05,-1.020131200728056e-12
	-9.054943253940426e-07,1.421803898178466e-13
15		1.412537544622754e+00,0.000000000000000e+00
	-9.054943253940425e-03,1.454921965403484e-09
	1.000000000000000e+00,0.000000000000000e+00
	0.000000000000000e+00,0.000000000000000e+00
	1.099603894149204e-04,1.217016829210354e-13
	1.099603894828195e-04,1.226817474929492e-13
	9.054943253940428e-07,-1.454921965403483e-13
	6.655963686281212e-05,1.043893108911970e-12
	-5.864554109729634e-05,-6.537356928083422e-14
	-8.819590090909819e-06,-8.330273430907881e-13
	-9.054943253940426e-07,1.454921965403484e-13
	-6.655963686297284e-05,-1.043893108911970e-12
	-9.054943253940426e-07,1.454921965403484e-13
16		1.445439770745927e+00,0.000000000000000e+00
	-9.054943253940425e-03,1.488811451512726e-09
	1.000000000000000e+00,0.000000000000000e+00
	0.000000000000000e+00,0.000000000000000e+00
	1.099603894149204e-04,1.245364792818699e-13
	1.099603894828195e-04,1.255393724902919e-13
	9.054943253940428e-07,-1.488811451512726e-13
	6.655963686281212e-05,1.068208503039789e-12
	-5.864554109729634e-05,-6.689631532545803e-14
	-8.819590090909819e-06,-8.524310425630588e-13
	-9.054943253940426e-07,1.488811451512726e-13
	-6.655963686297284e-05,-1.068208503039789e-12
	-9.054943253940426e-07,1.488811451512726e-13
17		1.479108388168207e+00,0.000000000000000e+00
	-9.054943253940425e-03,1.523490325160310e-09
	1.000000000000000e+00,0.000000000000000e+00
	0.000000000000000e+00,0.000000000000000e+00
	1.099603894149204e-04,1.274373065324548e-13
	1.099603894828195e-04,1.284635601246389e-13
	9.054943253940428e-07,-1.523490325160310e-13
	6.655963686281212e-05,1.093090275455331e-12
	-5.864554109729634e-05,-6.845453068194480e-14
	-8.819590090909819e-06,-8.722867122573550e-13
	-9.054943253940426e-07,1.523490325160310e-13
	-6.655963686297284e-05,-1.093090275455331e-12
	-9.054943253940426e-07,1.523490325160310e-13
18		1.513561248436208e+00,0.000000000000000e+00
	-9.054943253940425e-03,1.558976973544073e-09
	1.000000000000000e+00,0.000000000000000e+00
	0.000000000000000e+00,0.000000000000000e+00
	1.099603894149204e-04,1.304057027297954e-13
	1.099603894828195e-04,1.314558608389804e-13
	9.054943253940424e-07,-1.558976973544073e-13
	6.655963686281212e-05,1.118551618803679e-12
	-5.864554109729634e-05,-7.004904153670200e-14
	-8.819590090909819e-06,-8.926048799125702e-13
	-9.054943253940426e-07,1.558976973544073e-13
	-6.655963686297284e-05,-1.118551618803679e-12
	-9.054943253940426e-07,1.558976973544073e-13
19		1.548816618912481e+00,0.000000000000000e+00
	-9.054943253940425e-03,1.595290212154708e-09
	1.000000000000000e+00,0.000000000000000e+00
	0.000000000000000e+00,0.000000000000000e+00
	1.099603894149204e-04,1.334432417568468e-13
	1.099603894828195e-04,1.345178611907626e-13
	9.054943253940424e-07,-1.595290212154708e-13
	6.655963686281212e-05,1.144606033026099e-12
	-5.864554109729634e-05,-7.168069332049062e-14
	-8.819590090909819e-06,-9.133963184901371e-13
	-9.054943253940426e-07,1.595290212154708e-13
	-6.655963686297284e-05,-1.144606033026099e-12
	-9.054943253940426e-07,1.595290212154708e-13
20		1.584893192461113e+00,0.000000000000000e+00
	-9.054943253940425e-03,1.632449294751990e-09
	1.000000000000000e+00,0.000000000000000e+00
	0.000000000000000e+00,0.000000000000000e+00
	1.099603894149204e-04,1.365515341570078e-13
	1.099603894828195e-04,1.376511846931026e-13
	9.054943253940424e-07,-1.632449294751991e-13
	6.655963686281212e-05,1.171267332517880e-12
	-5.864554109729634e-05,-7.335035115668392e-14
	-8.819590090909819e-06,-9.346720518859969e-13
	-9.054943253940426e-07,1.632449294751990e-13
	-6.655963686297284e-05,-1.171267332517880e-12
	-9.054943253940426e-07,1.632449294751990e-13
21		1.621810097358929e+00,0.000000000000000e+00
	-9.054943253940425e-03,1.670473923573371e-09
	1.000000000000000e+00,0.000000000000000e+00
	0.000000000000000e+00,0.000000000000000e+00
	1.099603894149204e-04,1.397322279880521e-13
	1.099603894828195e-04,1.408574926755957e-13
	9.054943253940424e-07,-1.670473923573371e-13
	6.655963686281212e-05,1.198549653452918e-12
	-5.864554109729634e-05,-7.505890031996715e-14
	-8.819590090909819e-06,-9.564433607756140e-13
	-9.054943253940426e-07,1.670473923573371e-13
	-6.655963686297284e-05,-1.198549653452919e-12
	-9.054943253940426e-07,1.670473923573371e-13
22		1.659586907437560e+00,0.000000000000000e+00
	-9.054943253940425e-03,1.709384259780366e-09
	1.000000000000000e+00,0.000000000000000e+00
	0.000000000000000e+00,0.000000000000000e+00
	1.099603894149204e-04,1.429870096959504e-13
	1.099603894828195e-04,1.441384851651747e-13
	9.054943253940424e-07,-1.709384259780367e-13
	6.655963686281212e-05,1.226467461278898e-12
	-5.864554109729634e-05,-7.680724670572204e-14
	-8.819590090909819e-06,-9.787217885951390e-13
	-9.054943253940426e-07,1.709384259780367e-13
	-6.655963686297284e-05,-1.226467461278897e-12
	-9.054943253940426e-07,1.709384259780367e-13
23		1.698243652461743e+00,0.000000000000000e+00
	-9.054943253940425e-03,1.749200934148273e-09
	1.000000000000000e+00,0.000000000000000e+00
	0.000000000000000e+00,0.000000000000000e+00
	1.099603894149204e-04,1.463176050090463e-13
	1.099603894828195e-04,1.474959017874868e-13
	9.054943253940424e-07,-1.749200934148272e-13
	6.655963686281212e-05,1.255035558387063e-12
	-5.864554109729634e-05,-7.859631731034442e-14
	-8.819590090909819e-06,-1.001519147661891e-12
	-9.054943253940426e-07,1.749200934148273e-13
	-6.655963686297284e-05,-1.255035558387063e-12
	-9.054943253940426e-07,1.749200934148273e-13
24		1.737800828749374e+00,0.000000000000000e+00
	-9.054943253940424e-03,1.789945058004877e-09
	1.000000000000000e+00,0.000000000000000e+00
	0.000000000000000e+00,0.000000000000000e+00
	1.099603894149204e-04,1.497257798530604e-13
	1.099603894828195e-04,1.509315226892655e-13
	9.054943253940428e-07,-1.789945058004876e-13
	6.655963686281212e-05,1.284269091960645e-12
	-5.864554109729634e-05,-8.042706072274993e-14
	-8.819590090909819e-06,-1.024847525437407e-12
	-9.054943253940424e-07,1.789945058004877e-13
	-6.655963686297284e-05,-1.284269091960645e-12
	-9.054943253940424e-07,1.789945058004877e-13
25		1.778279410038922e+00,0.000000000000000e+00
	-9.054943253940424e-03,1.831638234423958e-09
	1.000000000000000e+00,0.000000000000000e+00
	0.000000000000000e+00,0.000000000000000e+00
	1.099603894149204e-04,1.532133412874076e-13
	1.099603894828195e-04,1.544471694821890e-13
	9.054943253940428e-07,-1.831638234423958e-13
	6.655963686281212e-05,1.314183562006095e-12
	-5.864554109729634e-05,-8.230044762732870e-14
	-8.819590090909819e-06,-1.048719290936371e-12
	-9.054943253940424e-07,1.831638234423958e-13
	-6.655963686297284e-05,-1.314183562006095e-12
	-9.054943253940424e-07,1.831638234423958e-13
26		1.819700858609982e+00,0.000000000000000e+00
	-9.054943253940424e-03,1.874302569679530e-09
	1.000000000000000e+00,0.000000000000000e+00
	0.000000000000000e+00,0.000000000000000e+00
	1.099603894149204e-04,1.567821384633238e-13
	1.099603894828195e-04,1.580447062087220e-13
	9.054943253940428e-07,-1.874302569679529e-13
	6.655963686281212e-05,1.344794829571397e-12
	-5.864554109729634e-05,-8.421747131861469e-14
	-8.819590090909819e-06,-1.073147101284830e-12
	-9.054943253940424e-07,1.874302569679530e-13
	-6.655963686297284e-05,-1.344794829571397e-12
	-9.054943253940424e-07,1.874302569679530e-13
27		1.862087136662866e+00,0.000000000000000e+00
	-9.054943253940424e-03,1.917960684966872e-09
	1.000000000000000e+00,0.000000000000000e+00
	0.000000000000000e+00,0.000000000000000e+00
	1.099603894149204e-04,1.604340636043101e-13
	1.099603894828195e-04,1.617260403304558e-13
	9.054943253940428e-07,-1.917960684966872e-13
	6.655963686281212e-05,1.376119125155802e-12
	-5.864554109729634e-05,-8.617914822794380e-14
	-8.819590090909819e-06,-1.098143908431171e-12
	-9.054943253940424e-07,1.917960684966872e-13
	-6.655963686297284e-05,-1.376119125155802e-12
	-9.054943253940424e-07,1.917960684966872e-13
28		1.905460717963246e+00,0.000000000000000e+00
	-9.054943253940424e-03,1.962635728396596e-09
	1.000000000000000e+00,0.000000000000000e+00
	0.000000000000000e+00,0.000000000000000e+00
	1.099603894149204e-04,1.641710530094153e-13
	1.099603894828195e-04,1.654931237394700e-13
	9.054943253940428e-07,-1.962635728396595e-13
	6.655963686281212e-05,1.408173057315454e-12
	-5.864554109729634e-05,-8.818651846237925e-14
	-8.819590090909819e-06,-1.123722966013415e-12
	-9.054943253940424e-07,1.962635728396596e-13
	-6.655963686297284e-05,-1.408173057315454e-12
	-9.054943253940424e-07,1.962635728396596e-13
29		1.949844599758044e+00,0.000000000000000e+00
	-9.054943253940424e-03,2.008351387268070e-09
	1.000000000000000e+00,0.000000000000000e+00
	0.000000000000000e+00,0.000000000000000e+00
	1.099603894149204e-04,1.679950880798869e-13
	1.099603894828195e-04,1.693479537932514e-13
	9.054943253940424e-07,-2.008351387268070e-13
	6.655963686281212e-05,1.440973621469469e-12
	-5.864554109729634e-05,-9.024064635619005e-14
	-8.819590090909819e-06,-1.149897836386472e-12
	-9.054943253940424e-07,2.008351387268070e-13
	-6.655963686297284e-05,-1.440973621469469e-12
	-9.054943253940424e-07,2.008351387268070e-13
30		1.995262314968878e+00,0.000000000000000e+00
	-9.054943253940424e-03,2.055131900628747e-09
	1.000000000000000e+00,0.000000000000000e+00
	0.000000000000000e+00,0.000000000000000e+00
	1.099603894149204e-04,1.719081963697363e-13
	1.099603894828195e-04,1.732925743737191e-13
	9.054943253940424e-07,-2.055131900628745e-13
	6.655963686281212e-05,1.474538208911127e-12
	-5.864554109729634e-05,-9.234262103517502e-14
	-8.819590090909819e-06,-1.176682397813078e-12
	-9.054943253940424e-07,2.055131900628747e-13
	-6.655963686297284e-05,-1.474538208911127e-12
	-9.054943253940424e-07,2.055131900628747e-13
31		2.041737944669527e+00,0.000000000000000e+00
	-9.054943253940424e-03,2.103002072126023e-09
	1.000000000000000e+00,0.000000000000000e+00
	0.000000000000000e+00,0.000000000000000e+00
	1.099603894149204e-04,1.759124526607749e-13
	1.099603894828195e-04,1.773290769709181e-13
	9.054943253940424e-07,-2.103002072126023e-13
	6.655963686281212e-05,1.508884616028971e-12
	-5.864554109729634e-05,-9.449355699413193e-14
	-8.819590090909819e-06,-1.204090851822237e-12
	-9.054943253940424e-07,2.103002072126023e-13
	-6.655963686297284e-05,-1.508884616028971e-12
	-9.054943253940424e-07,2.103002072126023e-13
32		2.089296130854037e+00,0.000000000000000e+00
	-9.054943253940424e-03,2.151987283158465e-09
	1.000000000000000e+00,0.000000000000000e+00
	0.000000000000000e+00,0.000000000000000e+00
	1.099603894149204e-04,1.800099800626909e-13
