Title: * GA CMOS Amp | W=3.833009658785291e-06 L=9.795610601685306e-07 Vbias=1.37044174027591
Date: Sat Sep  6 22:16:03 2025
Plotname: AC Analysis
Flags: complex forward log
No. Variables: 13
No. Points:          901
Offset:    0.0000000000000000e+00
Command: Linear Technology Corporation LTspice
Variables:
	0	frequency	frequency
	1	V(out)	voltage
	2	V(g)	voltage
	3	V(vdd)	voltage
	4	V(m1#dbody)	voltage
	5	V(m1#sbody)	voltage
	6	Id(M1)	device_current
	7	Ig(M1)	device_current
	8	Ib(M1)	device_current
	9	Is(M1)	device_current
	10	I(Rload)	device_current
	11	I(Vg)	device_current
	12	I(Vdd)	device_current
Values:
0		1.000000000000000e+00,0.000000000000000e+00
	-1.024895079810231e-01,1.535132537608850e-09
	1.000000000000000e+00,0.000000000000000e+00
	0.000000000000000e+00,0.000000000000000e+00
	5.456824942362878e-05,1.557450314149010e-13
	5.456825019229341e-05,1.638383400760825e-13
	1.024895079810230e-05,-1.535132537608851e-13
	3.504030098036046e-05,8.847262463827124e-13
	-2.910306673997252e-05,-8.684404826966232e-14
	-1.618618503849024e-05,-6.443689443521650e-13
	-1.024895079810231e-05,1.535132537608851e-13
	-3.504030098033795e-05,-8.847262463827122e-13
	-1.024895079810231e-05,1.535132537608851e-13
1		1.023292992280754e+00,0.000000000000000e+00
	-1.024895079810231e-01,1.570890367957308e-09
	1.000000000000000e+00,0.000000000000000e+00
	0.000000000000000e+00,0.000000000000000e+00
	5.456824942362878e-05,1.593727992294141e-13
	5.456825019229341e-05,1.676546252667663e-13
	1.024895079810230e-05,-1.570890367957308e-13
	3.504030098036046e-05,9.053341680102855e-13
	-2.910306673997252e-05,-8.886690601563701e-14
	-1.618618503849024e-05,-6.593782251989177e-13
	-1.024895079810231e-05,1.570890367957308e-13
	-3.504030098033795e-05,-9.053341680102855e-13
	-1.024895079810231e-05,1.570890367957308e-13
2		1.047128548050899e+00,0.000000000000000e+00
	-1.024895079810231e-01,1.607481105172048e-09
	1.000000000000000e+00,0.000000000000000e+00
	0.000000000000000e+00,0.000000000000000e+00
	5.456824942362878e-05,1.630850686116270e-13
	5.456825019229341e-05,1.715598031589377e-13
	1.024895079810230e-05,-1.607481105172048e-13
	3.504030098036046e-05,9.264221097972520e-13
	-2.910306673997252e-05,-9.093688217147373e-14
	-1.618618503849024e-05,-6.747371171085733e-13
	-1.024895079810231e-05,1.607481105172048e-13
	-3.504030098033795e-05,-9.264221097972516e-13
	-1.024895079810231e-05,1.607481105172048e-13
3		1.071519305237606e+00,0.000000000000000e+00
	-1.024895079810231e-01,1.644924150146279e-09
	1.000000000000000e+00,0.000000000000000e+00
	0.000000000000000e+00,0.000000000000000e+00
	5.456824942362878e-05,1.668838078559039e-13
	5.456825019229341e-05,1.755559443296066e-13
	1.024895079810230e-05,-1.644924150146279e-13
	3.504030098036046e-05,9.480012528494790e-13
	-2.910306673997252e-05,-9.305507426592972e-14
	-1.618618503849024e-05,-6.904537635689214e-13
	-1.024895079810231e-05,1.644924150146279e-13
	-3.504030098033795e-05,-9.480012528494792e-13
	-1.024895079810231e-05,1.644924150146279e-13
4		1.096478196143185e+00,0.000000000000000e+00
	-1.024895079810231e-01,1.683239355678062e-09
	1.000000000000000e+00,0.000000000000000e+00
	0.000000000000000e+00,0.000000000000000e+00
	5.456824942362878e-05,1.707710311040743e-13
	5.456825019229341e-05,1.796451675857166e-13
	1.024895079810230e-05,-1.683239355678062e-13
	3.504030098036046e-05,9.700830387142470e-13
	-2.910306673997252e-05,-9.522260539249099e-14
	-1.618618503849024e-05,-7.065364977539498e-13
	-1.024895079810231e-05,1.683239355678062e-13
	-3.504030098033795e-05,-9.700830387142470e-13
	-1.024895079810231e-05,1.683239355678062e-13
5		1.122018454301963e+00,0.000000000000000e+00
	-1.024895079810231e-01,1.722447036996532e-09
	1.000000000000000e+00,0.000000000000000e+00
	0.000000000000000e+00,0.000000000000000e+00
	5.456824942362878e-05,1.747487994133580e-13
	5.456825019229341e-05,1.838296410875655e-13
	1.024895079810230e-05,-1.722447036996533e-13
	3.504030098036046e-05,9.926791754467087e-13
	-2.910306673997252e-05,-9.744062480485161e-14
	-1.618618503849024e-05,-7.229938469422039e-13
	-1.024895079810231e-05,1.722447036996533e-13
	-3.504030098033795e-05,-9.926791754467087e-13
	-1.024895079810231e-05,1.722447036996533e-13
6		1.148153621496882e+00,0.000000000000000e+00
	-1.024895079810231e-01,1.762567982533301e-09
	1.000000000000000e+00,0.000000000000000e+00
	0.000000000000000e+00,0.000000000000000e+00
	5.456824942362878e-05,1.788192218491644e-13
	5.456825019229341e-05,1.881115834983919e-13
	1.024895079810230e-05,-1.762567982533301e-13
	3.504030098036046e-05,1.015801643817654e-12
	-2.910306673997252e-05,-9.971030852626287e-14
	-1.618618503849024e-05,-7.398345370380613e-13
	-1.024895079810231e-05,1.762567982533301e-13
	-3.504030098033795e-05,-1.015801643817654e-12
	-1.024895079810231e-05,1.762567982533301e-13
7		1.174897554939529e+00,0.000000000000000e+00
	-1.024895079810231e-01,1.803623464944753e-09
	1.000000000000000e+00,0.000000000000000e+00
	0.000000000000000e+00,0.000000000000000e+00
	5.456824942362878e-05,1.829844566033473e-13
	5.456825019229341e-05,1.924932651607404e-13
	1.024895079810230e-05,-1.803623464944754e-13
	3.504030098036046e-05,1.039462703665876e-12
	-2.910306673997252e-05,-1.020328599730767e-13
	-1.618618503849024e-05,-7.570674971983242e-13
	-1.024895079810231e-05,1.803623464944753e-13
	-3.504030098033795e-05,-1.039462703665876e-12
	-1.024895079810231e-05,1.803623464944753e-13
8		1.202264434617413e+00,0.000000000000000e+00
	-1.024895079810231e-01,1.845635252391098e-09
	1.000000000000000e+00,0.000000000000000e+00
	0.000000000000000e+00,0.000000000000000e+00
	5.456824942362878e-05,1.872467121385072e-13
	5.456825019229341e-05,1.969770093002267e-13
	1.024895079810230e-05,-1.845635252391098e-13
	3.504030098036046e-05,1.063674900398497e-12
	-2.910306673997252e-05,-1.044095105928129e-13
	-1.618618503849024e-05,-7.747018645665746e-13
	-1.024895079810231e-05,1.845635252391098e-13
	-3.504030098033795e-05,-1.063674900398498e-12
	-1.024895079810231e-05,1.845635252391098e-13
9		1.230268770812381e+00,0.000000000000000e+00
	-1.024895079810231e-01,1.888625620078132e-09
	1.000000000000000e+00,0.000000000000000e+00
	0.000000000000000e+00,0.000000000000000e+00
	5.456824942362878e-05,1.916082483589460e-13
	5.456825019229341e-05,2.015651932573429e-13
	1.024895079810230e-05,-1.888625620078132e-13
	3.504030098036046e-05,1.088451071642711e-12
	-2.910306673997252e-05,-1.068415205170885e-13
	-1.618618503849024e-05,-7.927469891178097e-13
	-1.024895079810231e-05,1.888625620078132e-13
	-3.504030098033795e-05,-1.088451071642711e-12
	-1.024895079810231e-05,1.888625620078132e-13
10		1.258925411794167e+00,0.000000000000000e+00
	-1.024895079810231e-01,1.932617362067847e-09
	1.000000000000000e+00,0.000000000000000e+00
	0.000000000000000e+00,0.000000000000000e+00
	5.456824942362878e-05,1.960713778088997e-13
	5.456825019229341e-05,2.062602497479549e-13
	1.024895079810230e-05,-1.932617362067846e-13
	3.504030098036046e-05,1.113804354052464e-12
	-2.910306673997252e-05,-1.093301792297571e-13
	-1.618618503849024e-05,-8.112124386159220e-13
	-1.024895079810231e-05,1.932617362067847e-13
	-3.504030098033795e-05,-1.113804354052464e-12
	-1.024895079810231e-05,1.932617362067847e-13
11		1.288249551693134e+00,0.000000000000000e+00
	-1.024895079810231e-01,1.977633803364144e-09
	1.000000000000000e+00,0.000000000000000e+00
	0.000000000000000e+00,0.000000000000000e+00
	5.456824942362878e-05,2.006384668986792e-13
	5.456825019229341e-05,2.110646681531604e-13
	1.024895079810230e-05,-1.977633803364144e-13
	3.504030098036046e-05,1.139748190273678e-12
	-2.910306673997252e-05,-1.118768062506093e-13
	-1.618618503849024e-05,-8.301080036866544e-13
	-1.024895079810231e-05,1.977633803364144e-13
	-3.504030098033795e-05,-1.139748190273678e-12
	-1.024895079810231e-05,1.977633803364144e-13
12		1.318256738556407e+00,0.000000000000000e+00
	-1.024895079810231e-01,2.023698812280063e-09
	1.000000000000000e+00,0.000000000000000e+00
	0.000000000000000e+00,0.000000000000000e+00
	5.456824942362878e-05,2.053119371593726e-13
	5.456825019229341e-05,2.159809958391920e-13
	1.024895079810230e-05,-2.023698812280064e-13
	3.504030098036046e-05,1.166296336071726e-12
	-2.910306673997252e-05,-1.144827518350002e-13
	-1.618618503849024e-05,-8.494437030087196e-13
	-1.024895079810231e-05,2.023698812280063e-13
	-3.504030098033795e-05,-1.166296336071726e-12
	-1.024895079810231e-05,2.023698812280063e-13
13		1.348962882591653e+00,0.000000000000000e+00
	-1.024895079810231e-01,2.070836813093074e-09
	1.000000000000000e+00,0.000000000000000e+00
	0.000000000000000e+00,0.000000000000000e+00
	5.456824942362878e-05,2.100942665267725e-13
	5.456825019229341e-05,2.210118395080638e-13
	1.024895079810230e-05,-2.070836813093076e-13
	3.504030098036046e-05,1.193462867624917e-12
	-2.910306673997252e-05,-1.171493976897724e-13
	-1.618618503849024e-05,-8.692297886258370e-13
	-1.024895079810231e-05,2.070836813093074e-13
	-3.504030098033795e-05,-1.193462867624917e-12
	-1.024895079810231e-05,2.070836813093074e-13
14		1.380384264602885e+00,0.000000000000000e+00
	-1.024895079810231e-01,2.119072798995153e-09
	1.000000000000000e+00,0.000000000000000e+00
	0.000000000000000e+00,0.000000000000000e+00
	5.456824942362878e-05,2.149879906552113e-13
	5.456825019229341e-05,2.261598665796805e-13
	1.024895079810230e-05,-2.119072798995153e-13
	3.504030098036046e-05,1.221262188987871e-12
	-2.910306673997252e-05,-1.198781577058553e-13
	-1.618618503849024e-05,-8.894767513825004e-13
	-1.024895079810231e-05,2.119072798995153e-13
	-3.504030098033795e-05,-1.221262188987871e-12
	-1.024895079810231e-05,2.119072798995153e-13
15		1.412537544622754e+00,0.000000000000000e+00
	-1.024895079810231e-01,2.168432345344503e-09
	1.000000000000000e+00,0.000000000000000e+00
	0.000000000000000e+00,0.000000000000000e+00
	5.456824942362878e-05,2.199957042619980e-13
	5.456825019229341e-05,2.314278066061374e-13
	1.024895079810230e-05,-2.168432345344504e-13
	3.504030098036046e-05,1.249709039728742e-12
	-2.910306673997252e-05,-1.226704787079288e-13
	-1.618618503849024e-05,-9.101953264863632e-13
	-1.024895079810231e-05,2.168432345344503e-13
	-3.504030098033795e-05,-1.249709039728742e-12
	-1.024895079810231e-05,2.168432345344503e-13
16		1.445439770745927e+00,0.000000000000000e+00
	-1.024895079810231e-01,2.218941623225950e-09
	1.000000000000000e+00,0.000000000000000e+00
	0.000000000000000e+00,0.000000000000000e+00
	5.456824942362878e-05,2.251200625031717e-13
	5.456825019229341e-05,2.368184527189659e-13
	1.024895079810230e-05,-2.218941623225951e-13
	3.504030098036046e-05,1.278818502744332e-12
	-2.910306673997252e-05,-1.255278412215489e-13
	-1.618618503849024e-05,-9.313964992001883e-13
	-1.024895079810231e-05,2.218941623225950e-13
	-3.504030098033795e-05,-1.278818502744332e-12
	-1.024895079810231e-05,2.218941623225950e-13
17		1.479108388168207e+00,0.000000000000000e+00
	-1.024895079810231e-01,2.270627413327196e-09
	1.000000000000000e+00,0.000000000000000e+00
	0.000000000000000e+00,0.000000000000000e+00
	5.456824942362878e-05,2.303637823813010e-13
	5.456825019229341e-05,2.423346631100889e-13
	1.024895079810230e-05,-2.270627413327195e-13
	3.504030098036046e-05,1.308606012257242e-12
	-2.910306673997252e-05,-1.284517602581422e-13
	-1.618618503849024e-05,-9.530915106663799e-13
	-1.024895079810231e-05,2.270627413327196e-13
	-3.504030098033795e-05,-1.308606012257241e-12
	-1.024895079810231e-05,2.270627413327196e-13
18		1.513561248436208e+00,0.000000000000000e+00
	-1.024895079810231e-01,2.323517120138295e-09
	1.000000000000000e+00,0.000000000000000e+00
	0.000000000000000e+00,0.000000000000000e+00
	5.456824942362878e-05,2.357296441860739e-13
	5.456825019229341e-05,2.479793625472713e-13
	1.024895079810230e-05,-2.323517120138295e-13
	3.504030098036046e-05,1.339087361999298e-12
	-2.910306673997252e-05,-1.314437861182844e-13
	-1.618618503849024e-05,-9.752918638671840e-13
	-1.024895079810231e-05,2.323517120138295e-13
	-3.504030098033795e-05,-1.339087361999298e-12
	-1.024895079810231e-05,2.323517120138295e-13
19		1.548816618912481e+00,0.000000000000000e+00
	-1.024895079810231e-01,2.377638786481876e-09
	1.000000000000000e+00,0.000000000000000e+00
	0.000000000000000e+00,0.000000000000000e+00
	5.456824942362878e-05,2.412204929684450e-13
	5.456825019229341e-05,2.537555439248712e-13
	1.024895079810230e-05,-2.377638786481877e-13
	3.504030098036046e-05,1.370278713585603e-12
	-2.910306673997252e-05,-1.345055052136907e-13
	-1.618618503849024e-05,-9.980093297237245e-13
	-1.024895079810231e-05,2.377638786481876e-13
	-3.504030098033795e-05,-1.370278713585603e-12
	-1.024895079810231e-05,2.377638786481876e-13
20		1.584893192461113e+00,0.000000000000000e+00
	-1.024895079810231e-01,2.433021108381820e-09
	1.000000000000000e+00,0.000000000000000e+00
	0.000000000000000e+00,0.000000000000000e+00
	5.456824942362878e-05,2.468392400491188e-13
	5.456825019229341e-05,2.596662698507118e-13
	1.024895079810230e-05,-2.433021108381822e-13
	3.504030098036046e-05,1.402196605083634e-12
	-2.910306673997252e-05,-1.376385409083521e-13
	-1.618618503849024e-05,-1.021255953337100e-12
	-1.024895079810231e-05,2.433021108381820e-13
	-3.504030098033795e-05,-1.402196605083634e-12
	-1.024895079810231e-05,2.433021108381820e-13
21		1.621810097358929e+00,0.000000000000000e+00
	-1.024895079810231e-01,2.489693450278270e-09
	1.000000000000000e+00,0.000000000000000e+00
	0.000000000000000e+00,0.000000000000000e+00
	5.456824942362878e-05,2.525888645621701e-13
	5.456825019229341e-05,2.657146742699167e-13
	1.024895079810230e-05,-2.489693450278270e-13
	3.504030098036046e-05,1.434857959781947e-12
	-2.910306673997252e-05,-1.408445543792646e-13
	-1.618618503849024e-05,-1.045044060374855e-12
	-1.024895079810231e-05,2.489693450278270e-13
	-3.504030098033795e-05,-1.434857959781947e-12
	-1.024895079810231e-05,2.489693450278270e-13
22		1.659586907437560e+00,0.000000000000000e+00
	-1.024895079810231e-01,2.547685860597045e-09
	1.000000000000000e+00,0.000000000000000e+00
	0.000000000000000e+00,0.000000000000000e+00
	5.456824942362878e-05,2.584724150346212e-13
	5.456825019229341e-05,2.719039641265690e-13
	1.024895079810230e-05,-2.547685860597046e-13
	3.504030098036046e-05,1.468280095163126e-12
	-2.910306673997252e-05,-1.441252454972070e-13
	-1.618618503849024e-05,-1.069386263606215e-12
	-1.024895079810231e-05,2.547685860597046e-13
	-3.504030098033795e-05,-1.468280095163126e-12
	-1.024895079810231e-05,2.547685860597046e-13
23		1.698243652461743e+00,0.000000000000000e+00
	-1.024895079810231e-01,2.607029087681719e-09
	1.000000000000000e+00,0.000000000000000e+00
	0.000000000000000e+00,0.000000000000000e+00
	5.456824942362878e-05,2.644930110028106e-13
	5.456825019229341e-05,2.782374210640756e-13
	1.024895079810230e-05,-2.607029087681720e-13
	3.504030098036046e-05,1.502480732085746e-12
	-2.910306673997252e-05,-1.474823537280353e-13
	-1.618618503849024e-05,-1.094295469589539e-12
	-1.024895079810231e-05,2.607029087681718e-13
	-3.504030098033795e-05,-1.502480732085746e-12
	-1.024895079810231e-05,2.607029087681718e-13
24		1.737800828749374e+00,0.000000000000000e+00
	-1.024895079810231e-01,2.667754596096790e-09
	1.000000000000000e+00,0.000000000000000e+00
	0.000000000000000e+00,0.000000000000000e+00
	5.456824942362878e-05,2.706538446664124e-13
	5.456825019229341e-05,2.847184031651380e-13
	1.024895079810230e-05,-2.667754596096790e-13
	3.504030098036046e-05,1.537478004180201e-12
	-2.910306673997252e-05,-1.509176590549699e-13
	-1.618618503849024e-05,-1.119784885515552e-12
	-1.024895079810231e-05,2.667754596096790e-13
	-3.504030098033795e-05,-1.537478004180201e-12
	-1.024895079810231e-05,2.667754596096790e-13
25		1.778279410038922e+00,0.000000000000000e+00
	-1.024895079810231e-01,2.729894583310620e-09
	1.000000000000000e+00,0.000000000000000e+00
	0.000000000000000e+00,0.000000000000000e+00
	5.456824942362878e-05,2.769581825809835e-13
	5.456825019229341e-05,2.913503467322522e-13
	1.024895079810230e-05,-2.729894583310619e-13
	3.504030098036046e-05,1.573290467463399e-12
	-2.910306673997252e-05,-1.544329829223667e-13
	-1.618618503849024e-05,-1.145868026209971e-12
	-1.024895079810231e-05,2.729894583310620e-13
	-3.504030098033795e-05,-1.573290467463399e-12
	-1.024895079810231e-05,2.729894583310620e-13
26		1.819700858609982e+00,0.000000000000000e+00
	-1.024895079810231e-01,2.793481996766946e-09
	1.000000000000000e+00,0.000000000000000e+00
	0.000000000000000e+00,0.000000000000000e+00
	5.456824942362878e-05,2.834093673899341e-13
	5.456825019229341e-05,2.981367681096816e-13
	1.024895079810230e-05,-2.793481996766947e-13
	3.504030098036046e-05,1.609937110177409e-12
	-2.910306673997252e-05,-1.580301892014713e-13
	-1.618618503849024e-05,-1.172558721299242e-12
	-1.024895079810231e-05,2.793481996766945e-13
	-3.504030098033795e-05,-1.609937110177408e-12
	-1.024895079810231e-05,2.793481996766945e-13
27		1.862087136662866e+00,0.000000000000000e+00
	-1.024895079810231e-01,2.858550551354064e-09
	1.000000000000000e+00,0.000000000000000e+00
	0.000000000000000e+00,0.000000000000000e+00
	5.456824942362878e-05,2.900108195968413e-13
	5.456825019229341e-05,3.050812655478694e-13
	1.024895079810230e-05,-2.858550551354065e-13
	3.504030098036046e-05,1.647437362857270e-12
	-2.910306673997252e-05,-1.617111851786673e-13
	-1.618618503849024e-05,-1.199871122543196e-12
	-1.024895079810231e-05,2.858550551354064e-13
	-3.504030098033795e-05,-1.647437362857270e-12
	-1.024895079810231e-05,2.858550551354064e-13
28		1.905460717963246e+00,0.000000000000000e+00
	-1.024895079810231e-01,2.925134747280899e-09
	1.000000000000000e+00,0.000000000000000e+00
	0.000000000000000e+00,0.000000000000000e+00
	5.456824942362878e-05,2.967660393790456e-13
	5.456825019229341e-05,3.121875211112786e-13
	1.024895079810230e-05,-2.925134747280900e-13
	3.504030098036046e-05,1.685811108633330e-12
	-2.910306673997252e-05,-1.654779225667455e-13
	-1.618618503849024e-05,-1.227819711338495e-12
	-1.024895079810231e-05,2.925134747280899e-13
	-3.504030098033795e-05,-1.685811108633330e-12
	-1.024895079810231e-05,2.925134747280899e-13
29		1.949844599758044e+00,0.000000000000000e+00
	-1.024895079810231e-01,2.993269888369479e-09
	1.000000000000000e+00,0.000000000000000e+00
	0.000000000000000e+00,0.000000000000000e+00
	5.456824942362878e-05,3.036786084434917e-13
	5.456825019229341e-05,3.194593026306714e-13
	1.024895079810230e-05,-2.993269888369480e-13
	3.504030098036046e-05,1.725078693773536e-12
	-2.910306673997252e-05,-1.693323985397280e-13
	-1.618618503849024e-05,-1.256419306396860e-12
	-1.024895079810231e-05,2.993269888369479e-13
	-3.504030098033795e-05,-1.725078693773536e-12
	-1.024895079810231e-05,2.993269888369479e-13
30		1.995262314968878e+00,0.000000000000000e+00
	-1.024895079810231e-01,3.062992100773483e-09
	1.000000000000000e+00,0.000000000000000e+00
	0.000000000000000e+00,0.000000000000000e+00
	5.456824942362878e-05,3.107521919257962e-13
	5.456825019229341e-05,3.269004657008627e-13
	1.024895079810230e-05,-3.062992100773484e-13
	3.504030098036046e-05,1.765260938471296e-12
	-2.910306673997252e-05,-1.732766567917954e-13
	-1.618618503849024e-05,-1.285685071602153e-12
	-1.024895079810231e-05,3.062992100773483e-13
	-3.504030098033795e-05,-1.765260938471296e-12
	-1.024895079810231e-05,3.062992100773483e-13
31		2.041737944669527e+00,0.000000000000000e+00
	-1.024895079810231e-01,3.134338352132810e-09
	1.000000000000000e+00,0.000000000000000e+00
	0.000000000000000e+00,0.000000000000000e+00
	5.456824942362878e-05,3.179905403335510e-13
	5.456825019229341e-05,3.345149557250077e-13
	1.024895079810230e-05,-3.134338352132810e-13
	3.504030098036046e-05,1.806379147884625e-12
	-2.910306673997252e-05,-1.773127886208816e-13
	-1.618618503849024e-05,-1.315632524050462e-12
	-1.024895079810231e-05,3.134338352132811e-13
	-3.504030098033795e-05,-1.806379147884625e-12
	-1.024895079810231e-05,3.134338352132811e-13
32		2.089296130854037e+00,0.000000000000000e+00
	-1.024895079810231e-01,3.207346471174311e-09
	1.000000000000000e+00,0.000000000000000e+00
	0.000000000000000e+00,0.000000000000000e+00
	5.456824942362878e-05,3.253974915348932e-13
