Title: * GA CMOS Amp | W=1e-06 L=8.554309860231902e-07 Vbias=1.3409696811122314
Date: Sat Sep  6 22:16:32 2025
Plotname: AC Analysis
Flags: complex forward log
No. Variables: 13
No. Points:          901
Offset:    0.0000000000000000e+00
Command: Linear Technology Corporation LTspice
Variables:
	0	frequency	frequency
	1	V(out)	voltage
	2	V(g)	voltage
	3	V(vdd)	voltage
	4	V(m1#dbody)	voltage
	5	V(m1#sbody)	voltage
	6	Id(M1)	device_current
	7	Ig(M1)	device_current
	8	Ib(M1)	device_current
	9	Is(M1)	device_current
	10	I(Rload)	device_current
	11	I(Vg)	device_current
	12	I(Vdd)	device_current
Values:
0		1.000000000000000e+00,0.000000000000000e+00
	-2.654187043619814e-01,6.193114302864528e-10
	1.000000000000000e+00,0.000000000000000e+00
	0.000000000000000e+00,0.000000000000000e+00
	9.642939556695341e-06,5.648668097985281e-14
	9.642941547335312e-06,6.121514095075218e-14
	2.654187043619814e-05,-6.193114302864528e-14
	6.123522103556552e-06,1.870491498735188e-13
	-5.142902029755730e-06,-3.233298994539034e-14
	-2.752249050999897e-05,-9.278501689948324e-14
	-2.654187043619814e-05,6.193114302864529e-14
	-6.123522103607115e-06,-1.870491498735188e-13
	-2.654187043619814e-05,6.193114302864529e-14
1		1.023292992280754e+00,0.000000000000000e+00
	-2.654187043619814e-01,6.337370466514980e-10
	1.000000000000000e+00,0.000000000000000e+00
	0.000000000000000e+00,0.000000000000000e+00
	9.642939556695341e-06,5.780242480388195e-14
	9.642941547335312e-06,6.264102475638334e-14
	2.654187043619814e-05,-6.337370466514980e-14
	6.123522103556552e-06,1.914060842776443e-13
	-5.142902029755730e-06,-3.308612203060202e-14
	-2.752249050999897e-05,-9.494625758189254e-14
	-2.654187043619814e-05,6.337370466514981e-14
	-6.123522103607115e-06,-1.914060842776443e-13
	-2.654187043619814e-05,6.337370466514981e-14
2		1.047128548050899e+00,0.000000000000000e+00
	-2.654187043619814e-01,6.484986787871792e-10
	1.000000000000000e+00,0.000000000000000e+00
	0.000000000000000e+00,0.000000000000000e+00
	9.642939556695341e-06,5.914881623864764e-14
	9.642941547335312e-06,6.410012166249230e-14
	2.654187043619814e-05,-6.484986787871793e-14
	6.123522103556552e-06,1.958645047212129e-13
	-5.142902029755730e-06,-3.385679681566092e-14
	-2.752249050999897e-05,-9.715784002683405e-14
	-2.654187043619814e-05,6.484986787871792e-14
	-6.123522103607115e-06,-1.958645047212129e-13
	-2.654187043619814e-05,6.484986787871792e-14
3		1.071519305237606e+00,0.000000000000000e+00
	-2.654187043619814e-01,6.636041535062483e-10
	1.000000000000000e+00,0.000000000000000e+00
	0.000000000000000e+00,0.000000000000000e+00
	9.642939556695341e-06,6.052656915871019e-14
	9.642941547335312e-06,6.559320530157211e-14
	2.654187043619814e-05,-6.636041535062482e-14
	6.123522103556552e-06,2.004267751177578e-13
	-5.142902029755730e-06,-3.464542292253917e-14
	-2.752249050999897e-05,-9.942093684459383e-14
	-2.654187043619814e-05,6.636041535062483e-14
	-6.123522103607115e-06,-2.004267751177578e-13
	-2.654187043619814e-05,6.636041535062483e-14
4		1.096478196143185e+00,0.000000000000000e+00
	-2.654187043619814e-01,6.790614799313455e-10
	1.000000000000000e+00,0.000000000000000e+00
	0.000000000000000e+00,0.000000000000000e+00
	9.642939556695341e-06,6.193641406690458e-14
	9.642941547335312e-06,6.712106732633156e-14
	2.654187043619814e-05,-6.790614799313455e-14
	6.123522103556552e-06,2.050953144434322e-13
	-5.142902029755730e-06,-3.545241849123734e-14
	-2.752249050999897e-05,-1.017367479590603e-13
	-2.654187043619814e-05,6.790614799313455e-14
	-6.123522103607115e-06,-2.050953144434321e-13
	-2.654187043619814e-05,6.790614799313455e-14
5		1.122018454301963e+00,0.000000000000000e+00
	-2.654187043619814e-01,6.948788537415439e-10
	1.000000000000000e+00,0.000000000000000e+00
	0.000000000000000e+00,0.000000000000000e+00
	9.642939556695341e-06,6.337909848166255e-14
	9.642941547335312e-06,6.868451782943976e-14
	2.654187043619814e-05,-6.948788537415440e-14
	6.123522103556552e-06,2.098725980195819e-13
	-5.142902029755730e-06,-3.627821140148778e-14
	-2.752249050999897e-05,-1.041065012439397e-13
	-2.654187043619814e-05,6.948788537415439e-14
	-6.123522103607115e-06,-2.098725980195818e-13
	-2.654187043619814e-05,6.948788537415439e-14
6		1.148153621496882e+00,0.000000000000000e+00
	-2.654187043619814e-01,7.110646615178049e-10
	1.000000000000000e+00,0.000000000000000e+00
	0.000000000000000e+00,0.000000000000000e+00
	9.642939556695341e-06,6.485538733335710e-14
	9.642941547335312e-06,7.028438577304825e-14
	2.654187043619814e-05,-7.110646615178048e-14
	6.123522103556552e-06,2.147611588251938e-13
	-5.142902029755730e-06,-3.712323949962222e-14
	-2.752249050999897e-05,-1.065314531737911e-13
	-2.654187043619814e-05,7.110646615178049e-14
	-6.123522103607115e-06,-2.147611588251938e-13
	-2.654187043619814e-05,7.110646615178049e-14
7		1.174897554939529e+00,0.000000000000000e+00
	-2.654187043619814e-01,7.276274851896560e-10
	1.000000000000000e+00,0.000000000000000e+00
	0.000000000000000e+00,0.000000000000000e+00
	9.642939556695341e-06,6.636606336987827e-14
	9.642941547335312e-06,7.192151942831738e-14
	2.654187043619814e-05,-7.276274851896561e-14
	6.123522103556552e-06,2.197635888399148e-13
	-5.142902029755730e-06,-3.798795083072348e-14
	-2.752249050999897e-05,-1.090128894902257e-13
	-2.654187043619814e-05,7.276274851896561e-14
	-6.123522103607115e-06,-2.197635888399148e-13
	-2.654187043619814e-05,7.276274851896561e-14
8		1.202264434617413e+00,0.000000000000000e+00
	-2.654187043619814e-01,7.445761065854435e-10
	1.000000000000000e+00,0.000000000000000e+00
	0.000000000000000e+00,0.000000000000000e+00
	9.642939556695341e-06,6.791192757165690e-14
	9.642941547335312e-06,7.359678682518129e-14
	2.654187043619814e-05,-7.445761065854435e-14
	6.123522103556552e-06,2.248825404183538e-13
	-5.142902029755730e-06,-3.887280387618520e-14
	-2.752249050999897e-05,-1.115521258836243e-13
	-2.654187043619814e-05,7.445761065854435e-14
	-6.123522103607115e-06,-2.248825404183538e-13
	-2.654187043619814e-05,7.445761065854435e-14
9		1.230268770812381e+00,0.000000000000000e+00
	-2.654187043619814e-01,7.619195120885721e-10
	1.000000000000000e+00,0.000000000000000e+00
	0.000000000000000e+00,0.000000000000000e+00
	9.642939556695341e-06,6.949379957635463e-14
	9.642941547335312e-06,7.531107621258855e-14
	2.654187043619814e-05,-7.619195120885721e-14
	6.123522103556552e-06,2.301207276963949e-13
	-5.142902029755730e-06,-3.977826779680446e-14
	-2.752249050999897e-05,-1.141505086907333e-13
	-2.654187043619814e-05,7.619195120885721e-14
	-6.123522103607115e-06,-2.301207276963949e-13
	-2.654187043619814e-05,7.619195120885721e-14
10		1.258925411794167e+00,0.000000000000000e+00
	-2.654187043619814e-01,7.796668974022072e-10
	1.000000000000000e+00,0.000000000000000e+00
	0.000000000000000e+00,0.000000000000000e+00
	9.642939556695341e-06,7.111251811344696e-14
	9.642941547335312e-06,7.706529652946368e-14
	2.654187043619814e-05,-7.796668974022073e-14
	6.123522103556552e-06,2.354809280302686e-13
	-5.142902029755730e-06,-4.070482268153720e-14
	-2.752249050999897e-05,-1.168094156085107e-13
	-2.654187043619814e-05,7.796668974022073e-14
	-6.123522103607115e-06,-2.354809280302685e-13
	-2.654187043619814e-05,7.796668974022073e-14
11		1.288249551693134e+00,0.000000000000000e+00
	-2.654187043619814e-01,7.978276724249564e-10
	1.000000000000000e+00,0.000000000000000e+00
	0.000000000000000e+00,0.000000000000000e+00
	9.642939556695341e-06,7.276894144892847e-14
	9.642941547335312e-06,7.886037788663850e-14
	2.654187043619814e-05,-7.978276724249564e-14
	6.123522103556552e-06,2.409659834691425e-13
	-5.142902029755730e-06,-4.165295980204771e-14
	-2.752249050999897e-05,-1.195302564245991e-13
	-2.654187043619814e-05,7.978276724249564e-14
	-6.123522103607115e-06,-2.409659834691425e-13
	-2.654187043619814e-05,7.978276724249564e-14
12		1.318256738556407e+00,0.000000000000000e+00
	-2.654187043619814e-01,8.164114662401227e-10
	1.000000000000000e+00,0.000000000000000e+00
	0.000000000000000e+00,0.000000000000000e+00
	9.642939556695341e-06,7.446394784037700e-14
	9.642941547335312e-06,8.069727206000933e-14
	2.654187043619814e-05,-8.164114662401229e-14
	6.123522103556552e-06,2.465788022620135e-13
	-5.142902029755730e-06,-4.262318187318737e-14
	-2.752249050999897e-05,-1.223144737648139e-13
	-2.654187043619814e-05,8.164114662401228e-14
	-6.123522103607115e-06,-2.465788022620135e-13
	-2.654187043619814e-05,8.164114662401228e-14
13		1.348962882591653e+00,0.000000000000000e+00
	-2.654187043619814e-01,8.354281322211731e-10
	1.000000000000000e+00,0.000000000000000e+00
	0.000000000000000e+00,0.000000000000000e+00
	9.642939556695341e-06,7.619843600261739e-14
	9.642941547335312e-06,8.257695299518103e-14
	2.654187043619814e-05,-8.354281322211734e-14
	6.123522103556552e-06,2.523223603997003e-13
	-5.142902029755730e-06,-4.361600331954071e-14
	-2.752249050999897e-05,-1.251635438580422e-13
	-2.654187043619814e-05,8.354281322211731e-14
	-6.123522103607115e-06,-2.523223603997002e-13
	-2.654187043619814e-05,8.354281322211731e-14
14		1.380384264602885e+00,0.000000000000000e+00
	-2.654187043619814e-01,8.548877532561260e-10
	1.000000000000000e+00,0.000000000000000e+00
	0.000000000000000e+00,0.000000000000000e+00
	9.642939556695341e-06,7.797332558423191e-14
	9.642941547335312e-06,8.450041732386600e-14
	2.654187043619814e-05,-8.548877532561260e-14
	6.123522103556552e-06,2.581997031927522e-13
	-5.142902029755730e-06,-4.463195054818012e-14
	-2.752249050999897e-05,-1.280789773189594e-13
	-2.654187043619814e-05,8.548877532561261e-14
	-6.123522103607115e-06,-2.581997031927520e-13
	-2.654187043619814e-05,8.548877532561261e-14
15		1.412537544622754e+00,0.000000000000000e+00
	-2.654187043619814e-01,8.748006470936320e-10
	1.000000000000000e+00,0.000000000000000e+00
	0.000000000000000e+00,0.000000000000000e+00
	9.642939556695341e-06,7.978955765517010e-14
	9.642941547335312e-06,8.646868489231128e-14
	2.654187043619814e-05,-8.748006470936321e-14
	6.123522103556552e-06,2.642139468861138e-13
	-5.142902029755730e-06,-4.567156222777386e-14
	-2.752249050999897e-05,-1.310623199489768e-13
	-2.654187043619814e-05,8.748006470936320e-14
	-6.123522103607115e-06,-2.642139468861139e-13
	-2.654187043619814e-05,8.748006470936320e-14
16		1.445439770745927e+00,0.000000000000000e+00
	-2.654187043619814e-01,8.951773718135826e-10
	1.000000000000000e+00,0.000000000000000e+00
	0.000000000000000e+00,0.000000000000000e+00
	9.642939556695341e-06,8.164809520571678e-14
	9.642941547335312e-06,8.848279930203487e-14
	2.654187043619814e-05,-8.951773718135827e-14
	6.123522103556552e-06,2.703682803113997e-13
	-5.142902029755730e-06,-4.673538957419539e-14
	-2.752249050999897e-05,-1.341151535558460e-13
	-2.654187043619814e-05,8.951773718135827e-14
	-6.123522103607115e-06,-2.703682803113996e-13
	-2.654187043619814e-05,8.951773718135827e-14
17		1.479108388168207e+00,0.000000000000000e+00
	-2.654187043619814e-01,9.160287314251422e-10
	1.000000000000000e+00,0.000000000000000e+00
	0.000000000000000e+00,0.000000000000000e+00
	9.642939556695341e-06,8.354992365708181e-14
	9.642941547335312e-06,9.054382846315666e-14
	2.654187043619814e-05,-9.160287314251421e-14
	6.123522103556552e-06,2.766659665776538e-13
	-5.142902029755730e-06,-4.782399664278514e-14
	-2.752249050999897e-05,-1.372390967923545e-13
	-2.654187043619814e-05,9.160287314251423e-14
	-6.123522103607115e-06,-2.766659665776538e-13
	-2.654187043619814e-05,9.160287314251423e-14
18		1.513561248436208e+00,0.000000000000000e+00
	-2.654187043619814e-01,9.373657815951769e-10
	1.000000000000000e+00,0.000000000000000e+00
	0.000000000000000e+00,0.000000000000000e+00
	9.642939556695341e-06,8.549605138388380e-14
	9.642941547335312e-06,9.265286516061887e-14
	2.654187043619814e-05,-9.373657815951771e-14
	6.123522103556552e-06,2.831103448014945e-13
	-5.142902029755730e-06,-4.893796062742034e-14
	-2.752249050999897e-05,-1.404358060145565e-13
	-2.654187043619814e-05,9.373657815951769e-14
	-6.123522103607115e-06,-2.831103448014944e-13
	-2.654187043619814e-05,9.373657815951769e-14
19		1.548816618912481e+00,0.000000000000000e+00
	-2.654187043619814e-01,9.591998355101164e-10
	1.000000000000000e+00,0.000000000000000e+00
	0.000000000000000e+00,0.000000000000000e+00
	9.642939556695341e-06,8.748751024880358e-14
	9.642941547335312e-06,9.481102763359494e-14
	2.654187043619814e-05,-9.591998355101165e-14
	6.123522103556552e-06,2.897048318775574e-13
	-5.142902029755730e-06,-5.007787216655071e-14
	-2.752249050999897e-05,-1.437069761599950e-13
	-2.654187043619814e-05,9.591998355101165e-14
	-6.123522103607115e-06,-2.897048318775573e-13
	-2.654187043619814e-05,9.591998355101165e-14
20		1.584893192461113e+00,0.000000000000000e+00
	-2.654187043619814e-01,9.815424698743541e-10
	1.000000000000000e+00,0.000000000000000e+00
	0.000000000000000e+00,0.000000000000000e+00
	9.642939556695341e-06,8.952535614969137e-14
	9.642941547335312e-06,9.701946016839465e-14
	2.654187043619814e-05,-9.815424698743542e-14
	6.123522103556552e-06,2.964529242901785e-13
	-5.142902029755730e-06,-5.124433565636277e-14
	-2.752249050999897e-05,-1.470543416463803e-13
	-2.654187043619814e-05,9.815424698743542e-14
	-6.123522103607115e-06,-2.964529242901785e-13
	-2.654187043619814e-05,9.815424698743542e-14
21		1.621810097358929e+00,0.000000000000000e+00
	-2.654187043619814e-01,1.004405531048370e-09
	1.000000000000000e+00,0.000000000000000e+00
	0.000000000000000e+00,0.000000000000000e+00
	9.642939556695341e-06,9.161066957941787e-14
	9.642941547335312e-06,9.927933370517997e-14
	2.654187043619814e-05,-1.004405531048370e-13
	6.123522103556552e-06,3.033581999672765e-13
	-5.142902029755730e-06,-5.243796957123879e-14
	-2.752249050999897e-05,-1.504796772912008e-13
	-2.654187043619814e-05,1.004405531048370e-13
	-6.123522103607115e-06,-3.033581999672765e-13
	-2.654187043619814e-05,1.004405531048370e-13
22		1.659586907437560e+00,0.000000000000000e+00
	-2.654187043619814e-01,1.027801141329826e-09
	1.000000000000000e+00,0.000000000000000e+00
	0.000000000000000e+00,0.000000000000000e+00
	9.642939556695341e-06,9.374455619876598e-14
	9.642941547335312e-06,1.015918464588131e-13
	2.654187043619814e-05,-1.027801141329826e-13
	6.123522103556552e-06,3.104243201774179e-13
	-5.142902029755730e-06,-5.365940679168007e-14
	-2.752249050999897e-05,-1.539847992527551e-13
	-2.654187043619814e-05,1.027801141329826e-13
	-6.123522103607115e-06,-3.104243201774178e-13
	-2.654187043619814e-05,1.027801141329826e-13
23		1.698243652461743e+00,0.000000000000000e+00
	-2.654187043619814e-01,1.051741705380972e-09
	1.000000000000000e+00,0.000000000000000e+00
	0.000000000000000e+00,0.000000000000000e+00
	9.642939556695341e-06,9.592814742266656e-14
	9.642941547335312e-06,1.039582245541658e-13
	2.654187043619814e-05,-1.051741705380972e-13
	6.123522103556552e-06,3.176550314710688e-13
	-5.142902029755730e-06,-5.490929493986853e-14
	-2.752249050999897e-05,-1.575715659931030e-13
	-2.654187043619814e-05,1.051741705380972e-13
	-6.123522103607115e-06,-3.176550314710688e-13
	-2.654187043619814e-05,1.051741705380972e-13
24		1.737800828749374e+00,0.000000000000000e+00
	-2.654187043619814e-01,1.076239916805758e-09
	1.000000000000000e+00,0.000000000000000e+00
	0.000000000000000e+00,0.000000000000000e+00
	9.642939556695341e-06,9.816260102008976e-14
	9.642941547335312e-06,1.063797226762269e-13
	2.654187043619814e-05,-1.076239916805758e-13
	6.123522103556552e-06,3.250541676670670e-13
	-5.142902029755730e-06,-5.618829672304453e-14
	-2.752249050999897e-05,-1.612418792634467e-13
	-2.654187043619814e-05,1.076239916805758e-13
	-6.123522103607115e-06,-3.250541676670669e-13
	-2.654187043619814e-05,1.076239916805758e-13
25		1.778279410038922e+00,0.000000000000000e+00
	-2.654187043619814e-01,1.101308764880154e-09
	1.000000000000000e+00,0.000000000000000e+00
	0.000000000000000e+00,0.000000000000000e+00
	9.642939556695341e-06,1.004491017279094e-13
	9.642941547335312e-06,1.088576247353530e-13
	2.654187043619814e-05,-1.101308764880154e-13
	6.123522103556552e-06,3.326256518853630e-13
	-5.142902029755730e-06,-5.749709028488312e-14
	-2.752249050999897e-05,-1.649976851124644e-13
	-2.654187043619814e-05,1.101308764880154e-13
	-6.123522103607115e-06,-3.326256518853629e-13
	-2.654187043619814e-05,1.101308764880154e-13
26		1.819700858609982e+00,0.000000000000000e+00
	-2.654187043619814e-01,1.126961541439234e-09
	1.000000000000000e+00,0.000000000000000e+00
	0.000000000000000e+00,0.000000000000000e+00
	9.642939556695341e-06,1.027888618790663e-13
	9.642941547335312e-06,1.113932445480148e-13
	2.654187043619814e-05,-1.126961541439235e-13
	6.123522103556552e-06,3.403734986271095e-13
	-5.142902029755730e-06,-5.883636956505473e-14
	-2.752249050999897e-05,-1.688409749181313e-13
	-2.654187043619814e-05,1.126961541439234e-13
	-6.123522103607115e-06,-3.403734986271094e-13
	-2.654187043619814e-05,1.126961541439234e-13
27		1.862087136662866e+00,0.000000000000000e+00
	-2.654187043619814e-01,1.153211847924685e-09
	1.000000000000000e+00,0.000000000000000e+00
	0.000000000000000e+00,0.000000000000000e+00
	9.642939556695341e-06,1.051831220453629e-13
	9.642941547335312e-06,1.139879265333999e-13
	2.654187043619814e-05,-1.153211847924685e-13
	6.123522103556552e-06,3.483018159032041e-13
	-5.142902029755730e-06,-6.020684466716114e-14
	-2.752249050999897e-05,-1.727737864435744e-13
	-2.654187043619814e-05,1.153211847924686e-13
	-6.123522103607115e-06,-3.483018159032039e-13
	-2.654187043619814e-05,1.153211847924686e-13
28		1.905460717963246e+00,0.000000000000000e+00
	-2.654187043619814e-01,1.180073602596469e-09
	1.000000000000000e+00,0.000000000000000e+00
	0.000000000000000e+00,0.000000000000000e+00
	9.642939556695341e-06,1.076331516952311e-13
	9.642941547335312e-06,1.166430464262415e-13
	2.654187043619814e-05,-1.180073602596469e-13
	6.123522103556552e-06,3.564148074124100e-13
	-5.142902029755730e-06,-6.160924223524188e-14
	-2.752249050999897e-05,-1.767982049175212e-13
	-2.654187043619814e-05,1.180073602596469e-13
	-6.123522103607115e-06,-3.564148074124099e-13
	-2.654187043619814e-05,1.180073602596469e-13
29		1.949844599758044e+00,0.000000000000000e+00
	-2.654187043619814e-01,1.207561047912470e-09
	1.000000000000000e+00,0.000000000000000e+00
	0.000000000000000e+00,0.000000000000000e+00
	9.642939556695341e-06,1.101402498668214e-13
	9.642941547335312e-06,1.193600120062517e-13
	2.654187043619814e-05,-1.207561047912471e-13
	6.123522103556552e-06,3.647167747702138e-13
	-5.142902029755730e-06,-6.304430583905050e-14
	-2.752249050999897e-05,-1.809163641399162e-13
	-2.654187043619814e-05,1.207561047912471e-13
	-6.123522103607115e-06,-3.647167747702137e-13
	-2.654187043619814e-05,1.207561047912471e-13
30		1.995262314968878e+00,0.000000000000000e+00
	-2.654187043619814e-01,1.235688758080035e-09
	1.000000000000000e+00,0.000000000000000e+00
	0.000000000000000e+00,0.000000000000000e+00
	9.642939556695341e-06,1.127057458567696e-13
	9.642941547335312e-06,1.221402638445439e-13
	2.654187043619814e-05,-1.235688758080035e-13
	6.123522103556552e-06,3.732121197895979e-13
	-5.142902029755730e-06,-6.451279636830498e-14
	-2.752249050999897e-05,-1.851304476132894e-13
	-2.654187043619814e-05,1.235688758080035e-13
	-6.123522103607115e-06,-3.732121197895977e-13
	-2.654187043619814e-05,1.235688758080035e-13
31		2.041737944669527e+00,0.000000000000000e+00
	-2.654187043619814e-01,1.264471646783408e-09
	1.000000000000000e+00,0.000000000000000e+00
	0.000000000000000e+00,0.000000000000000e+00
	9.642939556695341e-06,1.153309999250079e-13
	9.642941547335312e-06,1.249852760674441e-13
	2.654187043619814e-05,-1.264471646783407e-13
	6.123522103556552e-06,3.819053468149407e-13
	-5.142902029755730e-06,-6.601549243612175e-14
	-2.752249050999897e-05,-1.894426897004782e-13
	-2.654187043619814e-05,1.264471646783408e-13
	-6.123522103607115e-06,-3.819053468149407e-13
	-2.654187043619814e-05,1.264471646783408e-13
32		2.089296130854037e+00,0.000000000000000e+00
	-2.654187043619814e-01,1.293924975091166e-09
	1.000000000000000e+00,0.000000000000000e+00
	0.000000000000000e+00,0.000000000000000e+00
	9.642939556695341e-06,1.180174040159929e-13
