LTspice 24.0.9 for Windows
Circuit: * GA CMOS Amp | W=1e-06 L=9.8798865524993e-07 Vbias=1.2977725707939884
Start Time: Sat Sep  6 22:07:58 2025
solver = Normal
Maximum thread count: 2
tnom = 27
temp = 27
method = modified trap
AsciiRawFile = 1
Direct Newton iteration for .op point succeeded.
Semiconductor Device Operating Points:
                        --- BSIM4 MOSFETS ---
Name:      m1
Model:      n
Id:      3.96e-05
Vgs:     1.30e+00
Vds:     1.40e+00
Vbs:     0.00e+00
Vth:     2.36e-01
Vdsat:   7.41e-01
Gm:      2.51e-05
Gds:     2.90e-06
Gmb      2.51e-05
Cbd:     3.74e-16
Cbs:     8.00e-16


.measure op idd find i(vdd)
  Error: FIND can not be evaluated over an interval.

gain_db: MAX(db(v(out)/v(g)))=(29.5323dB,114.406°) FROM 1 TO 1e+09
gain_lin: MAX(mag(v(out)/v(g)))=(-2.79427dB,0°) FROM 1 TO 1e+09

Measurement "fc" FAIL'ed

Total elapsed time: 0.808 seconds.

