LTspice 24.0.9 for Windows
Circuit: * GA CMOS Amp | W=2.5320463845975896e-05 L=8.990275909540223e-07 Vbias=0.9663617105813225
Start Time: Sat Sep  6 22:33:31 2025
solver = Normal
Maximum thread count: 2
tnom = 27
temp = 27
method = modified trap
AsciiRawFile = 1
Direct Newton iteration for .op point succeeded.
Semiconductor Device Operating Points:
                        --- BSIM4 MOSFETS ---
Name:      m1
Model:      n
Id:      1.73e-04
Vgs:     9.66e-01
Vds:     6.53e-02
Vbs:     0.00e+00
Vth:     2.37e-01
Vdsat:   5.25e-01
Gm:      2.67e-05
Gds:     2.49e-03
Gmb      1.24e-04
Cbd:     1.24e-14
Cbs:     2.03e-14


.measure op idd find i(vdd)
  Error: FIND can not be evaluated over an interval.

gain_db: MAX(db(v(out)/v(g)))=(33.8703dB,146.451°) FROM 1 TO 1e+09
gain_lin: MAX(mag(v(out)/v(g)))=(-3.21317dB,0°) FROM 1 TO 1e+09

Measurement "fc" FAIL'ed

Total elapsed time: 0.722 seconds.

