Title: * GA CMOS Amp | W=6.204373472148512e-06 L=7.401102022409969e-07 Vbias=0.8144889115748344
Date: Mon Sep  8 18:44:11 2025
Plotname: AC Analysis
Flags: complex forward log
No. Variables: 11
No. Points:          901
Offset:    0.0000000000000000e+00
Command: Linear Technology Corporation LTspice
Variables:
	0	frequency	frequency
	1	V(out)	voltage
	2	V(g)	voltage
	3	V(vdd)	voltage
	4	Id(M1)	device_current
	5	Ig(M1)	device_current
	6	Ib(M1)	device_current
	7	Is(M1)	device_current
	8	I(Rload)	device_current
	9	I(Vg)	device_current
	10	I(Vdd)	device_current
Values:
0		1.000000000000000e+00,0.000000000000000e+00
	-7.571630847609598e-01,1.366220916908881e-10
	1.000000000000000e+00,0.000000000000000e+00
	0.000000000000000e+00,0.000000000000000e+00
	7.571630847609599e-05,-1.366220916908881e-14
	1.065194036614943e-24,4.702364823015519e-14
	7.571630768112708e-13,-1.291435133675234e-15
	-7.571630923325907e-05,-3.207000392739115e-14
	-7.571630847609599e-05,1.366220916908881e-14
	-1.065194036614943e-24,-4.702364823015519e-14
	-7.571630847609599e-05,1.366220916908881e-14
1		1.023292992280754e+00,0.000000000000000e+00
	-7.571630847609598e-01,1.398044290180244e-10
	1.000000000000000e+00,0.000000000000000e+00
	0.000000000000000e+00,0.000000000000000e+00
	7.571630847609599e-05,-1.398044290180244e-14
	1.115395084953082e-24,4.811896970539309e-14
	7.571630768112708e-13,-1.321516522275014e-15
	-7.571630923325907e-05,-3.281701028131563e-14
	-7.571630847609599e-05,1.398044290180244e-14
	-1.115395084953082e-24,-4.811896970539309e-14
	-7.571630847609599e-05,1.398044290180244e-14
2		1.047128548050899e+00,0.000000000000000e+00
	-7.571630847609598e-01,1.430608925039565e-10
	1.000000000000000e+00,0.000000000000000e+00
	0.000000000000000e+00,0.000000000000000e+00
	7.571630847609599e-05,-1.430608925039565e-14
	1.167962035810030e-24,4.923980449529865e-14
	7.571630768112708e-13,-1.352298596427266e-15
	-7.571630923325907e-05,-3.358141664847573e-14
	-7.571630847609599e-05,1.430608925039565e-14
	-1.167962035810030e-24,-4.923980449529865e-14
	-7.571630847609599e-05,1.430608925039565e-14
3		1.071519305237606e+00,0.000000000000000e+00
	-7.571630847609598e-01,1.463932087687289e-10
	1.000000000000000e+00,0.000000000000000e+00
	0.000000000000000e+00,0.000000000000000e+00
	7.571630847609599e-05,-1.463932087687290e-14
	1.223006390736329e-24,5.038674688131348e-14
	7.571630768112708e-13,-1.383797677195114e-15
	-7.571630923325907e-05,-3.436362832724547e-14
	-7.571630847609599e-05,1.463932087687289e-14
	-1.223006390736329e-24,-5.038674688131348e-14
	-7.571630847609599e-05,1.463932087687289e-14
4		1.096478196143185e+00,0.000000000000000e+00
	-7.571630847609598e-01,1.498031446505337e-10
	1.000000000000000e+00,0.000000000000000e+00
	0.000000000000000e+00,0.000000000000000e+00
	7.571630847609599e-05,-1.498031446505337e-14
	1.280644906188703e-24,5.156040498747221e-14
	7.571630768112708e-13,-1.416030465808143e-15
	-7.571630923325907e-05,-3.516406005661070e-14
	-7.571630847609599e-05,1.498031446505337e-14
	-1.280644906188703e-24,-5.156040498747221e-14
	-7.571630847609599e-05,1.498031446505337e-14
5		1.122018454301963e+00,0.000000000000000e+00
	-7.571630847609598e-01,1.532925081425113e-10
	1.000000000000000e+00,0.000000000000000e+00
	0.000000000000000e+00,0.000000000000000e+00
	7.571630847609599e-05,-1.532925081425113e-14
	1.340999841186157e-24,5.276140110283797e-14
	7.571630768112708e-13,-1.449014052517525e-15
	-7.571630923325907e-05,-3.598313623606931e-14
	-7.571630847609599e-05,1.532925081425113e-14
	-1.340999841186157e-24,-5.276140110283797e-14
	-7.571630847609599e-05,1.532925081425113e-14
6		1.148153621496882e+00,0.000000000000000e+00
	-7.571630847609598e-01,1.568631493513723e-10
	1.000000000000000e+00,0.000000000000000e+00
	0.000000000000000e+00,0.000000000000000e+00
	7.571630847609599e-05,-1.568631493513723e-14
	1.404199216637748e-24,5.399037201144815e-14
	7.571630768112708e-13,-1.482765925657522e-15
	-7.571630923325907e-05,-3.682129115065340e-14
	-7.571630847609599e-05,1.568631493513723e-14
	-1.404199216637748e-24,-5.399037201144815e-14
	-7.571630847609599e-05,1.568631493513723e-14
7		1.174897554939529e+00,0.000000000000000e+00
	-7.571630847609598e-01,1.605169614783485e-10
	1.000000000000000e+00,0.000000000000000e+00
	0.000000000000000e+00,0.000000000000000e+00
	7.571630847609599e-05,-1.605169614783486e-14
	1.470377086892095e-24,5.524796932994584e-14
	7.571630768112708e-13,-1.517303980918025e-15
	-7.571630923325907e-05,-3.767896920119296e-14
	-7.571630847609599e-05,1.605169614783486e-14
	-1.470377086892095e-24,-5.524796932994584e-14
	-7.571630847609599e-05,1.605169614783486e-14
8		1.202264434617413e+00,0.000000000000000e+00
	-7.571630847609598e-01,1.642558818229938e-10
	1.000000000000000e+00,0.000000000000000e+00
	0.000000000000000e+00,0.000000000000000e+00
	7.571630847609599e-05,-1.642558818229939e-14
	1.539673824084631e-24,5.653485985307562e-14
	7.571630768112708e-13,-1.552646530833105e-15
	-7.571630923325907e-05,-3.855662513994313e-14
	-7.571630847609599e-05,1.642558818229939e-14
	-1.539673824084631e-24,-5.653485985307562e-14
	-7.571630847609599e-05,1.642558818229939e-14
9		1.230268770812381e+00,0.000000000000000e+00
	-7.571630847609598e-01,1.680818928103653e-10
	1.000000000000000e+00,0.000000000000000e+00
	0.000000000000000e+00,0.000000000000000e+00
	7.571630847609599e-05,-1.680818928103653e-14
	1.612236415885716e-24,5.785172590722682e-14
	7.571630768112708e-13,-1.588812314490540e-15
	-7.571630923325907e-05,-3.945472431169975e-14
	-7.571630847609599e-05,1.680818928103653e-14
	-1.612236415885716e-24,-5.785172590722682e-14
	-7.571630847609599e-05,1.680818928103653e-14
10		1.258925411794167e+00,0.000000000000000e+00
	-7.571630847609598e-01,1.719970230421317e-10
	1.000000000000000e+00,0.000000000000000e+00
	0.000000000000000e+00,0.000000000000000e+00
	7.571630847609599e-05,-1.719970230421317e-14
	1.688218777281196e-24,5.919926571221217e-14
	7.571630768112708e-13,-1.625820507467540e-15
	-7.571630923325907e-05,-4.037374290053145e-14
	-7.571630847609599e-05,1.719970230421317e-14
	-1.688218777281196e-24,-5.919926571221217e-14
	-7.571630847609599e-05,1.719970230421317e-14
11		1.288249551693134e+00,0.000000000000000e+00
	-7.571630847609598e-01,1.760033483721648e-10
	1.000000000000000e+00,0.000000000000000e+00
	0.000000000000000e+00,0.000000000000000e+00
	7.571630847609599e-05,-1.760033483721648e-14
	1.767782077046724e-24,6.057819375147305e-14
	7.571630768112708e-13,-1.663690731997878e-15
	-7.571630923325907e-05,-4.131416818225869e-14
	-7.571630847609599e-05,1.760033483721648e-14
	-1.767782077046724e-24,-6.057819375147305e-14
	-7.571630847609599e-05,1.760033483721648e-14
12		1.318256738556407e+00,0.000000000000000e+00
	-7.571630847609598e-01,1.801029930071845e-10
	1.000000000000000e+00,0.000000000000000e+00
	0.000000000000000e+00,0.000000000000000e+00
	7.571630847609599e-05,-1.801029930071845e-14
	1.851095079608339e-24,6.198924115090813e-14
	7.571630768112708e-13,-1.702443067375866e-15
	-7.571630923325907e-05,-4.227649878281382e-14
	-7.571630847609599e-05,1.801029930071845e-14
	-1.851095079608339e-24,-6.198924115090813e-14
	-7.571630847609599e-05,1.801029930071845e-14
13		1.348962882591653e+00,0.000000000000000e+00
	-7.571630847609598e-01,1.842981306330415e-10
	1.000000000000000e+00,0.000000000000000e+00
	0.000000000000000e+00,0.000000000000000e+00
	7.571630847609599e-05,-1.842981306330416e-14
	1.938334503014445e-24,6.343315606652604e-14
	7.571630768112708e-13,-1.742098060602672e-15
	-7.571630923325907e-05,-4.326124494261921e-14
	-7.571630847609599e-05,1.842981306330416e-14
	-1.938334503014445e-24,-6.343315606652604e-14
	-7.571630847609599e-05,1.842981306330416e-14
14		1.380384264602885e+00,0.000000000000000e+00
	-7.571630847609598e-01,1.885909855672344e-10
	1.000000000000000e+00,0.000000000000000e+00
	0.000000000000000e+00,0.000000000000000e+00
	7.571630847609599e-05,-1.885909855672344e-14
	2.029685393778478e-24,6.491070408112750e-14
	7.571630768112708e-13,-1.782676737280601e-15
	-7.571630923325907e-05,-4.426892878712346e-14
	-7.571630847609599e-05,1.885909855672344e-14
	-2.029685393778478e-24,-6.491070408112750e-14
	-7.571630847609599e-05,1.885909855672344e-14
15		1.412537544622754e+00,0.000000000000000e+00
	-7.571630847609598e-01,1.929838339382718e-10
	1.000000000000000e+00,0.000000000000000e+00
	0.000000000000000e+00,0.000000000000000e+00
	7.571630847609599e-05,-1.929838339382718e-14
	2.125341519387375e-24,6.642266861022753e-14
	7.571630768112708e-13,-1.824200612761169e-15
	-7.571630923325907e-05,-4.530008460363918e-14
	-7.571630847609599e-05,1.929838339382718e-14
	-2.125341519387375e-24,-6.642266861022753e-14
	-7.571630847609599e-05,1.929838339382718e-14
16		1.445439770745927e+00,0.000000000000000e+00
	-7.571630847609598e-01,1.974790048925063e-10
	1.000000000000000e+00,0.000000000000000e+00
	0.000000000000000e+00,0.000000000000000e+00
	7.571630847609599e-05,-1.974790048925063e-14
	2.225505779308394e-24,6.796985131743262e-14
	7.571630768112708e-13,-1.866691703552753e-15
	-7.571630923325907e-05,-4.635525912462924e-14
	-7.571630847609599e-05,1.974790048925063e-14
	-2.225505779308394e-24,-6.796985131743262e-14
	-7.571630847609599e-05,1.974790048925063e-14
17		1.479108388168207e+00,0.000000000000000e+00
	-7.571630847609598e-01,2.020788818290784e-10
	1.000000000000000e+00,0.000000000000000e+00
	0.000000000000000e+00,0.000000000000000e+00
	7.571630847609599e-05,-2.020788818290784e-14
	2.330390635366084e-24,6.955307253949359e-14
	7.571630768112708e-13,-1.910172538994160e-15
	-7.571630923325907e-05,-4.743501181759159e-14
	-7.571630847609599e-05,2.020788818290784e-14
	-2.330390635366084e-24,-6.955307253949359e-14
	-7.571630847609599e-05,2.020788818290784e-14
18		1.513561248436208e+00,0.000000000000000e+00
	-7.571630847609598e-01,2.067859036636266e-10
	1.000000000000000e+00,0.000000000000000e+00
	0.000000000000000e+00,0.000000000000000e+00
	7.571630847609599e-05,-2.067859036636266e-14
	2.440218562402302e-24,7.117317172125875e-14
	7.571630768112708e-13,-1.954666173199858e-15
	-7.571630923325907e-05,-4.853991518169623e-14
	-7.571630847609599e-05,2.067859036636266e-14
	-2.440218562402302e-24,-7.117317172125875e-14
	-7.571630847609599e-05,2.067859036636266e-14
19		1.548816618912481e+00,0.000000000000000e+00
	-7.571630847609598e-01,2.116025661214322e-10
	1.000000000000000e+00,0.000000000000000e+00
	0.000000000000000e+00,0.000000000000000e+00
	7.571630847609599e-05,-2.116025661214322e-14
	2.555222520175175e-24,7.283100786075882e-14
	7.571630768112708e-13,-2.000196197283652e-15
	-7.571630923325907e-05,-4.967055505133194e-14
	-7.571630847609599e-05,2.116025661214322e-14
	-2.555222520175175e-24,-7.283100786075882e-14
	-7.571630847609599e-05,2.116025661214322e-14
20		1.584893192461113e+00,0.000000000000000e+00
	-7.571630847609598e-01,2.165314230606864e-10
	1.000000000000000e+00,0.000000000000000e+00
	0.000000000000000e+00,0.000000000000000e+00
	7.571630847609599e-05,-2.165314230606865e-14
	2.675646447497991e-24,7.452745996465901e-14
	7.571630768112708e-13,-2.046786751866970e-15
	-7.571630923325907e-05,-5.082753090672339e-14
	-7.571630847609599e-05,2.165314230606864e-14
	-2.675646447497991e-24,-7.452745996465901e-14
	-7.571630847609599e-05,2.165314230606864e-14
21		1.621810097358929e+00,0.000000000000000e+00
	-7.571630847609598e-01,2.215750878265797e-10
	1.000000000000000e+00,0.000000000000000e+00
	0.000000000000000e+00,0.000000000000000e+00
	7.571630847609599e-05,-2.215750878265798e-14
	2.801745779666118e-24,7.626342751432001e-14
	7.571630768112708e-13,-2.094462539878549e-15
	-7.571630923325907e-05,-5.201145619178348e-14
	-7.571630847609599e-05,2.215750878265797e-14
	-2.801745779666118e-24,-7.626342751432001e-14
	-7.571630847609599e-05,2.215750878265797e-14
22		1.659586907437560e+00,0.000000000000000e+00
	-7.571630847609598e-01,2.267362346369317e-10
	1.000000000000000e+00,0.000000000000000e+00
	0.000000000000000e+00,0.000000000000000e+00
	7.571630847609599e-05,-2.267362346369317e-14
	2.933787990269519e-24,7.803983094271493e-14
	7.571630768112708e-13,-2.143248839652276e-15
	-7.571630923325907e-05,-5.322295863936948e-14
	-7.571630847609599e-05,2.267362346369317e-14
	-2.933787990269519e-24,-7.803983094271493e-14
	-7.571630847609599e-05,2.267362346369317e-14
23		1.698243652461743e+00,0.000000000000000e+00
	-7.571630847609598e-01,2.320176000000970e-10
	1.000000000000000e+00,0.000000000000000e+00
	0.000000000000000e+00,0.000000000000000e+00
	7.571630847609599e-05,-2.320176000000970e-14
	3.072053158540088e-24,7.985761212245494e-14
	7.571630768112708e-13,-2.193171518330033e-15
	-7.571630923325907e-05,-5.446268060411521e-14
	-7.571630847609599e-05,2.320176000000970e-14
	-3.072053158540088e-24,-7.985761212245494e-14
	-7.571630847609599e-05,2.320176000000970e-14
24		1.737800828749374e+00,0.000000000000000e+00
	-7.571630847609598e-01,2.374219841658983e-10
	1.000000000000000e+00,0.000000000000000e+00
	0.000000000000000e+00,0.000000000000000e+00
	7.571630847609599e-05,-2.374219841658983e-14
	3.216834563437261e-24,8.171773486518274e-14
	7.571630768112708e-13,-2.244257045576876e-15
	-7.571630923325907e-05,-5.573127940301603e-14
	-7.571630847609599e-05,2.374219841658983e-14
	-3.216834563437261e-24,-8.171773486518274e-14
	-7.571630847609599e-05,2.374219841658983e-14
25		1.778279410038922e+00,0.000000000000000e+00
	-7.571630847609598e-01,2.429522526103559e-10
	1.000000000000000e+00,0.000000000000000e+00
	0.000000000000000e+00,0.000000000000000e+00
	7.571630847609599e-05,-2.429522526103559e-14
	3.368439305732008e-24,8.362118543259815e-14
	7.571630768112708e-13,-2.296532507615512e-15
	-7.571630923325907e-05,-5.702942766394705e-14
	-7.571630847609599e-05,2.429522526103559e-14
	-3.368439305732008e-24,-8.362118543259815e-14
	-7.571630847609599e-05,2.429522526103559e-14
26		1.819700858609982e+00,0.000000000000000e+00
	-7.571630847609598e-01,2.486113375550007e-10
	1.000000000000000e+00,0.000000000000000e+00
	0.000000000000000e+00,0.000000000000000e+00
	7.571630847609599e-05,-2.486113375550007e-14
	3.527188959408737e-24,8.556897305938716e-14
	7.571630768112708e-13,-2.350025621587913e-15
	-7.571630923325907e-05,-5.835781368229918e-14
	-7.571630847609599e-05,2.486113375550007e-14
	-3.527188959408737e-24,-8.556897305938716e-14
	-7.571630847609599e-05,2.486113375550007e-14
27		1.862087136662866e+00,0.000000000000000e+00
	-7.571630847609598e-01,2.544022395215773e-10
	1.000000000000000e+00,0.000000000000000e+00
	0.000000000000000e+00,0.000000000000000e+00
	7.571630847609599e-05,-2.544022395215774e-14
	3.693420253766834e-24,8.756213048833152e-14
	7.571630768112708e-13,-2.404764750251129e-15
	-7.571630923325907e-05,-5.971714178592266e-14
	-7.571630847609599e-05,2.544022395215773e-14
	-3.693420253766834e-24,-8.756213048833152e-14
	-7.571630847609599e-05,2.544022395215773e-14
28		1.905460717963246e+00,0.000000000000000e+00
	-7.571630847609598e-01,2.603280289229600e-10
	1.000000000000000e+00,0.000000000000000e+00
	0.000000000000000e+00,0.000000000000000e+00
	7.571630847609599e-05,-2.603280289229600e-14
	3.867485787668649e-24,8.960171451788261e-14
	7.571630768112708e-13,-2.460778917015772e-15
	-7.571630923325907e-05,-6.110813270857084e-14
	-7.571630847609599e-05,2.603280289229600e-14
	-3.867485787668649e-24,-8.960171451788261e-14
	-7.571630847609599e-05,2.603280289229600e-14
29		1.949844599758044e+00,0.000000000000000e+00
	-7.571630847609598e-01,2.663918476911264e-10
	1.000000000000000e+00,0.000000000000000e+00
	0.000000000000000e+00,0.000000000000000e+00
	7.571630847609599e-05,-2.663918476911265e-14
	4.049754777448964e-24,9.168880656249000e-14
	7.571630768112708e-13,-2.518097821334453e-15
	-7.571630923325907e-05,-6.253152397204290e-14
	-7.571630847609599e-05,2.663918476911265e-14
	-4.049754777448964e-24,-9.168880656249000e-14
	-7.571630847609599e-05,2.663918476911265e-14
30		1.995262314968878e+00,0.000000000000000e+00
	-7.571630847609598e-01,2.725969109430516e-10
	1.000000000000000e+00,0.000000000000000e+00
	0.000000000000000e+00,0.000000000000000e+00
	7.571630847609599e-05,-2.725969109430516e-14
	4.240613840072325e-24,9.382451322598163e-14
	7.571630768112708e-13,-2.576751854448986e-15
	-7.571630923325907e-05,-6.398807027722748e-14
	-7.571630847609599e-05,2.725969109430516e-14
	-4.240613840072325e-24,-9.382451322598163e-14
	-7.571630847609599e-05,2.725969109430516e-14
31		2.041737944669527e+00,0.000000000000000e+00
	-7.571630847609598e-01,2.789465086854055e-10
	1.000000000000000e+00,0.000000000000000e+00
	0.000000000000000e+00,0.000000000000000e+00
	7.571630847609599e-05,-2.789465086854056e-14
	4.440467813199482e-24,9.600996688829991e-14
	7.571630768112708e-13,-2.636772115504082e-15
	-7.571630923325907e-05,-6.547854390425527e-14
	-7.571630847609599e-05,2.789465086854055e-14
	-4.440467813199482e-24,-9.600996688829991e-14
	-7.571630847609599e-05,2.789465086854055e-14
32		2.089296130854037e+00,0.000000000000000e+00
	-7.571630847609598e-01,2.854440075589580e-10
	1.000000000000000e+00,0.000000000000000e+00
	0.000000000000000e+00,0.000000000000000e+00
	7.571630847609599e-05,-2.854440075589580e-14
	4.649740613902327e-24,9.824632630590455e-14
	7.571630768112708e-13,-2.698190428036629e-15
	-7.571630923325907e-05,-6.700373512197212e-14
	-7.571630847609599e-05,2.854440075589580e-14
	-4.649740613902327e-24,-9.824632630590455e-14
	-7.571630847609599e-05,2.854440075589580e-14
33		2.137962089502230e+00,0.000000000000000e+00
	-7.571630847609598e-01,2.920928526236163e-10
	1.000000000000000e+00,0.000000000000000e+00
	0.000000000000000e+00,0.000000000000000e+00
	7.571630847609599e-05,-2.920928526236163e-14
	4.868876137848841e-24,1.005347772261604e-13
	7.571630768112708e-13,-2.761039356848887e-15
	-7.571630923325907e-05,-6.856445260694992e-14
	-7.571630847609599e-05,2.920928526236163e-14
	-4.868876137848841e-24,-1.005347772261604e-13
	-7.571630847609599e-05,2.920928526236163e-14
34		2.187761623949550e+00,0.000000000000000e+00
	-7.571630847609598e-01,2.988965691850416e-10
	1.000000000000000e+00,0.000000000000000e+00
	0.000000000000000e+00,0.000000000000000e+00
	7.571630847609599e-05,-2.988965691850417e-14
	5.098339200865328e-24,1.028765330160367e-13
	7.571630768112708e-13,-2.825352225274829e-15
	-7.571630923325907e-05,-7.016152387225771e-14
	-7.571630847609599e-05,2.988965691850416e-14
	-5.098339200865328e-24,-1.028765330160367e-13
	-7.571630847609599e-05,2.988965691850416e-14
35		2.238721138568337e+00,0.000000000000000e+00
	-7.571630847609598e-01,3.058587646638127e-10
	1.000000000000000e+00,0.000000000000000e+00
	0.000000000000000e+00,0.000000000000000e+00
	7.571630847609599e-05,-3.058587646638128e-14
	5.338616524873095e-24,1.052728353054500e-13
	7.571630768112708e-13,-2.891163132848556e-15
	-7.571630923325907e-05,-7.179579570622017e-14
	-7.571630847609599e-05,3.058587646638127e-14
	-5.338616524873095e-24,-1.052728353054500e-13
	-7.571630847609599e-05,3.058587646638127e-14
36		2.290867652767770e+00,0.000000000000000e+00
	-7.571630847609598e-01,3.129831305081278e-10
	1.000000000000000e+00,0.000000000000000e+00
	0.000000000000000e+00,0.000000000000000e+00
	7.571630847609599e-05,-3.129831305081279e-14
	5.590217770290901e-24,1.077249546455929e-13
	7.571630768112708e-13,-2.958506973384387e-15
	-7.571630923325907e-05,-7.346813462139575e-14
	-7.571630847609599e-05,3.129831305081278e-14
	-5.590217770290901e-24,-1.077249546455929e-13
	-7.571630847609599e-05,3.129831305081278e-14
37		2.344228815319919e+00,0.000000000000000e+00
	-7.571630847609598e-01,3.202734441510600e-10
	1.000000000000000e+00,0.000000000000000e+00
	0.000000000000000e+00,0.000000000000000e+00
	7.571630847609599e-05,-3.202734441510599e-14
	5.853676617093050e-24,1.102341911825973e-13
	7.571630768112708e-13,-3.027419453477996e-15
	-7.571630923325907e-05,-7.517942731401333e-14
	-7.571630847609599e-05,3.202734441510600e-14
	-5.853676617093050e-24,-1.102341911825973e-13
	-7.571630847609599e-05,3.202734441510600e-14
38		2.398832919019488e+00,0.000000000000000e+00
	-7.571630847609598e-01,3.277335710134011e-10
	1.000000000000000e+00,0.000000000000000e+00
