LTspice 24.0.9 for Windows
Circuit: * GA CMOS Amp | W=4.2206753228899616e-06 L=6.485120389669682e-07 Vbias=1.256225709056904
Start Time: Sat Sep  6 22:06:35 2025
solver = Normal
Maximum thread count: 2
tnom = 27
temp = 27
method = modified trap
AsciiRawFile = 1
Direct Newton iteration for .op point succeeded.
Semiconductor Device Operating Points:
                        --- BSIM4 MOSFETS ---
Name:      m1
Model:      n
Id:      1.50e-04
Vgs:     1.26e+00
Vds:     2.98e-01
Vbs:     0.00e+00
Vth:     2.44e-01
Vdsat:   7.10e-01
Gm:      1.85e-05
Gds:     3.72e-04
Gmb      8.66e-05
Cbd:     1.94e-15
Cbs:     3.38e-15


.measure op idd find i(vdd)
  Error: FIND can not be evaluated over an interval.

gain_db: MAX(db(v(out)/v(g)))=(31.9713dB,136.552°) FROM 1 TO 1e+09
gain_lin: MAX(mag(v(out)/v(g)))=(-4.9051dB,0°) FROM 1 TO 1e+09

Measurement "fc" FAIL'ed

Total elapsed time: 0.565 seconds.

