Title: * GA CMOS Amp | W=2.8626610380004576e-05 L=4.1779907366781366e-07 Vbias=1.166123666675165
Date: Sat Sep  6 22:35:35 2025
Plotname: AC Analysis
Flags: complex forward log
No. Variables: 13
No. Points:          901
Offset:    0.0000000000000000e+00
Command: Linear Technology Corporation LTspice
Variables:
	0	frequency	frequency
	1	V(out)	voltage
	2	V(g)	voltage
	3	V(vdd)	voltage
	4	V(m1#dbody)	voltage
	5	V(m1#sbody)	voltage
	6	Id(M1)	device_current
	7	Ig(M1)	device_current
	8	Ib(M1)	device_current
	9	Is(M1)	device_current
	10	I(Rload)	device_current
	11	I(Vg)	device_current
	12	I(Vdd)	device_current
Values:
0		1.000000000000000e+00,0.000000000000000e+00
	1.555611879797996e-03,2.468840138767818e-10
	1.000000000000000e+00,0.000000000000000e+00
	0.000000000000000e+00,0.000000000000000e+00
	2.516594554075798e-05,3.369365464664611e-14
	2.516594552752895e-05,3.264337468797516e-14
	-1.555611879798017e-07,-2.468840138767853e-14
	2.318069270295773e-05,3.218209497210611e-12
	-1.342183762571511e-05,-1.749068213151440e-14
	-9.603293889262823e-06,-3.176030413691418e-12
	1.555611879797996e-07,2.468840138767818e-14
	-2.318069270293432e-05,-3.218209497210612e-12
	1.555611879797996e-07,2.468840138767818e-14
1		1.023292992280754e+00,0.000000000000000e+00
	1.555611879797996e-03,2.526346813062553e-10
	1.000000000000000e+00,0.000000000000000e+00
	0.000000000000000e+00,0.000000000000000e+00
	2.516594554075798e-05,3.447848068424083e-14
	2.516594552752895e-05,3.340373656259992e-14
	-1.555611879798017e-07,-2.526346813062571e-14
	2.318069270295773e-05,3.293171226186989e-12
	-1.342183762571511e-05,-1.789809245538888e-14
	-9.603293889262823e-06,-3.250009665600974e-12
	1.555611879797996e-07,2.526346813062553e-14
	-2.318069270293432e-05,-3.293171226186990e-12
	1.555611879797996e-07,2.526346813062553e-14
2		1.047128548050899e+00,0.000000000000000e+00
	1.555611879797996e-03,2.585192989877727e-10
	1.000000000000000e+00,0.000000000000000e+00
	0.000000000000000e+00,0.000000000000000e+00
	2.516594554075798e-05,3.528158766867097e-14
	2.516594552752895e-05,3.418180954050091e-14
	-1.555611879798017e-07,-2.585192989877729e-14
	2.318069270295773e-05,3.369879038137763e-12
	-1.342183762571511e-05,-1.831499258479248e-14
	-9.603293889262823e-06,-3.325712115654193e-12
	1.555611879797996e-07,2.585192989877727e-14
	-2.318069270293432e-05,-3.369879038137763e-12
	1.555611879797996e-07,2.585192989877727e-14
3		1.071519305237606e+00,0.000000000000000e+00
	1.555611879797996e-03,2.645409870235209e-10
	1.000000000000000e+00,0.000000000000000e+00
	0.000000000000000e+00,0.000000000000000e+00
	2.516594554075798e-05,3.610340141789006e-14
	2.516594552752895e-05,3.497800616626999e-14
	-1.555611879798017e-07,-2.645409870235203e-14
	2.318069270295773e-05,3.448373604560180e-12
	-1.342183762571511e-05,-1.874160356569212e-14
	-9.603293889262823e-06,-3.403177902292136e-12
	1.555611879797996e-07,2.645409870235209e-14
	-2.318069270293432e-05,-3.448373604560180e-12
	1.555611879797996e-07,2.645409870235209e-14
4		1.096478196143185e+00,0.000000000000000e+00
	1.555611879797996e-03,2.707029381922027e-10
	1.000000000000000e+00,0.000000000000000e+00
	0.000000000000000e+00,0.000000000000000e+00
	2.516594554075798e-05,3.694435766842595e-14
	2.516594552752895e-05,3.579274859389710e-14
	-1.555611879798017e-07,-2.707029381922061e-14
	2.318069270295773e-05,3.528696544312356e-12
	-1.342183762571511e-05,-1.917815159287674e-14
	-9.603293889262823e-06,-3.482448098900259e-12
	1.555611879797996e-07,2.707029381922027e-14
	-2.318069270293432e-05,-3.528696544312357e-12
	1.555611879797996e-07,2.707029381922027e-14
5		1.122018454301963e+00,0.000000000000000e+00
	1.555611879797996e-03,2.770084196418913e-10
	1.000000000000000e+00,0.000000000000000e+00
	0.000000000000000e+00,0.000000000000000e+00
	2.516594554075798e-05,3.780490230641402e-14
	2.516594552752895e-05,3.662646881060171e-14
	-1.555611879798017e-07,-2.770084196418901e-14
	2.318069270295773e-05,3.610890445680149e-12
	-1.342183762571511e-05,-1.962486812988875e-14
	-9.603293889262823e-06,-3.563564735586071e-12
	1.555611879797996e-07,2.770084196418913e-14
	-2.318069270293432e-05,-3.610890445680149e-12
	1.555611879797996e-07,2.770084196418913e-14
6		1.148153621496882e+00,0.000000000000000e+00
	1.555611879797996e-03,2.834607746223137e-10
	1.000000000000000e+00,0.000000000000000e+00
	0.000000000000000e+00,0.000000000000000e+00
	2.516594554075798e-05,3.868549160401198e-14
	2.516594552752895e-05,3.747960886587833e-14
	-1.555611879798017e-07,-2.834607746223126e-14
	2.318069270295773e-05,3.694998888958025e-12
	-1.342183762571511e-05,-2.008199003174907e-14
	-9.603293889262823e-06,-3.646570821464045e-12
	1.555611879797996e-07,2.834607746223137e-14
	-2.318069270293432e-05,-3.694998888958026e-12
	1.555611879797996e-07,2.834607746223137e-14
7		1.174897554939529e+00,0.000000000000000e+00
	1.555611879797997e-03,2.900634242574878e-10
	1.000000000000000e+00,0.000000000000000e+00
	0.000000000000000e+00,0.000000000000000e+00
	2.516594554075798e-05,3.958659246132141e-14
	2.516594552752895e-05,3.835262110587693e-14
	-1.555611879798000e-07,-2.900634242574867e-14
	2.318069270295773e-05,3.781066469555919e-12
	-1.342183762571511e-05,-2.054975967054078e-14
	-9.603293889262824e-06,-3.731510367459629e-12
	1.555611879797997e-07,2.900634242574878e-14
	-2.318069270293432e-05,-3.781066469555919e-12
	1.555611879797997e-07,2.900634242574878e-14
8		1.202264434617413e+00,0.000000000000000e+00
	1.555611879797997e-03,2.968198693596465e-10
	1.000000000000000e+00,0.000000000000000e+00
	0.000000000000000e+00,0.000000000000000e+00
	2.516594554075798e-05,4.050868265394434e-14
	2.516594552752895e-05,3.924596841324281e-14
	-1.555611879798000e-07,-2.968198693596487e-14
	2.318069270295773e-05,3.869138821644303e-12
	-1.342183762571511e-05,-2.102842506391804e-14
	-9.603293889262824e-06,-3.818428409644420e-12
	1.555611879797997e-07,2.968198693596465e-14
	-2.318069270293432e-05,-3.869138821644303e-12
	1.555611879797997e-07,2.968198693596465e-14
9		1.230268770812381e+00,0.000000000000000e+00
	1.555611879797997e-03,3.037336922854153e-10
	1.000000000000000e+00,0.000000000000000e+00
	0.000000000000000e+00,0.000000000000000e+00
	2.516594554075798e-05,4.145225108630617e-14
	2.516594552752895e-05,4.016012445254319e-14
	-1.555611879798000e-07,-3.037336922854229e-14
	2.318069270295773e-05,3.959262642350031e-12
	-1.342183762571511e-05,-2.151824000660830e-14
	-9.603293889262824e-06,-3.907371033114880e-12
	1.555611879797997e-07,3.037336922854153e-14
	-2.318069270293432e-05,-3.959262642350031e-12
	1.555611879797997e-07,3.037336922854153e-14
10		1.258925411794167e+00,0.000000000000000e+00
	1.555611879797997e-03,3.108085588352244e-10
	1.000000000000000e+00,0.000000000000000e+00
	0.000000000000000e+00,0.000000000000000e+00
	2.516594554075798e-05,4.241779805087940e-14
	2.516594552752895e-05,4.109557392141041e-14
	-1.555611879798000e-07,-3.108085588352324e-14
	2.318069270295773e-05,4.051485716515769e-12
	-1.342183762571511e-05,-2.201946420497765e-14
	-9.603293889262824e-06,-3.998385396427268e-12
	1.555611879797997e-07,3.108085588352244e-14
	-2.318069270293432e-05,-4.051485716515767e-12
	1.555611879797997e-07,3.108085588352244e-14
11		1.288249551693134e+00,0.000000000000000e+00
	1.555611879797997e-03,3.180482201969656e-10
	1.000000000000000e+00,0.000000000000000e+00
	0.000000000000000e+00,0.000000000000000e+00
	2.516594554075798e-05,4.340583549344512e-14
	2.516594552752895e-05,4.205281280753499e-14
	-1.555611879798017e-07,-3.180482201969681e-14
	2.318069270295774e-05,4.145856942036155e-12
	-1.342183762571511e-05,-2.253236341473054e-14
	-9.603293889262824e-06,-4.091519756601727e-12
	1.555611879797997e-07,3.180482201969656e-14
	-2.318069270293432e-05,-4.145856942036156e-12
	1.555611879797997e-07,3.180482201969656e-14
12		1.318256738556407e+00,0.000000000000000e+00
	1.555611879797997e-03,3.254565149349211e-10
	1.000000000000000e+00,0.000000000000000e+00
	0.000000000000000e+00,0.000000000000000e+00
	2.516594554075798e-05,4.441688728453362e-14
	2.516594552752895e-05,4.303234865164489e-14
	-1.555611879798017e-07,-3.254565149349258e-14
	2.318069270295774e-05,4.242426355784113e-12
	-1.342183762571511e-05,-2.305720958181700e-14
	-9.603293889262824e-06,-4.186823494708804e-12
	1.555611879797997e-07,3.254565149349211e-14
	-2.318069270293432e-05,-4.242426355784115e-12
	1.555611879797997e-07,3.254565149349211e-14
13		1.348962882591653e+00,0.000000000000000e+00
	1.555611879797997e-03,3.330373710250214e-10
	1.000000000000000e+00,0.000000000000000e+00
	0.000000000000000e+00,0.000000000000000e+00
	2.516594554075798e-05,4.545148949718739e-14
	2.516594552752895e-05,4.403470081661038e-14
	-1.555611879798017e-07,-3.330373710250176e-14
	2.318069270295774e-05,4.341245160141061e-12
	-1.342183762571511e-05,-2.359428098662199e-14
	-9.603293889262824e-06,-4.284347142051937e-12
	1.555611879797997e-07,3.330373710250214e-14
	-2.318069270293432e-05,-4.341245160141063e-12
	1.555611879797997e-07,3.330373710250214e-14
14		1.380384264602885e+00,0.000000000000000e+00
	1.555611879797997e-03,3.407948079375099e-10
	1.000000000000000e+00,0.000000000000000e+00
	0.000000000000000e+00,0.000000000000000e+00
	2.516594554075798e-05,4.651019069119415e-14
	2.516594552752895e-05,4.506040076281701e-14
	-1.555611879798017e-07,-3.407948079375183e-14
	2.318069270295774e-05,4.442365750145089e-12
	-1.342183762571511e-05,-2.414386239151332e-14
	-9.603293889262824e-06,-4.384142406959824e-12
	1.555611879797997e-07,3.407948079375099e-14
	-2.318069270293432e-05,-4.442365750145089e-12
	1.555611879797997e-07,3.407948079375099e-14
15		1.412537544622754e+00,0.000000000000000e+00
	1.555611879797997e-03,3.487329387681194e-10
	1.000000000000000e+00,0.000000000000000e+00
	0.000000000000000e+00,0.000000000000000e+00
	2.516594554075798e-05,4.759355220394054e-14
	2.516594552752895e-05,4.610999232995299e-14
	-1.555611879798017e-07,-3.487329387681179e-14
	2.318069270295774e-05,4.545841741271506e-12
	-1.342183762571511e-05,-2.470624519182643e-14
	-9.603293889262824e-06,-4.486262202202867e-12
	1.555611879797997e-07,3.487329387681194e-14
	-2.318069270293432e-05,-4.545841741271505e-12
	1.555611879797997e-07,3.487329387681194e-14
16		1.445439770745927e+00,0.000000000000000e+00
	1.555611879797997e-03,3.568559724188898e-10
	1.000000000000000e+00,0.000000000000000e+00
	0.000000000000000e+00,0.000000000000000e+00
	2.516594554075798e-05,4.870214844804059e-14
	2.516594552752895e-05,4.718403202536021e-14
	-1.555611879798017e-07,-3.568559724188954e-14
	2.318069270295774e-05,4.651727997860471e-12
	-1.342183762571511e-05,-2.528172757036606e-14
	-9.603293889262824e-06,-4.590760673048216e-12
	1.555611879797997e-07,3.568559724188898e-14
	-2.318069270293432e-05,-4.651727997860472e-12
	1.555611879797997e-07,3.568559724188898e-14
17		1.479108388168207e+00,0.000000000000000e+00
	1.555611879797997e-03,3.651682158297840e-10
	1.000000000000000e+00,0.000000000000000e+00
	0.000000000000000e+00,0.000000000000000e+00
	2.516594554075798e-05,4.983656721589693e-14
	2.516594552752895e-05,4.828308931910177e-14
	-1.555611879798017e-07,-3.651682158297840e-14
	2.318069270295774e-05,4.760080662206803e-12
	-1.342183762571511e-05,-2.587061465550672e-14
	-9.603293889262824e-06,-4.697693225968318e-12
	1.555611879797997e-07,3.651682158297840e-14
	-2.318069270293432e-05,-4.760080662206803e-12
	1.555611879797997e-07,3.651682158297840e-14
18		1.513561248436208e+00,0.000000000000000e+00
	1.555611879797997e-03,3.736740762622838e-10
	1.000000000000000e+00,0.000000000000000e+00
	0.000000000000000e+00,0.000000000000000e+00
	2.516594554075798e-05,5.099740999135611e-14
	2.516594552752895e-05,4.940774694590257e-14
	-1.555611879798017e-07,-3.736740762622961e-14
	2.318069270295774e-05,4.870957184327354e-12
	-1.342183762571511e-05,-2.647321868297581e-14
	-9.603293889262824e-06,-4.807116558018148e-12
	1.555611879797997e-07,3.736740762622838e-14
	-2.318069270293432e-05,-4.870957184327355e-12
	1.555611879797997e-07,3.736740762622838e-14
19		1.548816618912481e+00,0.000000000000000e+00
	1.555611879797997e-03,3.823780636361792e-10
	1.000000000000000e+00,0.000000000000000e+00
	0.000000000000000e+00,0.000000000000000e+00
	2.516594554075798e-05,5.218529226862320e-14
	2.516594552752895e-05,5.055860121412292e-14
	-1.555611879798017e-07,-3.823780636361838e-14
	2.318069270295774e-05,4.984416352421773e-12
	-1.342183762571511e-05,-2.708985916140507e-14
	-9.603293889262824e-06,-4.919088686896750e-12
	1.555611879797997e-07,3.823780636361792e-14
	-2.318069270293432e-05,-4.984416352421774e-12
	1.555611879797997e-07,3.823780636361792e-14
20		1.584893192461113e+00,0.000000000000000e+00
	1.555611879797997e-03,3.912847929207865e-10
	1.000000000000000e+00,0.000000000000000e+00
	0.000000000000000e+00,0.000000000000000e+00
	2.516594554075797e-05,5.340084387860515e-14
	2.516594552752894e-05,5.173626232192923e-14
	-1.555611879798017e-07,-3.912847929207862e-14
	2.318069270295774e-05,5.100518324042798e-12
	-1.342183762571511e-05,-2.772086304173840e-14
	-9.603293889262824e-06,-5.033668981708981e-12
	1.555611879797997e-07,3.912847929207865e-14
	-2.318069270293432e-05,-5.100518324042799e-12
	1.555611879797997e-07,3.912847929207865e-14
21		1.621810097358929e+00,0.000000000000000e+00
	1.555611879797997e-03,4.003989865818668e-10
	1.000000000000000e+00,0.000000000000000e+00
	0.000000000000000e+00,0.000000000000000e+00
	2.516594554075797e-05,5.464470932285526e-14
	2.516594552752894e-05,5.294135468082899e-14
	-1.555611879798017e-07,-4.003989865818727e-14
	2.318069270295774e-05,5.219324657992572e-12
	-1.342183762571511e-05,-2.836656489058545e-14
	-9.603293889262824e-06,-5.150918194443799e-12
	1.555611879797997e-07,4.003989865818668e-14
	-2.318069270293432e-05,-5.219324657992573e-12
	1.555611879797997e-07,4.003989865818668e-14
22		1.659586907437560e+00,0.000000000000000e+00
	1.555611879797997e-03,4.097254770855400e-10
	1.000000000000000e+00,0.000000000000000e+00
	0.000000000000000e+00,0.000000000000000e+00
	2.516594554075797e-05,5.591754811529658e-14
	2.516594552752894e-05,5.417451724674221e-14
	-1.555611879798017e-07,-4.097254770855444e-14
	2.318069270295774e-05,5.340898346961943e-12
	-1.342183762571511e-05,-2.902730706761337e-14
	-9.603293889262824e-06,-5.270898492185775e-12
	1.555611879797997e-07,4.097254770855400e-14
	-2.318069270293432e-05,-5.340898346961944e-12
	1.555611879797997e-07,4.097254770855400e-14
23		1.698243652461743e+00,0.000000000000000e+00
	1.555611879797997e-03,4.192692094605217e-10
	1.000000000000000e+00,0.000000000000000e+00
	0.000000000000000e+00,0.000000000000000e+00
	2.516594554075797e-05,5.722003513190488e-14
	2.516594552752894e-05,5.543640385878416e-14
	-1.555611879798017e-07,-4.192692094605269e-14
	2.318069270295774e-05,5.465303850930021e-12
	-1.342183762571511e-05,-2.970343990707037e-14
	-9.603293889262824e-06,-5.393673490076897e-12
	1.555611879797997e-07,4.192692094605218e-14
	-2.318069270293432e-05,-5.465303850930021e-12
	1.555611879797997e-07,4.192692094605218e-14
24		1.737800828749374e+00,0.000000000000000e+00
	1.555611879797997e-03,4.290352439200436e-10
	1.000000000000000e+00,0.000000000000000e+00
	0.000000000000000e+00,0.000000000000000e+00
	2.516594554075797e-05,5.855286096853682e-14
	2.516594552752894e-05,5.672768358593958e-14
	-1.555611879798017e-07,-4.290352439200464e-14
	2.318069270295774e-05,5.592607131341709e-12
	-1.342183762571511e-05,-3.039532190353759e-14
	-9.603293889262824e-06,-5.519308285046166e-12
	1.555611879797997e-07,4.290352439200436e-14
	-2.318069270293432e-05,-5.592607131341710e-12
	1.555611879797997e-07,4.290352439200436e-14
25		1.778279410038922e+00,0.000000000000000e+00
	1.555611879797997e-03,4.390287585448445e-10
	1.000000000000000e+00,0.000000000000000e+00
	0.000000000000000e+00,0.000000000000000e+00
	2.516594554075797e-05,5.991673230709301e-14
	2.516594552752894e-05,5.804904108181192e-14
	-1.555611879798017e-07,-4.390287585448554e-14
	2.318069270295774e-05,5.722875686081342e-12
	-1.342183762571511e-05,-3.110331990200773e-14
	-9.603293889262824e-06,-5.647869490324849e-12
	1.555611879797997e-07,4.390287585448446e-14
	-2.318069270293432e-05,-5.722875686081342e-12
	1.555611879797997e-07,4.390287585448446e-14
26		1.819700858609982e+00,0.000000000000000e+00
	1.555611879797997e-03,4.492550520286587e-10
	1.000000000000000e+00,0.000000000000000e+00
	0.000000000000000e+00,0.000000000000000e+00
	2.516594554075797e-05,6.131237229021012e-14
	2.516594552752894e-05,5.940117694763573e-14
	-1.555611879798017e-07,-4.492550520286601e-14
	2.318069270295774e-05,5.856178585260947e-12
	-1.342183762571511e-05,-3.182780929239102e-14
	-9.603293889262824e-06,-5.779425270765691e-12
	1.555611879797997e-07,4.492550520286587e-14
	-2.318069270293432e-05,-5.856178585260949e-12
	1.555611879797997e-07,4.492550520286587e-14
27		1.862087136662866e+00,0.000000000000000e+00
	1.555611879797997e-03,4.597195464876520e-10
	1.000000000000000e+00,0.000000000000000e+00
	0.000000000000000e+00,0.000000000000000e+00
	2.516594554075797e-05,6.274052090468072e-14
	2.516594552752894e-05,6.078480810374474e-14
	-1.555611879798017e-07,-4.597195464876511e-14
	2.318069270295774e-05,5.992586507842148e-12
	-1.342183762571511e-05,-3.256917420855201e-14
	-9.603293889262824e-06,-5.914045378984832e-12
	1.555611879797997e-07,4.597195464876520e-14
	-2.318069270293432e-05,-5.992586507842150e-12
	1.555611879797997e-07,4.597195464876520e-14
28		1.905460717963246e+00,0.000000000000000e+00
	1.555611879797997e-03,4.704277903353006e-10
	1.000000000000000e+00,0.000000000000000e+00
	0.000000000000000e+00,0.000000000000000e+00
	2.516594554075797e-05,6.420193537380395e-14
	2.516594552752894e-05,6.220066816969240e-14
	-1.555611879798017e-07,-4.704277903353073e-14
	2.318069270295774e-05,6.132171779111068e-12
	-1.342183762571511e-05,-3.332780773198235e-14
	-9.603293889262824e-06,-6.051801192345555e-12
	1.555611879797997e-07,4.704277903353006e-14
	-2.318069270293432e-05,-6.132171779111069e-12
	1.555611879797997e-07,4.704277903353006e-14
29		1.949844599758044e+00,0.000000000000000e+00
	1.555611879797997e-03,4.813854612242331e-10
	1.000000000000000e+00,0.000000000000000e+00
	0.000000000000000e+00,0.000000000000000e+00
	2.516594554075797e-05,6.569739055887543e-14
	2.516594552752894e-05,6.364950785322677e-14
	-1.555611879798017e-07,-4.813854612242347e-14
	2.318069270295774e-05,6.275008409026161e-12
	-1.342183762571511e-05,-3.410411210021786e-14
	-9.603293889262826e-06,-6.192765750803519e-12
	1.555611879797997e-07,4.813854612242331e-14
	-2.318069270293432e-05,-6.275008409026162e-12
	1.555611879797997e-07,4.813854612242331e-14
30		1.995262314968878e+00,0.000000000000000e+00
	1.555611879797997e-03,4.925983690565964e-10
	1.000000000000000e+00,0.000000000000000e+00
	0.000000000000000e+00,0.000000000000000e+00
	2.516594554075797e-05,6.722767937002901e-14
	2.516594552752894e-05,6.513209534832579e-14
	-1.555611879798017e-07,-4.925983690566027e-14
	2.318069270295774e-05,6.421172131459273e-12
	-1.342183762571511e-05,-3.489849892011021e-14
	-9.603293889262826e-06,-6.337013795633503e-12
	1.555611879797997e-07,4.925983690565964e-14
	-2.318069270293432e-05,-6.421172131459275e-12
	1.555611879797997e-07,4.925983690565964e-14
31		2.041737944669527e+00,0.000000000000000e+00
	1.555611879797997e-03,5.040724590645436e-10
	1.000000000000000e+00,0.000000000000000e+00
	0.000000000000000e+00,0.000000000000000e+00
	2.516594554075797e-05,6.879361318664810e-14
	2.516594552752894e-05,6.664921674250368e-14
	-1.555611879798000e-07,-5.040724590645482e-14
	2.318069270295774e-05,6.570740444350746e-12
	-1.342183762571511e-05,-3.571138938606624e-14
	-9.603293889262828e-06,-6.484621809058226e-12
	1.555611879797997e-07,5.040724590645436e-14
	-2.318069270293432e-05,-6.570740444350747e-12
	1.555611879797997e-07,5.040724590645436e-14
32		2.089296130854037e+00,0.000000000000000e+00
	1.555611879797997e-03,5.158138149624749e-10
	1.000000000000000e+00,0.000000000000000e+00
	0.000000000000000e+00,0.000000000000000e+00
	2.516594554075797e-05,7.039602228756988e-14
	2.516594552752894e-05,6.820167643360511e-14
