LTspice 24.0.9 for Windows
Circuit: * GA CMOS Amp | W=3.998536586291071e-06 L=7.13718950935459e-07 Vbias=0.866434106201622
Start Time: Mon Sep  8 18:42:53 2025
solver = Normal
Maximum thread count: 2
tnom = 27
temp = 27
method = modified trap
AsciiRawFile = 1
Instance "m1": Length shorter than recommended for a level 3 MOSFET.
Direct Newton iteration for .op point succeeded.
Semiconductor Device Operating Points:
                        --- MOSFET Transistors ---
Name:          m1
Model:        n_1u
Id:          4.12e-06
Vgs:         8.66e-01
Vds:         1.76e+00
Vbs:         0.00e+00
Vth:         8.21e-01
Vdsat:       8.15e-02
Gm:          7.74e-05
Gds:         6.79e-07
Gmb:         2.05e-05
Cbd:         0.00e+00
Cbs:         0.00e+00
Cgsov:       8.00e-16
Cgdov:       8.00e-16
Cgbov:       5.14e-17
Cgs:         2.36e-15
Cgd:         0.00e+00
Cgb:         0.00e+00



gain_db: MAX(db(v(out)/v(g)))=(28.7496dB,94.7814°) FROM 1 TO 1e+09
gain_lin: MAX(mag(v(out)/v(g)))=(-2.27503dB,0°) FROM 1 TO 1e+09

Measurement "fc" FAIL'ed

Total elapsed time: 0.505 seconds.

