Title: * GA CMOS Amp | W=1.1285930605391344e-05 L=1e-06 Vbias=1.4394478485333146
Date: Sat Sep  6 22:15:22 2025
Plotname: AC Analysis
Flags: complex forward log
No. Variables: 13
No. Points:          901
Offset:    0.0000000000000000e+00
Command: Linear Technology Corporation LTspice
Variables:
	0	frequency	frequency
	1	V(out)	voltage
	2	V(g)	voltage
	3	V(vdd)	voltage
	4	V(m1#dbody)	voltage
	5	V(m1#sbody)	voltage
	6	Id(M1)	device_current
	7	Ig(M1)	device_current
	8	Ib(M1)	device_current
	9	Is(M1)	device_current
	10	I(Rload)	device_current
	11	I(Vg)	device_current
	12	I(Vdd)	device_current
Values:
0		1.000000000000000e+00,0.000000000000000e+00
	2.994859014424186e-02,1.428923158290026e-09
	1.000000000000000e+00,0.000000000000000e+00
	0.000000000000000e+00,0.000000000000000e+00
	2.759563453080254e-04,1.350432529770228e-13
	2.759563450831879e-04,1.274322490943956e-13
	-2.994859014424194e-06,-1.428923158290026e-13
	1.741353682433159e-04,2.889041074703475e-12
	-1.471767175039396e-04,-6.851823143270923e-14
	-2.396379172495212e-05,-2.677630527441763e-12
	2.994859014424186e-06,1.428923158290026e-13
	-1.741353682433999e-04,-2.889041074703476e-12
	2.994859014424186e-06,1.428923158290026e-13
1		1.023292992280754e+00,0.000000000000000e+00
	2.994859014424186e-02,1.462207054385867e-09
	1.000000000000000e+00,0.000000000000000e+00
	0.000000000000000e+00,0.000000000000000e+00
	2.759563453080254e-04,1.381888144261845e-13
	2.759563450831879e-04,1.304005274888705e-13
	-2.994859014424194e-06,-1.462207054385869e-13
	1.741353682433159e-04,2.956335486155325e-12
	-1.471767175039396e-04,-7.011422606856224e-14
	-2.396379172495212e-05,-2.740000554648176e-12
	2.994859014424186e-06,1.462207054385867e-13
	-1.741353682433999e-04,-2.956335486155326e-12
	2.994859014424186e-06,1.462207054385867e-13
2		1.047128548050899e+00,0.000000000000000e+00
	2.994859014424186e-02,1.496266232016540e-09
	1.000000000000000e+00,0.000000000000000e+00
	0.000000000000000e+00,0.000000000000000e+00
	2.759563453080254e-04,1.414076454139002e-13
	2.759563450831879e-04,1.334379459690751e-13
	-2.994859014424194e-06,-1.496266232016541e-13
	1.741353682433159e-04,3.025197385813660e-12
	-1.471767175039396e-04,-7.174739619514832e-14
	-2.396379172495212e-05,-2.803823366416858e-12
	2.994859014424186e-06,1.496266232016540e-13
	-1.741353682433999e-04,-3.025197385813660e-12
	2.994859014424186e-06,1.496266232016540e-13
3		1.071519305237606e+00,0.000000000000000e+00
	2.994859014424186e-02,1.531118749808855e-09
	1.000000000000000e+00,0.000000000000000e+00
	0.000000000000000e+00,0.000000000000000e+00
	2.759563453080254e-04,1.447014526069657e-13
	2.759563450831879e-04,1.365461150144924e-13
	-2.994859014424194e-06,-1.531118749808856e-13
	1.741353682433159e-04,3.095663285169176e-12
	-1.471767175039396e-04,-7.341860774088610e-14
	-2.396379172495212e-05,-2.869132802447404e-12
	2.994859014424186e-06,1.531118749808855e-13
	-1.741353682433999e-04,-3.095663285169175e-12
	2.994859014424186e-06,1.531118749808855e-13
4		1.096478196143185e+00,0.000000000000000e+00
	2.994859014424186e-02,1.566783087029070e-09
	1.000000000000000e+00,0.000000000000000e+00
	0.000000000000000e+00,0.000000000000000e+00
	2.759563453080254e-04,1.480719824255537e-13
	2.759563450831879e-04,1.397266826174919e-13
	-2.994859014424194e-06,-1.566783087029073e-13
	1.741353682433159e-04,3.167770546174434e-12
	-1.471767175039396e-04,-7.512874680425826e-14
	-2.396379172495212e-05,-2.935963490667268e-12
	2.994859014424186e-06,1.566783087029070e-13
	-1.741353682433999e-04,-3.167770546174434e-12
	2.994859014424186e-06,1.566783087029070e-13
5		1.122018454301963e+00,0.000000000000000e+00
	2.994859014424186e-02,1.603278153380854e-09
	1.000000000000000e+00,0.000000000000000e+00
	0.000000000000000e+00,0.000000000000000e+00
	2.759563453080254e-04,1.515210219691881e-13
	2.759563450831879e-04,1.429813351571165e-13
	-2.994859014424194e-06,-1.603278153380859e-13
	1.741353682433159e-04,3.241557401053676e-12
	-1.471767175039396e-04,-7.687872012363259e-14
	-2.396379172495212e-05,-3.004350865591957e-12
	2.994859014424186e-06,1.603278153380854e-13
	-1.741353682433999e-04,-3.241557401053677e-12
	2.994859014424186e-06,1.603278153380854e-13
6		1.148153621496882e+00,0.000000000000000e+00
	2.994859014424186e-02,1.640623299031456e-09
	1.000000000000000e+00,0.000000000000000e+00
	0.000000000000000e+00,0.000000000000000e+00
	2.759563453080254e-04,1.550503999642883e-13
	2.759563450831879e-04,1.463117982932232e-13
	-2.994859014424194e-06,-1.640623299031463e-13
	1.741353682433159e-04,3.317062972574041e-12
	-1.471767175039396e-04,-7.866945555802661e-14
	-2.396379172495212e-05,-3.074331187112868e-12
	2.994859014424186e-06,1.640623299031456e-13
	-1.741353682433999e-04,-3.317062972574041e-12
	2.994859014424186e-06,1.640623299031456e-13
7		1.174897554939529e+00,0.000000000000000e+00
	2.994859014424186e-02,1.678838324871421e-09
	1.000000000000000e+00,0.000000000000000e+00
	0.000000000000000e+00,0.000000000000000e+00
	2.759563453080254e-04,1.586619877337844e-13
	2.759563450831879e-04,1.497198378814505e-13
	-2.994859014424194e-06,-1.678838324871426e-13
	1.741353682433159e-04,3.394327294788983e-12
	-1.471767175039396e-04,-8.050190257907087e-14
	-2.396379172495212e-05,-3.145941559722770e-12
	2.994859014424186e-06,1.678838324871422e-13
	-1.741353682433999e-04,-3.394327294788983e-12
	2.994859014424186e-06,1.678838324871422e-13
8		1.202264434617413e+00,0.000000000000000e+00
	2.994859014424186e-02,1.717943493013285e-09
	1.000000000000000e+00,0.000000000000000e+00
	0.000000000000000e+00,0.000000000000000e+00
	2.759563453080254e-04,1.623577001893165e-13
	2.759563450831879e-04,1.532072609094988e-13
	-2.994859014424194e-06,-1.717943493013292e-13
	1.741353682433159e-04,3.473391334264856e-12
	-1.471767175039396e-04,-8.237703277443119e-14
	-2.396379172495212e-05,-3.219219952189096e-12
	2.994859014424186e-06,1.717943493013285e-13
	-1.741353682433999e-04,-3.473391334264857e-12
	2.994859014424186e-06,1.717943493013285e-13
9		1.230268770812381e+00,0.000000000000000e+00
	2.994859014424186e-02,1.757959537534816e-09
	1.000000000000000e+00,0.000000000000000e+00
	0.000000000000000e+00,0.000000000000000e+00
	2.759563453080254e-04,1.661394968465472e-13
	2.759563450831879e-04,1.567759164552193e-13
	-2.994859014424194e-06,-1.757959537534819e-13
	1.741353682433159e-04,3.554297011801925e-12
	-1.471767175039396e-04,-8.429584036295744e-14
	-2.396379172495212e-05,-3.294205217685486e-12
	2.994859014424186e-06,1.757959537534816e-13
	-1.741353682433999e-04,-3.554297011801925e-12
	2.994859014424186e-06,1.757959537534816e-13
10		1.258925411794167e+00,0.000000000000000e+00
	2.994859014424186e-02,1.798907675472492e-09
	1.000000000000000e+00,0.000000000000000e+00
	0.000000000000000e+00,0.000000000000000e+00
	2.759563453080254e-04,1.700093828641222e-13
	2.759563450831879e-04,1.604276966670189e-13
	-2.994859014424194e-06,-1.798907675472499e-13
	1.741353682433159e-04,3.637087224661335e-12
	-1.471767175039396e-04,-8.625934272183150e-14
	-2.396379172495212e-05,-3.370937114392254e-12
	2.994859014424186e-06,1.798907675472492e-13
	-1.741353682433999e-04,-3.637087224661336e-12
	2.994859014424186e-06,1.798907675472492e-13
11		1.288249551693134e+00,0.000000000000000e+00
	2.994859014424186e-02,1.840809618071063e-09
	1.000000000000000e+00,0.000000000000000e+00
	0.000000000000000e+00,0.000000000000000e+00
	2.759563453080254e-04,1.739694101068320e-13
	2.759563450831879e-04,1.641645377671029e-13
	-2.994859014424194e-06,-1.840809618071069e-13
	1.741353682433159e-04,3.721805869309801e-12
	-1.471767175039396e-04,-8.826858092599405e-14
	-2.396379172495212e-05,-3.449456326576700e-12
	2.994859014424186e-06,1.840809618071063e-13
	-1.741353682433999e-04,-3.721805869309802e-12
	2.994859014424186e-06,1.840809618071063e-13
12		1.318256738556407e+00,0.000000000000000e+00
	2.994859014424186e-02,1.883687582295130e-09
	1.000000000000000e+00,0.000000000000000e+00
	0.000000000000000e+00,0.000000000000000e+00
	2.759563453080254e-04,1.780216782335378e-13
	2.759563450831879e-04,1.679884210780856e-13
	-2.994859014424194e-06,-1.883687582295129e-13
	1.741353682433159e-04,3.808497864694099e-12
	-1.471767175039396e-04,-9.032462030013633e-14
	-2.396379172495212e-05,-3.529804486164450e-12
	2.994859014424186e-06,1.883687582295130e-13
	-1.741353682433999e-04,-3.808497864694099e-12
	2.994859014424186e-06,1.883687582295130e-13
13		1.348962882591653e+00,0.000000000000000e+00
	2.994859014424186e-02,1.927564302608883e-09
	1.000000000000000e+00,0.000000000000000e+00
	0.000000000000000e+00,0.000000000000000e+00
	2.759563453080254e-04,1.821683358104385e-13
	2.759563450831879e-04,1.719013740735135e-13
	-2.994859014424194e-06,-1.927564302608885e-13
	1.741353682433159e-04,3.897209176057688e-12
	-1.471767175039396e-04,-9.242855098354947e-14
	-2.396379172495212e-05,-3.612024194813250e-12
	2.994859014424186e-06,1.927564302608883e-13
	-1.741353682433999e-04,-3.897209176057687e-12
	2.994859014424186e-06,1.927564302608883e-13
14		1.380384264602885e+00,0.000000000000000e+00
	2.994859014424186e-02,1.972463043030209e-09
	1.000000000000000e+00,0.000000000000000e+00
	0.000000000000000e+00,0.000000000000000e+00
	2.759563453080254e-04,1.864115814502689e-13
	2.759563450831879e-04,1.759054714528590e-13
	-2.994859014424194e-06,-1.972463043030211e-13
	1.741353682433159e-04,3.987986839312085e-12
	-1.471767175039396e-04,-9.458148850813060e-14
	-2.396379172495212e-05,-3.696159046500933e-12
	2.994859014424186e-06,1.972463043030210e-13
	-1.741353682433999e-04,-3.987986839312084e-12
	2.994859014424186e-06,1.972463043030210e-13
15		1.412537544622754e+00,0.000000000000000e+00
	2.994859014424186e-02,2.018407609465584e-09
	1.000000000000000e+00,0.000000000000000e+00
	0.000000000000000e+00,0.000000000000000e+00
	2.759563453080254e-04,1.907536649780332e-13
	2.759563450831879e-04,1.800028362415528e-13
	-2.994859014424194e-06,-2.018407609465588e-13
	1.741353682433159e-04,4.080878985975930e-12
	-1.471767175039396e-04,-9.678457438985270e-14
	-2.396379172495212e-05,-3.782253650639518e-12
	2.994859014424186e-06,2.018407609465585e-13
	-1.741353682433999e-04,-4.080878985975930e-12
	2.994859014424186e-06,2.018407609465585e-13
16		1.445439770745927e+00,0.000000000000000e+00
	2.994859014424186e-02,2.065422362332281e-09
	1.000000000000000e+00,0.000000000000000e+00
	0.000000000000000e+00,0.000000000000000e+00
	2.759563453080254e-04,1.951968886238920e-13
	2.759563450831879e-04,1.841956409166411e-13
	-2.994859014424194e-06,-2.065422362332279e-13
	1.741353682433159e-04,4.175934868694958e-12
	-1.471767175039396e-04,-9.903897673401159e-14
	-2.396379172495212e-05,-3.870353655727718e-12
	2.994859014424186e-06,2.065422362332282e-13
	-1.741353682433999e-04,-4.175934868694958e-12
	2.994859014424186e-06,2.065422362332282e-13
17		1.479108388168207e+00,0.000000000000000e+00
	2.994859014424186e-02,2.113532229474584e-09
	1.000000000000000e+00,0.000000000000000e+00
	0.000000000000000e+00,0.000000000000000e+00
	2.759563453080254e-04,1.997436082438355e-13
	2.759563450831879e-04,1.884861085586609e-13
	-2.994859014424190e-06,-2.113532229474581e-13
	1.741353682433159e-04,4.273204887356400e-12
	-1.471767175039396e-04,-1.013458908545707e-13
	-2.396379172495212e-05,-3.960505773554371e-12
	2.994859014424186e-06,2.113532229474584e-13
	-1.741353682433999e-04,-4.273204887356401e-12
	2.994859014424186e-06,2.113532229474584e-13
18		1.513561248436208e+00,0.000000000000000e+00
	2.994859014424186e-02,2.162762719380860e-09
	1.000000000000000e+00,0.000000000000000e+00
	0.000000000000000e+00,0.000000000000000e+00
	2.759563453080254e-04,2.043962345687892e-13
	2.759563450831879e-04,1.928765140303473e-13
	-2.994859014424194e-06,-2.162762719380866e-13
	1.741353682433159e-04,4.372740615811675e-12
	-1.471767175039396e-04,-1.037065399079324e-13
	-2.396379172495212e-05,-4.052757803965656e-12
	2.994859014424186e-06,2.162762719380861e-13
	-1.741353682433999e-04,-4.372740615811676e-12
	2.994859014424186e-06,2.162762719380861e-13
19		1.548816618912481e+00,0.000000000000000e+00
	2.994859014424186e-02,2.213139934708501e-09
	1.000000000000000e+00,0.000000000000000e+00
	0.000000000000000e+00,0.000000000000000e+00
	2.759563453080254e-04,2.091572344828152e-13
	2.759563450831879e-04,1.973691851827949e-13
	-2.994859014424194e-06,-2.213139934708509e-13
	1.741353682433159e-04,4.474594829221516e-12
	-1.471767175039396e-04,-1.061221755414716e-13
	-2.396379172495212e-05,-4.147158660209193e-12
	2.994859014424186e-06,2.213139934708501e-13
	-1.741353682433999e-04,-4.474594829221517e-12
	2.994859014424186e-06,2.213139934708501e-13
20		1.584893192461113e+00,0.000000000000000e+00
	2.994859014424186e-02,2.264690586123895e-09
	1.000000000000000e+00,0.000000000000000e+00
	0.000000000000000e+00,0.000000000000000e+00
	2.759563453080254e-04,2.140291323310873e-13
	2.759563450831879e-04,2.019665040897165e-13
	-2.994859014424194e-06,-2.264690586123899e-13
	1.741353682433159e-04,4.578821532038075e-12
	-1.471767175039396e-04,-1.085940785571759e-13
	-2.396379172495212e-05,-4.243758394868510e-12
	2.994859014424186e-06,2.264690586123895e-13
	-1.741353682433999e-04,-4.578821532038075e-12
	2.994859014424186e-06,2.264690586123895e-13
21		1.621810097358929e+00,0.000000000000000e+00
	2.994859014424186e-02,2.317442006464776e-09
	1.000000000000000e+00,0.000000000000000e+00
	0.000000000000000e+00,0.000000000000000e+00
	2.759563453080254e-04,2.190145112583318e-13
	2.759563450831879e-04,2.066709083104491e-13
	-2.994859014424194e-06,-2.317442006464784e-13
	1.741353682433159e-04,4.685475986638790e-12
	-1.471767175039396e-04,-1.111235595907438e-13
	-2.396379172495212e-05,-4.342608226401567e-12
	2.994859014424186e-06,2.317442006464776e-13
	-1.741353682433999e-04,-4.685475986638789e-12
	2.994859014424186e-06,2.317442006464776e-13
22		1.659586907437560e+00,0.000000000000000e+00
	2.994859014424186e-02,2.371422165232455e-09
	1.000000000000000e+00,0.000000000000000e+00
	0.000000000000000e+00,0.000000000000000e+00
	2.759563453080254e-04,2.241160145784453e-13
	2.759563450831879e-04,2.114848921823809e-13
	-2.994859014424194e-06,-2.371422165232458e-13
	1.741353682433159e-04,4.794614742627225e-12
	-1.471767175039396e-04,-1.137119598065009e-13
	-2.396379172495212e-05,-4.443760566297478e-12
	2.994859014424186e-06,2.371422165232455e-13
	-1.741353682433999e-04,-4.794614742627226e-12
	2.994859014424186e-06,2.371422165232455e-13
23		1.698243652461743e+00,0.000000000000000e+00
	2.994859014424186e-02,2.426659683421624e-09
	1.000000000000000e+00,0.000000000000000e+00
	0.000000000000000e+00,0.000000000000000e+00
	2.759563453080254e-04,2.293363471760144e-13
	2.759563450831879e-04,2.164110081434811e-13
	-2.994859014424194e-06,-2.426659683421625e-13
	1.741353682433159e-04,4.906295666816431e-12
	-1.471767175039396e-04,-1.163606516085032e-13
	-2.396379172495212e-05,-4.547269046865765e-12
	2.994859014424186e-06,2.426659683421624e-13
	-1.741353682433999e-04,-4.906295666816431e-12
	2.994859014424186e-06,2.426659683421624e-13
24		1.737800828749374e+00,0.000000000000000e+00
	2.994859014424186e-02,2.483183848695581e-09
	1.000000000000000e+00,0.000000000000000e+00
	0.000000000000000e+00,0.000000000000000e+00
	2.759563453080254e-04,2.346782769404816e-13
	2.759563450831879e-04,2.214518680856374e-13
	-2.994859014424194e-06,-2.483183848695582e-13
	1.741353682433159e-04,5.020577973910683e-12
	-1.471767175039396e-04,-1.190710393682035e-13
	-2.396379172495212e-05,-4.653188549672921e-12
	2.994859014424186e-06,2.483183848695582e-13
	-1.741353682433999e-04,-5.020577973910685e-12
	2.994859014424186e-06,2.483183848695582e-13
25		1.778279410038922e+00,0.000000000000000e+00
	2.994859014424186e-02,2.541024630914940e-09
	1.000000000000000e+00,0.000000000000000e+00
	0.000000000000000e+00,0.000000000000000e+00
	2.759563453080254e-04,2.401446362337169e-13
	2.759563450831879e-04,2.266101447395148e-13
	-2.994859014424194e-06,-2.541024630914944e-13
	1.741353682433159e-04,5.137522257901908e-12
	-1.471767175039396e-04,-1.218445601690685e-13
	-2.396379172495212e-05,-4.761575234641346e-12
	2.994859014424186e-06,2.541024630914940e-13
	-1.741353682433999e-04,-5.137522257901908e-12
	2.994859014424186e-06,2.541024630914940e-13
26		1.819700858609982e+00,0.000000000000000e+00
	2.994859014424186e-02,2.600212698028048e-09
	1.000000000000000e+00,0.000000000000000e+00
	0.000000000000000e+00,0.000000000000000e+00
	2.759563453080254e-04,2.457383233917733e-13
	2.759563450831879e-04,2.318885730916728e-13
	-2.994859014424194e-06,-2.600212698028051e-13
	1.741353682433159e-04,5.257190524197419e-12
	-1.471767175039396e-04,-1.246826845685385e-13
	-2.396379172495212e-05,-4.872486569826076e-12
	2.994859014424186e-06,2.600212698028048e-13
	-1.741353682433999e-04,-5.257190524197419e-12
	2.994859014424186e-06,2.600212698028048e-13
27		1.862087136662866e+00,0.000000000000000e+00
	2.994859014424186e-02,2.660779432331534e-09
	1.000000000000000e+00,0.000000000000000e+00
	0.000000000000000e+00,0.000000000000000e+00
	2.759563453080254e-04,2.514623042616234e-13
	2.759563450831879e-04,2.372899518346923e-13
	-2.994859014424194e-06,-2.660779432331533e-13
	1.741353682433159e-04,5.379646222496003e-12
	-1.471767175039396e-04,-1.275869173777371e-13
	-2.396379172495212e-05,-4.985981361885113e-12
	2.994859014424186e-06,2.660779432331534e-13
	-1.741353682433999e-04,-5.379646222496005e-12
	2.994859014424186e-06,2.660779432331534e-13
28		1.905460717963246e+00,0.000000000000000e+00
	2.994859014424187e-02,2.722756947109621e-09
	1.000000000000000e+00,0.000000000000000e+00
	0.000000000000000e+00,0.000000000000000e+00
	2.759563453080254e-04,2.573196137736901e-13
	2.759563450831879e-04,2.428171448510783e-13
	-2.994859014424190e-06,-2.722756947109628e-13
	1.741353682433159e-04,5.504954280429791e-12
	-1.471767175039396e-04,-1.305587984593419e-13
	-2.396379172495213e-05,-5.102119787259487e-12
	2.994859014424187e-06,2.722756947109621e-13
	-1.741353682433999e-04,-5.504954280429791e-12
	2.994859014424187e-06,2.722756947109621e-13
29		1.949844599758044e+00,0.000000000000000e+00
	2.994859014424187e-02,2.786178103661016e-09
	1.000000000000000e+00,0.000000000000000e+00
	0.000000000000000e+00,0.000000000000000e+00
	2.759563453080254e-04,2.633133575510072e-13
	2.759563450831879e-04,2.484730827317292e-13
	-2.994859014424194e-06,-2.786178103661016e-13
	1.741353682433159e-04,5.633181137989747e-12
	-1.471767175039396e-04,-1.335999035440399e-13
	-2.396379172495213e-05,-5.220963424079605e-12
	2.994859014424187e-06,2.786178103661016e-13
	-1.741353682433999e-04,-5.633181137989747e-12
	2.994859014424187e-06,2.786178103661016e-13
30		1.995262314968878e+00,0.000000000000000e+00
	2.994859014424187e-02,2.851076528722398e-09
	1.000000000000000e+00,0.000000000000000e+00
	0.000000000000000e+00,0.000000000000000e+00
	2.759563453080254e-04,2.694467135558623e-13
	2.759563450831879e-04,2.542607643297746e-13
	-2.994859014424194e-06,-2.851076528722405e-13
	1.741353682433159e-04,5.764394782753032e-12
	-1.471767175039396e-04,-1.367118450660008e-13
	-2.396379172495213e-05,-5.342575284814790e-12
	2.994859014424187e-06,2.851076528722398e-13
	-1.741353682433999e-04,-5.764394782753031e-12
	2.994859014424187e-06,2.851076528722398e-13
31		2.041737944669527e+00,0.000000000000000e+00
	2.994859014424187e-02,2.917486632297768e-09
	1.000000000000000e+00,0.000000000000000e+00
	0.000000000000000e+00,0.000000000000000e+00
	2.759563453080254e-04,2.757229337747935e-13
	2.759563450831879e-04,2.601832583506066e-13
	-2.994859014424194e-06,-2.917486632297771e-13
	1.741353682433159e-04,5.898664785930917e-12
	-1.471767175039396e-04,-1.398962730178107e-13
	-2.396379172495213e-05,-5.467019849683329e-12
	2.994859014424187e-06,2.917486632297768e-13
	-1.741353682433999e-04,-5.898664785930917e-12
	2.994859014424187e-06,2.917486632297768e-13
32		2.089296130854037e+00,0.000000000000000e+00
	2.994859014424187e-02,2.985443625903083e-09
	1.000000000000000e+00,0.000000000000000e+00
	0.000000000000000e+00,0.000000000000000e+00
	2.759563453080254e-04,2.821453459428367e-13
	2.759563450831879e-04,2.662437049789487e-13
	-2.994859014424194e-06,-2.985443625903091e-13
