LTspice 24.0.9 for Windows
Circuit: * GA CMOS Amp | W=5e-05 L=6.328569963505034e-07 Vbias=1.3049911723878804
Start Time: Mon Sep  8 18:43:54 2025
solver = Normal
Maximum thread count: 2
tnom = 27
temp = 27
method = modified trap
AsciiRawFile = 1
Instance "m1": Length shorter than recommended for a level 3 MOSFET.
Direct Newton iteration for .op point succeeded.
Semiconductor Device Operating Points:
                        --- MOSFET Transistors ---
Name:          m1
Model:        n_1u
Id:          1.78e-04
Vgs:         1.30e+00
Vds:         2.38e-02
Vbs:         0.00e+00
Vth:         7.58e-01
Vdsat:       3.57e-01
Gm:          2.85e-04
Gds:         7.04e-03
Gmb:         5.51e-05
Cbd:         0.00e+00
Cbs:         0.00e+00
Cgsov:       1.00e-14
Cgdov:       1.00e-14
Cgbov:       4.33e-17
Cgs:         1.91e-14
Cgd:         1.82e-14
Cgb:         0.00e+00



gain_db: MAX(db(v(out)/v(g)))=(31.8376dB,135.704°) FROM 1 TO 1e+09
gain_lin: MAX(mag(v(out)/v(g)))=(-26.5133dB,0°) FROM 1 TO 1e+09

Measurement "fc" FAIL'ed

Total elapsed time: 0.445 seconds.

