Title: * GA CMOS Amp | W=1.190211598460775e-05 L=4.911088355020516e-07 Vbias=1.0538289290441465
Date: Sat Sep  6 22:08:48 2025
Plotname: AC Analysis
Flags: complex forward log
No. Variables: 13
No. Points:          901
Offset:    0.0000000000000000e+00
Command: Linear Technology Corporation LTspice
Variables:
	0	frequency	frequency
	1	V(out)	voltage
	2	V(g)	voltage
	3	V(vdd)	voltage
	4	V(m1#dbody)	voltage
	5	V(m1#sbody)	voltage
	6	Id(M1)	device_current
	7	Ig(M1)	device_current
	8	Ib(M1)	device_current
	9	Is(M1)	device_current
	10	I(Rload)	device_current
	11	I(Vg)	device_current
	12	I(Vdd)	device_current
Values:
0		1.000000000000000e+00,0.000000000000000e+00
	-7.447008802140156e-03,3.537799696001959e-10
	1.000000000000000e+00,0.000000000000000e+00
	0.000000000000000e+00,0.000000000000000e+00
	3.754168900434793e-06,2.481047350986074e-14
	3.754168957355993e-06,2.684727383473062e-14
	7.447008802140127e-07,-3.537799696001932e-14
	4.920722036847984e-06,1.545757701831512e-12
	-2.002223441641950e-06,-1.418343316458746e-14
	-3.663199475420047e-06,-1.496196271706905e-12
	-7.447008802140156e-07,3.537799696001959e-14
	-4.920722036894087e-06,-1.545757701831512e-12
	-7.447008802140156e-07,3.537799696001959e-14
1		1.023292992280754e+00,0.000000000000000e+00
	-7.447008802140156e-03,3.620205637011787e-10
	1.000000000000000e+00,0.000000000000000e+00
	0.000000000000000e+00,0.000000000000000e+00
	3.754168900434793e-06,2.538838367780779e-14
	3.754168957355993e-06,2.747262717692230e-14
	7.447008802140127e-07,-3.620205637011765e-14
	4.920722036847984e-06,1.581763024048190e-12
	-2.002223441641950e-06,-1.451380776380479e-14
	-3.663199475420047e-06,-1.531047159914268e-12
	-7.447008802140156e-07,3.620205637011788e-14
	-4.920722036894087e-06,-1.581763024048190e-12
	-7.447008802140156e-07,3.620205637011788e-14
2		1.047128548050899e+00,0.000000000000000e+00
	-7.447008802140156e-03,3.704531058969445e-10
	1.000000000000000e+00,0.000000000000000e+00
	0.000000000000000e+00,0.000000000000000e+00
	3.754168900434793e-06,2.597975510283578e-14
	3.754168957355993e-06,2.811254686968639e-14
	7.447008802140127e-07,-3.704531058969418e-14
	4.920722036847984e-06,1.618607017957326e-12
	-2.002223441641950e-06,-1.485187777601144e-14
	-3.663199475420047e-06,-1.566709829591621e-12
	-7.447008802140156e-07,3.704531058969445e-14
	-4.920722036894087e-06,-1.618607017957327e-12
	-7.447008802140156e-07,3.704531058969445e-14
3		1.071519305237606e+00,0.000000000000000e+00
	-7.447008802140156e-03,3.790820672329834e-10
	1.000000000000000e+00,0.000000000000000e+00
	0.000000000000000e+00,0.000000000000000e+00
	3.754168900434793e-06,2.658490133790201e-14
	3.754168957355993e-06,2.876737220691432e-14
	7.447008802140127e-07,-3.790820672329803e-14
	4.920722036847984e-06,1.656309218732181e-12
	-2.002223441641950e-06,-1.519782245040277e-14
	-3.663199475420047e-06,-1.603203189558480e-12
	-7.447008802140156e-07,3.790820672329834e-14
	-4.920722036894087e-06,-1.656309218732181e-12
	-7.447008802140156e-07,3.790820672329834e-14
4		1.096478196143185e+00,0.000000000000000e+00
	-7.447008802140156e-03,3.879120228988135e-10
	1.000000000000000e+00,0.000000000000000e+00
	0.000000000000000e+00,0.000000000000000e+00
	3.754168900434793e-06,2.720414323955038e-14
	3.754168957355993e-06,2.943745038566755e-14
	7.447008802140127e-07,-3.879120228988117e-14
	4.920722036847984e-06,1.694889616578652e-12
	-2.002223441641950e-06,-1.555182521142427e-14
	-3.663199475420047e-06,-1.640546589077346e-12
	-7.447008802140156e-07,3.879120228988135e-14
	-4.920722036894087e-06,-1.694889616578651e-12
	-7.447008802140156e-07,3.879120228988135e-14
5		1.122018454301963e+00,0.000000000000000e+00
	-7.447008802140156e-03,3.969476546538073e-10
	1.000000000000000e+00,0.000000000000000e+00
	0.000000000000000e+00,0.000000000000000e+00
	3.754168900434793e-06,2.783780913803375e-14
	3.754168957355993e-06,3.012313669026599e-14
	7.447008802140127e-07,-3.969476546538053e-14
	4.920722036847984e-06,1.734368667334348e-12
	-2.002223441641950e-06,-1.591407375602562e-14
	-3.663199475420047e-06,-1.678759828112942e-12
	-7.447008802140156e-07,3.969476546538073e-14
	-4.920722036894087e-06,-1.734368667334348e-12
	-7.447008802140156e-07,3.969476546538073e-14
6		1.148153621496882e+00,0.000000000000000e+00
	-7.447008802140156e-03,4.061937533095218e-10
	1.000000000000000e+00,0.000000000000000e+00
	0.000000000000000e+00,0.000000000000000e+00
	3.754168900434793e-06,2.848623501139907e-14
	3.754168957355993e-06,3.082479468066446e-14
	7.447008802140127e-07,-4.061937533095194e-14
	4.920722036847984e-06,1.774767303314549e-12
	-2.002223441641950e-06,-1.628476015318007e-14
	-3.663199475420047e-06,-1.717863167830417e-12
	-7.447008802140156e-07,4.061937533095219e-14
	-4.920722036894087e-06,-1.774767303314549e-12
	-7.447008802140156e-07,4.061937533095219e-14
7		1.174897554939529e+00,0.000000000000000e+00
	-7.447008802140156e-03,4.156552212698511e-10
	1.000000000000000e+00,0.000000000000000e+00
	0.000000000000000e+00,0.000000000000000e+00
	3.754168900434793e-06,2.914976466362734e-14
	3.754168957355993e-06,3.154279638521700e-14
	7.447008802140127e-07,-4.156552212698508e-14
	4.920722036847984e-06,1.816106944410790e-12
	-2.002223441641950e-06,-1.666408094572203e-14
	-3.663199475420047e-06,-1.757877341338083e-12
	-7.447008802140156e-07,4.156552212698511e-14
	-4.920722036894087e-06,-1.816106944410789e-12
	-7.447008802140156e-07,4.156552212698511e-14
8		1.202264434617413e+00,0.000000000000000e+00
	-7.447008802140156e-03,4.253370751303449e-10
	1.000000000000000e+00,0.000000000000000e+00
	0.000000000000000e+00,0.000000000000000e+00
	3.754168900434793e-06,2.982874990692302e-14
	3.754168957355993e-06,3.227752249793127e-14
	7.447008802140127e-07,-4.253370751303446e-14
	4.920722036847984e-06,1.858409509447974e-12
	-2.002223441641950e-06,-1.705223725455660e-14
	-3.663199475420047e-06,-1.798823564680383e-12
	-7.447008802140156e-07,4.253370751303449e-14
	-4.920722036894087e-06,-1.858409509447974e-12
	-7.447008802140156e-07,4.253370751303449e-14
9		1.230268770812381e+00,0.000000000000000e+00
	-7.447008802140156e-03,4.352444483380745e-10
	1.000000000000000e+00,0.000000000000000e+00
	0.000000000000000e+00,0.000000000000000e+00
	3.754168900434793e-06,3.052355074824952e-14
	3.754168957355993e-06,3.302936258031744e-14
	7.447008802140127e-07,-4.352444483380738e-14
	4.920722036847984e-06,1.901697427806026e-12
	-2.002223441641950e-06,-1.744943488529657e-14
	-3.663199475420047e-06,-1.840723548086922e-12
	-7.447008802140156e-07,4.352444483380746e-14
	-4.920722036894087e-06,-1.901697427806026e-12
	-7.447008802140156e-07,4.352444483380746e-14
10		1.258925411794167e+00,0.000000000000000e+00
	-7.447008802140156e-03,4.453825939134544e-10
	1.000000000000000e+00,0.000000000000000e+00
	0.000000000000000e+00,0.000000000000000e+00
	3.754168900434792e-06,3.123453558020971e-14
	3.754168957355993e-06,3.379871526793901e-14
	7.447008802140127e-07,-4.453825939134544e-14
	4.920722036847984e-06,1.945993651312242e-12
	-2.002223441641950e-06,-1.785588443738331e-14
	-3.663199475420047e-06,-1.883599507483513e-12
	-7.447008802140156e-07,4.453825939134544e-14
	-4.920722036894087e-06,-1.945993651312241e-12
	-7.447008802140156e-07,4.453825939134544e-14
11		1.288249551693134e+00,0.000000000000000e+00
	-7.447008802140156e-03,4.557568872354628e-10
	1.000000000000000e+00,0.000000000000000e+00
	0.000000000000000e+00,0.000000000000000e+00
	3.754168900434792e-06,3.196208137637247e-14
	3.754168957355993e-06,3.458598848177454e-14
	7.447008802140127e-07,-4.557568872354596e-14
	4.920722036847984e-06,1.991321666410654e-12
	-2.002223441641950e-06,-1.827180141574932e-14
	-3.663199475420047e-06,-1.927474176271359e-12
	-7.447008802140156e-07,4.557568872354628e-14
	-4.920722036894087e-06,-1.991321666410654e-12
	-7.447008802140156e-07,4.557568872354628e-14
12		1.318256738556407e+00,0.000000000000000e+00
	-7.447008802140156e-03,4.663728288917390e-10
	1.000000000000000e+00,0.000000000000000e+00
	0.000000000000000e+00,0.000000000000000e+00
	3.754168900434792e-06,3.270657389114915e-14
	3.754168957355993e-06,3.539159964450275e-14
	7.447008802140127e-07,-4.663728288917363e-14
	4.920722036847984e-06,2.037705506614856e-12
	-2.002223441641950e-06,-1.869740634508184e-14
	-3.663199475420047e-06,-1.972370817380601e-12
	-7.447008802140156e-07,4.663728288917390e-14
	-4.920722036894087e-06,-2.037705506614856e-12
	-7.447008802140156e-07,4.663728288917390e-14
13		1.348962882591653e+00,0.000000000000000e+00
	-7.447008802140156e-03,4.772360475950678e-10
	1.000000000000000e+00,0.000000000000000e+00
	0.000000000000000e+00,0.000000000000000e+00
	3.754168900434792e-06,3.346840786432559e-14
	3.754168957355993e-06,3.621597590182569e-14
	7.447008802140127e-07,-4.772360475950655e-14
	4.920722036847984e-06,2.085169765250886e-12
	-2.002223441641950e-06,-1.913292488674795e-14
	-3.663199475420047e-06,-2.018313235604632e-12
	-7.447008802140156e-07,4.772360475950678e-14
	-4.920722036894087e-06,-2.085169765250886e-12
	-7.447008802140156e-07,4.772360475950678e-14
14		1.380384264602885e+00,0.000000000000000e+00
	-7.447008802140156e-03,4.883523031677973e-10
	1.000000000000000e+00,0.000000000000000e+00
	0.000000000000000e+00,0.000000000000000e+00
	3.754168900434792e-06,3.424798723035846e-14
	3.754168957355993e-06,3.705955434894690e-14
	7.447008802140127e-07,-4.883523031677941e-14
	4.920722036847984e-06,2.133739608496938e-12
	-2.002223441641950e-06,-1.957858795844322e-14
	-3.663199475420047e-06,-2.065325790221715e-12
	-7.447008802140156e-07,4.883523031677973e-14
	-4.920722036894087e-06,-2.133739608496937e-12
	-7.447008802140156e-07,4.883523031677973e-14
15		1.412537544622754e+00,0.000000000000000e+00
	-7.447008802140156e-03,4.997274895957733e-10
	1.000000000000000e+00,0.000000000000000e+00
	0.000000000000000e+00,0.000000000000000e+00
	3.754168900434792e-06,3.504572533254658e-14
	3.754168957355993e-06,3.792278226232511e-14
	7.447008802140127e-07,-4.997274895957704e-14
	4.920722036847984e-06,2.183440788726795e-12
	-2.002223441641950e-06,-2.003463185662731e-14
	-3.663199475420047e-06,-2.113433407910591e-12
	-7.447008802140156e-07,4.997274895957733e-14
	-4.920722036894087e-06,-2.183440788726796e-12
	-7.447008802140156e-07,4.997274895957733e-14
16		1.445439770745927e+00,0.000000000000000e+00
	-7.447008802140156e-03,5.113676381534082e-10
	1.000000000000000e+00,0.000000000000000e+00
	0.000000000000000e+00,0.000000000000000e+00
	3.754168900434792e-06,3.586204514219101e-14
	3.754168957355993e-06,3.880611733682616e-14
	7.447008802140127e-07,-5.113676381534064e-14
	4.920722036847984e-06,2.234299658164092e-12
	-2.002223441641950e-06,-2.050129838181147e-14
	-3.663199475420047e-06,-2.162661595966940e-12
	-7.447008802140156e-07,5.113676381534082e-14
	-4.920722036894087e-06,-2.234299658164092e-12
	-7.447008802140156e-07,5.113676381534082e-14
17		1.479108388168207e+00,0.000000000000000e+00
	-7.447008802140156e-03,5.232789206015428e-10
	1.000000000000000e+00,0.000000000000000e+00
	0.000000000000000e+00,0.000000000000000e+00
	3.754168900434792e-06,3.669737948286012e-14
	3.754168957355993e-06,3.971002792839888e-14
	7.447008802140127e-07,-5.232789206015426e-14
	4.920722036847983e-06,2.286343182854600e-12
	-2.002223441641950e-06,-2.097883496676444e-14
	-3.663199475420047e-06,-2.213036455827681e-12
	-7.447008802140156e-07,5.232789206015428e-14
	-4.920722036894087e-06,-2.286343182854600e-12
	-7.447008802140156e-07,5.232789206015428e-14
18		1.513561248436208e+00,0.000000000000000e+00
	-7.447008802140156e-03,5.354676524597960e-10
	1.000000000000000e+00,0.000000000000000e+00
	0.000000000000000e+00,0.000000000000000e+00
	3.754168900434792e-06,3.755217125987827e-14
	3.754168957355993e-06,4.063499330240360e-14
	7.447008802140127e-07,-5.354676524597958e-14
	4.920722036847983e-06,2.339598956963987e-12
	-2.002223441641950e-06,-2.146749480770450e-14
	-3.663199475420047e-06,-2.264584696910303e-12
	-7.447008802140156e-07,5.354676524597960e-14
	-4.920722036894087e-06,-2.339598956963987e-12
	-7.447008802140156e-07,5.354676524597960e-14
19		1.548816618912481e+00,0.000000000000000e+00
	-7.447008802140156e-03,5.479402963551356e-10
	1.000000000000000e+00,0.000000000000000e+00
	0.000000000000000e+00,0.000000000000000e+00
	3.754168900434792e-06,3.842687369516017e-14
	3.754168957355993e-06,4.158150388772499e-14
	7.447008802140127e-07,-5.479402963551300e-14
	4.920722036847983e-06,2.394095217408609e-12
	-2.002223441641950e-06,-2.196753699854749e-14
	-3.663199475420047e-06,-2.317333650774549e-12
	-7.447008802140156e-07,5.479402963551356e-14
	-4.920722036894087e-06,-2.394095217408609e-12
	-7.447008802140156e-07,5.479402963551356e-14
20		1.584893192461113e+00,0.000000000000000e+00
	-7.447008802140156e-03,5.607034654484499e-10
	1.000000000000000e+00,0.000000000000000e+00
	0.000000000000000e+00,0.000000000000000e+00
	3.754168900434792e-06,3.932195056751505e-14
	3.754168957355993e-06,4.255006153680391e-14
	7.447008802140127e-07,-5.607034654484455e-14
	4.920722036847983e-06,2.449860858827099e-12
	-2.002223441641950e-06,-2.247922666828183e-14
	-3.663199475420047e-06,-2.371311285613972e-12
	-7.447008802140156e-07,5.607034654484500e-14
	-4.920722036894087e-06,-2.449860858827098e-12
	-7.447008802140156e-07,5.607034654484500e-14
21		1.621810097358929e+00,0.000000000000000e+00
	-7.447008802140156e-03,5.737639269409326e-10
	1.000000000000000e+00,0.000000000000000e+00
	0.000000000000000e+00,0.000000000000000e+00
	3.754168900434792e-06,4.023787645854839e-14
	3.754168957355993e-06,4.354117979172631e-14
	7.447008802140127e-07,-5.737639269409288e-14
	4.920722036847983e-06,2.506925448900679e-12
	-2.002223441641949e-06,-2.300283512154345e-14
	-3.663199475420047e-06,-2.426546221085043e-12
	-7.447008802140156e-07,5.737639269409326e-14
	-4.920722036894087e-06,-2.506925448900680e-12
	-7.447008802140156e-07,5.737639269409326e-14
22		1.659586907437560e+00,0.000000000000000e+00
	-7.447008802140156e-03,5.871286056621430e-10
	1.000000000000000e+00,0.000000000000000e+00
	0.000000000000000e+00,0.000000000000000e+00
	3.754168900434792e-06,4.117513700429131e-14
	3.754168957355993e-06,4.455538415650993e-14
	7.447008802140127e-07,-5.871286056621439e-14
	4.920722036847983e-06,2.565319244030350e-12
	-2.002223441641949e-06,-2.353863998246503e-14
	-3.663199475420047e-06,-2.483067743481670e-12
	-7.447008802140156e-07,5.871286056621430e-14
	-4.920722036894087e-06,-2.565319244030350e-12
	-7.447008802140156e-07,5.871286056621430e-14
23		1.698243652461743e+00,0.000000000000000e+00
	-7.447008802140156e-03,6.008045877416412e-10
	1.000000000000000e+00,0.000000000000000e+00
	0.000000000000000e+00,0.000000000000000e+00
	3.754168900434792e-06,4.213422915269125e-14
	3.754168957355993e-06,4.559321237573355e-14
	7.447008802140127e-07,-6.008045877416359e-14
	4.920722036847983e-06,2.625073205379219e-12
	-2.002223441641949e-06,-2.408692534187603e-14
	-3.663199475420047e-06,-2.540905821263179e-12
	-7.447008802140156e-07,6.008045877416412e-14
	-4.920722036894087e-06,-2.625073205379218e-12
	-7.447008802140156e-07,6.008045877416412e-14
24		1.737800828749374e+00,0.000000000000000e+00
	-7.447008802140155e-03,6.147991243661488e-10
	1.000000000000000e+00,0.000000000000000e+00
	0.000000000000000e+00,0.000000000000000e+00
	3.754168900434792e-06,4.311566142710040e-14
	3.754168957355993e-06,4.665521471965627e-14
	7.447008802140127e-07,-6.147991243661467e-14
	4.920722036847983e-06,2.686219015288531e-12
	-2.002223441641949e-06,-2.464798190793145e-14
	-3.663199475420047e-06,-2.600091120943984e-12
	-7.447008802140155e-07,6.147991243661488e-14
	-4.920722036894087e-06,-2.686219015288530e-12
	-7.447008802140155e-07,6.147991243661488e-14
25		1.778279410038922e+00,0.000000000000000e+00
	-7.447008802140155e-03,6.291196356242240e-10
	1.000000000000000e+00,0.000000000000000e+00
	0.000000000000000e+00,0.000000000000000e+00
	3.754168900434792e-06,4.411995419590145e-14
	3.754168957355993e-06,4.774195427597814e-14
	7.447008802140127e-07,-6.291196356242212e-14
	4.920722036847983e-06,2.748789094076061e-12
	-2.002223441641949e-06,-2.522210716024906e-14
	-3.663199475420047e-06,-2.660655023353390e-12
	-7.447008802140155e-07,6.291196356242241e-14
	-4.920722036894087e-06,-2.748789094076061e-12
	-7.447008802140155e-07,6.291196356242241e-14
26		1.819700858609982e+00,0.000000000000000e+00
	-7.447008802140155e-03,6.437737144404898e-10
	1.000000000000000e+00,0.000000000000000e+00
	0.000000000000000e+00,0.000000000000000e+00
	3.754168900434792e-06,4.514763994841381e-14
	3.754168957355993e-06,4.885400724839663e-14
	7.447008802140127e-07,-6.437737144404857e-14
	4.920722036847983e-06,2.812816617225796e-12
	-2.002223441641949e-06,-2.580960550763709e-14
	-3.663199475420047e-06,-2.722629640274110e-12
	-7.447008802140155e-07,6.437737144404898e-14
	-4.920722036894087e-06,-2.812816617225795e-12
	-7.447008802140155e-07,6.437737144404898e-14
27		1.862087136662866e+00,0.000000000000000e+00
	-7.447008802140155e-03,6.587691306015045e-10
	1.000000000000000e+00,0.000000000000000e+00
	0.000000000000000e+00,0.000000000000000e+00
	3.754168900434792e-06,4.619926357722648e-14
	3.754168957355993e-06,4.999196326211744e-14
	7.447008802140127e-07,-6.587691306015047e-14
	4.920722036847983e-06,2.878335532978013e-12
	-2.002223441641949e-06,-2.641078844949579e-14
	-3.663199475420047e-06,-2.786047831468367e-12
	-7.447008802140155e-07,6.587691306015045e-14
	-4.920722036894087e-06,-2.878335532978013e-12
	-7.447008802140155e-07,6.587691306015045e-14
28		1.905460717963246e+00,0.000000000000000e+00
	-7.447008802140155e-03,6.741138348754045e-10
	1.000000000000000e+00,0.000000000000000e+00
	0.000000000000000e+00,0.000000000000000e+00
	3.754168900434792e-06,4.727538266710733e-14
	3.754168957355993e-06,5.115642567648167e-14
	7.447008802140127e-07,-6.741138348754032e-14
	4.920722036847983e-06,2.945380580329090e-12
	-2.002223441641949e-06,-2.702597474097852e-14
	-3.663199475420047e-06,-2.850943222100571e-12
	-7.447008802140155e-07,6.741138348754045e-14
	-4.920722036894087e-06,-2.945380580329090e-12
	-7.447008802140155e-07,6.741138348754045e-14
29		1.949844599758044e+00,0.000000000000000e+00
	-7.447008802140155e-03,6.898159632275069e-10
	1.000000000000000e+00,0.000000000000000e+00
	0.000000000000000e+00,0.000000000000000e+00
	3.754168900434791e-06,4.837656779064196e-14
	3.754168957355992e-06,5.234801190487493e-14
	7.447008802140127e-07,-6.898159632275030e-14
	4.920722036847983e-06,3.013987307450579e-12
	-2.002223441641949e-06,-2.765549056199999e-14
	-3.663199475420047e-06,-2.917350220565829e-12
	-7.447008802140155e-07,6.898159632275069e-14
	-4.920722036894087e-06,-3.013987307450579e-12
	-7.447008802140155e-07,6.898159632275069e-14
30		1.995262314968878e+00,0.000000000000000e+00
	-7.447008802140155e-03,7.058838411341061e-10
	1.000000000000000e+00,0.000000000000000e+00
	0.000000000000000e+00,0.000000000000000e+00
	3.754168900434791e-06,4.950340281075877e-14
	3.754168957355992e-06,5.356735374208801e-14
	7.447008802140127e-07,-7.058838411341037e-14
	4.920722036847983e-06,3.084192090537316e-12
	-2.002223441641949e-06,-2.829966969018113e-14
	-3.663199475420047e-06,-2.985304036733724e-12
	-7.447008802140155e-07,7.058838411341061e-14
	-4.920722036894087e-06,-3.084192090537316e-12
	-7.447008802140155e-07,7.058838411341061e-14
31		2.041737944669527e+00,0.000000000000000e+00
	-7.447008802140155e-03,7.223259879967517e-10
	1.000000000000000e+00,0.000000000000000e+00
	0.000000000000000e+00,0.000000000000000e+00
	3.754168900434791e-06,5.065648519030082e-14
	3.754168957355992e-06,5.481509769930288e-14
	7.447008802140127e-07,-7.223259879967518e-14
	4.920722036847983e-06,3.156032153094564e-12
	-2.002223441641949e-06,-2.895885367782240e-14
	-3.663199475420047e-06,-3.054840700617067e-12
	-7.447008802140155e-07,7.223259879967518e-14
	-4.920722036894087e-06,-3.156032153094565e-12
	-7.447008802140155e-07,7.223259879967518e-14
32		2.089296130854037e+00,0.000000000000000e+00
	-7.447008802140155e-03,7.391511216593483e-10
	1.000000000000000e+00,0.000000000000000e+00
	0.000000000000000e+00,0.000000000000000e+00
	3.754168900434791e-06,5.183642630880865e-14
