Title: * GA CMOS Amp | W=2.0738676185345585e-06 L=9.515564461079708e-07 Vbias=1.4919589985744137
Date: Sat Sep  6 22:14:52 2025
Plotname: AC Analysis
Flags: complex forward log
No. Variables: 13
No. Points:          901
Offset:    0.0000000000000000e+00
Command: Linear Technology Corporation LTspice
Variables:
	0	frequency	frequency
	1	V(out)	voltage
	2	V(g)	voltage
	3	V(vdd)	voltage
	4	V(m1#dbody)	voltage
	5	V(m1#sbody)	voltage
	6	Id(M1)	device_current
	7	Ig(M1)	device_current
	8	Ib(M1)	device_current
	9	Is(M1)	device_current
	10	I(Rload)	device_current
	11	I(Vg)	device_current
	12	I(Vdd)	device_current
Values:
0		1.000000000000000e+00,0.000000000000000e+00
	-3.483279467523521e-01,1.369570497422936e-09
	1.000000000000000e+00,0.000000000000000e+00
	0.000000000000000e+00,0.000000000000000e+00
	6.995327133883771e-05,1.212817055412155e-13
	6.995327395129268e-05,1.350791550422340e-13
	3.483279467523522e-05,-1.369570497422936e-13
	4.153272246198516e-05,4.365255126386489e-13
	-3.730841262805212e-05,-7.112457377712690e-14
	-3.905710450916826e-05,-2.284438891192284e-13
	-3.483279467523521e-05,1.369570497422936e-13
	-4.153272246210093e-05,-4.365255126386488e-13
	-3.483279467523521e-05,1.369570497422936e-13
1		1.023292992280754e+00,0.000000000000000e+00
	-3.483279467523521e-01,1.401471892447357e-09
	1.000000000000000e+00,0.000000000000000e+00
	0.000000000000000e+00,0.000000000000000e+00
	6.995327133883771e-05,1.241067193721837e-13
	6.995327395129268e-05,1.382255527579235e-13
	3.483279467523522e-05,-1.401471892447358e-13
	4.153272246198516e-05,4.466934980348933e-13
	-3.730841262805212e-05,-7.278127792508946e-14
	-3.905710450916826e-05,-2.337650308650680e-13
	-3.483279467523521e-05,1.401471892447357e-13
	-4.153272246210093e-05,-4.466934980348931e-13
	-3.483279467523521e-05,1.401471892447357e-13
2		1.047128548050899e+00,0.000000000000000e+00
	-3.483279467523521e-01,1.434116366419827e-09
	1.000000000000000e+00,0.000000000000000e+00
	0.000000000000000e+00,0.000000000000000e+00
	6.995327133883771e-05,1.269975362285097e-13
	6.995327395129268e-05,1.414452394913169e-13
	3.483279467523522e-05,-1.434116366419828e-13
	4.153272246198516e-05,4.570983262364830e-13
	-3.730841262805212e-05,-7.447657166998198e-14
	-3.905710450916826e-05,-2.392101179245183e-13
	-3.483279467523521e-05,1.434116366419827e-13
	-4.153272246210093e-05,-4.570983262364829e-13
	-3.483279467523521e-05,1.434116366419827e-13
3		1.071519305237606e+00,0.000000000000000e+00
	-3.483279467523521e-01,1.467521227872547e-09
	1.000000000000000e+00,0.000000000000000e+00
	0.000000000000000e+00,0.000000000000000e+00
	6.995327133883771e-05,1.299556888595551e-13
	6.995327395129268e-05,1.447399223629374e-13
	3.483279467523522e-05,-1.467521227872548e-13
	4.153272246198516e-05,4.677455140210550e-13
	-3.730841262805212e-05,-7.621135387898787e-14
	-3.905710450916826e-05,-2.447820373548123e-13
	-3.483279467523521e-05,1.467521227872547e-13
	-4.153272246210093e-05,-4.677455140210549e-13
	-3.483279467523521e-05,1.467521227872547e-13
4		1.096478196143185e+00,0.000000000000000e+00
	-3.483279467523521e-01,1.501704188505225e-09
	1.000000000000000e+00,0.000000000000000e+00
	0.000000000000000e+00,0.000000000000000e+00
	6.995327133883771e-05,1.329827457170008e-13
	6.995327395129268e-05,1.481113482572543e-13
	3.483279467523522e-05,-1.501704188505225e-13
	4.153272246198516e-05,4.786407066685047e-13
	-3.730841262805212e-05,-7.798654435659697e-14
	-3.905710450916826e-05,-2.504837434613852e-13
	-3.483279467523521e-05,1.501704188505225e-13
	-4.153272246210093e-05,-4.786407066685046e-13
	-3.483279467523521e-05,1.501704188505225e-13
5		1.122018454301963e+00,0.000000000000000e+00
	-3.483279467523521e-01,1.536683372576054e-09
	1.000000000000000e+00,0.000000000000000e+00
	0.000000000000000e+00,0.000000000000000e+00
	6.995327133883771e-05,1.360803117864604e-13
	6.995327395129268e-05,1.515613047489026e-13
	3.483279467523522e-05,-1.536683372576054e-13
	4.153272246198516e-05,4.897896809541890e-13
	-3.730841262805212e-05,-7.980308433229787e-14
	-3.905710450916826e-05,-2.563182593642857e-13
	-3.483279467523521e-05,1.536683372576054e-13
	-4.153272246210093e-05,-4.897896809541890e-13
	-3.483279467523521e-05,1.536683372576054e-13
6		1.148153621496882e+00,0.000000000000000e+00
	-3.483279467523521e-01,1.572477326511431e-09
	1.000000000000000e+00,0.000000000000000e+00
	0.000000000000000e+00,0.000000000000000e+00
	6.995327133883771e-05,1.392500294384650e-13
	6.995327395129268e-05,1.550916210504798e-13
	3.483279467523522e-05,-1.572477326511431e-13
	4.153272246198516e-05,5.011983482118478e-13
	-3.730841262805212e-05,-8.166193695963044e-14
	-3.905710450916826e-05,-2.622886786010743e-13
	-3.483279467523521e-05,1.572477326511431e-13
	-4.153272246210093e-05,-5.011983482118478e-13
	-3.483279467523521e-05,1.572477326511431e-13
7		1.174897554939529e+00,0.000000000000000e+00
	-3.483279467523521e-01,1.609105028739522e-09
	1.000000000000000e+00,0.000000000000000e+00
	0.000000000000000e+00,0.000000000000000e+00
	6.995327133883771e-05,1.424935792992700e-13
	6.995327395129268e-05,1.587041689824183e-13
	3.483279467523522e-05,-1.609105028739523e-13
	4.153272246198516e-05,5.128727574678732e-13
	-3.730841262805212e-05,-8.356408782686255e-14
	-3.905710450916826e-05,-2.683981667670583e-13
	-3.483279467523521e-05,1.609105028739522e-13
	-4.153272246210093e-05,-5.128727574678731e-13
	-3.483279467523521e-05,1.609105028739522e-13
8		1.202264434617413e+00,0.000000000000000e+00
	-3.483279467523521e-01,1.646585899752875e-09
	1.000000000000000e+00,0.000000000000000e+00
	0.000000000000000e+00,0.000000000000000e+00
	6.995327133883771e-05,1.458126811419449e-13
	6.995327395129268e-05,1.624008639654493e-13
	3.483279467523522e-05,-1.646585899752875e-13
	4.153272246198516e-05,5.248190986485815e-13
	-3.730841262805212e-05,-8.551054547956194e-14
	-3.905710450916826e-05,-2.746499631937320e-13
	-3.483279467523521e-05,1.646585899752875e-13
	-4.153272246210093e-05,-5.248190986485813e-13
	-3.483279467523521e-05,1.646585899752875e-13
9		1.230268770812381e+00,0.000000000000000e+00
	-3.483279467523521e-01,1.684939812405417e-09
	1.000000000000000e+00,0.000000000000000e+00
	0.000000000000000e+00,0.000000000000000e+00
	6.995327133883771e-05,1.492090947982203e-13
	6.995327395129268e-05,1.661836660361843e-13
	3.483279467523522e-05,-1.684939812405417e-13
	4.153272246198516e-05,5.370437058621951e-13
	-3.730841262805212e-05,-8.750234195534044e-14
	-3.905710450916826e-05,-2.810473826663130e-13
	-3.483279467523521e-05,1.684939812405417e-13
	-4.153272246210093e-05,-5.370437058621951e-13
	-3.483279467523521e-05,1.684939812405417e-13
10		1.258925411794167e+00,0.000000000000000e+00
	-3.483279467523521e-01,1.724187102449312e-09
	1.000000000000000e+00,0.000000000000000e+00
	0.000000000000000e+00,0.000000000000000e+00
	6.995327133883771e-05,1.526846210915736e-13
	6.995327395129268e-05,1.700545808863526e-13
	3.483279467523522e-05,-1.724187102449312e-13
	4.153272246198516e-05,5.495530607572709e-13
	-3.730841262805212e-05,-8.954053333105409e-14
	-3.905710450916826e-05,-2.875938171812856e-13
	-3.483279467523521e-05,1.724187102449312e-13
	-4.153272246210093e-05,-5.495530607572709e-13
	-3.483279467523521e-05,1.724187102449312e-13
11		1.288249551693134e+00,0.000000000000000e+00
	-3.483279467523521e-01,1.764348579317239e-09
	1.000000000000000e+00,0.000000000000000e+00
	0.000000000000000e+00,0.000000000000000e+00
	6.995327133883771e-05,1.562411027920495e-13
	6.995327395129268e-05,1.740156609262453e-13
	3.483279467523522e-05,-1.764348579317240e-13
	4.153272246198516e-05,5.623537959593550e-13
	-3.730841262805212e-05,-9.162620028274897e-14
	-3.905710450916826e-05,-2.942927377448819e-13
	-3.483279467523521e-05,1.764348579317240e-13
	-4.153272246210093e-05,-5.623537959593549e-13
	-3.483279467523521e-05,1.764348579317240e-13
12		1.318256738556407e+00,0.000000000000000e+00
	-3.483279467523521e-01,1.805445537155835e-09
	1.000000000000000e+00,0.000000000000000e+00
	0.000000000000000e+00,0.000000000000000e+00
	6.995327133883771e-05,1.598804255933212e-13
	6.995327395129268e-05,1.780690063729306e-13
	3.483279467523522e-05,-1.805445537155836e-13
	4.153272246198516e-05,5.754526985876888e-13
	-3.730841262805212e-05,-9.376044865864985e-14
	-3.905710450916826e-05,-3.011476962134554e-13
	-3.483279467523521e-05,1.805445537155835e-13
	-4.153272246210093e-05,-5.754526985876887e-13
	-3.483279467523521e-05,1.805445537155835e-13
13		1.348962882591653e+00,0.000000000000000e+00
	-3.483279467523521e-01,1.847499766116128e-09
	1.000000000000000e+00,0.000000000000000e+00
	0.000000000000000e+00,0.000000000000000e+00
	6.995327133883771e-05,1.636045191125101e-13
	6.995327395129268e-05,1.822167663638168e-13
	3.483279467523522e-05,-1.847499766116129e-13
	4.153272246198516e-05,5.888567138538310e-13
	-3.730841262805212e-05,-9.594441006549582e-14
	-3.905710450916826e-05,-3.081623271767223e-13
	-3.483279467523521e-05,1.847499766116128e-13
	-4.153272246210093e-05,-5.888567138538311e-13
	-3.483279467523521e-05,1.847499766116128e-13
14		1.380384264602885e+00,0.000000000000000e+00
	-3.483279467523521e-01,1.890533563906967e-09
	1.000000000000000e+00,0.000000000000000e+00
	0.000000000000000e+00,0.000000000000000e+00
	6.995327133883771e-05,1.674153579132943e-13
	6.995327395129268e-05,1.864611400961533e-13
	3.483279467523522e-05,-1.890533563906967e-13
	4.153272246198516e-05,6.025729487440987e-13
	-3.730841262805212e-05,-9.817924246853296e-14
	-3.905710450916826e-05,-3.153403498848691e-13
	-3.483279467523521e-05,1.890533563906967e-13
	-4.153272246210093e-05,-6.025729487440986e-13
	-3.483279467523521e-05,1.890533563906967e-13
15		1.412537544622754e+00,0.000000000000000e+00
	-3.483279467523521e-01,1.934569747617558e-09
	1.000000000000000e+00,0.000000000000000e+00
	0.000000000000000e+00,0.000000000000000e+00
	6.995327133883771e-05,1.713149625528483e-13
	6.995327395129268e-05,1.908043779930735e-13
	3.483279467523522e-05,-1.934569747617558e-13
	4.153272246198516e-05,6.166086757877862e-13
	-3.730841262805212e-05,-1.004661308054828e-13
	-3.905710450916826e-05,-3.226855702205476e-13
	-3.483279467523521e-05,1.934569747617558e-13
	-4.153272246210093e-05,-6.166086757877860e-13
	-3.483279467523521e-05,1.934569747617558e-13
16		1.445439770745927e+00,0.000000000000000e+00
	-3.483279467523521e-01,1.979631665815394e-09
	1.000000000000000e+00,0.000000000000000e+00
	0.000000000000000e+00,0.000000000000000e+00
	6.995327133883771e-05,1.753054006531695e-13
	6.995327395129268e-05,1.952487828968003e-13
	3.483279467523522e-05,-1.979631665815394e-13
	4.153272246198516e-05,6.309713369131570e-13
	-3.730841262805212e-05,-1.028062876148121e-13
	-3.905710450916826e-05,-3.302018827168055e-13
	-3.483279467523521e-05,1.979631665815394e-13
	-4.153272246210093e-05,-6.309713369131569e-13
	-3.483279467523521e-05,1.979631665815394e-13
17		1.479108388168207e+00,0.000000000000000e+00
	-3.483279467523521e-01,2.025743210925968e-09
	1.000000000000000e+00,0.000000000000000e+00
	0.000000000000000e+00,0.000000000000000e+00
	6.995327133883771e-05,1.793887879973583e-13
	6.995327395129268e-05,1.997967112896420e-13
	3.483279467523522e-05,-2.025743210925969e-13
	4.153272246198516e-05,6.456685473932523e-13
	-3.730841262805212e-05,-1.052009536786369e-13
	-3.905710450916826e-05,-3.378932726220185e-13
	-3.483279467523521e-05,2.025743210925969e-13
	-4.153272246210093e-05,-6.456685473932522e-13
	-3.483279467523521e-05,2.025743210925969e-13
18		1.513561248436208e+00,0.000000000000000e+00
	-3.483279467523521e-01,2.072928831900857e-09
	1.000000000000000e+00,0.000000000000000e+00
	0.000000000000000e+00,0.000000000000000e+00
	6.995327133883771e-05,1.835672896514346e-13
	6.995327395129268e-05,2.044505745434317e-13
	3.483279467523522e-05,-2.072928831900858e-13
	4.153272246198516e-05,6.607080998836089e-13
	-3.730841262805212e-05,-1.076513986806013e-13
	-3.905710450916826e-05,-3.457638180129219e-13
	-3.483279467523521e-05,2.072928831900857e-13
	-4.153272246210093e-05,-6.607080998836089e-13
	-3.483279467523521e-05,2.072928831900857e-13
19		1.548816618912481e+00,0.000000000000000e+00
	-3.483279467523521e-01,2.121213547180876e-09
	1.000000000000000e+00,0.000000000000000e+00
	0.000000000000000e+00,0.000000000000000e+00
	6.995327133883771e-05,1.878431211122843e-13
	6.995327395129268e-05,2.092128401980676e-13
	3.483279467523522e-05,-2.121213547180877e-13
	4.153272246198516e-05,6.760979685540296e-13
	-3.730841262805212e-05,-1.101589218790810e-13
	-3.905710450916826e-05,-3.538176919568610e-13
	-3.483279467523521e-05,2.121213547180876e-13
	-4.153272246210093e-05,-6.760979685540295e-13
	-3.483279467523521e-05,2.121213547180876e-13
20		1.584893192461113e+00,0.000000000000000e+00
	-3.483279467523521e-01,2.170622957961191e-09
	1.000000000000000e+00,0.000000000000000e+00
	0.000000000000000e+00,0.000000000000000e+00
	6.995327133883771e-05,1.922185494823456e-13
	6.995327395129268e-05,2.140860332698359e-13
	3.483279467523522e-05,-2.170622957961192e-13
	4.153272246198516e-05,6.918463133165922e-13
	-3.730841262805212e-05,-1.127248527960666e-13
	-3.905710450916826e-05,-3.620591647244063e-13
	-3.483279467523521e-05,2.170622957961191e-13
	-4.153272246210093e-05,-6.918463133165920e-13
	-3.483279467523521e-05,2.170622957961191e-13
21		1.621810097358929e+00,0.000000000000000e+00
	-3.483279467523521e-01,2.221183261765409e-09
	1.000000000000000e+00,0.000000000000000e+00
	0.000000000000000e+00,0.000000000000000e+00
	6.995327133883771e-05,1.966958946716556e-13
	6.995327395129268e-05,2.190727375902074e-13
	3.483279467523522e-05,-2.221183261765409e-13
	4.153272246198516e-05,7.079614841521436e-13
	-3.730841262805212e-05,-1.153505519220945e-13
	-3.905710450916826e-05,-3.704926060535082e-13
	-3.483279467523521e-05,2.221183261765409e-13
	-4.153272246210093e-05,-7.079614841521437e-13
	-3.483279467523521e-05,2.221183261765409e-13
22		1.659586907437560e+00,0.000000000000000e+00
	-3.483279467523521e-01,2.272921266335851e-09
	1.000000000000000e+00,0.000000000000000e+00
	0.000000000000000e+00,0.000000000000000e+00
	6.995327133883771e-05,2.012775306278985e-13
	6.995327395129268e-05,2.241755971758198e-13
	3.483279467523522e-05,-2.272921266335852e-13
	4.153272246198516e-05,7.244520255375708e-13
	-3.730841262805212e-05,-1.180374114375966e-13
	-3.905710450916826e-05,-3.791224874663891e-13
	-3.483279467523521e-05,2.272921266335852e-13
	-4.153272246210093e-05,-7.244520255375707e-13
	-3.483279467523521e-05,2.272921266335852e-13
23		1.698243652461743e+00,0.000000000000000e+00
	-3.483279467523521e-01,2.325864403847374e-09
	1.000000000000000e+00,0.000000000000000e+00
	0.000000000000000e+00,0.000000000000000e+00
	6.995327133883771e-05,2.059658865951034e-13
	6.995327395129268e-05,2.293973176303696e-13
	3.483279467523522e-05,-2.325864403847375e-13
	4.153272246198516e-05,7.413266809761943e-13
	-3.730841262805212e-05,-1.207868559510527e-13
	-3.905710450916826e-05,-3.879533846404040e-13
	-3.483279467523521e-05,2.325864403847374e-13
	-4.153272246210093e-05,-7.413266809761942e-13
	-3.483279467523521e-05,2.325864403847374e-13
24		1.737800828749374e+00,0.000000000000000e+00
	-3.483279467523521e-01,2.380040745452271e-09
	1.000000000000000e+00,0.000000000000000e+00
	0.000000000000000e+00,0.000000000000000e+00
	6.995327133883771e-05,2.107634484016618e-13
	6.995327395129268e-05,2.347406675791595e-13
	3.483279467523522e-05,-2.380040745452272e-13
	4.153272246198516e-05,7.585943976336896e-13
	-3.730841262805212e-05,-1.236003432543372e-13
	-3.905710450916826e-05,-3.969899798341253e-13
	-3.483279467523521e-05,2.380040745452271e-13
	-4.153272246210093e-05,-7.585943976336895e-13
	-3.483279467523521e-05,2.380040745452271e-13
25		1.778279410038922e+00,0.000000000000000e+00
	-3.483279467523521e-01,2.435479016163972e-09
	1.000000000000000e+00,0.000000000000000e+00
	0.000000000000000e+00,0.000000000000000e+00
	6.995327133883771e-05,2.156727597783468e-13
	6.995327395129268e-05,2.402084801370600e-13
	3.483279467523522e-05,-2.435479016163973e-13
	4.153272246198516e-05,7.762643310819945e-13
	-3.730841262805212e-05,-1.264793650956590e-13
	-3.905710450916826e-05,-4.062370643699383e-13
	-3.483279467523521e-05,2.435479016163972e-13
	-4.153272246210093e-05,-7.762643310819945e-13
	-3.483279467523521e-05,2.435479016163972e-13
26		1.819700858609982e+00,0.000000000000000e+00
	-3.483279467523521e-01,2.492208610087418e-09
	1.000000000000000e+00,0.000000000000000e+00
	0.000000000000000e+00,0.000000000000000e+00
	6.995327133883771e-05,2.206964237070329e-13
	6.995327395129268e-05,2.458036544106642e-13
	3.483279467523522e-05,-2.492208610087418e-13
	4.153272246198516e-05,7.943458501537120e-13
	-3.730841262805212e-05,-1.294254479705068e-13
	-3.905710450916826e-05,-4.156995411744634e-13
	-3.483279467523521e-05,2.492208610087418e-13
	-4.153272246210093e-05,-7.943458501537118e-13
	-3.483279467523521e-05,2.492208610087418e-13
27		1.862087136662866e+00,0.000000000000000e+00
	-3.483279467523521e-01,2.550259606004212e-09
	1.000000000000000e+00,0.000000000000000e+00
	0.000000000000000e+00,0.000000000000000e+00
	6.995327133883771e-05,2.258371038008308e-13
	6.995327395129268e-05,2.515291570354329e-13
	3.483279467523522e-05,-2.550259606004213e-13
	4.153272246198516e-05,8.128485419095916e-13
	-3.730841262805212e-05,-1.324401539310170e-13
	-3.905710450916826e-05,-4.253824273781533e-13
	-3.483279467523521e-05,2.550259606004212e-13
	-4.153272246210093e-05,-8.128485419095914e-13
	-3.483279467523521e-05,2.550259606004212e-13
28		1.905460717963246e+00,0.000000000000000e+00
	-3.483279467523521e-01,2.609662783320787e-09
	1.000000000000000e+00,0.000000000000000e+00
	0.000000000000000e+00,0.000000000000000e+00
	6.995327133883771e-05,2.310975257163714e-13
	6.995327395129268e-05,2.573880237486438e-13
	3.483279467523522e-05,-2.609662783320788e-13
	4.153272246198516e-05,8.317822167217139e-13
	-3.730841262805212e-05,-1.355250814141941e-13
	-3.905710450916826e-05,-4.352908569754410e-13
	-3.483279467523521e-05,2.609662783320787e-13
	-4.153272246210093e-05,-8.317822167217137e-13
	-3.483279467523521e-05,2.609662783320787e-13
29		1.949844599758044e+00,0.000000000000000e+00
	-3.483279467523521e-01,2.670449638388049e-09
	1.000000000000000e+00,0.000000000000000e+00
	0.000000000000000e+00,0.000000000000000e+00
	6.995327133883771e-05,2.364804785989842e-13
	6.995327395129268e-05,2.633833609989795e-13
	3.483279467523522e-05,-2.670449638388051e-13
	4.153272246198516e-05,8.511569134750814e-13
	-3.730841262805212e-05,-1.386818660894235e-13
	-3.905710450916826e-05,-4.454300835468529e-13
	-3.483279467523521e-05,2.670449638388049e-13
	-4.153272246210093e-05,-8.511569134750813e-13
	-3.483279467523521e-05,2.670449638388049e-13
30		1.995262314968878e+00,0.000000000000000e+00
	-3.483279467523521e-01,2.732652401201165e-09
	1.000000000000000e+00,0.000000000000000e+00
	0.000000000000000e+00,0.000000000000000e+00
	6.995327133883771e-05,2.419888165615393e-13
	6.995327395129268e-05,2.695183475936078e-13
	3.483279467523522e-05,-2.732652401201166e-13
	4.153272246198516e-05,8.709829048903669e-13
	-3.730841262805212e-05,-1.419121817257250e-13
	-3.905710450916826e-05,-4.558054830445253e-13
	-3.483279467523521e-05,2.732652401201165e-13
	-4.153272246210093e-05,-8.709829048903668e-13
	-3.483279467523521e-05,2.732652401201165e-13
31		2.041737944669527e+00,0.000000000000000e+00
	-3.483279467523521e-01,2.796304052488328e-09
	1.000000000000000e+00,0.000000000000000e+00
	0.000000000000000e+00,0.000000000000000e+00
	6.995327133883771e-05,2.476254601977360e-13
	6.995327395129268e-05,2.757962363836272e-13
	3.483279467523522e-05,-2.796304052488328e-13
	4.153272246198516e-05,8.912707029706468e-13
	-3.730841262805212e-05,-1.452177410792072e-13
	-3.905710450916826e-05,-4.664225566426068e-13
	-3.483279467523521e-05,2.796304052488328e-13
	-4.153272246210093e-05,-8.912707029706466e-13
	-3.483279467523521e-05,2.796304052488328e-13
32		2.089296130854037e+00,0.000000000000000e+00
	-3.483279467523521e-01,2.861438341197580e-09
	1.000000000000000e+00,0.000000000000000e+00
	0.000000000000000e+00,0.000000000000000e+00
	6.995327133883771e-05,2.533933981306402e-13
