LTspice 24.0.9 for Windows
Circuit: * GA CMOS Amp | W=3.6540203496406636e-06 L=4.850877684189122e-07 Vbias=0.8084758097332981
Start Time: Mon Sep  8 18:46:23 2025
solver = Normal
Maximum thread count: 2
tnom = 27
temp = 27
method = modified trap
AsciiRawFile = 1
Instance "m1": Length shorter than recommended for a level 3 MOSFET.
Direct Newton iteration for .op point succeeded.
Semiconductor Device Operating Points:
                        --- MOSFET Transistors ---
Name:          m1
Model:        n_1u
Id:          8.15e-06
Vgs:         8.08e-01
Vds:         1.72e+00
Vbs:         0.00e+00
Vth:         7.56e-01
Vdsat:       8.30e-02
Gm:          1.39e-04
Gds:         3.78e-06
Gmb:         2.63e-05
Cbd:         0.00e+00
Cbs:         0.00e+00
Cgsov:       7.31e-16
Cgdov:       7.31e-16
Cgbov:       2.85e-17
Cgs:         1.20e-15
Cgd:         0.00e+00
Cgb:         0.00e+00



gain_db: MAX(db(v(out)/v(g)))=(28.7562dB,84.7235°) FROM 1 TO 1e+09
gain_lin: MAX(mag(v(out)/v(g)))=(2.52008dB,0°) FROM 1 TO 1e+09

Measurement "fc" FAIL'ed

Total elapsed time: 1.453 seconds.

