Title: * GA CMOS Amp | W=5e-05 L=1.0078940624985244e-07 Vbias=1.1432432825060257
Date: Sat Sep  6 22:05:43 2025
Plotname: AC Analysis
Flags: complex forward log
No. Variables: 13
No. Points:          901
Offset:    0.0000000000000000e+00
Command: Linear Technology Corporation LTspice
Variables:
	0	frequency	frequency
	1	V(out)	voltage
	2	V(g)	voltage
	3	V(vdd)	voltage
	4	V(m1#dbody)	voltage
	5	V(m1#sbody)	voltage
	6	Id(M1)	device_current
	7	Ig(M1)	device_current
	8	Ib(M1)	device_current
	9	Is(M1)	device_current
	10	I(Rload)	device_current
	11	I(Vg)	device_current
	12	I(Vdd)	device_current
Values:
0		1.000000000000000e+00,0.000000000000000e+00
	-7.894477026660760e-04,1.948482895607696e-11
	1.000000000000000e+00,0.000000000000000e+00
	0.000000000000000e+00,0.000000000000000e+00
	2.145792277786064e-06,4.651004342339418e-15
	2.145792285639972e-06,5.578183912051697e-15
	7.894477026660593e-08,-1.948482895607710e-15
	4.153740443504201e-06,1.587332847029374e-12
	-1.144422552683847e-06,-2.914837339948504e-15
	-3.088262661086960e-06,-1.582469526793818e-12
	-7.894477026660760e-08,1.948482895607696e-15
	-4.153740443504916e-06,-1.587332847029375e-12
	-7.894477026660760e-08,1.948482895607696e-15
1		1.023292992280754e+00,0.000000000000000e+00
	-7.894477026660760e-04,1.993868892654268e-11
	1.000000000000000e+00,0.000000000000000e+00
	0.000000000000000e+00,0.000000000000000e+00
	2.145792277786064e-06,4.759340150583285e-15
	2.145792285639972e-06,5.708116506855744e-15
	7.894477026660593e-08,-1.993868892654210e-15
	4.153740443504201e-06,1.624306578782217e-12
	-1.144422552683847e-06,-2.982732623607579e-15
	-3.088262661086960e-06,-1.619329977265956e-12
	-7.894477026660760e-08,1.993868892654268e-15
	-4.153740443504916e-06,-1.624306578782217e-12
	-7.894477026660760e-08,1.993868892654268e-15
2		1.047128548050899e+00,0.000000000000000e+00
	-7.894477026660760e-04,2.040312065379699e-11
	1.000000000000000e+00,0.000000000000000e+00
	0.000000000000000e+00,0.000000000000000e+00
	2.145792277786064e-06,4.870199423972304e-15
	2.145792285639972e-06,5.841075620587578e-15
	7.894477026660593e-08,-2.040312065379735e-15
	4.153740443504201e-06,1.662141539383369e-12
	-1.144422552683847e-06,-3.052209391584823e-15
	-3.088262661086960e-06,-1.657049017926405e-12
	-7.894477026660760e-08,2.040312065379699e-15
	-4.153740443504916e-06,-1.662141539383369e-12
	-7.894477026660760e-08,2.040312065379699e-15
3		1.071519305237606e+00,0.000000000000000e+00
	-7.894477026660760e-04,2.087837038568918e-11
	1.000000000000000e+00,0.000000000000000e+00
	0.000000000000000e+00,0.000000000000000e+00
	2.145792277786064e-06,4.983640941560623e-15
	2.145792285639972e-06,5.977131749929226e-15
	7.894477026660593e-08,-2.087837038568835e-15
	4.153740443504201e-06,1.700857789429747e-12
	-1.144422552683847e-06,-3.123304481382253e-15
	-3.088262661086960e-06,-1.695646647909796e-12
	-7.894477026660760e-08,2.087837038568918e-15
	-4.153740443504916e-06,-1.700857789429747e-12
	-7.894477026660760e-08,2.087837038568918e-15
4		1.096478196143185e+00,0.000000000000000e+00
	-7.894477026660760e-04,2.136469010591775e-11
	1.000000000000000e+00,0.000000000000000e+00
	0.000000000000000e+00,0.000000000000000e+00
	2.145792277786064e-06,5.099724851542445e-15
	2.145792285639972e-06,6.116357033641377e-15
	7.894477026660593e-08,-2.136469010591893e-15
	4.153740443504201e-06,1.740475856789594e-12
	-1.144422552683847e-06,-3.196055588557534e-15
	-3.088262661086960e-06,-1.735143332190445e-12
	-7.894477026660760e-08,2.136469010591775e-15
	-4.153740443504916e-06,-1.740475856789594e-12
	-7.894477026660760e-08,2.136469010591775e-15
5		1.122018454301963e+00,0.000000000000000e+00
	-7.894477026660760e-04,2.186233766763560e-11
	1.000000000000000e+00,0.000000000000000e+00
	0.000000000000000e+00,0.000000000000000e+00
	2.145792277786064e-06,5.218512703143393e-15
	2.145792285639972e-06,6.258825290812322e-15
	7.894477026660593e-08,-2.186233766763615e-15
	4.153740443504201e-06,1.781016747486634e-12
	-1.144422552683847e-06,-3.270501286710666e-15
	-3.088262661086960e-06,-1.775560012433159e-12
	-7.894477026660760e-08,2.186233766763561e-15
	-4.153740443504916e-06,-1.781016747486633e-12
	-7.894477026660760e-08,2.186233766763561e-15
6		1.148153621496882e+00,0.000000000000000e+00
	-7.894477026660760e-04,2.237157693016708e-11
	1.000000000000000e+00,0.000000000000000e+00
	0.000000000000000e+00,0.000000000000000e+00
	2.145792277786064e-06,5.340067479254731e-15
	2.145792285639972e-06,6.404612059997803e-15
	7.894477026660593e-08,-2.237157693016551e-15
	4.153740443504201e-06,1.822501956837734e-12
	-1.144422552683847e-06,-3.346681047936215e-15
	-3.088262661086960e-06,-1.816918118096781e-12
	-7.894477026660760e-08,2.237157693016708e-15
	-4.153740443504916e-06,-1.822501956837733e-12
	-7.894477026660760e-08,2.237157693016708e-15
7		1.174897554939529e+00,0.000000000000000e+00
	-7.894477026660760e-04,2.289267789890976e-11
	1.000000000000000e+00,0.000000000000000e+00
	0.000000000000000e+00,0.000000000000000e+00
	2.145792277786064e-06,5.464453629827715e-15
	2.145792285639972e-06,6.553794639272555e-15
	7.894477026660593e-08,-2.289267789890862e-15
	4.153740443504201e-06,1.864953480850013e-12
	-1.144422552683847e-06,-3.424635263751938e-15
	-3.088262661086960e-06,-1.859239577796371e-12
	-7.894477026660760e-08,2.289267789890976e-15
	-4.153740443504916e-06,-1.864953480850014e-12
	-7.894477026660760e-08,2.289267789890976e-15
8		1.202264434617413e+00,0.000000000000000e+00
	-7.894477026660760e-04,2.342591686849485e-11
	1.000000000000000e+00,0.000000000000000e+00
	0.000000000000000e+00,0.000000000000000e+00
	2.145792277786064e-06,5.591737106045832e-15
	2.145792285639972e-06,6.706452127214779e-15
	7.894477026660593e-08,-2.342591686849843e-15
	4.153740443504201e-06,1.908393827883419e-12
	-1.144422552683847e-06,-3.504405266514911e-15
	-3.088262661086960e-06,-1.902546830930054e-12
	-7.894477026660760e-08,2.342591686849485e-15
	-4.153740443504916e-06,-1.908393827883419e-12
	-7.894477026660760e-08,2.342591686849485e-15
9		1.230268770812381e+00,0.000000000000000e+00
	-7.894477026660760e-04,2.397157656928229e-11
	1.000000000000000e+00,0.000000000000000e+00
	0.000000000000000e+00,0.000000000000000e+00
	2.145792277786064e-06,5.721985395292964e-15
	2.145792285639972e-06,6.862665464845240e-15
	7.894477026660593e-08,-2.397157656928446e-15
	4.153740443504201e-06,1.952846030584946e-12
	-1.144422552683847e-06,-3.586033351336477e-15
	-3.088262661086960e-06,-1.946862839576681e-12
	-7.894477026660760e-08,2.397157656928229e-15
	-4.153740443504916e-06,-1.952846030584946e-12
	-7.894477026660760e-08,2.397157656928229e-15
10		1.258925411794167e+00,0.000000000000000e+00
	-7.894477026660760e-04,2.452994631726809e-11
	1.000000000000000e+00,0.000000000000000e+00
	0.000000000000000e+00,0.000000000000000e+00
	2.145792277786064e-06,5.855267556936111e-15
	2.145792285639972e-06,7.022517478543278e-15
	7.894477026660593e-08,-2.452994631727041e-15
	4.153740443504201e-06,1.998333658100863e-12
	-1.144422552683847e-06,-3.669562798507684e-15
	-3.088262661086960e-06,-1.992211100670628e-12
	-7.894477026660760e-08,2.452994631726809e-15
	-4.153740443504916e-06,-1.998333658100863e-12
	-7.894477026660760e-08,2.452994631726809e-15
11		1.288249551693134e+00,0.000000000000000e+00
	-7.894477026660760e-04,2.510132216748354e-11
	1.000000000000000e+00,0.000000000000000e+00
	0.000000000000000e+00,0.000000000000000e+00
	2.145792277786064e-06,5.991654258941573e-15
	2.145792285639972e-06,7.186092923962447e-15
	7.894477026660593e-08,-2.510132216748390e-15
	4.153740443504201e-06,2.044880828573378e-12
	-1.144422552683847e-06,-3.755037896447067e-15
	-3.088262661086960e-06,-2.038615658460182e-12
	-7.894477026660760e-08,2.510132216748354e-15
	-4.153740443504916e-06,-2.044880828573378e-12
	-7.894477026660760e-08,2.510132216748354e-15
12		1.318256738556407e+00,0.000000000000000e+00
	-7.894477026660760e-04,2.568600707096745e-11
	1.000000000000000e+00,0.000000000000000e+00
	0.000000000000000e+00,0.000000000000000e+00
	2.145792277786064e-06,6.131217815344047e-15
	2.145792285639972e-06,7.353478530969087e-15
	7.894477026660593e-08,-2.568600707096907e-15
	4.153740443504201e-06,2.092512221928399e-12
	-1.144422552683847e-06,-3.842503965182947e-15
	-3.088262661086960e-06,-2.086101117256119e-12
	-7.894477026660760e-08,2.568600707096745e-15
	-4.153740443504916e-06,-2.092512221928399e-12
	-7.894477026660760e-08,2.568600707096745e-15
13		1.348962882591653e+00,0.000000000000000e+00
	-7.894477026660760e-04,2.628431103539489e-11
	1.000000000000000e+00,0.000000000000000e+00
	0.000000000000000e+00,0.000000000000000e+00
	2.145792277786064e-06,6.274032224588478e-15
	2.145792285639972e-06,7.524763049627642e-15
	7.894477026660593e-08,-2.628431103539618e-15
	4.153740443504201e-06,2.141253092961161e-12
	-1.144422552683847e-06,-3.932007380382721e-15
	-3.088262661086960e-06,-2.134692654477239e-12
	-7.894477026660760e-08,2.628431103539489e-15
	-4.153740443504916e-06,-2.141253092961161e-12
	-7.894477026660760e-08,2.628431103539489e-15
14		1.380384264602885e+00,0.000000000000000e+00
	-7.894477026660760e-04,2.689655128944728e-11
	1.000000000000000e+00,0.000000000000000e+00
	0.000000000000000e+00,0.000000000000000e+00
	2.145792277786064e-06,6.420173208765022e-15
	2.145792285639972e-06,7.700037297257124e-15
	7.894477026660593e-08,-2.689655128944759e-15
	4.153740443504201e-06,2.191129284726646e-12
	-1.144422552683847e-06,-4.023595597941845e-15
	-3.088262661086960e-06,-2.184416033999760e-12
	-7.894477026660760e-08,2.689655128944729e-15
	-4.153740443504916e-06,-2.191129284726647e-12
	-7.894477026660760e-08,2.689655128944729e-15
15		1.412537544622754e+00,0.000000000000000e+00
	-7.894477026660760e-04,2.752305245101129e-11
	1.000000000000000e+00,0.000000000000000e+00
	0.000000000000000e+00,0.000000000000000e+00
	2.145792277786064e-06,6.569718253757890e-15
	2.145792285639972e-06,7.879394206583652e-15
	7.894477026660593e-08,-2.752305245101250e-15
	4.153740443504201e-06,2.242167242241918e-12
	-1.144422552683847e-06,-4.117317179145580e-15
	-3.088262661086960e-06,-2.235297619817671e-12
	-7.894477026660760e-08,2.752305245101129e-15
	-4.153740443504916e-06,-2.242167242241918e-12
	-7.894477026660760e-08,2.752305245101129e-15
16		1.445439770745927e+00,0.000000000000000e+00
	-7.894477026660760e-04,2.816414669929547e-11
	1.000000000000000e+00,0.000000000000000e+00
	0.000000000000000e+00,0.000000000000000e+00
	2.145792277786064e-06,6.722746650329397e-15
	2.145792285639972e-06,8.062928875014620e-15
	7.894477026660593e-08,-2.816414669929745e-15
	4.153740443504201e-06,2.294394026507618e-12
	-1.144422552683847e-06,-4.213221816416832e-15
	-3.088262661086960e-06,-2.287364390021272e-12
	-7.894477026660760e-08,2.816414669929548e-15
	-4.153740443504916e-06,-2.294394026507618e-12
	-7.894477026660760e-08,2.816414669929548e-15
17		1.479108388168207e+00,0.000000000000000e+00
	-7.894477026660760e-04,2.882017395095619e-11
	1.000000000000000e+00,0.000000000000000e+00
	0.000000000000000e+00,0.000000000000000e+00
	2.145792277786064e-06,6.879339536160987e-15
	2.145792285639972e-06,8.250738615060606e-15
	7.894477026660593e-08,-2.882017395095764e-15
	4.153740443504201e-06,2.347837328856069e-12
	-1.144422552683847e-06,-4.311360359663734e-15
	-3.088262661086960e-06,-2.340643951101310e-12
	-7.894477026660760e-08,2.882017395095620e-15
	-4.153740443504916e-06,-2.347837328856069e-12
	-7.894477026660760e-08,2.882017395095620e-15
18		1.513561248436208e+00,0.000000000000000e+00
	-7.894477026660760e-04,2.949148204032580e-11
	1.000000000000000e+00,0.000000000000000e+00
	0.000000000000000e+00,0.000000000000000e+00
	2.145792277786064e-06,7.039579938873472e-15
	2.145792285639972e-06,8.442923005931733e-15
	7.894477026660593e-08,-2.949148204032579e-15
	4.153740443504201e-06,2.402525485633580e-12
	-1.144422552683847e-06,-4.411784843240932e-15
	-3.088262661086960e-06,-2.395164552586306e-12
	-7.894477026660760e-08,2.949148204032580e-15
	-4.153740443504916e-06,-2.402525485633579e-12
	-7.894477026660760e-08,2.949148204032580e-15
19		1.548816618912481e+00,0.000000000000000e+00
	-7.894477026660760e-04,3.017842690383911e-11
	1.000000000000000e+00,0.000000000000000e+00
	0.000000000000000e+00,0.000000000000000e+00
	2.145792277786064e-06,7.203552820049404e-15
	2.145792285639972e-06,8.639583946335904e-15
	7.894477026660593e-08,-3.017842690384350e-15
	4.153740443504201e-06,2.458487493224758e-12
	-1.144422552683847e-06,-4.514548513538892e-15
	-3.088262661086960e-06,-2.450955102020835e-12
	-7.894477026660760e-08,3.017842690383911e-15
	-4.153740443504916e-06,-2.458487493224757e-12
	-7.894477026660760e-08,3.017842690383911e-15
20		1.584893192461113e+00,0.000000000000000e+00
	-7.894477026660760e-04,3.088137276875554e-11
	1.000000000000000e+00,0.000000000000000e+00
	0.000000000000000e+00,0.000000000000000e+00
	2.145792277786064e-06,7.371345120280821e-15
	2.145792285639972e-06,8.840825708506833e-15
	7.894477026660593e-08,-3.088137276875376e-15
	4.153740443504201e-06,2.515753023426772e-12
	-1.144422552683847e-06,-4.619705857215843e-15
	-3.088262661086960e-06,-2.508045180292681e-12
	-7.894477026660760e-08,3.088137276875554e-15
	-4.153740443504916e-06,-2.515753023426772e-12
	-7.894477026660760e-08,3.088137276875554e-15
21		1.621810097358929e+00,0.000000000000000e+00
	-7.894477026660760e-04,3.160069234627725e-11
	1.000000000000000e+00,0.000000000000000e+00
	0.000000000000000e+00,0.000000000000000e+00
	2.145792277786064e-06,7.543045805266294e-15
	2.145792285639972e-06,9.046754993490573e-15
	7.894477026660593e-08,-3.160069234627469e-15
	4.153740443504201e-06,2.574352439181736e-12
	-1.144422552683847e-06,-4.727312630087325e-15
	-3.088262661086960e-06,-2.566465057317021e-12
	-7.894477026660760e-08,3.160069234627726e-15
	-4.153740443504916e-06,-2.574352439181736e-12
	-7.894477026660760e-08,3.160069234627726e-15
22		1.659586907437560e+00,0.000000000000000e+00
	-7.894477026660760e-04,3.233676702916558e-11
	1.000000000000000e+00,0.000000000000000e+00
	0.000000000000000e+00,0.000000000000000e+00
	2.145792277786064e-06,7.718745912981739e-15
	2.145792285639972e-06,9.257480987719825e-15
	7.894477026660593e-08,-3.233676702916766e-15
	4.153740443504201e-06,2.634316810675537e-12
	-1.144422552683847e-06,-4.837425886688661e-15
	-3.088262661086960e-06,-2.626245708085932e-12
	-7.894477026660760e-08,3.233676702916558e-15
	-4.153740443504916e-06,-2.634316810675537e-12
	-7.894477026660760e-08,3.233676702916558e-15
23		1.698243652461743e+00,0.000000000000000e+00
	-7.894477026660760e-04,3.308998709396048e-11
	1.000000000000000e+00,0.000000000000000e+00
	0.000000000000000e+00,0.000000000000000e+00
	2.145792277786064e-06,7.898538601949925e-15
	2.145792285639972e-06,9.473115420906009e-15
	7.894477026660593e-08,-3.308998709396035e-15
	4.153740443504201e-06,2.695677931811663e-12
	-1.144422552683847e-06,-4.950104010526021e-15
	-3.088262661086960e-06,-2.687418829091741e-12
	-7.894477026660760e-08,3.308998709396048e-15
	-4.153740443504916e-06,-2.695677931811663e-12
	-7.894477026660760e-08,3.308998709396048e-15
24		1.737800828749374e+00,0.000000000000000e+00
	-7.894477026660760e-04,3.386075190791035e-11
	1.000000000000000e+00,0.000000000000000e+00
	0.000000000000000e+00,0.000000000000000e+00
	2.145792277786064e-06,8.082519200634381e-15
	2.145792285639972e-06,9.693772625279865e-15
	7.894477026660593e-08,-3.386075190791152e-15
	4.153740443504201e-06,2.758468337068750e-12
	-1.144422552683847e-06,-5.065406745032133e-15
	-3.088262661086960e-06,-2.750016855132927e-12
	-7.894477026660760e-08,3.386075190791035e-15
	-4.153740443504916e-06,-2.758468337068750e-12
	-7.894477026660760e-08,3.386075190791035e-15
25		1.778279410038922e+00,0.000000000000000e+00
	-7.894477026660760e-04,3.464947014072183e-11
	1.000000000000000e+00,0.000000000000000e+00
	0.000000000000000e+00,0.000000000000000e+00
	2.145792277786064e-06,8.270785257983804e-15
	2.145792285639972e-06,9.919569596211897e-15
	7.894477026660593e-08,-3.464947014072361e-15
	4.153740443504201e-06,2.822721318750798e-12
	-1.144422552683847e-06,-5.183395225243046e-15
	-3.088262661086960e-06,-2.814072976511482e-12
	-7.894477026660760e-08,3.464947014072183e-15
	-4.153740443504916e-06,-2.822721318750798e-12
	-7.894477026660760e-08,3.464947014072183e-15
26		1.819700858609982e+00,0.000000000000000e+00
	-7.894477026660760e-04,3.545655998124188e-11
	1.000000000000000e+00,0.000000000000000e+00
	0.000000000000000e+00,0.000000000000000e+00
	2.145792277786064e-06,8.463436595153795e-15
	2.145792285639972e-06,1.015062605424486e-14
	7.894477026660593e-08,-3.545655998124348e-15
	4.153740443504201e-06,2.888470944639180e-12
	-1.144422552683847e-06,-5.304132010212730e-15
	-3.088262661086960e-06,-2.879621156630843e-12
	-7.894477026660760e-08,3.545655998124188e-15
	-4.153740443504916e-06,-2.888470944639180e-12
	-7.894477026660760e-08,3.545655998124188e-15
27		1.862087136662866e+00,0.000000000000000e+00
	-7.894477026660760e-04,3.628244935918705e-11
	1.000000000000000e+00,0.000000000000000e+00
	0.000000000000000e+00,0.000000000000000e+00
	2.145792277786064e-06,8.660575358433363e-15
	2.145792285639972e-06,1.038706450857121e-14
	7.894477026660593e-08,-3.628244935918557e-15
	4.153740443504201e-06,2.955752076055843e-12
	-1.144422552683847e-06,-5.427681116182714e-15
	-3.088262661086960e-06,-2.946696150003742e-12
	-7.894477026660760e-08,3.628244935918706e-15
	-4.153740443504916e-06,-2.955752076055843e-12
	-7.894477026660760e-08,3.628244935918706e-15
28		1.905460717963246e+00,0.000000000000000e+00
	-7.894477026660760e-04,3.712757617203745e-11
	1.000000000000000e+00,0.000000000000000e+00
	0.000000000000000e+00,0.000000000000000e+00
	2.145792277786064e-06,8.862306073404242e-15
	2.145792285639972e-06,1.062901032198905e-14
	7.894477026660593e-08,-3.712757617203504e-15
	4.153740443504201e-06,3.024600386347235e-12
	-1.144422552683847e-06,-5.554108050524354e-15
	-3.088262661086960e-06,-3.015333520679507e-12
	-7.894477026660760e-08,3.712757617203745e-15
	-4.153740443504916e-06,-3.024600386347235e-12
	-7.894477026660760e-08,3.712757617203745e-15
29		1.949844599758044e+00,0.000000000000000e+00
	-7.894477026660760e-04,3.799238851721583e-11
	1.000000000000000e+00,0.000000000000000e+00
	0.000000000000000e+00,0.000000000000000e+00
	2.145792277786064e-06,9.068735700361727e-15
	2.145792285639972e-06,1.087659177737120e-14
	7.894477026660593e-08,-3.799238851721171e-15
	4.153740443504201e-06,3.095052379798787e-12
	-1.144422552683847e-06,-5.683479846471692e-15
	-3.088262661086960e-06,-3.085569661100594e-12
	-7.894477026660760e-08,3.799238851721583e-15
	-4.153740443504916e-06,-3.095052379798787e-12
	-7.894477026660760e-08,3.799238851721583e-15
30		1.995262314968878e+00,0.000000000000000e+00
	-7.894477026660760e-04,3.887734492967474e-11
	1.000000000000000e+00,0.000000000000000e+00
	0.000000000000000e+00,0.000000000000000e+00
	2.145792277786064e-06,9.279973691026451e-15
	2.145792285639972e-06,1.112994014568242e-14
	7.894477026660593e-08,-3.887734492967650e-15
	4.153740443504201e-06,3.167145410989970e-12
	-1.144422552683847e-06,-5.815865098663377e-15
	-3.088262661086960e-06,-3.157441811398339e-12
	-7.894477026660760e-08,3.887734492967474e-15
	-4.153740443504916e-06,-3.167145410989969e-12
	-7.894477026660760e-08,3.887734492967474e-15
31		2.041737944669527e+00,0.000000000000000e+00
	-7.894477026660760e-04,3.978291462501786e-11
	1.000000000000000e+00,0.000000000000000e+00
	0.000000000000000e+00,0.000000000000000e+00
	2.145792277786064e-06,9.496132046577127e-15
	2.145792285639972e-06,1.138918975558105e-14
	7.894477026660593e-08,-3.978291462502066e-15
	4.153740443504201e-06,3.240917704600185e-12
	-1.144422552683847e-06,-5.951333999512450e-15
	-3.088262661086960e-06,-3.230988079138170e-12
	-7.894477026660760e-08,3.978291462501786e-15
	-4.153740443504916e-06,-3.240917704600184e-12
	-7.894477026660760e-08,3.978291462501786e-15
32		2.089296130854037e+00,0.000000000000000e+00
	-7.894477026660760e-04,4.070957774828431e-11
	1.000000000000000e+00,0.000000000000000e+00
	0.000000000000000e+00,0.000000000000000e+00
	2.145792277786064e-06,9.717325377035070e-15
