LTspice 24.0.9 for Windows
Circuit: * GA CMOS Amp | W=4.113554112591065e-06 L=2.4489271158264623e-07 Vbias=1.1033240601937937
Start Time: Sat Sep  6 22:06:33 2025
solver = Normal
Maximum thread count: 2
tnom = 27
temp = 27
method = modified trap
AsciiRawFile = 1
Direct Newton iteration for .op point succeeded.
Semiconductor Device Operating Points:
                        --- BSIM4 MOSFETS ---
Name:      m1
Model:      n
Id:      1.68e-04
Vgs:     1.10e+00
Vds:     1.20e-01
Vbs:     0.00e+00
Vth:     2.81e-01
Vdsat:   5.91e-01
Gm:      2.91e-05
Gds:     1.25e-03
Gmb      1.03e-04
Cbd:     1.98e-15
Cbs:     3.29e-15


.measure op idd find i(vdd)
  Error: FIND can not be evaluated over an interval.

gain_db: MAX(db(v(out)/v(g)))=(32.6925dB,140.735°) FROM 1 TO 1e+09
gain_lin: MAX(mag(v(out)/v(g)))=(-19.9574dB,0°) FROM 1 TO 1e+09

Measurement "fc" FAIL'ed

Total elapsed time: 0.728 seconds.

