LTspice 24.0.9 for Windows
Circuit: * GA CMOS Amp | W=2.6793565976647214e-05 L=9.711384618241942e-07 Vbias=0.5
Start Time: Mon Sep  8 18:47:10 2025
solver = Normal
Maximum thread count: 2
tnom = 27
temp = 27
method = modified trap
AsciiRawFile = 1
Instance "m1": Length shorter than recommended for a level 3 MOSFET.
Direct Newton iteration for .op point succeeded.
Semiconductor Device Operating Points:
                        --- MOSFET Transistors ---
Name:          m1
Model:        n_1u
Id:          2.61e-08
Vgs:         5.00e-01
Vds:         1.80e+00
Vbs:         0.00e+00
Vth:         8.07e-01
Vdsat:       4.87e-02
Gm:          4.74e-07
Gds:         1.47e-09
Gmb:         1.25e-07
Cbd:         0.00e+00
Cbs:         0.00e+00
Cgsov:       5.36e-15
Cgdov:       5.36e-15
Cgbov:       7.71e-17
Cgs:         2.91e-15
Cgd:         0.00e+00
Cgb:         1.57e-14



gain_db: MAX(db(v(out)/v(g)))=(34.6315dB,149.584°) FROM 1 TO 1e+09
gain_lin: MAX(mag(v(out)/v(g)))=(-9.92082dB,0°) FROM 1 TO 1e+09

Measurement "fc" FAIL'ed

Total elapsed time: 0.437 seconds.

