Title: * GA CMOS Amp | W=7.062333653035823e-06 L=7.474143077637906e-07 Vbias=0.6272007385308873
Date: Sat Sep  6 22:06:42 2025
Plotname: AC Analysis
Flags: complex forward log
No. Variables: 13
No. Points:          901
Offset:    0.0000000000000000e+00
Command: Linear Technology Corporation LTspice
Variables:
	0	frequency	frequency
	1	V(out)	voltage
	2	V(g)	voltage
	3	V(vdd)	voltage
	4	V(m1#dbody)	voltage
	5	V(m1#sbody)	voltage
	6	Id(M1)	device_current
	7	Ig(M1)	device_current
	8	Ib(M1)	device_current
	9	Is(M1)	device_current
	10	I(Rload)	device_current
	11	I(Vg)	device_current
	12	I(Vdd)	device_current
Values:
0		1.000000000000000e+00,0.000000000000000e+00
	-3.309121410219266e+00,4.728879508006078e-09
	1.000000000000000e+00,0.000000000000000e+00
	0.000000000000000e+00,0.000000000000000e+00
	2.671303968449446e-09,-1.938937984680943e-13
	2.696122379040111e-09,2.885760556019621e-13
	3.309121410219267e-04,-4.728879508006080e-13
	3.024202785087819e-07,1.223540813843018e-12
	-1.436277375866314e-09,-1.217425730715814e-13
	-3.312131250230596e-04,-6.289102899708288e-13
	-3.309121410219267e-04,4.728879508006078e-13
	-3.024202785972818e-07,-1.223540813843018e-12
	-3.309121410219267e-04,4.728879508006078e-13
1		1.023292992280754e+00,0.000000000000000e+00
	-3.309121410219266e+00,4.839029261882681e-09
	1.000000000000000e+00,0.000000000000000e+00
	0.000000000000000e+00,0.000000000000000e+00
	2.671303968449408e-09,-1.984101652190977e-13
	2.696122379040106e-09,2.952978554375091e-13
	3.309121410219267e-04,-4.839029261882681e-13
	3.024202785087819e-07,1.252040740575051e-12
	-1.436277375866309e-09,-1.245783218863770e-13
	-3.312131250230596e-04,-6.435594925004062e-13
	-3.309121410219267e-04,4.839029261882681e-13
	-3.024202785972818e-07,-1.252040740575051e-12
	-3.309121410219267e-04,4.839029261882681e-13
2		1.047128548050899e+00,0.000000000000000e+00
	-3.309121410219266e+00,4.951744733126056e-09
	1.000000000000000e+00,0.000000000000000e+00
	0.000000000000000e+00,0.000000000000000e+00
	2.671303968449369e-09,-2.030317316659693e-13
	2.696122379040101e-09,3.021762261047382e-13
	3.309121410219267e-04,-4.951744733126058e-13
	3.024202785087819e-07,1.281204515880456e-12
	-1.436277375866304e-09,-1.274801237764256e-13
	-3.312131250230596e-04,-6.585499187914241e-13
	-3.309121410219267e-04,4.951744733126056e-13
	-3.024202785972818e-07,-1.281204515880455e-12
	-3.309121410219267e-04,4.951744733126056e-13
3		1.071519305237606e+00,0.000000000000000e+00
	-3.309121410219266e+00,5.067085684971026e-09
	1.000000000000000e+00,0.000000000000000e+00
	0.000000000000000e+00,0.000000000000000e+00
	2.671303968449328e-09,-2.077609482244130e-13
	2.696122379040096e-09,3.092148146068231e-13
	3.309121410219267e-04,-5.067085684971028e-13
	3.024202785087819e-07,1.311047602778926e-12
	-1.436277375866299e-09,-1.304495173154994e-13
	-3.312131250230596e-04,-6.738895169663239e-13
	-3.309121410219267e-04,5.067085684971026e-13
	-3.024202785972818e-07,-1.311047602778926e-12
	-3.309121410219267e-04,5.067085684971026e-13
4		1.096478196143185e+00,0.000000000000000e+00
	-3.309121410219266e+00,5.185113272716975e-09
	1.000000000000000e+00,0.000000000000000e+00
	0.000000000000000e+00,0.000000000000000e+00
	2.671303968449286e-09,-2.126003223876463e-13
	2.696122379040091e-09,3.164173528965547e-13
	3.309121410219267e-04,-5.185113272716976e-13
	3.024202785087819e-07,1.341585824470157e-12
	-1.436277375866293e-09,-1.334880769153575e-13
	-3.312131250230596e-04,-6.895864202831015e-13
	-3.309121410219267e-04,5.185113272716975e-13
	-3.024202785972818e-07,-1.341585824470156e-12
	-3.309121410219267e-04,5.185113272716975e-13
5		1.122018454301963e+00,0.000000000000000e+00
	-3.309121410219266e+00,5.305890076153208e-09
	1.000000000000000e+00,0.000000000000000e+00
	0.000000000000000e+00,0.000000000000000e+00
	2.671303968449241e-09,-2.175524200559075e-13
	2.696122379040085e-09,3.237876598550708e-13
	3.309121410219267e-04,-5.305890076153211e-13
	3.024202785087819e-07,1.372835372723509e-12
	-1.436277375866288e-09,-1.365974136605196e-13
	-3.312131250230596e-04,-7.056489514476688e-13
	-3.309121410219267e-04,5.305890076153208e-13
	-3.024202785972818e-07,-1.372835372723509e-12
	-3.309121410219267e-04,5.305890076153208e-13
6		1.148153621496882e+00,0.000000000000000e+00
	-3.309121410219266e+00,5.429480132739575e-09
	1.000000000000000e+00,0.000000000000000e+00
	0.000000000000000e+00,0.000000000000000e+00
	2.671303968449194e-09,-2.226198668969292e-13
	2.696122379040079e-09,3.313296433166784e-13
	3.309121410219267e-04,-5.429480132739576e-13
	3.024202785087819e-07,1.404812816463104e-12
	-1.436277375866282e-09,-1.397791761624850e-13
	-3.312131250230596e-04,-7.220856270266615e-13
	-3.309121410219267e-04,5.429480132739575e-13
	-3.024202785972818e-07,-1.404812816463104e-12
	-3.309121410219267e-04,5.429480132739575e-13
7		1.174897554939529e+00,0.000000000000000e+00
	-3.309121410219266e+00,5.555948971559985e-09
	1.000000000000000e+00,0.000000000000000e+00
	0.000000000000000e+00,0.000000000000000e+00
	2.671303968449144e-09,-2.278053497381017e-13
	2.696122379040072e-09,3.390473021408389e-13
	3.309121410219267e-04,-5.555948971559986e-13
	3.024202785087819e-07,1.437535110552884e-12
	-1.436277375866275e-09,-1.430350514338480e-13
	-3.312131250230596e-04,-7.389051619630371e-13
	-3.309121410219267e-04,5.555948971559985e-13
	-3.024202785972818e-07,-1.437535110552884e-12
	-3.309121410219267e-04,5.555948971559985e-13
8		1.202264434617413e+00,0.000000000000000e+00
	-3.309121410219266e+00,5.685363648066796e-09
	1.000000000000000e+00,0.000000000000000e+00
	0.000000000000000e+00,0.000000000000000e+00
	2.671303968449093e-09,-2.331116179910660e-13
	2.696122379040066e-09,3.469447283324158e-13
	3.309121410219267e-04,-5.685363648066798e-13
	3.024202785087819e-07,1.471019604786305e-12
	-1.436277375866269e-09,-1.463667657827738e-13
	-3.312131250230596e-04,-7.561164741968514e-13
	-3.309121410219267e-04,5.685363648066797e-13
	-3.024202785972818e-07,-1.471019604786305e-12
	-3.309121410219267e-04,5.685363648066797e-13
9		1.230268770812381e+00,0.000000000000000e+00
	-3.309121410219266e+00,5.817792779634495e-09
	1.000000000000000e+00,0.000000000000000e+00
	0.000000000000000e+00,0.000000000000000e+00
	2.671303968449039e-09,-2.385414851094859e-13
	2.696122379040059e-09,3.550261092113112e-13
	3.309121410219267e-04,-5.817792779634497e-13
	3.024202785087819e-07,1.505284053085430e-12
	-1.436277375866262e-09,-1.497760857283110e-13
	-3.312131250230596e-04,-7.737286893936697e-13
	-3.309121410219267e-04,5.817792779634495e-13
	-3.024202785972818e-07,-1.505284053085430e-12
	-3.309121410219267e-04,5.817792779634495e-13
10		1.258925411794167e+00,0.000000000000000e+00
	-3.309121410219266e+00,5.953306581941550e-09
	1.000000000000000e+00,0.000000000000000e+00
	0.000000000000000e+00,0.000000000000000e+00
	2.671303968448982e-09,-2.440978300807811e-13
	2.696122379040052e-09,3.632957296326364e-13
	3.309121410219267e-04,-5.953306581941551e-13
	3.024202785087819e-07,1.540346622914292e-12
	-1.436277375866255e-09,-1.532648189370220e-13
	-3.312131250230596e-04,-7.917511457831146e-13
	-3.309121410219267e-04,5.953306581941551e-13
	-3.024202785972818e-07,-1.540346622914291e-12
	-3.309121410219267e-04,5.953306581941551e-13
11		1.288249551693134e+00,0.000000000000000e+00
	-3.309121410219266e+00,6.091976906199677e-09
	1.000000000000000e+00,0.000000000000000e+00
	0.000000000000000e+00,0.000000000000000e+00
	2.671303968448923e-09,-2.497835989526015e-13
	2.696122379040044e-09,3.717579742586004e-13
	3.309121410219267e-04,-6.091976906199678e-13
	3.024202785087819e-07,1.576225904911520e-12
	-1.436277375866247e-09,-1.568348151814333e-13
	-3.312131250230596e-04,-8.101933991101190e-13
	-3.309121410219267e-04,6.091976906199678e-13
	-3.024202785972818e-07,-1.576225904911520e-12
	-3.309121410219267e-04,6.091976906199678e-13
12		1.318256738556407e+00,0.000000000000000e+00
	-3.309121410219266e+00,6.233877277250318e-09
	1.000000000000000e+00,0.000000000000000e+00
	0.000000000000000e+00,0.000000000000000e+00
	2.671303968448861e-09,-2.556018063948633e-13
	2.696122379040036e-09,3.804173298833148e-13
	3.309121410219267e-04,-6.233877277250321e-13
	3.024202785087819e-07,1.612940922747349e-12
	-1.436277375866240e-09,-1.604879673208080e-13
	-3.312131250230596e-04,-8.290652277015088e-13
	-3.309121410219267e-04,6.233877277250319e-13
	-3.024202785972818e-07,-1.612940922747349e-12
	-3.309121410219267e-04,6.233877277250319e-13
13		1.348962882591653e+00,0.000000000000000e+00
	-3.309121410219266e+00,6.379082932548478e-09
	1.000000000000000e+00,0.000000000000000e+00
	0.000000000000000e+00,0.000000000000000e+00
	2.671303968448796e-09,-2.615555372981656e-13
	2.696122379040028e-09,3.892783878117520e-13
	3.309121410219267e-04,-6.379082932548481e-13
	3.024202785087819e-07,1.650511143210215e-12
	-1.436277375866231e-09,-1.642262123047655e-13
	-3.312131250230596e-04,-8.483766376506017e-13
	-3.309121410219267e-04,6.379082932548479e-13
	-3.024202785972818e-07,-1.650511143210215e-12
	-3.309121410219267e-04,6.379082932548479e-13
14		1.380384264602885e+00,0.000000000000000e+00
	-3.309121410219266e+00,6.527670862054623e-09
	1.000000000000000e+00,0.000000000000000e+00
	0.000000000000000e+00,0.000000000000000e+00
	2.671303968448729e-09,-2.676479484094403e-13
	2.696122379040019e-09,3.983458462941155e-13
	3.309121410219267e-04,-6.527670862054623e-13
	3.024202785087818e-07,1.688956486528309e-12
	-1.436277375866223e-09,-1.680515322002779e-13
	-3.312131250230596e-04,-8.681378681225693e-13
	-3.309121410219267e-04,6.527670862054623e-13
	-3.024202785972818e-07,-1.688956486528309e-12
	-3.309121410219267e-04,6.527670862054623e-13
15		1.412537544622754e+00,0.000000000000000e+00
	-3.309121410219266e+00,6.679719849055765e-09
	1.000000000000000e+00,0.000000000000000e+00
	0.000000000000000e+00,0.000000000000000e+00
	2.671303968448658e-09,-2.738822700057012e-13
	2.696122379040010e-09,4.076245130169148e-13
	3.309121410219267e-04,-6.679719849055766e-13
	3.024202785087818e-07,1.728297336931543e-12
	-1.436277375866214e-09,-1.719659552425878e-13
	-3.312131250230596e-04,-8.883593967833789e-13
	-3.309121410219267e-04,6.679719849055766e-13
	-3.024202785972818e-07,-1.728297336931543e-12
	-3.309121410219267e-04,6.679719849055766e-13
16		1.445439770745927e+00,0.000000000000000e+00
	-3.309121410219266e+00,6.835310511937418e-09
	1.000000000000000e+00,0.000000000000000e+00
	0.000000000000000e+00,0.000000000000000e+00
	2.671303968448583e-09,-2.802618076067792e-13
	2.696122379040000e-09,4.171193076520639e-13
	3.309121410219267e-04,-6.835310511937418e-13
	3.024202785087818e-07,1.768554553459537e-12
	-1.436277375866204e-09,-1.759715569106059e-13
	-3.312131250230596e-04,-9.090519453551892e-13
	-3.309121410219267e-04,6.835310511937419e-13
	-3.024202785972818e-07,-1.768554553459537e-12
	-3.309121410219267e-04,6.835310511937419e-13
17		1.479108388168207e+00,0.000000000000000e+00
	-3.309121410219266e+00,6.994525346928533e-09
	1.000000000000000e+00,0.000000000000000e+00
	0.000000000000000e+00,0.000000000000000e+00
	2.671303968448505e-09,-2.867899437279542e-13
	2.696122379039991e-09,4.268352644653568e-13
	3.309121410219267e-04,-6.994525346928534e-13
	3.024202785087818e-07,1.809749481021362e-12
	-1.436277375866195e-09,-1.800704610273569e-13
	-3.312131250230596e-04,-9.302264853011521e-13
	-3.309121410219267e-04,6.994525346928533e-13
	-3.024202785972818e-07,-1.809749481021362e-12
	-3.309121410219267e-04,6.994525346928533e-13
18		1.513561248436208e+00,0.000000000000000e+00
	-3.309121410219266e+00,7.157448771842080e-09
	1.000000000000000e+00,0.000000000000000e+00
	0.000000000000000e+00,0.000000000000000e+00
	2.671303968448424e-09,-2.934701396734072e-13
	2.696122379039980e-09,4.367775349857022e-13
	3.309121410219267e-04,-7.157448771842081e-13
	3.024202785087818e-07,1.851903961712892e-12
	-1.436277375866184e-09,-1.842648408860590e-13
	-3.312131250230596e-04,-9.518942436426250e-13
	-3.309121410219267e-04,7.157448771842080e-13
	-3.024202785972818e-07,-1.851903961712892e-12
	-3.309121410219267e-04,7.157448771842080e-13
19		1.548816618912481e+00,0.000000000000000e+00
	-3.309121410219266e+00,7.324167170834490e-09
	1.000000000000000e+00,0.000000000000000e+00
	0.000000000000000e+00,0.000000000000000e+00
	2.671303968448338e-09,-3.003059373714517e-13
	2.696122379039969e-09,4.469513907365309e-13
	3.309121410219267e-04,-7.324167170834491e-13
	3.024202785087818e-07,1.895040346397768e-12
	-1.436277375866173e-09,-1.885569204024324e-13
	-3.312131250230596e-04,-9.740667089118868e-13
	-3.309121410219267e-04,7.324167170834491e-13
	-3.024202785972818e-07,-1.895040346397768e-12
	-3.309121410219267e-04,7.324167170834491e-13
20		1.584893192461113e+00,0.000000000000000e+00
	-3.309121410219266e+00,7.494768940207691e-09
	1.000000000000000e+00,0.000000000000000e+00
	0.000000000000000e+00,0.000000000000000e+00
	2.671303968448249e-09,-3.073009612525096e-13
	2.696122379039958e-09,4.573622260308292e-13
	3.309121410219267e-04,-7.494768940207691e-13
	3.024202785087818e-07,1.939181506558129e-12
	-1.436277375866162e-09,-1.929489752938490e-13
	-3.312131250230596e-04,-9.967556372435110e-13
	-3.309121410219267e-04,7.494768940207690e-13
	-3.024202785972818e-07,-1.939181506558128e-12
	-3.309121410219267e-04,7.494768940207690e-13
21		1.621810097358929e+00,0.000000000000000e+00
	-3.309121410219266e+00,7.669344535277984e-09
	1.000000000000000e+00,0.000000000000000e+00
	0.000000000000000e+00,0.000000000000000e+00
	2.671303968448155e-09,-3.144589201708324e-13
	2.696122379039945e-09,4.680155608312739e-13
	3.309121410219267e-04,-7.669344535277986e-13
	3.024202785087818e-07,1.984350846421369e-12
	-1.436277375866150e-09,-1.974433342859481e-13
	-3.312131250230596e-04,-1.019973058607622e-12
	-3.309121410219267e-04,7.669344535277985e-13
	-3.024202785972818e-07,-1.984350846421369e-12
	-3.309121410219267e-04,7.669344535277985e-13
22		1.659586907437560e+00,0.000000000000000e+00
	-3.309121410219266e+00,7.847986518336656e-09
	1.000000000000000e+00,0.000000000000000e+00
	0.000000000000000e+00,0.000000000000000e+00
	2.671303968448058e-09,-3.217836093709862e-13
	2.696122379039933e-09,4.789170436769893e-13
	3.309121410219267e-04,-7.847986518336660e-13
	3.024202785087818e-07,2.030572315369369e-12
	-1.436277375866138e-09,-2.020423803473569e-13
	-3.312131250230596e-04,-1.043731283188347e-12
	-3.309121410219267e-04,7.847986518336656e-13
	-3.024202785972818e-07,-2.030572315369369e-12
	-3.309121410219267e-04,7.847986518336656e-13
23		1.698243652461743e+00,0.000000000000000e+00
	-3.309121410219266e+00,8.030789607727736e-09
	1.000000000000000e+00,0.000000000000000e+00
	0.000000000000000e+00,0.000000000000000e+00
	2.671303968447955e-09,-3.292789125001378e-13
	2.696122379039920e-09,4.900724546784793e-13
	3.309121410219267e-04,-8.030789607727738e-13
	3.024202785087818e-07,2.077870420636781e-12
	-1.436277375866125e-09,-2.067485519531732e-13
	-3.312131250230596e-04,-1.068042907910835e-12
	-3.309121410219267e-04,8.030789607727736e-13
	-3.024202785972818e-07,-2.077870420636781e-12
	-3.309121410219267e-04,8.030789607727736e-13
24		1.737800828749374e+00,0.000000000000000e+00
	-3.309121410219266e+00,8.217850728068897e-09
	1.000000000000000e+00,0.000000000000000e+00
	0.000000000000000e+00,0.000000000000000e+00
	2.671303968447848e-09,-3.369488036672183e-13
	2.696122379039907e-09,5.014877085823153e-13
	3.309121410219267e-04,-8.217850728068900e-13
	3.024202785087817e-07,2.126270240305081e-12
	-1.436277375866112e-09,-2.115643443778755e-13
	-3.312131250230596e-04,-1.092920823120315e-12
	-3.309121410219267e-04,8.217850728068897e-13
	-3.024202785972818e-07,-2.126270240305081e-12
	-3.309121410219267e-04,8.217850728068897e-13
25		1.778279410038922e+00,0.000000000000000e+00
	-3.309121410219266e+00,8.409269061642195e-09
	1.000000000000000e+00,0.000000000000000e+00
	0.000000000000000e+00,0.000000000000000e+00
	2.671303968447735e-09,-3.447973495500483e-13
	2.696122379039893e-09,5.131688579072162e-13
	3.309121410219267e-04,-8.409269061642198e-13
	3.024202785087817e-07,2.175797436599304e-12
	-1.436277375866097e-09,-2.164923110183521e-13
	-3.312131250230596e-04,-1.118378219416733e-12
	-3.309121410219267e-04,8.409269061642196e-13
	-3.024202785972818e-07,-2.175797436599304e-12
	-3.309121410219267e-04,8.409269061642196e-13
26		1.819700858609982e+00,0.000000000000000e+00
	-3.309121410219266e+00,8.605146100981809e-09
	1.000000000000000e+00,0.000000000000000e+00
	0.000000000000000e+00,0.000000000000000e+00
	2.671303968447617e-09,-3.528287115515420e-13
	2.696122379039877e-09,5.251220961531723e-13
	3.309121410219267e-04,-8.605146100981813e-13
	3.024202785087817e-07,2.226478269494497e-12
	-1.436277375866082e-09,-2.215350647477452e-13
	-3.312131250230596e-04,-1.144428594648570e-12
	-3.309121410219267e-04,8.605146100981809e-13
	-3.024202785972818e-07,-2.226478269494496e-12
	-3.309121410219267e-04,8.605146100981809e-13
27		1.862087136662866e+00,0.000000000000000e+00
	-3.309121410219266e+00,8.805585702686740e-09
	1.000000000000000e+00,0.000000000000000e+00
	0.000000000000000e+00,0.000000000000000e+00
	2.671303968447493e-09,-3.610471480061406e-13
	2.696122379039861e-09,5.373537610853216e-13
	3.309121410219267e-04,-8.805585702686744e-13
	3.024202785087817e-07,2.278339610639098e-12
	-1.436277375866066e-09,-2.266952793008308e-13
	-3.312131250230596e-04,-1.171085761069593e-12
	-3.309121410219267e-04,8.805585702686740e-13
	-3.024202785972818e-07,-2.278339610639098e-12
	-3.309121410219267e-04,8.805585702686740e-13
28		1.905460717963246e+00,0.000000000000000e+00
	-3.309121410219266e+00,9.010694142486943e-09
	1.000000000000000e+00,0.000000000000000e+00
	0.000000000000000e+00,0.000000000000000e+00
	2.671303968447364e-09,-3.694570164376359e-13
	2.696122379039845e-09,5.498703380943162e-13
	3.309121410219267e-04,-9.010694142486944e-13
	3.024202785087816e-07,2.331408957602652e-12
	-1.436277375866050e-09,-2.319756906916685e-13
	-3.312131250230596e-04,-1.198363852662288e-12
	-3.309121410219267e-04,9.010694142486943e-13
	-3.024202785972818e-07,-2.331408957602652e-12
	-3.309121410219267e-04,9.010694142486943e-13
29		1.949844599758044e+00,0.000000000000000e+00
	-3.309121410219266e+00,9.220580171592127e-09
	1.000000000000000e+00,0.000000000000000e+00
	0.000000000000000e+00,0.000000000000000e+00
	2.671303968447229e-09,-3.780627758695881e-13
	2.696122379039827e-09,5.626784636349628e-13
	3.309121410219267e-04,-9.220580171592130e-13
	3.024202785087816e-07,2.385714448455371e-12
	-1.436277375866033e-09,-2.373790986642721e-13
	-3.312131250230596e-04,-1.226277332631886e-12
	-3.309121410219267e-04,9.220580171592128e-13
	-3.024202785972818e-07,-2.385714448455371e-12
	-3.309121410219267e-04,9.220580171592128e-13
30		1.995262314968878e+00,0.000000000000000e+00
	-3.309121410219266e+00,9.435355074353097e-09
	1.000000000000000e+00,0.000000000000000e+00
	0.000000000000000e+00,0.000000000000000e+00
	2.671303968447087e-09,-3.868689891895590e-13
	2.696122379039809e-09,5.757849287449584e-13
	3.309121410219267e-04,-9.435355074353101e-13
	3.024202785087816e-07,2.441284876687326e-12
	-1.436277375866015e-09,-2.429083681770713e-13
	-3.312131250230596e-04,-1.254841001074944e-12
	-3.309121410219267e-04,9.435355074353097e-13
	-3.024202785972818e-07,-2.441284876687325e-12
	-3.309121410219267e-04,9.435355074353097e-13
31		2.041737944669527e+00,0.000000000000000e+00
	-3.309121410219266e+00,9.655132727266176e-09
	1.000000000000000e+00,0.000000000000000e+00
	0.000000000000000e+00,0.000000000000000e+00
	2.671303968446939e-09,-3.958803255684144e-13
	2.696122379039790e-09,5.891966826455892e-13
	3.309121410219267e-04,-9.655132727266177e-13
	3.024202785087816e-07,2.498149706475125e-12
	-1.436277375865996e-09,-2.485664309219504e-13
	-3.312131250230596e-04,-1.284070002826556e-12
	-3.309121410219267e-04,9.655132727266177e-13
	-3.024202785972818e-07,-2.498149706475125e-12
	-3.309121410219267e-04,9.655132727266177e-13
32		2.089296130854037e+00,0.000000000000000e+00
	-3.309121410219266e+00,9.880029659352045e-09
	1.000000000000000e+00,0.000000000000000e+00
	0.000000000000000e+00,0.000000000000000e+00
