Title: * GA CMOS Amp | W=4.781083767129823e-05 L=5.600012776394898e-07 Vbias=1.2320470890676387
Date: Sat Sep  6 22:04:57 2025
Plotname: AC Analysis
Flags: complex forward log
No. Variables: 13
No. Points:          901
Offset:    0.0000000000000000e+00
Command: Linear Technology Corporation LTspice
Variables:
	0	frequency	frequency
	1	V(out)	voltage
	2	V(g)	voltage
	3	V(vdd)	voltage
	4	V(m1#dbody)	voltage
	5	V(m1#sbody)	voltage
	6	Id(M1)	device_current
	7	Ig(M1)	device_current
	8	Ib(M1)	device_current
	9	Is(M1)	device_current
	10	I(Rload)	device_current
	11	I(Vg)	device_current
	12	I(Vdd)	device_current
Values:
0		1.000000000000000e+00,0.000000000000000e+00
	3.721312894152503e-03,4.297574034279963e-10
	1.000000000000000e+00,0.000000000000000e+00
	0.000000000000000e+00,0.000000000000000e+00
	1.137045235723128e-04,6.867392662115782e-14
	1.137045235397532e-04,6.443397096009832e-14
	-3.721312894152449e-07,-4.297574034279949e-14
	9.010952070532102e-05,7.111439610083622e-12
	-6.064241260259801e-05,-3.472942614832617e-14
	-2.909497681330777e-05,-7.033734443592495e-12
	3.721312894152503e-07,4.297574034279963e-14
	-9.010952070531708e-05,-7.111439610083622e-12
	3.721312894152503e-07,4.297574034279963e-14
1		1.023292992280754e+00,0.000000000000000e+00
	3.721312894152503e-03,4.397677393086414e-10
	1.000000000000000e+00,0.000000000000000e+00
	0.000000000000000e+00,0.000000000000000e+00
	1.137045235723128e-04,7.027354786383354e-14
	1.137045235397532e-04,6.593483094829024e-14
	-3.721312894152449e-07,-4.397677393086395e-14
	9.010952070532102e-05,7.277086318026349e-12
	-6.064241260259801e-05,-3.553837840351416e-14
	-2.909497681330777e-05,-7.197571165691970e-12
	3.721312894152503e-07,4.397677393086415e-14
	-9.010952070531708e-05,-7.277086318026349e-12
	3.721312894152503e-07,4.397677393086415e-14
2		1.047128548050899e+00,0.000000000000000e+00
	3.721312894152503e-03,4.500112458656822e-10
	1.000000000000000e+00,0.000000000000000e+00
	0.000000000000000e+00,0.000000000000000e+00
	1.137045235723128e-04,7.191042907176702e-14
	1.137045235397532e-04,6.747065045660158e-14
	-3.721312894152449e-07,-4.500112458656777e-14
	9.010952070532102e-05,7.446591433458515e-12
	-6.064241260259801e-05,-3.636617357733773e-14
	-2.909497681330777e-05,-7.365224135294610e-12
	3.721312894152503e-07,4.500112458656823e-14
	-9.010952070531708e-05,-7.446591433458516e-12
	3.721312894152503e-07,4.500112458656823e-14
3		1.071519305237606e+00,0.000000000000000e+00
	3.721312894152503e-03,4.604933543418841e-10
	1.000000000000000e+00,0.000000000000000e+00
	0.000000000000000e+00,0.000000000000000e+00
	1.137045235723128e-04,7.358543814104139e-14
	1.137045235397532e-04,6.904224379686466e-14
	-3.721312894152449e-07,-4.604933543418853e-14
	9.010952070532102e-05,7.620044830235991e-12
	-6.064241260259801e-05,-3.721325057775521e-14
	-2.909497681330777e-05,-7.536782244224049e-12
	3.721312894152503e-07,4.604933543418841e-14
	-9.010952070531708e-05,-7.620044830235993e-12
	3.721312894152503e-07,4.604933543418841e-14
4		1.096478196143185e+00,0.000000000000000e+00
	3.721312894152503e-03,4.712196224899081e-10
	1.000000000000000e+00,0.000000000000000e+00
	0.000000000000000e+00,0.000000000000000e+00
	1.137045235723128e-04,7.529946318363656e-14
	1.137045235397532e-04,7.065044424867096e-14
	-3.721312894152449e-07,-4.712196224899171e-14
	9.010952070532102e-05,7.797538475645681e-12
	-6.064241260259801e-05,-3.808005853620463e-14
	-2.909497681330777e-05,-7.712336454860484e-12
	3.721312894152503e-07,4.712196224899081e-14
	-9.010952070531708e-05,-7.797538475645681e-12
	3.721312894152503e-07,4.712196224899081e-14
5		1.122018454301963e+00,0.000000000000000e+00
	3.721312894152503e-03,4.821957375191056e-10
	1.000000000000000e+00,0.000000000000000e+00
	0.000000000000000e+00,0.000000000000000e+00
	1.137045235723128e-04,7.705341299831795e-14
	1.137045235397532e-04,7.229610450118712e-14
	-3.721312894152449e-07,-4.821957375191020e-14
	9.010952070532102e-05,7.979166479167779e-12
	-6.064241260259801e-05,-3.896705704573912e-14
	-2.909497681330777e-05,-7.891979848370130e-12
	3.721312894152503e-07,4.821957375191057e-14
	-9.010952070531708e-05,-7.979166479167781e-12
	3.721312894152503e-07,4.821957375191057e-14
6		1.148153621496882e+00,0.000000000000000e+00
	3.721312894152503e-03,4.934275191109506e-10
	1.000000000000000e+00,0.000000000000000e+00
	0.000000000000000e+00,0.000000000000000e+00
	1.137045235723128e-04,7.884821755249354e-14
	1.137045235397532e-04,7.398009710526187e-14
	-3.721312894152449e-07,-4.934275191109442e-14
	9.010952070532102e-05,8.165025142373888e-12
	-6.064241260259801e-05,-3.987471640470923e-14
	-2.909497681330777e-05,-8.075807674058082e-12
	3.721312894152503e-07,4.934275191109506e-14
	-9.010952070531708e-05,-8.165025142373888e-12
	3.721312894152503e-07,4.934275191109506e-14
7		1.174897554939529e+00,0.000000000000000e+00
	3.721312894152503e-03,5.049209225047137e-10
	1.000000000000000e+00,0.000000000000000e+00
	0.000000000000000e+00,0.000000000000000e+00
	1.137045235723128e-04,8.068482847529496e-14
	1.137045235397532e-04,7.570331493606413e-14
	-3.721312894152449e-07,-5.049209225047172e-14
	9.010952070532102e-05,8.355213009987364e-12
	-6.064241260259801e-05,-4.080351786612136e-14
	-2.909497681330777e-05,-8.263917399870771e-12
	3.721312894152503e-07,5.049209225047137e-14
	-9.010952070531708e-05,-8.355213009987366e-12
	3.721312894152503e-07,5.049209225047137e-14
8		1.202264434617413e+00,0.000000000000000e+00
	3.721312894152503e-03,5.166820416550072e-10
	1.000000000000000e+00,0.000000000000000e+00
	0.000000000000000e+00,0.000000000000000e+00
	1.137045235723128e-04,8.256421956214402e-14
	1.137045235397532e-04,7.746667166649741e-14
	-3.721312894152449e-07,-5.166820416550071e-14
	9.010952070532102e-05,8.549830922133056e-12
	-6.064241260259801e-05,-4.175395389280456e-14
	-2.909497681330777e-05,-8.456408764074752e-12
	3.721312894152503e-07,5.166820416550072e-14
	-9.010952070531708e-05,-8.549830922133059e-12
	3.721312894152503e-07,5.166820416550072e-14
9		1.230268770812381e+00,0.000000000000000e+00
	3.721312894152503e-03,5.287171124628815e-10
	1.000000000000000e+00,0.000000000000000e+00
	0.000000000000000e+00,0.000000000000000e+00
	1.137045235723128e-04,8.448738729107150e-14
	1.137045235397532e-04,7.927110225164083e-14
	-3.721312894152449e-07,-5.287171124628796e-14
	9.010952070532102e-05,8.748982067804055e-12
	-6.064241260259801e-05,-4.272652841852060e-14
	-2.909497681330777e-05,-8.653383828139246e-12
	3.721312894152503e-07,5.287171124628816e-14
	-9.010952070531708e-05,-8.748982067804055e-12
	3.721312894152503e-07,5.287171124628816e-14
10		1.258925411794167e+00,0.000000000000000e+00
	3.721312894152503e-03,5.410325160821821e-10
	1.000000000000000e+00,0.000000000000000e+00
	0.000000000000000e+00,0.000000000000000e+00
	1.137045235723128e-04,8.645535135106354e-14
	1.137045235397532e-04,8.111756342447518e-14
	-3.721312894152449e-07,-5.410325160821703e-14
	9.010952070532102e-05,8.952772039573869e-12
	-6.064241260259801e-05,-4.372175711515663e-14
	-2.909497681330777e-05,-8.854947030850496e-12
	3.721312894152503e-07,5.410325160821821e-14
	-9.010952070531708e-05,-8.952772039573873e-12
	3.721312894152503e-07,5.410325160821821e-14
11		1.288249551693134e+00,0.000000000000000e+00
	3.721312894152503e-03,5.536347823029214e-10
	1.000000000000000e+00,0.000000000000000e+00
	0.000000000000000e+00,0.000000000000000e+00
	1.137045235723128e-04,8.846915518271375e-14
	1.137045235397532e-04,8.300703420315508e-14
	-3.721312894152449e-07,-5.536347823029202e-14
	9.010952070532102e-05,9.161308889583019e-12
	-6.064241260259801e-05,-4.474016766614098e-14
	-2.909497681330777e-05,-9.061205243686584e-12
	3.721312894152503e-07,5.536347823029214e-14
	-9.010952070531708e-05,-9.161308889583019e-12
	3.721312894152503e-07,5.536347823029214e-14
12		1.318256738556407e+00,0.000000000000000e+00
	3.721312894152503e-03,5.665305930134603e-10
	1.000000000000000e+00,0.000000000000000e+00
	0.000000000000000e+00,0.000000000000000e+00
	1.137045235723128e-04,9.052986653146953e-14
	1.137045235397532e-04,8.494051641009744e-14
	-3.721312894152449e-07,-5.665305930134580e-14
	9.010952070532102e-05,9.374703186829677e-12
	-6.064241260259801e-05,-4.578230004622805e-14
	-2.909497681330777e-05,-9.272267827482104e-12
	3.721312894152503e-07,5.665305930134603e-14
	-9.010952070531708e-05,-9.374703186829680e-12
	3.721312894152503e-07,5.665305930134603e-14
13		1.348962882591653e+00,0.000000000000000e+00
	3.721312894152503e-03,5.797267857433339e-10
	1.000000000000000e+00,0.000000000000000e+00
	0.000000000000000e+00,0.000000000000000e+00
	1.137045235723128e-04,9.263857801376475e-14
	1.137045235397532e-04,8.691903520316113e-14
	-3.721312894152449e-07,-5.797267857433339e-14
	9.010952070532102e-05,9.593068075794865e-12
	-6.064241260259801e-05,-4.684870680780002e-14
	-2.909497681330777e-05,-9.488246690412731e-12
	3.721312894152503e-07,5.797267857433340e-14
	-9.010952070531708e-05,-9.593068075794865e-12
	3.721312894152503e-07,5.797267857433340e-14
14		1.380384264602885e+00,0.000000000000000e+00
	3.721312894152503e-03,5.932303572885997e-10
	1.000000000000000e+00,0.000000000000000e+00
	0.000000000000000e+00,0.000000000000000e+00
	1.137045235723128e-04,9.479640769633943e-14
	1.137045235397532e-04,8.894363961919895e-14
	-3.721312894152449e-07,-5.932303572886003e-14
	9.010952070532102e-05,9.816519336433101e-12
	-6.064241260259801e-05,-4.793995337383742e-14
	-2.909497681330777e-05,-9.709256347330404e-12
	3.721312894152503e-07,5.932303572885998e-14
	-9.010952070531708e-05,-9.816519336433106e-12
	3.721312894152503e-07,5.932303572885998e-14
15		1.412537544622754e+00,0.000000000000000e+00
	3.721312894152503e-03,6.070484674216322e-10
	1.000000000000000e+00,0.000000000000000e+00
	0.000000000000000e+00,0.000000000000000e+00
	1.137045235723128e-04,9.700449968905349e-14
	1.137045235397532e-04,9.101540313027114e-14
	-3.721312894152449e-07,-6.070484674216360e-14
	9.010952070532104e-05,1.004517544556052e-11
	-6.064241260259801e-05,-4.905661833771393e-14
	-2.909497681330778e-05,-9.935413980480637e-12
	3.721312894152503e-07,6.070484674216322e-14
	-9.010952070531708e-05,-1.004517544556051e-11
	3.721312894152503e-07,6.070484674216322e-14
16		1.445439770745927e+00,0.000000000000000e+00
	3.721312894152503e-03,6.211884426873278e-10
	1.000000000000000e+00,0.000000000000000e+00
	0.000000000000000e+00,0.000000000000000e+00
	1.137045235723128e-04,9.926402475150898e-14
	1.137045235397532e-04,9.313542421281424e-14
	-3.721312894152449e-07,-6.211884426873078e-14
	9.010952070532104e-05,1.027915763967277e-11
	-6.064241260259801e-05,-5.019929376997417e-14
	-2.909497681330778e-05,-1.016683950163407e-11
	3.721312894152503e-07,6.211884426873279e-14
	-9.010952070531708e-05,-1.027915763967277e-11
	3.721312894152503e-07,6.211884426873279e-14
17		1.479108388168207e+00,0.000000000000000e+00
	3.721312894152503e-03,6.356577802877372e-10
	1.000000000000000e+00,0.000000000000000e+00
	0.000000000000000e+00,0.000000000000000e+00
	1.137045235723128e-04,1.015761809138025e-13
	1.137045235397532e-04,9.530482693006809e-14
	-3.721312894152449e-07,-6.356577802877380e-14
	9.010952070532104e-05,1.051858997922632e-11
	-6.064241260259801e-05,-5.136858553225750e-14
	-2.909497681330778e-05,-1.040365561566529e-11
	3.721312894152503e-07,6.356577802877372e-14
	-9.010952070531708e-05,-1.051858997922632e-11
	3.721312894152503e-07,6.356577802877372e-14
18		1.513561248436208e+00,0.000000000000000e+00
	3.721312894152503e-03,6.504641520571807e-10
	1.000000000000000e+00,0.000000000000000e+00
	0.000000000000000e+00,0.000000000000000e+00
	1.137045235723128e-04,1.039421941117361e-13
	1.137045235397532e-04,9.752476152806876e-14
	-3.721312894152449e-07,-6.504641520571824e-14
	9.010952070532104e-05,1.076359941441686e-11
	-6.064241260259801e-05,-5.256511359853363e-14
	-2.909497681330778e-05,-1.064598788561261e-11
	3.721312894152503e-07,6.504641520571808e-14
	-9.010952070531708e-05,-1.076359941441686e-11
	3.721312894152503e-07,6.504641520571808e-14
19		1.548816618912481e+00,0.000000000000000e+00
	3.721312894152503e-03,6.656154085299560e-10
	1.000000000000000e+00,0.000000000000000e+00
	0.000000000000000e+00,0.000000000000000e+00
	1.137045235723128e-04,1.063633188368255e-13
	1.137045235397532e-04,9.979640504552445e-14
	-3.721312894152449e-07,-6.656154085299575e-14
	9.010952070532104e-05,1.101431585249000e-11
	-6.064241260259801e-05,-5.378951238382124e-14
	-2.909497681330778e-05,-1.089396479925319e-11
	3.721312894152503e-07,6.656154085299560e-14
	-9.010952070531708e-05,-1.101431585249000e-11
	3.721312894152503e-07,6.656154085299560e-14
20		1.584893192461113e+00,0.000000000000000e+00
	3.721312894152503e-03,6.811195831027954e-10
	1.000000000000000e+00,0.000000000000000e+00
	0.000000000000000e+00,0.000000000000000e+00
	1.137045235723128e-04,1.088408388014470e-13
	1.137045235397532e-04,1.021209619378969e-13
	-3.721312894152449e-07,-6.811195831027903e-14
	9.010952070532104e-05,1.127087222661984e-11
	-6.064241260259801e-05,-5.504243108056312e-14
	-2.909497681330778e-05,-1.114771783722900e-11
	3.721312894152503e-07,6.811195831027954e-14
	-9.010952070531708e-05,-1.127087222661984e-11
	3.721312894152503e-07,6.811195831027954e-14
21		1.621810097358929e+00,0.000000000000000e+00
	3.721312894152503e-03,6.969848962942792e-10
	1.000000000000000e+00,0.000000000000000e+00
	0.000000000000000e+00,0.000000000000000e+00
	1.137045235723128e-04,1.113760676194799e-13
	1.137045235397532e-04,1.044996647160195e-13
	-3.721312894152483e-07,-6.969848962942738e-14
	9.010952070532104e-05,1.153340456639186e-11
	-6.064241260259801e-05,-5.632453400283660e-14
	-2.909497681330778e-05,-1.140738154275960e-11
	3.721312894152503e-07,6.969848962942792e-14
	-9.010952070531708e-05,-1.153340456639186e-11
	3.721312894152503e-07,6.969848962942792e-14
22		1.659586907437560e+00,0.000000000000000e+00
	3.721312894152504e-03,7.132197601034641e-10
	1.000000000000000e+00,0.000000000000000e+00
	0.000000000000000e+00,0.000000000000000e+00
	1.137045235723128e-04,1.139703495028012e-13
	1.137045235397532e-04,1.069337745995911e-13
	-3.721312894152449e-07,-7.132197601034545e-14
	9.010952070532102e-05,1.180205206992764e-11
	-6.064241260259800e-05,-5.763650093858176e-14
	-2.909497681330778e-05,-1.167309359297871e-11
	3.721312894152504e-07,7.132197601034641e-14
	-9.010952070531708e-05,-1.180205206992764e-11
	3.721312894152504e-07,7.132197601034641e-14
23		1.698243652461743e+00,0.000000000000000e+00
	3.721312894152504e-03,7.298327824700354e-10
	1.000000000000000e+00,0.000000000000000e+00
	0.000000000000000e+00,0.000000000000000e+00
	1.137045235723128e-04,1.166250599740049e-13
	1.137045235397532e-04,1.094245821858913e-13
	-3.721312894152449e-07,-7.298327824700322e-14
	9.010952070532102e-05,1.207695717768952e-11
	-6.064241260259800e-05,-5.897902751003384e-14
	-2.909497681330778e-05,-1.194499487193249e-11
	3.721312894152504e-07,7.298327824700354e-14
	-9.010952070531708e-05,-1.207695717768953e-11
	3.721312894152504e-07,7.298327824700354e-14
24		1.737800828749374e+00,0.000000000000000e+00
	3.721312894152504e-03,7.468327718383511e-10
	1.000000000000000e+00,0.000000000000000e+00
	0.000000000000000e+00,0.000000000000000e+00
	1.137045235723128e-04,1.193416065957218e-13
	1.137045235397532e-04,1.119734081340720e-13
	-3.721312894152449e-07,-7.468327718383448e-14
	9.010952070532102e-05,1.235826564800444e-11
	-6.064241260259800e-05,-6.035282554255142e-14
	-2.909497681330778e-05,-1.222322954527806e-11
	3.721312894152504e-07,7.468327718383512e-14
	-9.010952070531708e-05,-1.235826564800444e-11
	3.721312894152504e-07,7.468327718383512e-14
25		1.778279410038922e+00,0.000000000000000e+00
	3.721312894152504e-03,7.642287418277960e-10
	1.000000000000000e+00,0.000000000000000e+00
	0.000000000000000e+00,0.000000000000000e+00
	1.137045235723128e-04,1.221214297169287e-13
	1.137045235397532e-04,1.145816038653886e-13
	-3.721312894152449e-07,-7.642287418277891e-14
	9.010952070532102e-05,1.264612663434692e-11
	-6.064241260259800e-05,-6.175862344203576e-14
	-2.909497681330778e-05,-1.250794513672211e-11
	3.721312894152504e-07,7.642287418277961e-14
	-9.010952070531708e-05,-1.264612663434692e-11
	3.721312894152504e-07,7.642287418277961e-14
26		1.819700858609982e+00,0.000000000000000e+00
	3.721312894152504e-03,7.820299160119211e-10
	1.000000000000000e+00,0.000000000000000e+00
	0.000000000000000e+00,0.000000000000000e+00
	1.137045235723128e-04,1.249660032366398e-13
	1.137045235397532e-04,1.172505522797416e-13
	-3.721312894152449e-07,-7.820299160119290e-14
	9.010952070532102e-05,1.294069276442220e-11
	-6.064241260259800e-05,-6.319716658114110e-14
	-2.909497681330778e-05,-1.279929260623987e-11
	3.721312894152504e-07,7.820299160119212e-14
	-9.010952070531708e-05,-1.294069276442220e-11
	3.721312894152504e-07,7.820299160119212e-14
27		1.862087136662866e+00,0.000000000000000e+00
	3.721312894152504e-03,8.002457328089056e-10
	1.000000000000000e+00,0.000000000000000e+00
	0.000000000000000e+00,0.000000000000000e+00
	1.137045235723128e-04,1.278768353853876e-13
	1.137045235397532e-04,1.199816684889078e-13
	-3.721312894152449e-07,-8.002457328089181e-14
	9.010952070532102e-05,1.324212022109150e-11
	-6.064241260259800e-05,-6.466921769448116e-14
	-2.909497681330778e-05,-1.309742643011613e-11
	3.721312894152504e-07,8.002457328089056e-14
	-9.010952070531708e-05,-1.324212022109150e-11
	3.721312894152504e-07,8.002457328089056e-14
28		1.905460717963246e+00,0.000000000000000e+00
	3.721312894152504e-03,8.188858504859298e-10
	1.000000000000000e+00,0.000000000000000e+00
	0.000000000000000e+00,0.000000000000000e+00
	1.137045235723128e-04,1.308554695249066e-13
	1.137045235397532e-04,1.227764005668519e-13
	-3.721312894152449e-07,-8.188858504859347e-14
	9.010952070532102e-05,1.355056882518220e-11
	-6.064241260259800e-05,-6.617555728304110e-14
	-2.909497681330778e-05,-1.340250468285057e-11
	3.721312894152504e-07,8.188858504859299e-14
	-9.010952070531708e-05,-1.355056882518220e-11
	3.721312894152504e-07,8.188858504859299e-14
29		1.949844599758044e+00,0.000000000000000e+00
	3.721312894152504e-03,8.379601522801176e-10
	1.000000000000000e+00,0.000000000000000e+00
	0.000000000000000e+00,0.000000000000000e+00
	1.137045235723128e-04,1.339034849664448e-13
	1.137045235397532e-04,1.256362303175144e-13
	-3.721312894152449e-07,-8.379601522801079e-14
	9.010952070532102e-05,1.386620212022700e-11
	-6.064241260259800e-05,-6.771698402800960e-14
	-2.909497681330778e-05,-1.371468912097098e-11
	3.721312894152504e-07,8.379601522801176e-14
	-9.010952070531708e-05,-1.386620212022700e-11
	3.721312894152504e-07,8.379601522801176e-14
30		1.995262314968878e+00,0.000000000000000e+00
	3.721312894152504e-03,8.574787516387577e-10
	1.000000000000000e+00,0.000000000000000e+00
	0.000000000000000e+00,0.000000000000000e+00
	1.137045235723128e-04,1.370224978081342e-13
	1.137045235397532e-04,1.285626740604832e-13
	-3.721312894152449e-07,-8.574787516387556e-14
	9.010952070532102e-05,1.418918745917682e-11
	-6.064241260259800e-05,-6.929431521424995e-14
	-2.909497681330778e-05,-1.403414526879869e-11
	3.721312894152504e-07,8.574787516387578e-14
	-9.010952070531708e-05,-1.418918745917682e-11
	3.721312894152504e-07,8.574787516387578e-14
31		2.041737944669527e+00,0.000000000000000e+00
	3.721312894152504e-03,8.774519975815900e-10
	1.000000000000000e+00,0.000000000000000e+00
	0.000000000000000e+00,0.000000000000000e+00
	1.137045235723128e-04,1.402141617918687e-13
	1.137045235397532e-04,1.315572834349672e-13
	-3.721312894152449e-07,-8.774519975815828e-14
	9.010952070532102e-05,1.451969609313360e-11
	-6.064241260259800e-05,-7.090838716363563e-14
	-2.909497681330778e-05,-1.436104250621180e-11
	3.721312894152504e-07,8.774519975815900e-14
	-9.010952070531708e-05,-1.451969609313360e-11
	3.721312894152504e-07,8.774519975815900e-14
32		2.089296130854037e+00,0.000000000000000e+00
	3.721312894152504e-03,8.978904801879901e-10
	1.000000000000000e+00,0.000000000000000e+00
	0.000000000000000e+00,0.000000000000000e+00
	1.137045235723128e-04,1.434801691801392e-13
	1.137045235397532e-04,1.346216462224949e-13
