LTspice 24.0.9 for Windows
Circuit: * GA CMOS Amp | W=3.744543291467239e-05 L=4.792780384059675e-07 Vbias=0.5493851032209969
Start Time: Sat Sep  6 22:38:35 2025
solver = Normal
Maximum thread count: 2
tnom = 27
temp = 27
method = modified trap
AsciiRawFile = 1
Direct Newton iteration for .op point succeeded.
Semiconductor Device Operating Points:
                        --- BSIM4 MOSFETS ---
Name:      m1
Model:      n
Id:      1.77e-04
Vgs:     5.49e-01
Vds:     3.31e-02
Vbs:     0.00e+00
Vth:     2.52e-01
Vdsat:   2.39e-01
Gm:      3.65e-04
Gds:     4.94e-03
Gmb      2.41e-04
Cbd:     1.85e-14
Cbs:     3.00e-14


.measure op idd find i(vdd)
  Error: FIND can not be evaluated over an interval.

gain_db: MAX(db(v(out)/v(g)))=(31.0184dB,129.876°) FROM 1 TO 1e+09
gain_lin: MAX(mag(v(out)/v(g)))=(-8.51762dB,0°) FROM 1 TO 1e+09

Measurement "fc" FAIL'ed

Total elapsed time: 1.244 seconds.

