Title: * GA CMOS Amp | W=2.329036634918152e-05 L=6.465356398467961e-07 Vbias=0.8901766520065106
Date: Mon Sep  8 18:47:12 2025
Plotname: AC Analysis
Flags: complex forward log
No. Variables: 11
No. Points:          901
Offset:    0.0000000000000000e+00
Command: Linear Technology Corporation LTspice
Variables:
	0	frequency	frequency
	1	V(out)	voltage
	2	V(g)	voltage
	3	V(vdd)	voltage
	4	Id(M1)	device_current
	5	Ig(M1)	device_current
	6	Ib(M1)	device_current
	7	Is(M1)	device_current
	8	I(Rload)	device_current
	9	I(Vg)	device_current
	10	I(Vdd)	device_current
Values:
0		1.000000000000000e+00,0.000000000000000e+00
	-6.359475832864661e+00,1.713356070838631e-09
	1.000000000000000e+00,0.000000000000000e+00
	0.000000000000000e+00,0.000000000000000e+00
	6.359475832864662e-04,-1.713356070838631e-13
	5.014571310346942e-23,3.231118218938613e-13
	6.359475771509915e-12,-3.235331824488346e-15
	-6.359475896459420e-04,-1.485408829855099e-13
	-6.359475832864662e-04,1.713356070838631e-13
	-5.014571310346942e-23,-3.231118218938613e-13
	-6.359475832864662e-04,1.713356070838631e-13
1		1.023292992280754e+00,0.000000000000000e+00
	-6.359475832864661e+00,1.753265260570858e-09
	1.000000000000000e+00,0.000000000000000e+00
	0.000000000000000e+00,0.000000000000000e+00
	6.359475832864662e-04,-1.753265260570858e-13
	5.250900775301288e-23,3.306380630670555e-13
	6.359475771509915e-12,-3.310692383701858e-15
	-6.359475896459420e-04,-1.520008446262678e-13
	-6.359475832864662e-04,1.753265260570858e-13
	-5.250900775301288e-23,-3.306380630670555e-13
	-6.359475832864662e-04,1.753265260570858e-13
2		1.047128548050899e+00,0.000000000000000e+00
	-6.359475832864661e+00,1.794104054751449e-09
	1.000000000000000e+00,0.000000000000000e+00
	0.000000000000000e+00,0.000000000000000e+00
	6.359475832864662e-04,-1.794104054751449e-13
	5.498368104800579e-23,3.383396129177998e-13
	6.359475771509915e-12,-3.387808315839398e-15
	-6.359475896459420e-04,-1.555413991268156e-13
	-6.359475832864662e-04,1.794104054751449e-13
	-5.498368104800579e-23,-3.383396129177998e-13
	-6.359475832864662e-04,1.794104054751449e-13
3		1.071519305237606e+00,0.000000000000000e+00
	-6.359475832864661e+00,1.835894106649645e-09
	1.000000000000000e+00,0.000000000000000e+00
	0.000000000000000e+00,0.000000000000000e+00
	6.359475832864662e-04,-1.835894106649644e-13
	5.757498210229206e-23,3.462205549097675e-13
	6.359475771509915e-12,-3.466720508788924e-15
	-6.359475896459420e-04,-1.591644237360142e-13
	-6.359475832864662e-04,1.835894106649645e-13
	-5.757498210229206e-23,-3.462205549097675e-13
	-6.359475832864662e-04,1.835894106649645e-13
4		1.096478196143185e+00,0.000000000000000e+00
	-6.359475832864661e+00,1.878657573904116e-09
	1.000000000000000e+00,0.000000000000000e+00
	0.000000000000000e+00,0.000000000000000e+00
	6.359475832864662e-04,-1.878657573904116e-13
	6.028840741282959e-23,3.542850676227190e-13
	6.359475771509915e-12,-3.547470802839605e-15
	-6.359475896459420e-04,-1.628718394294678e-13
	-6.359475832864662e-04,1.878657573904116e-13
	-6.028840741282959e-23,-3.542850676227190e-13
	-6.359475832864662e-04,1.878657573904116e-13
5		1.122018454301963e+00,0.000000000000000e+00
	-6.359475832864661e+00,1.922417130271246e-09
	1.000000000000000e+00,0.000000000000000e+00
	0.000000000000000e+00,0.000000000000000e+00
	6.359475832864662e-04,-1.922417130271245e-13
	6.312971251849736e-23,3.625374269680415e-13
	6.359475771509915e-12,-3.630102012866410e-15
	-6.359475896459420e-04,-1.666656119280506e-13
	-6.359475832864662e-04,1.922417130271246e-13
	-6.312971251849736e-23,-3.625374269680415e-13
	-6.359475832864662e-04,1.922417130271246e-13
6		1.148153621496882e+00,0.000000000000000e+00
	-6.359475832864661e+00,1.967195977647043e-09
	1.000000000000000e+00,0.000000000000000e+00
	0.000000000000000e+00,0.000000000000000e+00
	6.359475832864662e-04,-1.967195977647043e-13
	6.610492420836483e-23,3.709820084558926e-13
	6.359475771509915e-12,-3.714657951030467e-15
	-6.359475896459420e-04,-1.705477527401579e-13
	-6.359475832864662e-04,1.967195977647043e-13
	-6.610492420836483e-23,-3.709820084558926e-13
	-6.359475832864662e-04,1.967195977647043e-13
7		1.174897554939529e+00,0.000000000000000e+00
	-6.359475832864661e+00,2.013017858369106e-09
	1.000000000000000e+00,0.000000000000000e+00
	0.000000000000000e+00,0.000000000000000e+00
	6.359475832864662e-04,-2.013017858369105e-13
	6.922035330531982e-23,3.796232895151543e-13
	6.359475771509915e-12,-3.801183450009466e-15
	-6.359475896459420e-04,-1.745203202282343e-13
	-6.359475832864662e-04,2.013017858369106e-13
	-6.922035330531982e-23,-3.796232895151543e-13
	-6.359475832864662e-04,2.013017858369106e-13
8		1.202264434617413e+00,0.000000000000000e+00
	-6.359475832864661e+00,2.059907067805118e-09
	1.000000000000000e+00,0.000000000000000e+00
	0.000000000000000e+00,0.000000000000000e+00
	6.359475832864662e-04,-2.059907067805118e-13
	7.248260805216982e-23,3.884658518674253e-13
	6.359475771509915e-12,-3.889724386768249e-15
	-6.359475896459420e-04,-1.785854207001453e-13
	-6.359475832864662e-04,2.059907067805118e-13
	-7.248260805216982e-23,-3.884658518674253e-13
	-6.359475832864662e-04,2.059907067805118e-13
9		1.230268770812381e+00,0.000000000000000e+00
	-6.359475832864661e+00,2.107888467234573e-09
	1.000000000000000e+00,0.000000000000000e+00
	0.000000000000000e+00,0.000000000000000e+00
	6.359475832864662e-04,-2.107888467234573e-13
	7.589860812861101e-23,3.975143839563098e-13
	6.359475771509915e-12,-3.980327706883487e-15
	-6.359475896459420e-04,-1.827452095259690e-13
	-6.359475832864662e-04,2.107888467234573e-13
	-7.589860812861101e-23,-3.975143839563098e-13
	-6.359475832864662e-04,2.107888467234573e-13
10		1.258925411794167e+00,0.000000000000000e+00
	-6.359475832864661e+00,2.156987497030559e-09
	1.000000000000000e+00,0.000000000000000e+00
	0.000000000000000e+00,0.000000000000000e+00
	6.359475832864662e-04,-2.156987497030559e-13
	7.947559932879665e-23,4.067736834332929e-13
	6.359475771509915e-12,-4.073041449434811e-15
	-6.359475896459420e-04,-1.870018922808022e-13
	-6.359475832864662e-04,2.156987497030559e-13
	-7.947559932879665e-23,-4.067736834332929e-13
	-6.359475832864662e-04,2.156987497030559e-13
11		1.288249551693134e+00,0.000000000000000e+00
	-6.359475832864661e+00,2.207230190148575e-09
	1.000000000000000e+00,0.000000000000000e+00
	0.000000000000000e+00,0.000000000000000e+00
	6.359475832864662e-04,-2.207230190148575e-13
	8.322116893063791e-23,4.162486597015185e-13
	6.359475771509915e-12,-4.167914772475652e-15
	-6.359475896459420e-04,-1.913577259141854e-13
	-6.359475832864662e-04,2.207230190148575e-13
	-8.322116893063791e-23,-4.162486597015185e-13
	-6.359475832864662e-04,2.207230190148575e-13
12		1.318256738556407e+00,0.000000000000000e+00
	-6.359475832864661e+00,2.258643185929553e-09
	1.000000000000000e+00,0.000000000000000e+00
	0.000000000000000e+00,0.000000000000000e+00
	6.359475832864662e-04,-2.258643185929553e-13
	8.714326178943748e-23,4.259443365188202e-13
	6.359475771509915e-12,-4.264997979097781e-15
	-6.359475896459420e-04,-1.958150199467672e-13
	-6.359475832864662e-04,2.258643185929553e-13
	-8.714326178943748e-23,-4.259443365188202e-13
	-6.359475832864662e-04,2.258643185929553e-13
13		1.348962882591653e+00,0.000000000000000e+00
	-6.359475832864661e+00,2.311253744224388e-09
	1.000000000000000e+00,0.000000000000000e+00
	0.000000000000000e+00,0.000000000000000e+00
	6.359475832864662e-04,-2.311253744224388e-13
	9.125019718999311e-23,4.358658546613841e-13
	6.359475771509915e-12,-4.364342544102364e-15
	-6.359475896459420e-04,-2.003761376948429e-13
	-6.359475832864662e-04,2.311253744224388e-13
	-9.125019718999311e-23,-4.358658546613841e-13
	-6.359475832864662e-04,2.311253744224388e-13
14		1.380384264602885e+00,0.000000000000000e+00
	-6.359475832864661e+00,2.365089759847472e-09
	1.000000000000000e+00,0.000000000000000e+00
	0.000000000000000e+00,0.000000000000000e+00
	6.359475832864662e-04,-2.365089759847471e-13
	9.555068649291581e-23,4.460184746494560e-13
	6.359475771509915e-12,-4.466001141292699e-15
	-6.359475896459420e-04,-2.050434975234163e-13
	-6.359475832864662e-04,2.365089759847471e-13
	-9.555068649291581e-23,-4.460184746494560e-13
	-6.359475832864662e-04,2.365089759847471e-13
15		1.412537544622754e+00,0.000000000000000e+00
	-6.359475832864661e+00,2.420179777366889e-09
	1.000000000000000e+00,0.000000000000000e+00
	0.000000000000000e+00,0.000000000000000e+00
	6.359475832864662e-04,-2.420179777366888e-13
	1.000538516125936e-22,4.564075795365396e-13
	6.359475771509915e-12,-4.570027671402724e-15
	-6.359475896459420e-04,-2.098195741284480e-13
	-6.359475832864662e-04,2.420179777366889e-13
	-1.000538516125936e-22,-4.564075795365396e-13
	-6.359475832864662e-04,2.420179777366889e-13
16		1.445439770745927e+00,0.000000000000000e+00
	-6.359475832864661e+00,2.476553006239132e-09
	1.000000000000000e+00,0.000000000000000e+00
	0.000000000000000e+00,0.000000000000000e+00
	6.359475832864662e-04,-2.476553006239132e-13
	1.047692443659952e-22,4.670386777635617e-13
	6.359475771509915e-12,-4.676477290675486e-15
	-6.359475896459420e-04,-2.147068998489730e-13
	-6.359475832864662e-04,2.476553006239132e-13
	-1.047692443659952e-22,-4.670386777635617e-13
	-6.359475832864662e-04,2.476553006239132e-13
17		1.479108388168207e+00,0.000000000000000e+00
	-6.359475832864661e+00,2.534239336296339e-09
	1.000000000000000e+00,0.000000000000000e+00
	0.000000000000000e+00,0.000000000000000e+00
	6.359475832864662e-04,-2.534239336296338e-13
	1.097068667333545e-22,4.779174060795220e-13
	6.359475771509915e-12,-4.785406440108356e-15
	-6.359475896459420e-04,-2.197080660097798e-13
	-6.359475832864662e-04,2.534239336296339e-13
	-1.097068667333545e-22,-4.779174060795220e-13
	-6.359475832864662e-04,2.534239336296339e-13
18		1.513561248436208e+00,0.000000000000000e+00
	-6.359475832864661e+00,2.593269353594273e-09
	1.000000000000000e+00,0.000000000000000e+00
	0.000000000000000e+00,0.000000000000000e+00
	6.359475832864662e-04,-2.593269353594273e-13
	1.148771920737110e-22,4.890495325301703e-13
	6.359475771509915e-12,-4.896872875377936e-15
	-6.359475896459420e-04,-2.248257242953650e-13
	-6.359475832864662e-04,2.593269353594273e-13
	-1.148771920737110e-22,-4.890495325301703e-13
	-6.359475832864662e-04,2.593269353594273e-13
19		1.548816618912481e+00,0.000000000000000e+00
	-6.359475832864661e+00,2.653674356629461e-09
	1.000000000000000e+00,0.000000000000000e+00
	0.000000000000000e+00,0.000000000000000e+00
	6.359475832864662e-04,-2.653674356629461e-13
	1.202911873403093e-22,5.004409595163020e-13
	6.359475771509915e-12,-5.010935697463971e-15
	-6.359475896459420e-04,-2.300625881558919e-13
	-6.359475832864662e-04,2.653674356629461e-13
	-1.202911873403093e-22,-5.004409595163020e-13
	-6.359475832864662e-04,2.653674356629461e-13
20		1.584893192461113e+00,0.000000000000000e+00
	-6.359475832864661e+00,2.715486372934066e-09
	1.000000000000000e+00,0.000000000000000e+00
	0.000000000000000e+00,0.000000000000000e+00
	6.359475832864662e-04,-2.715486372934066e-13
	1.259603363429768e-22,5.120977269232883e-13
	6.359475771509915e-12,-5.127655383984368e-15
	-6.359475896459420e-04,-2.354214342458974e-13
	-6.359475832864662e-04,2.715486372934066e-13
	-1.259603363429768e-22,-5.120977269232883e-13
	-6.359475832864662e-04,2.715486372934066e-13
21		1.621810097358929e+00,0.000000000000000e+00
	-6.359475832864661e+00,2.778738176057311e-09
	1.000000000000000e+00,0.000000000000000e+00
	0.000000000000000e+00,0.000000000000000e+00
	6.359475832864662e-04,-2.778738176057311e-13
	1.318966641068242e-22,5.240260153235042e-13
	6.359475771509915e-12,-5.247093821261975e-15
	-6.359475896459420e-04,-2.409051038965111e-13
	-6.359475832864662e-04,2.778738176057312e-13
	-1.318966641068242e-22,-5.240260153235042e-13
	-6.359475832864662e-04,2.778738176057312e-13
22		1.659586907437560e+00,0.000000000000000e+00
	-6.359475832864661e+00,2.843463302942452e-09
	1.000000000000000e+00,0.000000000000000e+00
	0.000000000000000e+00,0.000000000000000e+00
	6.359475832864662e-04,-2.843463302942451e-13
	1.381127623789361e-22,5.362321492533490e-13
	6.359475771509915e-12,-5.369314337137054e-15
	-6.359475896459420e-04,-2.465165046219668e-13
	-6.359475832864662e-04,2.843463302942452e-13
	-1.381127623789361e-22,-5.362321492533490e-13
	-6.359475832864662e-04,2.843463302942452e-13
23		1.698243652461743e+00,0.000000000000000e+00
	-6.359475832864661e+00,2.909696071708498e-09
	1.000000000000000e+00,0.000000000000000e+00
	0.000000000000000e+00,0.000000000000000e+00
	6.359475832864662e-04,-2.909696071708498e-13
	1.446218163371542e-22,5.487226005665994e-13
	6.359475771509915e-12,-5.494381734544838e-15
	-6.359475896459420e-04,-2.522586116612048e-13
	-6.359475832864662e-04,2.909696071708498e-13
	-1.446218163371542e-22,-5.487226005665994e-13
	-6.359475832864662e-04,2.909696071708498e-13
24		1.737800828749374e+00,0.000000000000000e+00
	-6.359475832864661e+00,2.977471599846144e-09
	1.000000000000000e+00,0.000000000000000e+00
	0.000000000000000e+00,0.000000000000000e+00
	6.359475832864662e-04,-2.977471599846144e-13
	1.514376325576081e-22,5.615039918658725e-13
	6.359475771509915e-12,-5.622362325875029e-15
	-6.359475896459420e-04,-2.581344695553830e-13
	-6.359475832864662e-04,2.977471599846144e-13
	-1.514376325576081e-22,-5.615039918658725e-13
	-6.359475832864662e-04,2.977471599846144e-13
25		1.778279410038922e+00,0.000000000000000e+00
	-6.359475832864661e+00,3.046825822837525e-09
	1.000000000000000e+00,0.000000000000000e+00
	0.000000000000000e+00,0.000000000000000e+00
	6.359475832864662e-04,-3.046825822837525e-13
	1.585746683003138e-22,5.745831000140169e-13
	6.359475771509915e-12,-5.753323968131315e-15
	-6.359475896459420e-04,-2.641471937621331e-13
	-6.359475832864662e-04,3.046825822837525e-13
	-1.585746683003138e-22,-5.745831000140169e-13
	-6.359475832864662e-04,3.046825822837525e-13
26		1.819700858609982e+00,0.000000000000000e+00
	-6.359475832864661e+00,3.117795513209682e-09
	1.000000000000000e+00,0.000000000000000e+00
	0.000000000000000e+00,0.000000000000000e+00
	6.359475832864662e-04,-3.117795513209682e-13
	1.660480621749606e-22,5.879668597272952e-13
	6.359475771509915e-12,-5.887336098909741e-15
	-6.359475896459420e-04,-2.702999723074173e-13
	-6.359475832864662e-04,3.117795513209682e-13
	-1.660480621749606e-22,-5.879668597272952e-13
	-6.359475832864662e-04,3.117795513209682e-13
27		1.862087136662866e+00,0.000000000000000e+00
	-6.359475832864661e+00,3.190418300031845e-09
	1.000000000000000e+00,0.000000000000000e+00
	0.000000000000000e+00,0.000000000000000e+00
	6.359475832864662e-04,-3.190418300031844e-13
	1.738736662519320e-22,6.016623672522623e-13
	6.359475771509915e-12,-6.024469773215868e-15
	-6.359475896459420e-04,-2.765960674758620e-13
	-6.359475832864662e-04,3.190418300031845e-13
	-1.738736662519320e-22,-6.016623672522623e-13
	-6.359475832864662e-04,3.190418300031845e-13
28		1.905460717963246e+00,0.000000000000000e+00
	-6.359475832864661e+00,3.264732688866863e-09
	1.000000000000000e+00,0.000000000000000e+00
	0.000000000000000e+00,0.000000000000000e+00
	6.359475832864662e-04,-3.264732688866862e-13
	1.820680796866722e-22,6.156768841282893e-13
	6.359475771509915e-12,-6.164797701138901e-15
	-6.359475896459420e-04,-2.830388175404642e-13
	-6.359475832864662e-04,3.264732688866863e-13
	-1.820680796866722e-22,-6.156768841282893e-13
	-6.359475832864662e-04,3.264732688866863e-13
29		1.949844599758044e+00,0.000000000000000e+00
	-6.359475832864661e+00,3.340778082187365e-09
	1.000000000000000e+00,0.000000000000000e+00
	0.000000000000000e+00,0.000000000000000e+00
	6.359475832864662e-04,-3.340778082187365e-13
	1.906486839287206e-22,6.300178410377284e-13
	6.359475771509915e-12,-6.308394286403890e-15
	-6.359475896459420e-04,-2.896316385325881e-13
	-6.359475832864662e-04,3.340778082187365e-13
	-1.906486839287206e-22,-6.300178410377284e-13
	-6.359475832864662e-04,3.340778082187365e-13
30		1.995262314968878e+00,0.000000000000000e+00
	-6.359475832864661e+00,3.418594800267467e-09
	1.000000000000000e+00,0.000000000000000e+00
	0.000000000000000e+00,0.000000000000000e+00
	6.359475832864662e-04,-3.418594800267467e-13
	1.996336795900960e-22,6.446928417457575e-13
	6.359475771509915e-12,-6.455335665821139e-15
	-6.359475896459420e-04,-2.963780260531897e-13
	-6.359475832864662e-04,3.418594800267467e-13
	-1.996336795900960e-22,-6.446928417457575e-13
	-6.359475832864662e-04,3.418594800267467e-13
31		2.041737944669527e+00,0.000000000000000e+00
	-6.359475832864661e+00,3.498224102561123e-09
	1.000000000000000e+00,0.000000000000000e+00
	0.000000000000000e+00,0.000000000000000e+00
	6.359475832864662e-04,-3.498224102561122e-13
	2.090421250512357e-22,6.597096671319988e-13
	6.359475771509915e-12,-6.605699749654778e-15
	-6.359475896459420e-04,-3.032815571262318e-13
	-6.359475832864662e-04,3.498224102561123e-13
	-2.090421250512357e-22,-6.597096671319988e-13
	-6.359475832864662e-04,3.498224102561123e-13
32		2.089296130854037e+00,0.000000000000000e+00
	-6.359475832864661e+00,3.579708209578427e-09
	1.000000000000000e+00,0.000000000000000e+00
	0.000000000000000e+00,0.000000000000000e+00
	6.359475832864662e-04,-3.579708209578428e-13
	2.188939768863750e-22,6.750762793160435e-13
	6.359475771509915e-12,-6.759566262932518e-15
	-6.359475896459420e-04,-3.103458920952682e-13
	-6.359475832864662e-04,3.579708209578428e-13
	-2.188939768863750e-22,-6.750762793160435e-13
	-6.359475832864662e-04,3.579708209578428e-13
33		2.137962089502230e+00,0.000000000000000e+00
	-6.359475832864661e+00,3.663090325271489e-09
	1.000000000000000e+00,0.000000000000000e+00
	0.000000000000000e+00,0.000000000000000e+00
	6.359475832864662e-04,-3.663090325271489e-13
	2.292101321941169e-22,6.908008258790722e-13
	6.359475771509915e-12,-6.917016787716228e-15
	-6.359475896459420e-04,-3.175747765642070e-13
	-6.359475832864662e-04,3.663090325271489e-13
	-2.292101321941169e-22,-6.908008258790722e-13
	-6.359475832864662e-04,3.663090325271489e-13
34		2.187761623949550e+00,0.000000000000000e+00
	-6.359475832864661e+00,3.748414659941743e-09
	1.000000000000000e+00,0.000000000000000e+00
	0.000000000000000e+00,0.000000000000000e+00
	6.359475832864662e-04,-3.748414659941744e-13
	2.400124729229804e-22,7.068916441838120e-13
	6.359475771509915e-12,-7.078134806358271e-15
	-6.359475896459420e-04,-3.249720433832793e-13
	-6.359475832864662e-04,3.748414659941743e-13
	-2.400124729229804e-22,-7.068916441838120e-13
	-6.359475832864662e-04,3.748414659941743e-13
35		2.238721138568337e+00,0.000000000000000e+00
	-6.359475832864661e+00,3.835726453680832e-09
	1.000000000000000e+00,0.000000000000000e+00
	0.000000000000000e+00,0.000000000000000e+00
	6.359475832864662e-04,-3.835726453680831e-13
	2.513239122859463e-22,7.233572657951151e-13
	6.359475771509915e-12,-7.243005745765003e-15
	-6.359475896459420e-04,-3.325416146812669e-13
	-6.359475832864662e-04,3.835726453680832e-13
	-2.513239122859463e-22,-7.233572657951151e-13
	-6.359475832864662e-04,3.835726453680832e-13
36		2.290867652767770e+00,0.000000000000000e+00
	-6.359475832864661e+00,3.925072000357504e-09
	1.000000000000000e+00,0.000000000000000e+00
	0.000000000000000e+00,0.000000000000000e+00
	6.359475832864662e-04,-3.925072000357503e-13
	2.631684433624546e-22,7.402064210035081e-13
	6.359475771509915e-12,-7.411717022690521e-15
	-6.359475896459420e-04,-3.402875039450672e-13
	-6.359475832864662e-04,3.925072000357504e-13
	-2.631684433624546e-22,-7.402064210035081e-13
	-6.359475832864662e-04,3.925072000357504e-13
37		2.344228815319919e+00,0.000000000000000e+00
	-6.359475832864661e+00,4.016498672163235e-09
	1.000000000000000e+00,0.000000000000000e+00
	0.000000000000000e+00,0.000000000000000e+00
	6.359475832864662e-04,-4.016498672163235e-13
	2.755711899909425e-22,7.574480434541075e-13
	6.359475771509915e-12,-7.584358090087299e-15
	-6.359475896459420e-04,-3.482138181476967e-13
	-6.359475832864662e-04,4.016498672163236e-13
	-2.755711899909425e-22,-7.574480434541075e-13
	-6.359475832864662e-04,4.016498672163236e-13
38		2.398832919019488e+00,0.000000000000000e+00
	-6.359475832864661e+00,4.110054944729592e-09
	1.000000000000000e+00,0.000000000000000e+00
