LTspice 24.0.9 for Windows
Circuit: * GA CMOS Amp | W=4.309492407703547e-06 L=6.17426835095903e-07 Vbias=0.8580955833894373
Start Time: Mon Sep  8 18:46:48 2025
solver = Normal
Maximum thread count: 2
tnom = 27
temp = 27
method = modified trap
AsciiRawFile = 1
Instance "m1": Length shorter than recommended for a level 3 MOSFET.
Direct Newton iteration for .op point succeeded.
Semiconductor Device Operating Points:
                        --- MOSFET Transistors ---
Name:          m1
Model:        n_1u
Id:          7.26e-06
Vgs:         8.58e-01
Vds:         1.73e+00
Vbs:         0.00e+00
Vth:         7.97e-01
Vdsat:       9.21e-02
Gm:          1.16e-04
Gds:         1.86e-06
Gmb:         2.74e-05
Cbd:         0.00e+00
Cbs:         0.00e+00
Cgsov:       8.62e-16
Cgdov:       8.62e-16
Cgbov:       4.17e-17
Cgs:         2.07e-15
Cgd:         0.00e+00
Cgb:         0.00e+00



gain_db: MAX(db(v(out)/v(g)))=(28.7271dB,87.5752°) FROM 1 TO 1e+09
gain_lin: MAX(mag(v(out)/v(g)))=(1.15551dB,0°) FROM 1 TO 1e+09

Measurement "fc" FAIL'ed

Total elapsed time: 0.457 seconds.

