Title: * GA CMOS Amp | W=1.7963278871640963e-05 L=2.4532064317197615e-07 Vbias=1.2751222945345053
Date: Sat Sep  6 22:04:11 2025
Plotname: AC Analysis
Flags: complex forward log
No. Variables: 13
No. Points:          901
Offset:    0.0000000000000000e+00
Command: Linear Technology Corporation LTspice
Variables:
	0	frequency	frequency
	1	V(out)	voltage
	2	V(g)	voltage
	3	V(vdd)	voltage
	4	V(m1#dbody)	voltage
	5	V(m1#sbody)	voltage
	6	Id(M1)	device_current
	7	Ig(M1)	device_current
	8	Ib(M1)	device_current
	9	Is(M1)	device_current
	10	I(Rload)	device_current
	11	I(Vg)	device_current
	12	I(Vdd)	device_current
Values:
0		1.000000000000000e+00,0.000000000000000e+00
	1.537315025479394e-03,9.249678385208214e-11
	1.000000000000000e+00,0.000000000000000e+00
	0.000000000000000e+00,0.000000000000000e+00
	1.952367871883583e-05,1.226637895720420e-14
	1.952367870572854e-05,1.161631836267617e-14
	-1.537315025479389e-07,-9.249678385208182e-15
	1.568165144979312e-05,1.235468042629247e-12
	-1.041262865180156e-05,-6.243995745925402e-15
	-5.115291295443619e-06,-1.219974368498113e-12
	1.537315025479394e-07,9.249678385208214e-15
	-1.568165144978650e-05,-1.235468042629247e-12
	1.537315025479394e-07,9.249678385208214e-15
1		1.023292992280754e+00,0.000000000000000e+00
	1.537315025479394e-03,9.465131072434328e-11
	1.000000000000000e+00,0.000000000000000e+00
	0.000000000000000e+00,0.000000000000000e+00
	1.952367871883583e-05,1.255209962756716e-14
	1.952367870572854e-05,1.188689717662877e-14
	-1.537315025479389e-07,-9.465131072434227e-15
	1.568165144979312e-05,1.264245790209328e-12
	-1.041262865180156e-05,-6.389437090636302e-15
	-5.115291295443619e-06,-1.248391222046257e-12
	1.537315025479394e-07,9.465131072434329e-15
	-1.568165144978650e-05,-1.264245790209328e-12
	1.537315025479394e-07,9.465131072434329e-15
2		1.047128548050899e+00,0.000000000000000e+00
	1.537315025479394e-03,9.685602297440865e-11
	1.000000000000000e+00,0.000000000000000e+00
	0.000000000000000e+00,0.000000000000000e+00
	1.952367871883583e-05,1.284447558729934e-14
	1.952367870572854e-05,1.216377858080610e-14
	-1.537315025479389e-07,-9.685602297440955e-15
	1.568165144979312e-05,1.293693857641650e-12
	-1.041262865180156e-05,-6.538266199466858e-15
	-5.115291295443619e-06,-1.277469989144742e-12
	1.537315025479394e-07,9.685602297440865e-15
	-1.568165144978650e-05,-1.293693857641650e-12
	1.537315025479394e-07,9.685602297440865e-15
3		1.071519305237606e+00,0.000000000000000e+00
	1.537315025479394e-03,9.911208956989608e-11
	1.000000000000000e+00,0.000000000000000e+00
	0.000000000000000e+00,0.000000000000000e+00
	1.952367871883583e-05,1.314366185800464e-14
	1.952367870572854e-05,1.244710938139362e-14
	-1.537315025479389e-07,-9.911208956989747e-15
	1.568165144979312e-05,1.323827858681356e-12
	-1.041262865180156e-05,-6.690561983580555e-15
	-5.115291295443619e-06,-1.307226087740785e-12
	1.537315025479394e-07,9.911208956989608e-15
	-1.568165144978650e-05,-1.323827858681356e-12
	1.537315025479394e-07,9.911208956989608e-15
4		1.096478196143185e+00,0.000000000000000e+00
	1.537315025479394e-03,1.014207067071771e-10
	1.000000000000000e+00,0.000000000000000e+00
	0.000000000000000e+00,0.000000000000000e+00
	1.952367871883583e-05,1.344981707220398e-14
	1.952367870572854e-05,1.273703980413212e-14
	-1.537315025479389e-07,-1.014207067071780e-14
	1.568165144979312e-05,1.354663770774667e-12
	-1.041262865180156e-05,-6.846405192218002e-15
	-5.115291295443619e-06,-1.337675294911732e-12
	1.537315025479394e-07,1.014207067071771e-14
	-1.568165144978650e-05,-1.354663770774667e-12
	1.537315025479394e-07,1.014207067071771e-14
5		1.122018454301963e+00,0.000000000000000e+00
	1.537315025479394e-03,1.037830984456160e-10
	1.000000000000000e+00,0.000000000000000e+00
	0.000000000000000e+00,0.000000000000000e+00
	1.952367871883583e-05,1.376310355744438e-14
	1.952367870572854e-05,1.303372357396943e-14
	-1.537315025479389e-07,-1.037830984456155e-14
	1.568165144979312e-05,1.386217943530339e-12
	-1.041262865180156e-05,-7.005878455511252e-15
	-5.115291295443619e-06,-1.368833755230266e-12
	1.537315025479394e-07,1.037830984456160e-14
	-1.568165144978650e-05,-1.386217943530340e-12
	1.537315025479394e-07,1.037830984456160e-14
6		1.148153621496882e+00,0.000000000000000e+00
	1.537315025479394e-03,1.062005173565825e-10
	1.000000000000000e+00,0.000000000000000e+00
	0.000000000000000e+00,0.000000000000000e+00
	1.952367871883583e-05,1.408368742236716e-14
	1.952367870572854e-05,1.333731799656738e-14
	-1.537315025479389e-07,-1.062005173565831e-14
	1.568165144979312e-05,1.418507107388434e-12
	-1.041262865180156e-05,-7.169066328295378e-15
	-5.115291295443619e-06,-1.400717989324481e-12
	1.537315025479394e-07,1.062005173565825e-14
	-1.568165144978650e-05,-1.418507107388435e-12
	1.537315025479394e-07,1.062005173565825e-14
7		1.174897554939529e+00,0.000000000000000e+00
	1.537315025479394e-03,1.086742451875814e-10
	1.000000000000000e+00,0.000000000000000e+00
	0.000000000000000e+00,0.000000000000000e+00
	1.952367871883583e-05,1.441173864478091e-14
	1.952367870572854e-05,1.364798404170739e-14
	-1.537315025479389e-07,-1.086742451875826e-14
	1.568165144979312e-05,1.451548382491028e-12
	-1.041262865180156e-05,-7.336055334940576e-15
	-5.115291295443619e-06,-1.433344902637329e-12
	1.537315025479394e-07,1.086742451875814e-14
	-1.568165144978650e-05,-1.451548382491028e-12
	1.537315025479394e-07,1.086742451875814e-14
8		1.202264434617413e+00,0.000000000000000e+00
	1.537315025479394e-03,1.112055935418525e-10
	1.000000000000000e+00,0.000000000000000e+00
	0.000000000000000e+00,0.000000000000000e+00
	1.952367871883583e-05,1.474743116178603e-14
	1.952367870572854e-05,1.396588642863873e-14
	-1.537315025479389e-07,-1.112055935418536e-14
	1.568165144979312e-05,1.485359287759533e-12
	-1.041262865180156e-05,-7.506934015228531e-15
	-5.115291295443619e-06,-1.466731794390119e-12
	1.537315025479394e-07,1.112055935418526e-14
	-1.568165144978650e-05,-1.485359287759533e-12
	1.537315025479394e-07,1.112055935418526e-14
9		1.230268770812381e+00,0.000000000000000e+00
	1.537315025479394e-03,1.137959045737996e-10
	1.000000000000000e+00,0.000000000000000e+00
	0.000000000000000e+00,0.000000000000000e+00
	1.952367871883583e-05,1.509094296199847e-14
	1.952367870572854e-05,1.429119371341490e-14
	-1.537315025479389e-07,-1.137959045738007e-14
	1.568165144979312e-05,1.519957750183462e-12
	-1.041262865180156e-05,-7.681792971297380e-15
	-5.115291295443619e-06,-1.500896366754785e-12
	1.537315025479394e-07,1.137959045737996e-14
	-1.568165144978650e-05,-1.519957750183462e-12
	1.537315025479394e-07,1.137959045737996e-14
10		1.258925411794167e+00,0.000000000000000e+00
	1.537315025479394e-03,1.164465517006185e-10
	1.000000000000000e+00,0.000000000000000e+00
	0.000000000000000e+00,0.000000000000000e+00
	1.952367871883583e-05,1.544245617992160e-14
	1.952367870572854e-05,1.462407837826424e-14
	-1.537315025479389e-07,-1.164465517006189e-14
	1.568165144979312e-05,1.555362114325557e-12
	-1.041262865180156e-05,-7.860724915680161e-15
	-5.115291295443619e-06,-1.535856734239815e-12
	1.537315025479394e-07,1.164465517006185e-14
	-1.568165144978650e-05,-1.555362114325558e-12
	1.537315025479394e-07,1.164465517006185e-14
11		1.288249551693134e+00,0.000000000000000e+00
	1.537315025479394e-03,1.191589403305015e-10
	1.000000000000000e+00,0.000000000000000e+00
	0.000000000000000e+00,0.000000000000000e+00
	1.952367871883583e-05,1.580215719251640e-14
	1.952367870572854e-05,1.496471692304229e-14
	-1.537315025479389e-07,-1.191589403305002e-14
	1.568165144979312e-05,1.591591152048321e-12
	-1.041262865180156e-05,-8.043824720462232e-15
	-5.115291295443619e-06,-1.571631433294808e-12
	1.537315025479394e-07,1.191589403305015e-14
	-1.568165144978650e-05,-1.591591152048321e-12
	1.537315025479394e-07,1.191589403305015e-14
12		1.318256738556407e+00,0.000000000000000e+00
	1.537315025479394e-03,1.219345086078027e-10
	1.000000000000000e+00,0.000000000000000e+00
	0.000000000000000e+00,0.000000000000000e+00
	1.952367871883583e-05,1.617023671802095e-14
	1.952367870572854e-05,1.531328995881439e-14
	-1.537315025479389e-07,-1.219345086078043e-14
	1.568165144979312e-05,1.628664072467099e-12
	-1.041262865180156e-05,-8.231189467583699e-15
	-5.115291295443619e-06,-1.608239432138734e-12
	1.537315025479394e-07,1.219345086078027e-14
	-1.568165144978650e-05,-1.628664072467098e-12
	1.537315025479394e-07,1.219345086078027e-14
13		1.348962882591653e+00,0.000000000000000e+00
	1.537315025479394e-03,1.247747281755618e-10
	1.000000000000000e+00,0.000000000000000e+00
	0.000000000000000e+00,0.000000000000000e+00
	1.952367871883583e-05,1.654688991707178e-14
	1.952367870572854e-05,1.566998230361800e-14
	-1.537315025479389e-07,-1.247747281755617e-14
	1.568165144979312e-05,1.666600532135016e-12
	-1.041262865180156e-05,-8.422918500313550e-15
	-5.115291295443619e-06,-1.645700140817146e-12
	1.537315025479394e-07,1.247747281755618e-14
	-1.568165144978650e-05,-1.666600532135017e-12
	1.537315025479394e-07,1.247747281755618e-14
14		1.380384264602885e+00,0.000000000000000e+00
	1.537315025479394e-03,1.276811049557884e-10
	1.000000000000000e+00,0.000000000000000e+00
	0.000000000000000e+00,0.000000000000000e+00
	1.952367871883583e-05,1.693231649618062e-14
	1.952367870572854e-05,1.603498308045573e-14
	-1.537315025479389e-07,-1.276811049557899e-14
	1.568165144979312e-05,1.705420645465138e-12
	-1.041262865180156e-05,-8.619113475922775e-15
	-5.115291295443619e-06,-1.684033421493636e-12
	1.537315025479394e-07,1.276811049557884e-14
	-1.568165144978650e-05,-1.705420645465138e-12
	1.537315025479394e-07,1.276811049557884e-14
15		1.412537544622754e+00,0.000000000000000e+00
	1.537315025479394e-03,1.306551799479217e-10
	1.000000000000000e+00,0.000000000000000e+00
	0.000000000000000e+00,0.000000000000000e+00
	1.952367871883583e-05,1.732672081362144e-14
	1.952367870572854e-05,1.640848581757081e-14
	-1.537315025479389e-07,-1.306551799479228e-14
	1.568165144979312e-05,1.745144995395396e-12
	-1.041262865180156e-05,-8.819878419584387e-15
	-5.115291295443619e-06,-1.723259598981020e-12
	1.537315025479394e-07,1.306551799479217e-14
	-1.568165144978650e-05,-1.745144995395397e-12
	1.537315025479394e-07,1.306551799479217e-14
16		1.445439770745927e+00,0.000000000000000e+00
	1.537315025479394e-03,1.336985300458891e-10
	1.000000000000000e+00,0.000000000000000e+00
	0.000000000000000e+00,0.000000000000000e+00
	1.952367871883583e-05,1.773031198778390e-14
	1.952367870572854e-05,1.679068855105835e-14
	-1.537315025479389e-07,-1.336985300458897e-14
	1.568165144979312e-05,1.785794644301937e-12
	-1.041262865180156e-05,-9.025319779528954e-15
	-5.115291295443619e-06,-1.763399471517819e-12
	1.537315025479394e-07,1.336985300458891e-14
	-1.568165144978650e-05,-1.785794644301938e-12
	1.537315025479394e-07,1.336985300458891e-14
17		1.479108388168207e+00,0.000000000000000e+00
	1.537315025479394e-03,1.368127688741963e-10
	1.000000000000000e+00,0.000000000000000e+00
	0.000000000000000e+00,0.000000000000000e+00
	1.952367871883583e-05,1.814330400805072e-14
	1.952367870572854e-05,1.718179392986670e-14
	-1.537315025479389e-07,-1.368127688741939e-14
	1.568165144979312e-05,1.827391145166674e-12
	-1.041262865180156e-05,-9.235546483484863e-15
	-5.115291295443619e-06,-1.804474321795770e-12
	1.537315025479394e-07,1.368127688741963e-14
	-1.568165144978650e-05,-1.827391145166675e-12
	1.537315025479394e-07,1.368127688741963e-14
18		1.513561248436208e+00,0.000000000000000e+00
	1.537315025479394e-03,1.399995476434915e-10
	1.000000000000000e+00,0.000000000000000e+00
	0.000000000000000e+00,0.000000000000000e+00
	1.952367871883583e-05,1.856591584825762e-14
	1.952367870572854e-05,1.758200932324459e-14
	-1.537315025479389e-07,-1.399995476434920e-14
	1.568165144979312e-05,1.869956553004960e-12
	-1.041262865180156e-05,-9.450669996433218e-15
	-5.115291295443619e-06,-1.846505928244178e-12
	1.537315025479394e-07,1.399995476434915e-14
	-1.568165144978650e-05,-1.869956553004960e-12
	1.537315025479394e-07,1.399995476434915e-14
19		1.548816618912481e+00,0.000000000000000e+00
	1.537315025479394e-03,1.432605560260604e-10
	1.000000000000000e+00,0.000000000000000e+00
	0.000000000000000e+00,0.000000000000000e+00
	1.952367871883583e-05,1.899837158279621e-14
	1.952367870572854e-05,1.799154693069107e-14
	-1.537315025479389e-07,-1.432605560260611e-14
	1.568165144979312e-05,1.913513436559450e-12
	-1.041262865180156e-05,-9.670804379708092e-15
	-5.115291295443619e-06,-1.889516576577136e-12
	1.537315025479394e-07,1.432605560260604e-14
	-1.568165144978650e-05,-1.913513436559451e-12
	1.537315025479394e-07,1.432605560260604e-14
20		1.584893192461113e+00,0.000000000000000e+00
	1.537315025479394e-03,1.465975230517120e-10
	1.000000000000000e+00,0.000000000000000e+00
	0.000000000000000e+00,0.000000000000000e+00
	1.952367871883583e-05,1.944090050542118e-14
	1.952367870572854e-05,1.841062389446648e-14
	-1.537315025479389e-07,-1.465975230517114e-14
	1.568165144979312e-05,1.958084890266349e-12
	-1.041262865180156e-05,-9.896066351473317e-15
	-5.115291295443619e-06,-1.933529071609704e-12
	1.537315025479394e-07,1.465975230517120e-14
	-1.568165144978650e-05,-1.958084890266349e-12
	1.537315025479394e-07,1.465975230517120e-14
21		1.621810097358929e+00,0.000000000000000e+00
	1.537315025479394e-03,1.500122180245332e-10
	1.000000000000000e+00,0.000000000000000e+00
	0.000000000000000e+00,0.000000000000000e+00
	1.952367871883583e-05,1.989373725082487e-14
	1.952367870572854e-05,1.883946241472416e-14
	-1.537315025479389e-07,-1.500122180245311e-14
	1.568165144979312e-05,2.003694546500384e-12
	-1.041262865180156e-05,-1.012657534860802e-14
	-5.115291295443619e-06,-1.978566749349323e-12
	1.537315025479394e-07,1.500122180245332e-14
	-1.568165144978650e-05,-2.003694546500384e-12
	1.537315025479394e-07,1.500122180245332e-14
22		1.659586907437560e+00,0.000000000000000e+00
	1.537315025479394e-03,1.535064514609974e-10
	1.000000000000000e+00,0.000000000000000e+00
	0.000000000000000e+00,0.000000000000000e+00
	1.952367871883583e-05,2.035712191904367e-14
	1.952367870572854e-05,1.927828986732388e-14
	-1.537315025479389e-07,-1.535064514610003e-14
	1.568165144979312e-05,2.050366588105007e-12
	-1.041262865180156e-05,-1.036245359003361e-14
	-5.115291295443619e-06,-2.024653489368873e-12
	1.537315025479394e-07,1.535064514609974e-14
	-1.568165144978650e-05,-2.050366588105007e-12
	1.537315025479394e-07,1.535064514609974e-14
23		1.698243652461743e+00,0.000000000000000e+00
	1.537315025479394e-03,1.570820760499244e-10
	1.000000000000000e+00,0.000000000000000e+00
	0.000000000000000e+00,0.000000000000000e+00
	1.952367871883583e-05,2.083130020276234e-14
	1.952367870572854e-05,1.972733892438960e-14
	-1.537315025479389e-07,-1.570820760499244e-14
	1.568165144979312e-05,2.098125761214453e-12
	-1.041262865180156e-05,-1.060382614151594e-14
	-5.115291295443619e-06,-2.071813727467945e-12
	1.537315025479394e-07,1.570820760499244e-14
	-1.568165144978650e-05,-2.098125761214453e-12
	1.537315025479394e-07,1.570820760499244e-14
24		1.737800828749374e+00,0.000000000000000e+00
	1.537315025479394e-03,1.607409876348001e-10
	1.000000000000000e+00,0.000000000000000e+00
	0.000000000000000e+00,0.000000000000000e+00
	1.952367871883583e-05,2.131652351758335e-14
	1.952367870572854e-05,2.018684767767522e-14
	-1.537315025479389e-07,-1.607409876348019e-14
	1.568165144979312e-05,2.146997388374472e-12
	-1.041262865180156e-05,-1.085082098197673e-14
	-5.115291295443619e-06,-2.120072468629015e-12
	1.537315025479394e-07,1.607409876348001e-14
	-1.568165144978650e-05,-2.146997388374473e-12
	1.537315025479394e-07,1.607409876348001e-14
25		1.778279410038922e+00,0.000000000000000e+00
	1.537315025479394e-03,1.644851262189783e-10
	1.000000000000000e+00,0.000000000000000e+00
	0.000000000000000e+00,0.000000000000000e+00
	1.952367871883583e-05,2.181304913533093e-14
	1.952367870572854e-05,2.065705976480407e-14
	-1.537315025479389e-07,-1.644851262189761e-14
	1.568165144979312e-05,2.197007381968677e-12
	-1.041262865180156e-05,-1.110356907134976e-14
	-5.115291295443619e-06,-2.169455300275430e-12
	1.537315025479394e-07,1.644851262189783e-14
	-1.568165144978650e-05,-2.197007381968679e-12
	1.537315025479394e-07,1.644851262189783e-14
26		1.819700858609982e+00,0.000000000000000e+00
	1.537315025479394e-03,1.683164769942958e-10
	1.000000000000000e+00,0.000000000000000e+00
	0.000000000000000e+00,0.000000000000000e+00
	1.952367871883583e-05,2.232114032045990e-14
	1.952367870572854e-05,2.113822449844873e-14
	-1.537315025479389e-07,-1.683164769942975e-14
	1.568165144979312e-05,2.248182257957635e-12
	-1.041262865180156e-05,-1.136220442001753e-14
	-5.115291295443619e-06,-2.219988405838187e-12
	1.537315025479394e-07,1.683164769942958e-14
	-1.568165144978650e-05,-2.248182257957635e-12
	1.537315025479394e-07,1.683164769942958e-14
27		1.862087136662866e+00,0.000000000000000e+00
	1.537315025479394e-03,1.722370713936476e-10
	1.000000000000000e+00,0.000000000000000e+00
	0.000000000000000e+00,0.000000000000000e+00
	1.952367871883583e-05,2.284106646964200e-14
	1.952367870572854e-05,2.163059699851994e-14
	-1.537315025479389e-07,-1.722370713936509e-14
	1.568165144979312e-05,2.300549149937969e-12
	-1.041262865180156e-05,-1.162686415986535e-14
	-5.115291295443619e-06,-2.271698578638739e-12
	1.537315025479394e-07,1.722370713936476e-14
	-1.568165144978650e-05,-2.300549149937970e-12
	1.537315025479394e-07,1.722370713936476e-14
28		1.905460717963246e+00,0.000000000000000e+00
	1.537315025479394e-03,1.762489881680796e-10
	1.000000000000000e+00,0.000000000000000e+00
	0.000000000000000e+00,0.000000000000000e+00
	1.952367871883583e-05,2.337310325460356e-14
	1.952367870572854e-05,2.213443832743457e-14
	-1.537315025479389e-07,-1.762489881680808e-14
	1.568165144979312e-05,2.354135823528969e-12
	-1.041262865180156e-05,-1.189768861699047e-14
	-5.115291295443619e-06,-2.324613236095171e-12
	1.537315025479394e-07,1.762489881680796e-14
	-1.568165144978650e-05,-2.354135823528970e-12
	1.537315025479394e-07,1.762489881680796e-14
29		1.949844599758044e+00,0.000000000000000e+00
	1.537315025479394e-03,1.803543544889694e-10
	1.000000000000000e+00,0.000000000000000e+00
	0.000000000000000e+00,0.000000000000000e+00
	1.952367871883583e-05,2.391753276829031e-14
	1.952367870572854e-05,2.265001562853433e-14
	-1.537315025479389e-07,-1.803543544889721e-14
	1.568165144979312e-05,2.408970691094277e-12
	-1.041262865180156e-05,-1.217482138610484e-14
	-5.115291295443619e-06,-2.378760434259275e-12
	1.537315025479394e-07,1.803543544889694e-14
	-1.568165144978650e-05,-2.408970691094277e-12
	1.537315025479394e-07,1.803543544889694e-14
30		1.995262314968878e+00,0.000000000000000e+00
	1.537315025479394e-03,1.845553470758813e-10
	1.000000000000000e+00,0.000000000000000e+00
	0.000000000000000e+00,0.000000000000000e+00
	1.952367871883583e-05,2.447464367443678e-14
	1.952367870572854e-05,2.317760226772874e-14
	-1.537315025479389e-07,-1.845553470758785e-14
	1.568165144979312e-05,2.465082826806499e-12
	-1.041262865180156e-05,-1.245840940667094e-14
	-5.115291295443619e-06,-2.434168882692240e-12
	1.537315025479394e-07,1.845553470758813e-14
	-1.568165144978650e-05,-2.465082826806500e-12
	1.537315025479394e-07,1.845553470758813e-14
31		2.041737944669527e+00,0.000000000000000e+00
	1.537315025479394e-03,1.888541933506917e-10
	1.000000000000000e+00,0.000000000000000e+00
	0.000000000000000e+00,0.000000000000000e+00
	1.952367871883583e-05,2.504473136061964e-14
	1.952367870572854e-05,2.371747797843733e-14
	-1.537315025479389e-07,-1.888541933506924e-14
	1.568165144979312e-05,2.522501982062722e-12
	-1.041262865180156e-05,-1.274860304081100e-14
	-5.115291295443619e-06,-2.490867959686841e-12
	1.537315025479394e-07,1.888541933506917e-14
	-1.568165144978650e-05,-2.522501982062722e-12
	1.537315025479394e-07,1.888541933506917e-14
32		2.089296130854037e+00,0.000000000000000e+00
	1.537315025479394e-03,1.932531726185974e-10
	1.000000000000000e+00,0.000000000000000e+00
	0.000000000000000e+00,0.000000000000000e+00
	1.952367871883583e-05,2.562809809487612e-14
	1.952367870572854e-05,2.426992900990803e-14
