Title: * GA CMOS Amp | W=4.430009205494142e-05 L=9.526119679626481e-07 Vbias=1.3056357081452707
Date: Sat Sep  6 22:03:01 2025
Plotname: AC Analysis
Flags: complex forward log
No. Variables: 13
No. Points:          901
Offset:    0.0000000000000000e+00
Command: Linear Technology Corporation LTspice
Variables:
	0	frequency	frequency
	1	V(out)	voltage
	2	V(g)	voltage
	3	V(vdd)	voltage
	4	V(m1#dbody)	voltage
	5	V(m1#sbody)	voltage
	6	Id(M1)	device_current
	7	Ig(M1)	device_current
	8	Ib(M1)	device_current
	9	Is(M1)	device_current
	10	I(Rload)	device_current
	11	I(Vg)	device_current
	12	I(Vdd)	device_current
Values:
0		1.000000000000000e+00,0.000000000000000e+00
	1.226954840111024e-02,1.214688763281348e-09
	1.000000000000000e+00,0.000000000000000e+00
	0.000000000000000e+00,0.000000000000000e+00
	3.675277580169035e-04,1.779439629108891e-13
	3.675277579172531e-04,1.650699881155818e-13
	-1.226954840111029e-06,-1.214688763281363e-13
	2.597014015656461e-04,1.097023144634304e-11
	-1.960148043775001e-04,-8.914111472835738e-14
	-6.245964234803497e-05,-1.075962145528655e-11
	1.226954840111024e-06,1.214688763281348e-13
	-2.597014015656429e-04,-1.097023144634304e-11
	1.226954840111024e-06,1.214688763281348e-13
1		1.023292992280754e+00,0.000000000000000e+00
	1.226954840111024e-02,1.242982499267980e-09
	1.000000000000000e+00,0.000000000000000e+00
	0.000000000000000e+00,0.000000000000000e+00
	3.675277580169035e-04,1.820888102653793e-13
	3.675277579172531e-04,1.689149620745422e-13
	-1.226954840111029e-06,-1.242982499267993e-13
	2.597014015656461e-04,1.122576096274079e-11
	-1.960148043775001e-04,-9.121747802562285e-14
	-6.245964234803497e-05,-1.101024523478837e-11
	1.226954840111024e-06,1.242982499267980e-13
	-2.597014015656429e-04,-1.122576096274079e-11
	1.226954840111024e-06,1.242982499267980e-13
2		1.047128548050899e+00,0.000000000000000e+00
	1.226954840111024e-02,1.271935281028541e-09
	1.000000000000000e+00,0.000000000000000e+00
	0.000000000000000e+00,0.000000000000000e+00
	3.675277580169035e-04,1.863302035173024e-13
	3.675277579172531e-04,1.728494969822484e-13
	-1.226954840111029e-06,-1.271935281028546e-13
	2.597014015656461e-04,1.148724252619151e-11
	-1.960148043775001e-04,-9.334220603714351e-14
	-6.245964234803497e-05,-1.126670679205151e-11
	1.226954840111024e-06,1.271935281028541e-13
	-2.597014015656429e-04,-1.148724252619150e-11
	1.226954840111024e-06,1.271935281028541e-13
3		1.071519305237606e+00,0.000000000000000e+00
	1.226954840111024e-02,1.301562459711158e-09
	1.000000000000000e+00,0.000000000000000e+00
	0.000000000000000e+00,0.000000000000000e+00
	3.675277580169035e-04,1.906703915095023e-13
	3.675277579172531e-04,1.768756789811881e-13
	-1.226954840111029e-06,-1.301562459711160e-13
	2.597014015656461e-04,1.175481477768123e-11
	-1.960148043775001e-04,-9.551642532183524e-14
	-6.245964234803497e-05,-1.152914210638828e-11
	1.226954840111024e-06,1.301562459711158e-13
	-2.597014015656429e-04,-1.175481477768123e-11
	1.226954840111024e-06,1.301562459711158e-13
4		1.096478196143185e+00,0.000000000000000e+00
	1.226954840111024e-02,1.331879744038129e-09
	1.000000000000000e+00,0.000000000000000e+00
	0.000000000000000e+00,0.000000000000000e+00
	3.675277580169035e-04,1.951116754671014e-13
	3.675277579172531e-04,1.809956428063500e-13
	-1.226954840111029e-06,-1.331879744038134e-13
	2.597014015656461e-04,1.202861958755946e-11
	-1.960148043775001e-04,-9.774128867954197e-14
	-6.245964234803497e-05,-1.179769032447610e-11
	1.226954840111024e-06,1.331879744038129e-13
	-2.597014015656429e-04,-1.202861958755945e-11
	1.226954840111024e-06,1.331879744038129e-13
5		1.122018454301963e+00,0.000000000000000e+00
	1.226954840111024e-02,1.362903208634902e-09
	1.000000000000000e+00,0.000000000000000e+00
	0.000000000000000e+00,0.000000000000000e+00
	3.675277580169035e-04,1.996564102176417e-13
	3.675277579172531e-04,1.852115729170885e-13
	-1.226954840111029e-06,-1.362903208634909e-13
	2.597014015656461e-04,1.230880213076061e-11
	-1.960148043775001e-04,-1.000179757622655e-13
	-6.245964234803497e-05,-1.207249383413485e-11
	1.226954840111024e-06,1.362903208634902e-13
	-2.597014015656429e-04,-1.230880213076061e-11
	1.226954840111024e-06,1.362903208634902e-13
6		1.148153621496882e+00,0.000000000000000e+00
	1.226954840111024e-02,1.394649302553050e-09
	1.000000000000000e+00,0.000000000000000e+00
	0.000000000000000e+00,0.000000000000000e+00
	3.675277580169035e-04,2.043070054396442e-13
	3.675277579172531e-04,1.895257046553526e-13
	-1.226954840111036e-06,-1.394649302553049e-13
	2.597014015656461e-04,1.259551096377774e-11
	-1.960148043775001e-04,-1.023476936996326e-13
	-6.245964234803497e-05,-1.235369833982280e-11
	1.226954840111024e-06,1.394649302553050e-13
	-2.597014015656429e-04,-1.259551096377774e-11
	1.226954840111024e-06,1.394649302553050e-13
7		1.174897554939529e+00,0.000000000000000e+00
	1.226954840111024e-02,1.427134857991777e-09
	1.000000000000000e+00,0.000000000000000e+00
	0.000000000000000e+00,0.000000000000000e+00
	3.675277580169035e-04,2.090659269402539e-13
	3.675277579172531e-04,1.939403254308942e-13
	-1.226954840111036e-06,-1.427134857991796e-13
	2.597014015656461e-04,1.288889810342917e-11
	-1.960148043775001e-04,-1.047316777389311e-13
	-6.245964234803497e-05,-1.264145293989106e-11
	1.226954840111024e-06,1.427134857991777e-13
	-2.597014015656429e-04,-1.288889810342917e-11
	1.226954840111024e-06,1.427134857991777e-13
8		1.202264434617413e+00,0.000000000000000e+00
	1.226954840111024e-02,1.460377099222574e-09
	1.000000000000000e+00,0.000000000000000e+00
	0.000000000000000e+00,0.000000000000000e+00
	3.675277580169035e-04,2.139356979626419e-13
	3.675277579172531e-04,1.984577759340830e-13
	-1.226954840111029e-06,-1.460377099222596e-13
	2.597014015656462e-04,1.318911910745978e-11
	-1.960148043775001e-04,-1.071711919000545e-13
	-6.245964234803498e-05,-1.293591020563746e-11
	1.226954840111024e-06,1.460377099222575e-13
	-2.597014015656429e-04,-1.318911910745977e-11
	1.226954840111024e-06,1.460377099222575e-13
9		1.230268770812381e+00,0.000000000000000e+00
	1.226954840111024e-02,1.494393651721756e-09
	1.000000000000000e+00,0.000000000000000e+00
	0.000000000000000e+00,0.000000000000000e+00
	3.675277580169035e-04,2.189189005238635e-13
	3.675277579172531e-04,2.030804513769712e-13
	-1.226954840111029e-06,-1.494393651721769e-13
	2.597014015656462e-04,1.349633315701978e-11
	-1.960148043775001e-04,-1.096675296457017e-13
	-6.245964234803498e-05,-1.323722626220190e-11
	1.226954840111024e-06,1.494393651721756e-13
	-2.597014015656429e-04,-1.349633315701978e-11
	1.226954840111024e-06,1.494393651721756e-13
10		1.258925411794167e+00,0.000000000000000e+00
	1.226954840111024e-02,1.529202551515719e-09
	1.000000000000000e+00,0.000000000000000e+00
	0.000000000000000e+00,0.000000000000000e+00
	3.675277580169035e-04,2.240181767838771e-13
	3.675277579172531e-04,2.078108027632671e-13
	-1.226954840111029e-06,-1.529202551515725e-13
	2.597014015656462e-04,1.381070314106473e-11
	-1.960148043775001e-04,-1.122220145671884e-13
	-6.245964234803498e-05,-1.354556087134597e-11
	1.226954840111024e-06,1.529202551515719e-13
	-2.597014015656429e-04,-1.381070314106473e-11
	1.226954840111024e-06,1.529202551515719e-13
11		1.288249551693134e+00,0.000000000000000e+00
	1.226954840111024e-02,1.564822254743884e-09
	1.000000000000000e+00,0.000000000000000e+00
	0.000000000000000e+00,0.000000000000000e+00
	3.675277580169035e-04,2.292362304464525e-13
	3.675277579172531e-04,2.126513381878892e-13
	-1.226954840111029e-06,-1.564822254743907e-13
	2.597014015656462e-04,1.413239574272134e-11
	-1.960148043775001e-04,-1.148360010862326e-13
	-6.245964234803498e-05,-1.386107751616072e-11
	1.226954840111024e-06,1.564822254743884e-13
	-2.597014015656429e-04,-1.413239574272134e-11
	1.226954840111024e-06,1.564822254743884e-13
12		1.318256738556407e+00,0.000000000000000e+00
	1.226954840111024e-02,1.601271647444386e-09
	1.000000000000000e+00,0.000000000000000e+00
	0.000000000000000e+00,0.000000000000000e+00
	3.675277580169035e-04,2.345758281927109e-13
	3.675277579172531e-04,2.176046241667917e-13
	-1.226954840111029e-06,-1.601271647444403e-13
	2.597014015656462e-04,1.446158152766511e-11
	-1.960148043775001e-04,-1.175108751730869e-13
	-6.245964234803498e-05,-1.418394348774758e-11
	1.226954840111024e-06,1.601271647444386e-13
	-2.597014015656429e-04,-1.446158152766511e-11
	1.226954840111024e-06,1.601271647444386e-13
13		1.348962882591653e+00,0.000000000000000e+00
	1.226954840111024e-02,1.638570055567699e-09
	1.000000000000000e+00,0.000000000000000e+00
	0.000000000000000e+00,0.000000000000000e+00
	3.675277580169035e-04,2.400398011480552e-13
	3.675277579172531e-04,2.226732869977652e-13
	-1.226954840111029e-06,-1.638570055567687e-13
	2.597014015656462e-04,1.479843503455651e-11
	-1.960148043775001e-04,-1.202480550813983e-13
	-6.245964234803498e-05,-1.451432997391834e-11
	1.226954840111024e-06,1.638570055567699e-13
	-2.597014015656429e-04,-1.479843503455651e-11
	1.226954840111024e-06,1.638570055567699e-13
14		1.380384264602885e+00,0.000000000000000e+00
	1.226954840111024e-02,1.676737255223512e-09
	1.000000000000000e+00,0.000000000000000e+00
	0.000000000000000e+00,0.000000000000000e+00
	3.675277580169035e-04,2.456310463832707e-13
	3.675277579172531e-04,2.278600141529343e-13
	-1.226954840111029e-06,-1.676737255223548e-13
	2.597014015656462e-04,1.514313486758368e-11
	-1.960148043775001e-04,-1.230489921001850e-13
	-6.245964234803498e-05,-1.485241214996114e-11
	1.226954840111024e-06,1.676737255223512e-13
	-2.597014015656429e-04,-1.514313486758367e-11
	1.226954840111024e-06,1.676737255223512e-13
15		1.412537544622754e+00,0.000000000000000e+00
	1.226954840111024e-02,1.715793483166286e-09
	1.000000000000000e+00,0.000000000000000e+00
	0.000000000000000e+00,0.000000000000000e+00
	3.675277580169035e-04,2.513525284505897e-13
	3.675277579172531e-04,2.331675557036911e-13
	-1.226954840111029e-06,-1.715793483166293e-13
	2.597014015656462e-04,1.549586379116072e-11
	-1.960148043775001e-04,-1.259151713233291e-13
	-6.245964234803498e-05,-1.519836927152076e-11
	1.226954840111024e-06,1.715793483166286e-13
	-2.597014015656429e-04,-1.549586379116072e-11
	1.226954840111024e-06,1.715793483166286e-13
16		1.445439770745927e+00,0.000000000000000e+00
	1.226954840111024e-02,1.755759447525046e-09
	1.000000000000000e+00,0.000000000000000e+00
	0.000000000000000e+00,0.000000000000000e+00
	3.675277580169035e-04,2.572072809555373e-13
	3.675277579172531e-04,2.385987257788195e-13
	-1.226954840111029e-06,-1.755759447525035e-13
	2.597014015656462e-04,1.585680882683184e-11
	-1.960148043775001e-04,-1.288481124369933e-13
	-6.245964234803498e-05,-1.555238476964234e-11
	1.226954840111024e-06,1.755759447525047e-13
	-2.597014015656429e-04,-1.585680882683184e-11
	1.226954840111024e-06,1.755759447525047e-13
17		1.479108388168207e+00,0.000000000000000e+00
	1.226954840111024e-02,1.796656338783108e-09
	1.000000000000000e+00,0.000000000000000e+00
	0.000000000000000e+00,0.000000000000000e+00
	3.675277580169035e-04,2.631984081653884e-13
	3.675277579172531e-04,2.441564040565833e-13
	-1.226954840111036e-06,-1.796656338783134e-13
	2.597014015656462e-04,1.622616135243263e-11
	-1.960148043775001e-04,-1.318493705253779e-13
	-6.245964234803498e-05,-1.591464634802894e-11
	1.226954840111024e-06,1.796656338783108e-13
	-2.597014015656429e-04,-1.622616135243263e-11
	1.226954840111024e-06,1.796656338783108e-13
18		1.513561248436208e+00,0.000000000000000e+00
	1.226954840111024e-02,1.838505841013551e-09
	1.000000000000000e+00,0.000000000000000e+00
	0.000000000000000e+00,0.000000000000000e+00
	3.675277580169035e-04,2.693290866550916e-13
	3.675277579172531e-04,2.498435372915700e-13
	-1.226954840111036e-06,-1.838505841013586e-13
	2.597014015656462e-04,1.660411720356111e-11
	-1.960148043775001e-04,-1.349205368952478e-13
	-6.245964234803498e-05,-1.628534608256451e-11
	1.226954840111024e-06,1.838505841013551e-13
	-2.597014015656429e-04,-1.660411720356111e-11
	1.226954840111024e-06,1.838505841013551e-13
19		1.548816618912481e+00,0.000000000000000e+00
	1.226954840111024e-02,1.881330143376401e-09
	1.000000000000000e+00,0.000000000000000e+00
	0.000000000000000e+00,0.000000000000000e+00
	3.675277580169035e-04,2.756025669915312e-13
	3.675277579172531e-04,2.556631408770988e-13
	-1.226954840111029e-06,-1.881330143376424e-13
	2.597014015656462e-04,1.699087677741240e-11
	-1.960148043775001e-04,-1.380632399196640e-13
	-6.245964234803498e-05,-1.666468052315509e-11
	1.226954840111024e-06,1.881330143376401e-13
	-2.597014015656429e-04,-1.699087677741240e-11
	1.226954840111024e-06,1.881330143376401e-13
20		1.584893192461113e+00,0.000000000000000e+00
	1.226954840111024e-02,1.925151951883618e-09
	1.000000000000000e+00,0.000000000000000e+00
	0.000000000000000e+00,0.000000000000000e+00
	3.675277580169035e-04,2.820221754570209e-13
	3.675277579172531e-04,2.616183004440224e-13
	-1.226954840111029e-06,-1.925151951883640e-13
	2.597014015656462e-04,1.738664513903191e-11
	-1.960148043775001e-04,-1.412791459013687e-13
	-6.245964234803498e-05,-1.705285079794218e-11
	1.226954840111024e-06,1.925151951883618e-13
	-2.597014015656429e-04,-1.738664513903191e-11
	1.226954840111024e-06,1.925151951883618e-13
21		1.621810097358929e+00,0.000000000000000e+00
	1.226954840111024e-02,1.969994501438121e-09
	1.000000000000000e+00,0.000000000000000e+00
	0.000000000000000e+00,0.000000000000000e+00
	3.675277580169035e-04,2.885913158129428e-13
	3.675277579172531e-04,2.677121734967690e-13
	-1.226954840111029e-06,-1.969994501438129e-13
	2.597014015656462e-04,1.779163213004360e-11
	-1.960148043775001e-04,-1.445699599562808e-13
	-6.245964234803498e-05,-1.745006271994350e-11
	1.226954840111024e-06,1.969994501438121e-13
	-2.597014015656429e-04,-1.779163213004359e-11
	1.226954840111024e-06,1.969994501438121e-13
22		1.659586907437560e+00,0.000000000000000e+00
	1.226954840111024e-02,2.015881568153248e-09
	1.000000000000000e+00,0.000000000000000e+00
	0.000000000000000e+00,0.000000000000000e+00
	3.675277580169035e-04,2.953134711044663e-13
	3.675277579172531e-04,2.739479910874932e-13
	-1.226954840111029e-06,-2.015881568153243e-13
	2.597014015656462e-04,1.820605247991071e-11
	-1.960148043775001e-04,-1.479374269175714e-13
	-6.245964234803498e-05,-1.785652689617782e-11
	1.226954840111024e-06,2.015881568153248e-13
	-2.597014015656429e-04,-1.820605247991071e-11
	1.226954840111024e-06,2.015881568153248e-13
23		1.698243652461743e+00,0.000000000000000e+00
	1.226954840111024e-02,2.062837481959156e-09
	1.000000000000000e+00,0.000000000000000e+00
	0.000000000000000e+00,0.000000000000000e+00
	3.675277580169035e-04,3.021922055073054e-13
	3.675277579172531e-04,2.803290595292223e-13
	-1.226954840111029e-06,-2.062837481959178e-13
	2.597014015656462e-04,1.863012591978828e-11
	-1.960148043775001e-04,-1.513833322607970e-13
	-6.245964234803500e-05,-1.827245883933156e-11
	1.226954840111024e-06,2.062837481959156e-13
	-2.597014015656429e-04,-1.863012591978828e-11
	1.226954840111024e-06,2.062837481959156e-13
24		1.737800828749374e+00,0.000000000000000e+00
	1.226954840111024e-02,2.110887139502880e-09
	1.000000000000000e+00,0.000000000000000e+00
	0.000000000000000e+00,0.000000000000000e+00
	3.675277580169035e-04,3.092311662174911e-13
	3.675277579172531e-04,2.868587621489075e-13
	-1.226954840111036e-06,-2.110887139502913e-13
	2.597014015656462e-04,1.906407729902738e-11
	-1.960148043775001e-04,-1.549095030505826e-13
	-6.245964234803500e-05,-1.869807908202651e-11
	1.226954840111024e-06,2.110887139502880e-13
	-2.597014015656429e-04,-1.906407729902738e-11
	1.226954840111024e-06,2.110887139502880e-13
25		1.778279410038922e+00,0.000000000000000e+00
	1.226954840111024e-02,2.160056017348864e-09
	1.000000000000000e+00,0.000000000000000e+00
	0.000000000000000e+00,0.000000000000000e+00
	3.675277580169035e-04,3.164340853851637e-13
	3.675277579172531e-04,2.935405610813087e-13
	-1.226954840111036e-06,-2.160056017348852e-13
	2.597014015656462e-04,1.950813670439333e-11
	-1.960148043775001e-04,-1.585178089093552e-13
	-6.245964234803500e-05,-1.913361329374909e-11
	1.226954840111024e-06,2.160056017348864e-13
	-2.597014015656429e-04,-1.950813670439332e-11
	1.226954840111024e-06,2.160056017348864e-13
26		1.819700858609982e+00,0.000000000000000e+00
	1.226954840111024e-02,2.210370185486967e-09
	1.000000000000000e+00,0.000000000000000e+00
	0.000000000000000e+00,0.000000000000000e+00
	3.675277580169035e-04,3.238047820934078e-13
	3.675277579172531e-04,3.003779991046639e-13
	-1.226954840111036e-06,-2.210370185486976e-13
	2.597014015656462e-04,1.996253958206066e-11
	-1.960148043775001e-04,-1.622101630086429e-13
	-6.245964234803500e-05,-1.957929240050332e-11
	1.226954840111024e-06,2.210370185486968e-13
	-2.597014015656429e-04,-1.996253958206065e-11
	1.226954840111024e-06,2.210370185486968e-13
27		1.862087136662866e+00,0.000000000000000e+00
	1.226954840111024e-02,2.261856321155124e-09
	1.000000000000000e+00,0.000000000000000e+00
	0.000000000000000e+00,0.000000000000000e+00
	3.675277580169035e-04,3.313471643831809e-13
	3.675277579172531e-04,3.073747015191172e-13
	-1.226954840111029e-06,-2.261856321155156e-13
	2.597014015656462e-04,2.042752686244984e-11
	-1.960148043775001e-04,-1.659885230834631e-13
	-6.245964234803501e-05,-2.003535270725086e-11
	1.226954840111024e-06,2.261856321155124e-13
	-2.597014015656429e-04,-2.042752686244984e-11
	1.226954840111024e-06,2.261856321155124e-13
28		1.905460717963246e+00,0.000000000000000e+00
	1.226954840111024e-02,2.314541722983965e-09
	1.000000000000000e+00,0.000000000000000e+00
	0.000000000000000e+00,0.000000000000000e+00
	3.675277580169035e-04,3.390652313254080e-13
	3.675277579172531e-04,3.145343780689011e-13
	-1.226954840111029e-06,-2.314541722983980e-13
	2.597014015656462e-04,2.090334508797178e-11
	-1.960148043775001e-04,-1.698548924703400e-13
	-6.245964234803501e-05,-2.050203602320305e-11
	1.226954840111024e-06,2.314541722983965e-13
	-2.597014015656429e-04,-2.090334508797178e-11
	1.226954840111024e-06,2.314541722983965e-13
29		1.949844599758044e+00,0.000000000000000e+00
	1.226954840111024e-02,2.368454325470915e-09
	1.000000000000000e+00,0.000000000000000e+00
	0.000000000000000e+00,0.000000000000000e+00
	3.675277580169035e-04,3.469630751413429e-13
	3.675277579172531e-04,3.218608249092918e-13
	-1.226954840111029e-06,-2.368454325470937e-13
	2.597014015656462e-04,2.139024654374785e-11
	-1.960148043775001e-04,-1.738113211695000e-13
	-6.245964234803501e-05,-2.097958979003126e-11
	1.226954840111024e-06,2.368454325470915e-13
	-2.597014015656429e-04,-2.139024654374785e-11
	1.226954840111024e-06,2.368454325470915e-13
30		1.995262314968878e+00,0.000000000000000e+00
	1.226954840111024e-02,2.423622713791428e-09
	1.000000000000000e+00,0.000000000000000e+00
	0.000000000000000e+00,0.000000000000000e+00
	3.675277580169035e-04,3.550448833723168e-13
	3.675277579172531e-04,3.293579266193809e-13
	-1.226954840111036e-06,-2.423622713791444e-13
	2.597014015656462e-04,2.188848939137480e-11
	-1.960148043775001e-04,-1.778599069318087e-13
	-6.245964234803501e-05,-2.146826721306384e-11
	1.226954840111024e-06,2.423622713791428e-13
	-2.597014015656429e-04,-2.188848939137480e-11
	1.226954840111024e-06,2.423622713791428e-13
31		2.041737944669527e+00,0.000000000000000e+00
	1.226954840111024e-02,2.480076138955231e-09
	1.000000000000000e+00,0.000000000000000e+00
	0.000000000000000e+00,0.000000000000000e+00
	3.675277580169035e-04,3.633149411000295e-13
	3.675277579172531e-04,3.370296582617314e-13
	-1.226954840111036e-06,-2.480076138955237e-13
	2.597014015656462e-04,2.239833780580546e-11
	-1.960148043775001e-04,-1.820027963710270e-13
	-6.245964234803501e-05,-2.196832739553890e-11
	1.226954840111024e-06,2.480076138955231e-13
	-2.597014015656429e-04,-2.239833780580545e-11
	1.226954840111024e-06,2.480076138955231e-13
32		2.089296130854037e+00,0.000000000000000e+00
	1.226954840111024e-02,2.537844533315598e-09
	1.000000000000000e+00,0.000000000000000e+00
	0.000000000000000e+00,0.000000000000000e+00
	3.675277580169035e-04,3.717776332185552e-13
	3.675277579172531e-04,3.448800874900072e-13
