LTspice 24.0.9 for Windows
Circuit: * GA CMOS Amp | W=1.905121523171657e-06 L=9.010682315282064e-07 Vbias=0.7451662359551341
Start Time: Mon Sep  8 18:46:11 2025
solver = Normal
Maximum thread count: 2
tnom = 27
temp = 27
method = modified trap
AsciiRawFile = 1
Instance "m1": Length shorter than recommended for a level 3 MOSFET.
Instance "m1": Width narrower than recommended for a level 3 MOSFET.
Direct Newton iteration for .op point succeeded.
Semiconductor Device Operating Points:
                        --- MOSFET Transistors ---
Name:          m1
Model:        n_1u
Id:          3.11e-08
Vgs:         7.45e-01
Vds:         1.80e+00
Vbs:         0.00e+00
Vth:         9.00e-01
Vdsat:       4.48e-02
Gm:          5.50e-07
Gds:         1.95e-09
Gmb:         2.07e-07
Cbd:         0.00e+00
Cbs:         0.00e+00
Cgsov:       3.81e-16
Cgdov:       3.81e-16
Cgbov:       7.01e-17
Cgs:         8.59e-16
Cgd:         0.00e+00
Cgb:         5.09e-16



gain_db: MAX(db(v(out)/v(g)))=(34.4513dB,148.876°) FROM 1 TO 1e+09
gain_lin: MAX(mag(v(out)/v(g)))=(-32.1966dB,0°) FROM 1 TO 1e+09

Measurement "fc" FAIL'ed

Total elapsed time: 0.544 seconds.

