Title: * GA CMOS Amp | W=3.388998588807067e-05 L=3.4303859606983826e-07 Vbias=1.491397772504063
Date: Sat Sep  6 22:34:01 2025
Plotname: AC Analysis
Flags: complex forward log
No. Variables: 13
No. Points:          901
Offset:    0.0000000000000000e+00
Command: Linear Technology Corporation LTspice
Variables:
	0	frequency	frequency
	1	V(out)	voltage
	2	V(g)	voltage
	3	V(vdd)	voltage
	4	V(m1#dbody)	voltage
	5	V(m1#sbody)	voltage
	6	Id(M1)	device_current
	7	Ig(M1)	device_current
	8	Ib(M1)	device_current
	9	Is(M1)	device_current
	10	I(Rload)	device_current
	11	I(Vg)	device_current
	12	I(Vdd)	device_current
Values:
0		1.000000000000000e+00,0.000000000000000e+00
	4.765905156916745e-03,1.745492992301248e-10
	1.000000000000000e+00,0.000000000000000e+00
	0.000000000000000e+00,0.000000000000000e+00
	3.232682431384649e-04,2.116032664747706e-14
	3.232682430964524e-04,1.722303928130688e-14
	-4.765905156916772e-07,-1.745492992301238e-14
	2.063293601963662e-04,3.171609109069773e-12
	-1.724097297846592e-04,-9.613314902022995e-15
	-3.344303989601536e-05,-3.144540864244738e-12
	4.765905156916745e-07,1.745492992301248e-14
	-2.063293601963639e-04,-3.171609109069773e-12
	4.765905156916745e-07,1.745492992301248e-14
1		1.023292992280754e+00,0.000000000000000e+00
	4.765905156916745e-03,1.786150747097031e-10
	1.000000000000000e+00,0.000000000000000e+00
	0.000000000000000e+00,0.000000000000000e+00
	3.232682431384649e-04,2.165321397273498e-14
	3.232682430964524e-04,1.762421540233748e-14
	-4.765905156916772e-07,-1.786150747097063e-14
	2.063293601963662e-04,3.245485375564905e-12
	-1.724097297846592e-04,-9.837237771828273e-15
	-3.344303989601536e-05,-3.217786630322106e-12
	4.765905156916745e-07,1.786150747097032e-14
	-2.063293601963639e-04,-3.245485375564904e-12
	4.765905156916745e-07,1.786150747097032e-14
2		1.047128548050899e+00,0.000000000000000e+00
	4.765905156916745e-03,1.827755542661425e-10
	1.000000000000000e+00,0.000000000000000e+00
	0.000000000000000e+00,0.000000000000000e+00
	3.232682431384649e-04,2.215758211865541e-14
	3.232682430964524e-04,1.803473611565847e-14
	-4.765905156916772e-07,-1.827755542661440e-14
	2.063293601963662e-04,3.321082441365238e-12
	-1.724097297846592e-04,-1.006637647531141e-14
	-3.344303989601536e-05,-3.292738509463312e-12
	4.765905156916745e-07,1.827755542661426e-14
	-2.063293601963639e-04,-3.321082441365238e-12
	4.765905156916745e-07,1.827755542661426e-14
3		1.071519305237606e+00,0.000000000000000e+00
	4.765905156916745e-03,1.870329438407743e-10
	1.000000000000000e+00,0.000000000000000e+00
	0.000000000000000e+00,0.000000000000000e+00
	3.232682431384649e-04,2.267369850790543e-14
	3.232682430964524e-04,1.845481908478595e-14
	-4.765905156916772e-07,-1.870329438407776e-14
	2.063293601963662e-04,3.398440389035707e-12
	-1.724097297846592e-04,-1.030085250484601e-14
	-3.344303989601536e-05,-3.369436242146783e-12
	4.765905156916745e-07,1.870329438407743e-14
	-2.063293601963639e-04,-3.398440389035706e-12
	4.765905156916745e-07,1.870329438407743e-14
4		1.096478196143185e+00,0.000000000000000e+00
	4.765905156916745e-03,1.913895007579042e-10
	1.000000000000000e+00,0.000000000000000e+00
	0.000000000000000e+00,0.000000000000000e+00
	3.232682431384649e-04,2.320183679222621e-14
	3.232682430964524e-04,1.888468704327058e-14
	-4.765905156916772e-07,-1.913895007579028e-14
	2.063293601963662e-04,3.477600234784118e-12
	-1.724097297846592e-04,-1.054079018272657e-14
	-3.344303989601536e-05,-3.447920494525601e-12
	4.765905156916745e-07,1.913895007579042e-14
	-2.063293601963639e-04,-3.477600234784117e-12
	4.765905156916745e-07,1.913895007579042e-14
5		1.122018454301963e+00,0.000000000000000e+00
	4.765905156916745e-03,1.958475349216754e-10
	1.000000000000000e+00,0.000000000000000e+00
	0.000000000000000e+00,0.000000000000000e+00
	3.232682431384649e-04,2.374227699752685e-14
	3.232682430964524e-04,1.932456791279393e-14
	-4.765905156916772e-07,-1.958475349216805e-14
	2.063293601963662e-04,3.558603950208493e-12
	-1.724097297846592e-04,-1.078631672708587e-14
	-3.344303989601536e-05,-3.528232879989239e-12
	4.765905156916745e-07,1.958475349216754e-14
	-2.063293601963639e-04,-3.558603950208494e-12
	4.765905156916745e-07,1.958475349216754e-14
6		1.148153621496882e+00,0.000000000000000e+00
	4.765905156916745e-03,2.004094100408108e-10
	1.000000000000000e+00,0.000000000000000e+00
	0.000000000000000e+00,0.000000000000000e+00
	3.232682431384649e-04,2.429530567235778e-14
	3.232682430964524e-04,1.977469492401555e-14
	-4.765905156916772e-07,-2.004094100408159e-14
	2.063293601963662e-04,3.641494484550962e-12
	-1.724097297846592e-04,-1.103756231934765e-14
	-3.344303989601536e-05,-3.610415981227532e-12
	4.765905156916745e-07,2.004094100408108e-14
	-2.063293601963639e-04,-3.641494484550961e-12
	4.765905156916745e-07,2.004094100408108e-14
7		1.174897554939529e+00,0.000000000000000e+00
	4.765905156916745e-03,2.050775448818819e-10
	1.000000000000000e+00,0.000000000000000e+00
	0.000000000000000e+00,0.000000000000000e+00
	3.232682431384649e-04,2.486121603984257e-14
	3.232682430964524e-04,2.023530674023491e-14
	-4.765905156916772e-07,-2.050775448818850e-14
	2.063293601963662e-04,3.726315787470016e-12
	-1.724097297846592e-04,-1.129466017325056e-14
	-3.344303989601536e-05,-3.694513372808577e-12
	4.765905156916745e-07,2.050775448818819e-14
	-2.063293601963639e-04,-3.726315787470015e-12
	4.765905156916745e-07,2.050775448818819e-14
8		1.202264434617413e+00,0.000000000000000e+00
	4.765905156916745e-03,2.098544145517715e-10
	1.000000000000000e+00,0.000000000000000e+00
	0.000000000000000e+00,0.000000000000000e+00
	3.232682431384649e-04,2.544030815314879e-14
	3.232682430964524e-04,2.070664758393390e-14
	-4.765905156916772e-07,-2.098544145517711e-14
	2.063293601963662e-04,3.813112832343206e-12
	-1.724097297846592e-04,-1.155774660547983e-14
	-3.344303989601536e-05,-3.780569644282549e-12
	4.765905156916745e-07,2.098544145517715e-14
	-2.063293601963639e-04,-3.813112832343206e-12
	4.765905156916745e-07,2.098544145517715e-14
9		1.230268770812381e+00,0.000000000000000e+00
	4.765905156916745e-03,2.147425518100081e-10
	1.000000000000000e+00,0.000000000000000e+00
	0.000000000000000e+00,0.000000000000000e+00
	3.232682431384649e-04,2.603288905458008e-14
	3.232682430964524e-04,2.118896736626677e-14
	-4.765905156916772e-07,-2.147425518100087e-14
	2.063293601963662e-04,3.901931640112620e-12
	-1.724097297846592e-04,-1.182696110794418e-14
	-3.344303989601536e-05,-3.868630423823675e-12
	4.765905156916745e-07,2.147425518100081e-14
	-2.063293601963639e-04,-3.901931640112621e-12
	4.765905156916745e-07,2.147425518100081e-14
10		1.258925411794167e+00,0.000000000000000e+00
	4.765905156916745e-03,2.197445484116681e-10
	1.000000000000000e+00,0.000000000000000e+00
	0.000000000000000e+00,0.000000000000000e+00
	3.232682431384649e-04,2.663927293837414e-14
	3.232682430964524e-04,2.168252181956637e-14
	-4.765905156916772e-07,-2.197445484116652e-14
	2.063293601963662e-04,3.992819303685794e-12
	-1.724097297846592e-04,-1.210244642173630e-14
	-3.344303989601536e-05,-3.958742402422892e-12
	4.765905156916745e-07,2.197445484116681e-14
	-2.063293601963639e-04,-3.992819303685794e-12
	4.765905156916745e-07,2.197445484116681e-14
11		1.288249551693134e+00,0.000000000000000e+00
	4.765905156916745e-03,2.248630564815589e-10
	1.000000000000000e+00,0.000000000000000e+00
	0.000000000000000e+00,0.000000000000000e+00
	3.232682431384649e-04,2.725978131729260e-14
	3.232682430964524e-04,2.218757263293682e-14
	-4.765905156916772e-07,-2.248630564815575e-14
	2.063293601963662e-04,4.085824012904994e-12
	-1.724097297846592e-04,-1.238434861281605e-14
	-3.344303989601536e-05,-4.050953358644022e-12
	4.765905156916745e-07,2.248630564815589e-14
	-2.063293601963639e-04,-4.085824012904994e-12
	4.765905156916745e-07,2.248630564815589e-14
12		1.318256738556407e+00,0.000000000000000e+00
	4.765905156916745e-03,2.301007899204106e-10
	1.000000000000000e+00,0.000000000000000e+00
	0.000000000000000e+00,0.000000000000000e+00
	3.232682431384649e-04,2.789474319309134e-14
	3.232682430964524e-04,2.270438759100448e-14
	-4.765905156916772e-07,-2.301007899204065e-14
	2.063293601963662e-04,4.180995080098109e-12
	-1.724097297846592e-04,-1.267281714945654e-14
	-3.344303989601536e-05,-4.145312183956612e-12
	4.765905156916745e-07,2.301007899204107e-14
	-2.063293601963639e-04,-4.180995080098110e-12
	4.765905156916745e-07,2.301007899204107e-14
13		1.348962882591653e+00,0.000000000000000e+00
	4.765905156916745e-03,2.354605258438222e-10
	1.000000000000000e+00,0.000000000000000e+00
	0.000000000000000e+00,0.000000000000000e+00
	3.232682431384649e-04,2.854449523096164e-14
	3.232682430964524e-04,2.323324071590100e-14
	-4.765905156916772e-07,-2.354605258438242e-14
	2.063293601963662e-04,4.278382966224706e-12
	-1.724097297846592e-04,-1.296800498149424e-14
	-3.344303989601536e-05,-4.241868908658829e-12
	4.765905156916745e-07,2.354605258438222e-14
	-2.063293601963639e-04,-4.278382966224706e-12
	4.765905156916745e-07,2.354605258438222e-14
14		1.380384264602885e+00,0.000000000000000e+00
	4.765905156916745e-03,2.409451060547247e-10
	1.000000000000000e+00,0.000000000000000e+00
	0.000000000000000e+00,0.000000000000000e+00
	3.232682431384649e-04,2.920938193803444e-14
	3.232682430964524e-04,2.377441241255338e-14
	-4.765905156916772e-07,-2.409451060547239e-14
	2.063293601963662e-04,4.378039307631089e-12
	-1.724097297846592e-04,-1.327006862142496e-14
	-3.344303989601536e-05,-4.340674728404191e-12
	4.765905156916745e-07,2.409451060547247e-14
	-2.063293601963639e-04,-4.378039307631090e-12
	4.765905156916745e-07,2.409451060547247e-14
15		1.412537544622754e+00,0.000000000000000e+00
	4.765905156916745e-03,2.465574385501429e-10
	1.000000000000000e+00,0.000000000000000e+00
	0.000000000000000e+00,0.000000000000000e+00
	3.232682431384649e-04,2.988975584604269e-14
	3.232682430964524e-04,2.432818961735846e-14
	-4.765905156916772e-07,-2.465574385501416e-14
	2.063293601963662e-04,4.480016943428578e-12
	-1.724097297846592e-04,-1.357916822738889e-14
	-3.344303989601536e-05,-4.441782031346175e-12
	4.765905156916745e-07,2.465574385501429e-14
	-2.063293601963639e-04,-4.480016943428578e-12
	4.765905156916745e-07,2.465574385501429e-14
16		1.445439770745927e+00,0.000000000000000e+00
	4.765905156916745e-03,2.523004990630538e-10
	1.000000000000000e+00,0.000000000000000e+00
	0.000000000000000e+00,0.000000000000000e+00
	3.232682431384649e-04,3.058597769823818e-14
	3.232682430964524e-04,2.489486595032030e-14
	-4.765905156916772e-07,-2.523004990630596e-14
	2.063293601963662e-04,4.584369943509506e-12
	-1.724097297846592e-04,-1.389546768808852e-14
	-3.344303989601536e-05,-4.545244425915112e-12
	4.765905156916745e-07,2.523004990630538e-14
	-2.063293601963639e-04,-4.584369943509506e-12
	4.765905156916745e-07,2.523004990630538e-14
17		1.479108388168207e+00,0.000000000000000e+00
	4.765905156916745e-03,2.581773326401600e-10
	1.000000000000000e+00,0.000000000000000e+00
	0.000000000000000e+00,0.000000000000000e+00
	3.232682431384649e-04,3.129841664066255e-14
	3.232682430964524e-04,2.547474187073152e-14
	-4.765905156916772e-07,-2.581773326401524e-14
	2.063293601963662e-04,4.691153637215794e-12
	-1.724097297846592e-04,-1.421913470968463e-14
	-3.344303989601536e-05,-4.651116769242094e-12
	4.765905156916745e-07,2.581773326401600e-14
	-2.063293601963639e-04,-4.691153637215794e-12
	4.765905156916745e-07,2.581773326401600e-14
18		1.513561248436208e+00,0.000000000000000e+00
	4.765905156916745e-03,2.641910552564129e-10
	1.000000000000000e+00,0.000000000000000e+00
	0.000000000000000e+00,0.000000000000000e+00
	3.232682431384649e-04,3.202745041787334e-14
	3.232682430964524e-04,2.606812483648067e-14
	-4.765905156916772e-07,-2.641910552564090e-14
	2.063293601963662e-04,4.800424642675293e-12
	-1.724097297846592e-04,-1.455034090471632e-14
	-3.344303989601536e-05,-4.759455196244937e-12
	4.765905156916745e-07,2.641910552564129e-14
	-2.063293601963639e-04,-4.800424642675294e-12
	4.765905156916745e-07,2.641910552564129e-14
19		1.548816618912481e+00,0.000000000000000e+00
	4.765905156916745e-03,2.703448554671448e-10
	1.000000000000000e+00,0.000000000000000e+00
	0.000000000000000e+00,0.000000000000000e+00
	3.232682431384649e-04,3.277346557322909e-14
	3.232682430964524e-04,2.667532946707055e-14
	-4.765905156916772e-07,-2.703448554671467e-14
	2.063293601963662e-04,4.912240896821471e-12
	-1.724097297846592e-04,-1.488926188309222e-14
	-3.344303989601536e-05,-4.870317149391664e-12
	4.765905156916745e-07,2.703448554671448e-14
	-2.063293601963639e-04,-4.912240896821470e-12
	4.765905156916745e-07,2.703448554671448e-14
20		1.584893192461113e+00,0.000000000000000e+00
	4.765905156916745e-03,2.766419960986825e-10
	1.000000000000000e+00,0.000000000000000e+00
	0.000000000000000e+00,0.000000000000000e+00
	3.232682431384649e-04,3.353685765383988e-14
	3.232682430964524e-04,2.729667771043360e-14
	-4.765905156916772e-07,-2.766419960986833e-14
	2.063293601963662e-04,5.026661686112338e-12
	-1.724097297846592e-04,-1.523607734520121e-14
	-3.344303989601536e-05,-4.983761409157269e-12
	4.765905156916745e-07,2.766419960986825e-14
	-2.063293601963639e-04,-5.026661686112340e-12
	4.765905156916745e-07,2.766419960986825e-14
21		1.621810097358929e+00,0.000000000000000e+00
	4.765905156916745e-03,2.830858159783416e-10
	1.000000000000000e+00,0.000000000000000e+00
	0.000000000000000e+00,0.000000000000000e+00
	3.232682431384649e-04,3.431803142029152e-14
	3.232682430964524e-04,2.793249901363297e-14
	-4.765905156916772e-07,-2.830858159783358e-14
	2.063293601963662e-04,5.143747677964915e-12
	-1.724097297846592e-04,-1.559097117719196e-14
	-3.344303989601536e-05,-5.099848125189889e-12
	4.765905156916745e-07,2.830858159783416e-14
	-2.063293601963639e-04,-5.143747677964914e-12
	4.765905156916745e-07,2.830858159783416e-14
22		1.659586907437560e+00,0.000000000000000e+00
	4.765905156916745e-03,2.896797317047160e-10
	1.000000000000000e+00,0.000000000000000e+00
	0.000000000000000e+00,0.000000000000000e+00
	3.232682431384649e-04,3.511740106125504e-14
	3.232682430964524e-04,2.858313049753968e-14
	-4.765905156916772e-07,-2.896797317047244e-14
	2.063293601963662e-04,5.263560952921899e-12
	-1.724097297846592e-04,-1.595413154847175e-14
	-3.344303989601536e-05,-5.218638848202955e-12
	4.765905156916745e-07,2.896797317047161e-14
	-2.063293601963639e-04,-5.263560952921900e-12
	4.765905156916745e-07,2.896797317047161e-14
23		1.698243652461743e+00,0.000000000000000e+00
	4.765905156916745e-03,2.964272394592050e-10
	1.000000000000000e+00,0.000000000000000e+00
	0.000000000000000e+00,0.000000000000000e+00
	3.232682431384649e-04,3.593539041309500e-14
	3.232682430964524e-04,2.924891713557867e-14
	-4.765905156916772e-07,-2.964272394592049e-14
	2.063293601963662e-04,5.386165037567588e-12
	-1.724097297846592e-04,-1.632575101147644e-14
	-3.344303989601536e-05,-5.340196562610191e-12
	4.765905156916745e-07,2.964272394592050e-14
	-2.063293601963639e-04,-5.386165037567588e-12
	4.765905156916745e-07,2.964272394592050e-14
24		1.737800828749374e+00,0.000000000000000e+00
	4.765905156916745e-03,3.033319168597334e-10
	1.000000000000000e+00,0.000000000000000e+00
	0.000000000000000e+00,0.000000000000000e+00
	3.232682431384649e-04,3.677243318459311e-14
	3.232682430964524e-04,2.993021193663811e-14
	-4.765905156916772e-07,-3.033319168597350e-14
	2.063293601963662e-04,5.511624938210516e-12
	-1.724097297846592e-04,-1.670602660376427e-14
	-3.344303989601536e-05,-5.464585719920778e-12
	4.765905156916745e-07,3.033319168597334e-14
	-2.063293601963639e-04,-5.511624938210517e-12
	4.765905156916745e-07,3.033319168597334e-14
25		1.778279410038922e+00,0.000000000000000e+00
	4.765905156916745e-03,3.103974248576536e-10
	1.000000000000000e+00,0.000000000000000e+00
	0.000000000000000e+00,0.000000000000000e+00
	3.232682431384649e-04,3.762897318690639e-14
	3.232682430964524e-04,3.062737613223957e-14
	-4.765905156916772e-07,-3.103974248576459e-14
	2.063293601963662e-04,5.640007175350667e-12
	-1.724097297846592e-04,-1.709515995248783e-14
	-3.344303989601536e-05,-5.591872272912414e-12
	4.765905156916745e-07,3.103974248576536e-14
	-2.063293601963639e-04,-5.640007175350667e-12
	4.765905156916745e-07,3.103974248576536e-14
26		1.819700858609982e+00,0.000000000000000e+00
	4.765905156916745e-03,3.176275096788288e-10
	1.000000000000000e+00,0.000000000000000e+00
	0.000000000000000e+00,0.000000000000000e+00
	3.232682431384649e-04,3.850546456888170e-14
	3.232682430964524e-04,3.134077936806757e-14
	-4.765905156916772e-07,-3.176275096788273e-14
	2.063293601963662e-04,5.771379818949507e-12
	-1.724097297846592e-04,-1.749335738129938e-14
	-3.344303989601536e-05,-5.722123710600324e-12
	4.765905156916745e-07,3.176275096788288e-14
	-2.063293601963639e-04,-5.771379818949507e-12
	4.765905156916745e-07,3.176275096788288e-14
27		1.862087136662866e+00,0.000000000000000e+00
	4.765905156916745e-03,3.250260048099329e-10
	1.000000000000000e+00,0.000000000000000e+00
	0.000000000000000e+00,0.000000000000000e+00
	3.232682431384649e-04,3.940237205785151e-14
	3.232682430964524e-04,3.207079989996078e-14
	-4.765905156916772e-07,-3.250260048099300e-14
	2.063293601963662e-04,5.905812524521598e-12
	-1.724097297846592e-04,-1.790083001974646e-14
	-3.344303989601536e-05,-5.855409094020858e-12
	4.765905156916745e-07,3.250260048099329e-14
	-2.063293601963639e-04,-5.905812524521597e-12
	4.765905156916745e-07,3.250260048099329e-14
28		1.905460717963246e+00,0.000000000000000e+00
	4.765905156916745e-03,3.325968330310150e-10
	1.000000000000000e+00,0.000000000000000e+00
	0.000000000000000e+00,0.000000000000000e+00
	3.232682431384649e-04,4.032017120603844e-14
	3.232682430964524e-04,3.281782479446817e-14
	-4.765905156916772e-07,-3.325968330310128e-14
	2.063293601963662e-04,6.043376570066858e-12
	-1.724097297846592e-04,-1.831779391521550e-14
	-3.344303989601536e-05,-5.991799092848542e-12
	4.765905156916745e-07,3.325968330310150e-14
	-2.063293601963639e-04,-6.043376570066860e-12
	4.765905156916745e-07,3.325968330310150e-14
29		1.949844599758044e+00,0.000000000000000e+00
	4.765905156916745e-03,3.403440084954098e-10
	1.000000000000000e+00,0.000000000000000e+00
	0.000000000000000e+00,0.000000000000000e+00
	3.232682431384649e-04,4.125934864269940e-14
	3.232682430964524e-04,3.358225013407688e-14
	-4.765905156916772e-07,-3.403440084954087e-14
	2.063293601963662e-04,6.184144893863118e-12
	-1.724097297846592e-04,-1.874447014748307e-14
	-3.344303989601536e-05,-6.131366022866094e-12
	4.765905156916745e-07,3.403440084954098e-14
	-2.063293601963639e-04,-6.184144893863116e-12
	4.765905156916745e-07,3.403440084954098e-14
30		1.995262314968878e+00,0.000000000000000e+00
	4.765905156916745e-03,3.482716388580942e-10
	1.000000000000000e+00,0.000000000000000e+00
	0.000000000000000e+00,0.000000000000000e+00
	3.232682431384649e-04,4.222040233214273e-14
	3.232682430964524e-04,3.436448122722028e-14
	-4.765905156916772e-07,-3.482716388580919e-14
	2.063293601963662e-04,6.328192133138936e-12
	-1.724097297846592e-04,-1.918108494593522e-14
	-3.344303989601536e-05,-6.274183884307192e-12
	4.765905156916745e-07,3.482716388580943e-14
	-2.063293601963639e-04,-6.328192133138935e-12
	4.765905156916745e-07,3.482716388580943e-14
31		2.041737944669527e+00,0.000000000000000e+00
	4.765905156916745e-03,3.563839274536213e-10
	1.000000000000000e+00,0.000000000000000e+00
	0.000000000000000e+00,0.000000000000000e+00
	3.232682431384649e-04,4.320384183775564e-14
	3.232682430964524e-04,3.516493282317803e-14
	-4.765905156916772e-07,-3.563839274536221e-14
	2.063293601963662e-04,6.475594663647268e-12
	-1.724097297846592e-04,-1.962786980951737e-14
	-3.344303989601536e-05,-6.420328401092389e-12
	4.765905156916745e-07,3.563839274536213e-14
	-2.063293601963639e-04,-6.475594663647268e-12
	4.765905156916745e-07,3.563839274536213e-14
32		2.089296130854037e+00,0.000000000000000e+00
	4.765905156916745e-03,3.646851755247834e-10
	1.000000000000000e+00,0.000000000000000e+00
	0.000000000000000e+00,0.000000000000000e+00
	3.232682431384649e-04,4.421018859218141e-14
	3.232682430964524e-04,3.598402933198155e-14
