Title: * GA CMOS Amp | W=7.768493109365587e-06 L=9.852061595991908e-07 Vbias=0.9902726306567183
Date: Mon Sep  8 18:46:21 2025
Plotname: AC Analysis
Flags: complex forward log
No. Variables: 11
No. Points:          901
Offset:    0.0000000000000000e+00
Command: Linear Technology Corporation LTspice
Variables:
	0	frequency	frequency
	1	V(out)	voltage
	2	V(g)	voltage
	3	V(vdd)	voltage
	4	Id(M1)	device_current
	5	Ig(M1)	device_current
	6	Ib(M1)	device_current
	7	Is(M1)	device_current
	8	I(Rload)	device_current
	9	I(Vg)	device_current
	10	I(Vdd)	device_current
Values:
0		1.000000000000000e+00,0.000000000000000e+00
	-1.845042401726022e+00,2.695141307221882e-10
	1.000000000000000e+00,0.000000000000000e+00
	0.000000000000000e+00,0.000000000000000e+00
	1.845042401726022e-04,-2.695141307221883e-14
	2.631044473664976e-24,8.387814975420607e-14
	1.845042402279923e-12,-2.226408522558172e-15
	-1.845042420176446e-04,-5.470032815942907e-14
	-1.845042401726022e-04,2.695141307221882e-14
	-2.631044473664976e-24,-8.387814975420607e-14
	-1.845042401726022e-04,2.695141307221882e-14
1		1.023292992280754e+00,0.000000000000000e+00
	-1.845042401726022e+00,2.757919212886543e-10
	1.000000000000000e+00,0.000000000000000e+00
	0.000000000000000e+00,0.000000000000000e+00
	1.845042401726022e-04,-2.757919212886543e-14
	2.755041779566150e-24,8.583192284895473e-14
	1.845042402279923e-12,-2.278268239087929e-15
	-1.845042420176446e-04,-5.597446248100137e-14
	-1.845042401726022e-04,2.757919212886543e-14
	-2.755041779566150e-24,-8.583192284895473e-14
	-1.845042401726022e-04,2.757919212886543e-14
2		1.047128548050899e+00,0.000000000000000e+00
	-1.845042401726022e+00,2.822159403823252e-10
	1.000000000000000e+00,0.000000000000000e+00
	0.000000000000000e+00,0.000000000000000e+00
	1.845042401726022e-04,-2.822159403823252e-14
	2.884882898456668e-24,8.783120516531770e-14
	1.845042402279923e-12,-2.331335923594480e-15
	-1.845042420176446e-04,-5.727827520349069e-14
	-1.845042401726022e-04,2.822159403823253e-14
	-2.884882898456668e-24,-8.783120516531770e-14
	-1.845042401726022e-04,2.822159403823253e-14
3		1.071519305237606e+00,0.000000000000000e+00
	-1.845042401726022e+00,2.887895941031565e-10
	1.000000000000000e+00,0.000000000000000e+00
	0.000000000000000e+00,0.000000000000000e+00
	1.845042401726022e-04,-2.887895941031565e-14
	3.020843240757801e-24,8.987705674924277e-14
	1.845042402279923e-12,-2.385639713266611e-15
	-1.845042420176446e-04,-5.861245762566051e-14
	-1.845042401726022e-04,2.887895941031565e-14
	-3.020843240757801e-24,-8.987705674924277e-14
	-1.845042401726022e-04,2.887895941031565e-14
4		1.096478196143185e+00,0.000000000000000e+00
	-1.845042401726022e+00,2.955163678893634e-10
	1.000000000000000e+00,0.000000000000000e+00
	0.000000000000000e+00,0.000000000000000e+00
	1.845042401726022e-04,-2.955163678893634e-14
	3.163211196584089e-24,9.197056233831977e-14
	1.845042402279923e-12,-2.441208400692403e-15
	-1.845042420176446e-04,-5.997771714869103e-14
	-1.845042401726022e-04,2.955163678893634e-14
	-3.163211196584089e-24,-9.197056233831977e-14
	-1.845042401726022e-04,2.955163678893634e-14
5		1.122018454301963e+00,0.000000000000000e+00
	-1.845042401726022e+00,3.023998283654469e-10
	1.000000000000000e+00,0.000000000000000e+00
	0.000000000000000e+00,0.000000000000000e+00
	1.845042401726022e-04,-3.023998283654469e-14
	3.312288747457447e-24,9.411283193692288e-14
	1.845042402279923e-12,-2.498071449125438e-15
	-1.845042420176446e-04,-6.137477765125275e-14
	-1.845042401726022e-04,3.023998283654469e-14
	-3.312288747457447e-24,-9.411283193692288e-14
	-1.845042401726022e-04,3.023998283654469e-14
6		1.148153621496882e+00,0.000000000000000e+00
	-1.845042401726022e+00,3.094436252332646e-10
	1.000000000000000e+00,0.000000000000000e+00
	0.000000000000000e+00,0.000000000000000e+00
	1.845042401726022e-04,-3.094436252332646e-14
	3.468392106850448e-24,9.630500140474953e-14
	1.845042402279923e-12,-2.556259008106671e-15
	-1.845042420176446e-04,-6.280437987331640e-14
	-1.845042401726022e-04,3.094436252332646e-14
	-3.468392106850448e-24,-9.630500140474953e-14
	-1.845042401726022e-04,3.094436252332646e-14
7		1.174897554939529e+00,0.000000000000000e+00
	-1.845042401726022e+00,3.166514932071516e-10
	1.000000000000000e+00,0.000000000000000e+00
	0.000000000000000e+00,0.000000000000000e+00
	1.845042401726022e-04,-3.166514932071516e-14
	3.631852390917511e-24,9.854823305906837e-14
	1.845042402279923e-12,-2.615801929450110e-15
	-1.845042420176446e-04,-6.426728180890310e-14
	-1.845042401726022e-04,3.166514932071516e-14
	-3.631852390917511e-24,-9.854823305906837e-14
	-1.845042401726022e-04,3.166514932071516e-14
8		1.202264434617413e+00,0.000000000000000e+00
	-1.845042401726022e+00,3.240272539941150e-10
	1.000000000000000e+00,0.000000000000000e+00
	0.000000000000000e+00,0.000000000000000e+00
	1.845042401726022e-04,-3.240272539941151e-14
	3.803016320836641e-24,1.008437162909952e-13
	1.845042402279923e-12,-2.676731783600790e-15
	-1.845042420176446e-04,-6.576425910798293e-14
	-1.845042401726022e-04,3.240272539941150e-14
	-3.803016320836641e-24,-1.008437162909952e-13
	-1.845042401726022e-04,3.240272539941150e-14
9		1.230268770812381e+00,0.000000000000000e+00
	-1.845042401726022e+00,3.315748183201538e-10
	1.000000000000000e+00,0.000000000000000e+00
	0.000000000000000e+00,0.000000000000000e+00
	1.845042401726022e-04,-3.315748183201540e-14
	3.982246958251544e-24,1.031926681961239e-13
	1.845042402279923e-12,-2.739080876373850e-15
	-1.845042420176446e-04,-6.729610548773469e-14
	-1.845042401726022e-04,3.315748183201538e-14
	-3.982246958251544e-24,-1.031926681961239e-13
	-1.845042401726022e-04,3.315748183201538e-14
10		1.258925411794167e+00,0.000000000000000e+00
	-1.845042401726022e+00,3.392981880037777e-10
	1.000000000000000e+00,0.000000000000000e+00
	0.000000000000000e+00,0.000000000000000e+00
	1.845042401726022e-04,-3.392981880037778e-14
	4.169924475374051e-24,1.055963342198467e-13
	1.845042402279923e-12,-2.802882266083575e-15
	-1.845042420176446e-04,-6.886363315338531e-14
	-1.845042401726022e-04,3.392981880037777e-14
	-4.169924475374051e-24,-1.055963342198467e-13
	-1.845042401726022e-04,3.392981880037777e-14
11		1.288249551693134e+00,0.000000000000000e+00
	-1.845042401726022e+00,3.472014580778236e-10
	1.000000000000000e+00,0.000000000000000e+00
	0.000000000000000e+00,0.000000000000000e+00
	1.845042401726022e-04,-3.472014580778236e-14
	4.366446961380340e-24,1.080559888177055e-13
	1.845042402279923e-12,-2.868169781071345e-15
	-1.845042420176446e-04,-7.046767322885180e-14
	-1.845042401726022e-04,3.472014580778236e-14
	-4.366446961380340e-24,-1.080559888177055e-13
	-1.845042401726022e-04,3.472014580778236e-14
12		1.318256738556407e+00,0.000000000000000e+00
	-1.845042401726022e+00,3.552888189606969e-10
	1.000000000000000e+00,0.000000000000000e+00
	0.000000000000000e+00,0.000000000000000e+00
	1.845042401726022e-04,-3.552888189606969e-14
	4.572231266811458e-24,1.105729361311256e-13
	1.845042402279923e-12,-2.934978037641716e-15
	-1.845042420176446e-04,-7.210907619741416e-14
	-1.845042401726022e-04,3.552888189606970e-14
	-4.572231266811458e-24,-1.105729361311256e-13
	-1.845042401726022e-04,3.552888189606970e-14
13		1.348962882591653e+00,0.000000000000000e+00
	-1.845042401726022e+00,3.635645586781867e-10
	1.000000000000000e+00,0.000000000000000e+00
	0.000000000000000e+00,0.000000000000000e+00
	1.845042401726022e-04,-3.635645586781867e-14
	4.787713887769207e-24,1.131485106788882e-13
	1.845042402279923e-12,-3.003342458416694e-15
	-1.845042420176446e-04,-7.378871235265283e-14
	-1.845042401726022e-04,3.635645586781867e-14
	-4.787713887769207e-24,-1.131485106788882e-13
	-1.845042401726022e-04,3.635645586781867e-14
14		1.380384264602885e+00,0.000000000000000e+00
	-1.845042401726022e+00,3.720330651370335e-10
	1.000000000000000e+00,0.000000000000000e+00
	0.000000000000000e+00,0.000000000000000e+00
	1.845042401726022e-04,-3.720330651370335e-14
	5.013351891782899e-24,1.157840780647104e-13
	1.845042402279923e-12,-3.073299291117050e-15
	-1.845042420176446e-04,-7.550747225988997e-14
	-1.845042401726022e-04,3.720330651370336e-14
	-5.013351891782899e-24,-1.157840780647104e-13
	-1.845042401726022e-04,3.720330651370336e-14
15		1.412537544622754e+00,0.000000000000000e+00
	-1.845042401726022e+00,3.806988284514557e-10
	1.000000000000000e+00,0.000000000000000e+00
	0.000000000000000e+00,0.000000000000000e+00
	1.845042401726022e-04,-3.806988284514557e-14
	5.249623887310857e-24,1.184810357013059e-13
	1.845042402279923e-12,-3.144885627781489e-15
	-1.845042420176446e-04,-7.726626722837883e-14
	-1.845042401726022e-04,3.806988284514558e-14
	-5.249623887310857e-24,-1.184810357013059e-13
	-1.845042401726022e-04,3.806988284514558e-14
16		1.445439770745927e+00,0.000000000000000e+00
	-1.845042401726022e+00,3.895664433238675e-10
	1.000000000000000e+00,0.000000000000000e+00
	0.000000000000000e+00,0.000000000000000e+00
	1.845042401726022e-04,-3.895664433238675e-14
	5.497031038933133e-24,1.212408135513121e-13
	1.845042402279923e-12,-3.218139424433248e-15
	-1.845042420176446e-04,-7.906602979449213e-14
	-1.845042401726022e-04,3.895664433238675e-14
	-5.497031038933133e-24,-1.212408135513121e-13
	-1.845042401726022e-04,3.895664433238675e-14
17		1.479108388168207e+00,0.000000000000000e+00
	-1.845042401726022e+00,3.986406114810512e-10
	1.000000000000000e+00,0.000000000000000e+00
	0.000000000000000e+00,0.000000000000000e+00
	1.845042401726022e-04,-3.986406114810512e-14
	5.756098130388779e-24,1.240648748854752e-13
	1.845042402279923e-12,-3.293099521204983e-15
	-1.845042420176446e-04,-8.090771421616510e-14
	-1.845042401726022e-04,3.986406114810512e-14
	-5.756098130388779e-24,-1.240648748854752e-13
	-1.845042401726022e-04,3.986406114810512e-14
18		1.513561248436208e+00,0.000000000000000e+00
	-1.845042401726022e+00,4.079261441670745e-10
	1.000000000000000e+00,0.000000000000000e+00
	0.000000000000000e+00,0.000000000000000e+00
	1.845042401726022e-04,-4.079261441670745e-14
	6.027374677712500e-24,1.269547170584953e-13
	1.845042402279923e-12,-3.369805662932129e-15
	-1.845042420176446e-04,-8.279229697885572e-14
	-1.845042401726022e-04,4.079261441670745e-14
	-6.027374677712500e-24,-1.269547170584953e-13
	-1.845042401726022e-04,4.079261441670745e-14
19		1.548816618912481e+00,0.000000000000000e+00
	-1.845042401726022e+00,4.174279646942759e-10
	1.000000000000000e+00,0.000000000000000e+00
	0.000000000000000e+00,0.000000000000000e+00
	1.845042401726022e-04,-4.174279646942759e-14
	6.311436094831849e-24,1.299118723029442e-13
	1.845042402279923e-12,-3.448298520226470e-15
	-1.845042420176446e-04,-8.472077731329010e-14
	-1.845042401726022e-04,4.174279646942759e-14
	-6.311436094831849e-24,-1.299118723029442e-13
	-1.845042401726022e-04,4.174279646942759e-14
20		1.584893192461113e+00,0.000000000000000e+00
	-1.845042401726022e+00,4.271511110536705e-10
	1.000000000000000e+00,0.000000000000000e+00
	0.000000000000000e+00,0.000000000000000e+00
	1.845042401726022e-04,-4.271511110536705e-14
	6.608884914097312e-24,1.329379085416749e-13
	1.845042402279923e-12,-3.528619711039854e-15
	-1.845042420176446e-04,-8.669417772526804e-14
	-1.845042401726022e-04,4.271511110536706e-14
	-6.608884914097312e-24,-1.329379085416749e-13
	-1.845042401726022e-04,4.271511110536706e-14
21		1.621810097358929e+00,0.000000000000000e+00
	-1.845042401726022e+00,4.371007385861592e-10
	1.000000000000000e+00,0.000000000000000e+00
	0.000000000000000e+00,0.000000000000000e+00
	1.845042401726022e-04,-4.371007385861593e-14
	6.920352064334210e-24,1.360344302191558e-13
	1.845042402279923e-12,-3.610811822730789e-15
	-1.845042420176446e-04,-8.871354453780904e-14
	-1.845042401726022e-04,4.371007385861592e-14
	-6.920352064334210e-24,-1.360344302191558e-13
	-1.845042401726022e-04,4.371007385861592e-14
22		1.659586907437560e+00,0.000000000000000e+00
	-1.845042401726022e+00,4.472821227159586e-10
	1.000000000000000e+00,0.000000000000000e+00
	0.000000000000000e+00,0.000000000000000e+00
	1.845042401726022e-04,-4.472821227159586e-14
	7.246498209127328e-24,1.392030791521674e-13
	1.845042402279923e-12,-3.694918434644946e-15
	-1.845042420176446e-04,-9.077994844592656e-14
	-1.845042401726022e-04,4.472821227159586e-14
	-7.246498209127328e-24,-1.392030791521674e-13
	-1.845042401726022e-04,4.472821227159586e-14
23		1.698243652461743e+00,0.000000000000000e+00
	-1.845042401726022e+00,4.577006617477008e-10
	1.000000000000000e+00,0.000000000000000e+00
	0.000000000000000e+00,0.000000000000000e+00
	1.845042401726022e-04,-4.577006617477007e-14
	7.588015148176945e-24,1.424455354003160e-13
	1.845042402279923e-12,-3.780984141221138e-15
	-1.845042420176446e-04,-9.289448508432479e-14
	-1.845042401726022e-04,4.577006617477008e-14
	-7.588015148176945e-24,-1.424455354003160e-13
	-1.845042401726022e-04,4.577006617477008e-14
24		1.737800828749374e+00,0.000000000000000e+00
	-1.845042401726022e+00,4.683618797286859e-10
	1.000000000000000e+00,0.000000000000000e+00
	0.000000000000000e+00,0.000000000000000e+00
	1.845042401726022e-04,-4.683618797286859e-14
	7.945627284698753e-24,1.457635181568234e-13
	1.845042402279923e-12,-3.869054575636271e-15
	-1.845042420176446e-04,-9.505827560831858e-14
	-1.845042401726022e-04,4.683618797286860e-14
	-7.945627284698753e-24,-1.457635181568234e-13
	-1.845042401726022e-04,4.683618797286860e-14
25		1.778279410038922e+00,0.000000000000000e+00
	-1.845042401726022e+00,4.792714293778057e-10
	1.000000000000000e+00,0.000000000000000e+00
	0.000000000000000e+00,0.000000000000000e+00
	1.845042401726022e-04,-4.792714293778057e-14
	8.320093161980216e-24,1.491587866600659e-13
	1.845042402279923e-12,-3.959176434000372e-15
	-1.845042420176446e-04,-9.727246728828495e-14
	-1.845042401726022e-04,4.792714293778057e-14
	-8.320093161980216e-24,-1.491587866600659e-13
	-1.845042401726022e-04,4.792714293778057e-14
26		1.819700858609982e+00,0.000000000000000e+00
	-1.845042401726022e+00,4.904350950826889e-10
	1.000000000000000e+00,0.000000000000000e+00
	0.000000000000000e+00,0.000000000000000e+00
	1.845042401726022e-04,-4.904350950826889e-14
	8.712207072352559e-24,1.526331411263454e-13
	1.845042402279923e-12,-4.051397500115675e-15
	-1.845042420176446e-04,-9.953823411796087e-14
	-1.845042401726022e-04,4.904350950826889e-14
	-8.712207072352559e-24,-1.526331411263454e-13
	-1.845042401726022e-04,4.904350950826889e-14
27		1.862087136662866e+00,0.000000000000000e+00
	-1.845042401726022e+00,5.018587959666609e-10
	1.000000000000000e+00,0.000000000000000e+00
	0.000000000000000e+00,0.000000000000000e+00
	1.845042401726022e-04,-5.018587959666609e-14
	9.122800741991316e-24,1.561884237043887e-13
	1.845042402279923e-12,-4.145766670812161e-15
	-1.845042420176446e-04,-1.018567774369104e-13
	-1.845042401726022e-04,5.018587959666609e-14
	-9.122800741991316e-24,-1.561884237043887e-13
	-1.845042401726022e-04,5.018587959666609e-14
28		1.905460717963246e+00,0.000000000000000e+00
	-1.845042401726022e+00,5.135485890271408e-10
	1.000000000000000e+00,0.000000000000000e+00
	0.000000000000000e+00,0.000000000000000e+00
	1.845042401726022e-04,-5.135485890271408e-14
	9.552745095119030e-24,1.598265194520781e-13
	1.845042402279923e-12,-4.242333981873181e-15
	-1.845042420176446e-04,-1.042293265674909e-13
	-1.845042401726022e-04,5.135485890271408e-14
	-9.552745095119030e-24,-1.598265194520781e-13
	-1.845042401726022e-04,5.135485890271408e-14
29		1.949844599758044e+00,0.000000000000000e+00
	-1.845042401726022e+00,5.255106723471422e-10
	1.000000000000000e+00,0.000000000000000e+00
	0.000000000000000e+00,0.000000000000000e+00
	1.845042401726022e-04,-5.255106723471422e-14
	1.000295210135235e-23,1.635493573359352e-13
	1.845042402279923e-12,-4.341150634565334e-15
	-1.845042420176446e-04,-1.066571394666556e-13
	-1.845042401726022e-04,5.255106723471423e-14
	-1.000295210135235e-23,-1.635493573359352e-13
	-1.845042401726022e-04,5.255106723471423e-14
30		1.995262314968878e+00,0.000000000000000e+00
	-1.845042401726022e+00,5.377513883815780e-10
	1.000000000000000e+00,0.000000000000000e+00
	0.000000000000000e+00,0.000000000000000e+00
	1.845042401726022e-04,-5.377513883815780e-14
	1.047437671011177e-23,1.673589112538834e-13
	1.845042402279923e-12,-4.442269022785830e-15
	-1.845042420176446e-04,-1.091415033929398e-13
	-1.845042401726022e-04,5.377513883815780e-14
	-1.047437671011177e-23,-1.673589112538834e-13
	-1.845042401726022e-04,5.377513883815780e-14
31		2.041737944669527e+00,0.000000000000000e+00
	-1.845042401726022e+00,5.502772273201149e-10
	1.000000000000000e+00,0.000000000000000e+00
	0.000000000000000e+00,0.000000000000000e+00
	1.845042401726022e-04,-5.502772273201149e-14
	1.096801887619750e-23,1.712572010818355e-13
	1.845042402279923e-12,-4.545742760842604e-15
	-1.845042420176446e-04,-1.116837355889814e-13
	-1.845042401726022e-04,5.502772273201149e-14
	-1.096801887619750e-23,-1.712572010818355e-13
	-1.845042401726022e-04,5.502772273201149e-14
32		2.089296130854037e+00,0.000000000000000e+00
	-1.845042401726022e+00,5.630948305283570e-10
	1.000000000000000e+00,0.000000000000000e+00
	0.000000000000000e+00,0.000000000000000e+00
	1.845042401726022e-04,-5.630948305283572e-14
	1.148492568082754e-23,1.752462937446583e-13
	1.845042402279923e-12,-4.651626711881241e-15
	-1.845042420176446e-04,-1.142851839799413e-13
	-1.845042401726022e-04,5.630948305283571e-14
	-1.148492568082754e-23,-1.752462937446583e-13
	-1.845042401726022e-04,5.630948305283571e-14
33		2.137962089502230e+00,0.000000000000000e+00
	-1.845042401726022e+00,5.762109940691867e-10
	1.000000000000000e+00,0.000000000000000e+00
	0.000000000000000e+00,0.000000000000000e+00
	1.845042401726022e-04,-5.762109940691867e-14
	1.202619355263743e-23,1.793283043120834e-13
	1.845042402279923e-12,-4.759977016974047e-15
	-1.845042420176446e-04,-1.169472278881907e-13
	-1.845042401726022e-04,5.762109940691867e-14
	-1.202619355263743e-23,-1.793283043120834e-13
	-1.845042401726022e-04,5.762109940691867e-14
34		2.187761623949550e+00,0.000000000000000e+00
	-1.845042401726022e+00,5.896326723061259e-10
	1.000000000000000e+00,0.000000000000000e+00
	0.000000000000000e+00,0.000000000000000e+00
	1.845042401726022e-04,-5.896326723061259e-14
	1.259297059335233e-23,1.835053971201454e-13
	1.845042402279923e-12,-4.870851124886981e-15
	-1.845042420176446e-04,-1.196712787646458e-13
	-1.845042401726022e-04,5.896326723061260e-14
	-1.259297059335233e-23,-1.835053971201454e-13
	-1.845042401726022e-04,5.896326723061260e-14
35		2.238721138568337e+00,0.000000000000000e+00
	-1.845042401726022e+00,6.033669815906329e-10
	1.000000000000000e+00,0.000000000000000e+00
	0.000000000000000e+00,0.000000000000000e+00
	1.845042401726022e-04,-6.033669815906329e-14
	1.318645901306469e-23,1.877797869187417e-13
	1.845042402279923e-12,-4.984307822539670e-15
	-1.845042420176446e-04,-1.224587809371387e-13
	-1.845042401726022e-04,6.033669815906329e-14
	-1.318645901306469e-23,-1.877797869187417e-13
	-1.845042401726022e-04,6.033669815906329e-14
36		2.290867652767770e+00,0.000000000000000e+00
	-1.845042401726022e+00,6.174212040352854e-10
	1.000000000000000e+00,0.000000000000000e+00
	0.000000000000000e+00,0.000000000000000e+00
	1.845042401726022e-04,-6.174212040352854e-14
	1.380791768028313e-23,1.921537400459216e-13
	1.845042402279923e-12,-5.100407266174993e-15
	-1.845042420176446e-04,-1.253112123762181e-13
	-1.845042401726022e-04,6.174212040352855e-14
	-1.380791768028313e-23,-1.921537400459216e-13
	-1.845042401726022e-04,6.174212040352855e-14
37		2.344228815319919e+00,0.000000000000000e+00
	-1.845042401726022e+00,6.318027913748532e-10
	1.000000000000000e+00,0.000000000000000e+00
	0.000000000000000e+00,0.000000000000000e+00
	1.845042401726022e-04,-6.318027913748531e-14
	1.445866479216122e-23,1.966295756295293e-13
	1.845042402279923e-12,-5.219211013254718e-15
	-1.845042420176446e-04,-1.282300854787892e-13
	-1.845042401726022e-04,6.318027913748532e-14
	-1.445866479216122e-23,-1.966295756295293e-13
	-1.845042401726022e-04,6.318027913748532e-14
38		2.398832919019488e+00,0.000000000000000e+00
	-1.845042401726022e+00,6.465193689173065e-10
	1.000000000000000e+00,0.000000000000000e+00
