LTspice 24.0.9 for Windows
Circuit: * GA CMOS Amp | W=2.0114087154692952e-05 L=6.887153677428333e-07 Vbias=1.170412468192156
Start Time: Mon Sep  8 18:44:58 2025
solver = Normal
Maximum thread count: 2
tnom = 27
temp = 27
method = modified trap
AsciiRawFile = 1
Instance "m1": Length shorter than recommended for a level 3 MOSFET.
Direct Newton iteration for .op point succeeded.
Semiconductor Device Operating Points:
                        --- MOSFET Transistors ---
Name:          m1
Model:        n_1u
Id:          1.70e-04
Vgs:         1.17e+00
Vds:         1.04e-01
Vbs:         0.00e+00
Vth:         7.76e-01
Vdsat:       3.03e-01
Gm:          4.19e-04
Gds:         1.20e-03
Gmb:         8.72e-05
Cbd:         0.00e+00
Cbs:         0.00e+00
Cgsov:       4.02e-15
Cgdov:       4.02e-15
Cgbov:       4.89e-17
Cgs:         9.53e-15
Cgd:         7.20e-15
Cgb:         0.00e+00



gain_db: MAX(db(v(out)/v(g)))=(29.2501dB,109.828°) FROM 1 TO 1e+09
gain_lin: MAX(mag(v(out)/v(g)))=(-9.71983dB,0°) FROM 1 TO 1e+09

Measurement "fc" FAIL'ed

Total elapsed time: 0.478 seconds.

