Title: * GA CMOS Amp | W=1.9225519521884506e-05 L=5.881496941762788e-07 Vbias=0.8813683043817421
Date: Mon Sep  8 18:47:24 2025
Plotname: AC Analysis
Flags: complex forward log
No. Variables: 11
No. Points:          901
Offset:    0.0000000000000000e+00
Command: Linear Technology Corporation LTspice
Variables:
	0	frequency	frequency
	1	V(out)	voltage
	2	V(g)	voltage
	3	V(vdd)	voltage
	4	Id(M1)	device_current
	5	Ig(M1)	device_current
	6	Ib(M1)	device_current
	7	Is(M1)	device_current
	8	I(Rload)	device_current
	9	I(Vg)	device_current
	10	I(Vdd)	device_current
Values:
0		1.000000000000000e+00,0.000000000000000e+00
	-5.733584314110984e+00,1.231452410832442e-09
	1.000000000000000e+00,0.000000000000000e+00
	0.000000000000000e+00,0.000000000000000e+00
	5.733584314110984e-04,-1.231452410832442e-13
	2.975127495859282e-23,2.431733449918645e-13
	5.733584288770965e-12,-2.364037865340655e-15
	-5.733584371446827e-04,-1.176640660432797e-13
	-5.733584314110984e-04,1.231452410832442e-13
	-2.975127495859282e-23,-2.431733449918645e-13
	-5.733584314110984e-04,1.231452410832442e-13
1		1.023292992280754e+00,0.000000000000000e+00
	-5.733584314110984e+00,1.260136622332078e-09
	1.000000000000000e+00,0.000000000000000e+00
	0.000000000000000e+00,0.000000000000000e+00
	5.733584314110984e-04,-1.260136622332078e-13
	3.115340935005439e-23,2.488375798396452e-13
	5.733584288770965e-12,-2.419103381089434e-15
	-5.733584371446827e-04,-1.204048142253479e-13
	-5.733584314110984e-04,1.260136622332079e-13
	-3.115340935005439e-23,-2.488375798396452e-13
	-5.733584314110984e-04,1.260136622332079e-13
2		1.047128548050899e+00,0.000000000000000e+00
	-5.733584314110984e+00,1.289488974948755e-09
	1.000000000000000e+00,0.000000000000000e+00
	0.000000000000000e+00,0.000000000000000e+00
	5.733584314110984e-04,-1.289488974948755e-13
	3.262162429955776e-23,2.546337516660116e-13
	5.733584288770965e-12,-2.475451537471506e-15
	-5.733584371446827e-04,-1.232094026336646e-13
	-5.733584314110984e-04,1.289488974948755e-13
	-3.262162429955776e-23,-2.546337516660116e-13
	-5.733584314110984e-04,1.289488974948755e-13
3		1.071519305237606e+00,0.000000000000000e+00
	-5.733584314110984e+00,1.319525031688354e-09
	1.000000000000000e+00,0.000000000000000e+00
	0.000000000000000e+00,0.000000000000000e+00
	5.733584314110984e-04,-1.319525031688354e-13
	3.415903408785785e-23,2.605649336779874e-13
	5.733584288770965e-12,-2.533112211025225e-15
	-5.733584371446827e-04,-1.260793182981268e-13
	-5.733584314110984e-04,1.319525031688354e-13
	-3.415903408785785e-23,-2.605649336779874e-13
	-5.733584314110984e-04,1.319525031688354e-13
4		1.096478196143185e+00,0.000000000000000e+00
	-5.733584314110984e+00,1.350260718065732e-09
	1.000000000000000e+00,0.000000000000000e+00
	0.000000000000000e+00,0.000000000000000e+00
	5.733584314110984e-04,-1.350260718065732e-13
	3.576889976723976e-23,2.666342706667840e-13
	5.733584288770965e-12,-2.592115974202925e-15
	-5.733584371446827e-04,-1.290160828860078e-13
	-5.733584314110984e-04,1.350260718065732e-13
	-3.576889976723976e-23,-2.666342706667840e-13
	-5.733584314110984e-04,1.350260718065732e-13
5		1.122018454301963e+00,0.000000000000000e+00
	-5.733584314110984e+00,1.381712330548643e-09
	1.000000000000000e+00,0.000000000000000e+00
	0.000000000000000e+00,0.000000000000000e+00
	5.733584314110984e-04,-1.381712330548643e-13
	3.745463607864795e-23,2.728449806752099e-13
	5.733584288770965e-12,-2.652494111580815e-15
	-5.733584371446827e-04,-1.320212535087647e-13
	-5.733584314110984e-04,1.381712330548643e-13
	-3.745463607864795e-23,-2.728449806752099e-13
	-5.733584314110984e-04,1.381712330548643e-13
6		1.148153621496882e+00,0.000000000000000e+00
	-5.733584314110984e+00,1.413896545198335e-09
	1.000000000000000e+00,0.000000000000000e+00
	0.000000000000000e+00,0.000000000000000e+00
	5.733584314110984e-04,-1.413896545198335e-13
	3.921981869480945e-23,2.792003567039201e-13
	5.733584288770965e-12,-2.714278636446688e-15
	-5.733584371446827e-04,-1.350964235476399e-13
	-5.733584314110984e-04,1.413896545198335e-13
	-3.921981869480945e-23,-2.792003567039201e-13
	-5.733584314110984e-04,1.413896545198335e-13
7		1.174897554939529e+00,0.000000000000000e+00
	-5.733584314110984e+00,1.446830426511425e-09
	1.000000000000000e+00,0.000000000000000e+00
	0.000000000000000e+00,0.000000000000000e+00
	5.733584314110984e-04,-1.446830426511425e-13
	4.106819180471535e-23,2.857037684574082e-13
	5.733584288770965e-12,-2.777502307773183e-15
	-5.733584371446827e-04,-1.382432234984925e-13
	-5.733584314110984e-04,1.446830426511425e-13
	-4.106819180471535e-23,-2.857037684574082e-13
	-5.733584314110984e-04,1.446830426511425e-13
8		1.202264434617413e+00,0.000000000000000e+00
	-5.733584314110984e+00,1.480531436467716e-09
	1.000000000000000e+00,0.000000000000000e+00
	0.000000000000000e+00,0.000000000000000e+00
	5.733584314110984e-04,-1.480531436467716e-13
	4.300367605554743e-23,2.923586641306691e-13
	5.733584288770965e-12,-2.842198647587970e-15
	-5.733584371446827e-04,-1.414633218363095e-13
	-5.733584314110984e-04,1.480531436467716e-13
	-4.300367605554743e-23,-2.923586641306691e-13
	-5.733584314110984e-04,1.480531436467716e-13
9		1.230268770812381e+00,0.000000000000000e+00
	-5.733584314110984e+00,1.515017443788772e-09
	1.000000000000000e+00,0.000000000000000e+00
	0.000000000000000e+00,0.000000000000000e+00
	5.733584314110984e-04,-1.515017443788772e-13
	4.503037686889660e-23,2.991685722374763e-13
	5.733584288770965e-12,-2.908401958746596e-15
	-5.733584371446827e-04,-1.447584258998525e-13
	-5.733584314110984e-04,1.515017443788772e-13
	-4.503037686889660e-23,-2.991685722374763e-13
	-5.733584314110984e-04,1.515017443788772e-13
10		1.258925411794167e+00,0.000000000000000e+00
	-5.733584314110984e+00,1.550306733412152e-09
	1.000000000000000e+00,0.000000000000000e+00
	0.000000000000000e+00,0.000000000000000e+00
	5.733584314110984e-04,-1.550306733412152e-13
	4.715259314891253e-23,3.061371034812481e-13
	5.733584288770965e-12,-2.976147343120992e-15
	-5.733584371446827e-04,-1.481302827969119e-13
	-5.733584314110984e-04,1.550306733412152e-13
	-4.715259314891253e-23,-3.061371034812481e-13
	-5.733584314110984e-04,1.550306733412152e-13
11		1.288249551693134e+00,0.000000000000000e+00
	-5.733584314110984e+00,1.586418016186322e-09
	1.000000000000000e+00,0.000000000000000e+00
	0.000000000000000e+00,0.000000000000000e+00
	5.733584314110984e-04,-1.586418016186323e-13
	4.937482640085558e-23,3.132679526694893e-13
	5.733584288770965e-12,-3.045470720210713e-15
	-5.733584371446827e-04,-1.515806803306463e-13
	-5.733584314110984e-04,1.586418016186322e-13
	-4.937482640085558e-23,-3.132679526694893e-13
	-5.733584314110984e-04,1.586418016186322e-13
12		1.318256738556407e+00,0.000000000000000e+00
	-5.733584314110984e+00,1.623370438791400e-09
	1.000000000000000e+00,0.000000000000000e+00
	0.000000000000000e+00,0.000000000000000e+00
	5.733584314110984e-04,-1.623370438791400e-13
	5.170179027939312e-23,3.205649006728273e-13
	5.733584288770965e-12,-3.116408846187825e-15
	-5.733584371446827e-04,-1.551114479474995e-13
	-5.733584314110984e-04,1.623370438791400e-13
	-5.170179027939312e-23,-3.205649006728273e-13
	-5.733584314110984e-04,1.623370438791400e-13
13		1.348962882591653e+00,0.000000000000000e+00
	-5.733584314110984e+00,1.661183593890972e-09
	1.000000000000000e+00,0.000000000000000e+00
	0.000000000000000e+00,0.000000000000000e+00
	5.733584314110984e-04,-1.661183593890972e-13
	5.413842058689302e-23,3.280318164296802e-13
	5.733584288770965e-12,-3.188999333385739e-15
	-5.733584371446827e-04,-1.587244577071972e-13
	-5.733584314110984e-04,1.661183593890972e-13
	-5.413842058689302e-23,-3.280318164296802e-13
	-5.733584314110984e-04,1.661183593890972e-13
14		1.380384264602885e+00,0.000000000000000e+00
	-5.733584314110984e+00,1.699877530520390e-09
	1.000000000000000e+00,0.000000000000000e+00
	0.000000000000000e+00,0.000000000000000e+00
	5.733584314110984e-04,-1.699877530520391e-13
	5.668988574292223e-23,3.356726589976185e-13
	5.733584288770965e-12,-3.263280670241588e-15
	-5.733584371446827e-04,-1.624216252753378e-13
	-5.733584314110984e-04,1.699877530520390e-13
	-5.668988574292223e-23,-3.356726589976185e-13
	-5.733584314110984e-04,1.699877530520390e-13
15		1.412537544622754e+00,0.000000000000000e+00
	-5.733584314110984e+00,1.739472764717029e-09
	1.000000000000000e+00,0.000000000000000e+00
	0.000000000000000e+00,0.000000000000000e+00
	5.733584314110984e-04,-1.739472764717029e-13
	5.936159774715754e-23,3.434914796525102e-13
	5.733584288770965e-12,-3.339292241703488e-15
	-5.733584371446827e-04,-1.662049109391038e-13
	-5.733584314110984e-04,1.739472764717029e-13
	-5.936159774715754e-23,-3.434914796525102e-13
	-5.733584314110984e-04,1.739472764717029e-13
16		1.445439770745927e+00,0.000000000000000e+00
	-5.733584314110984e+00,1.779990290398164e-09
	1.000000000000000e+00,0.000000000000000e+00
	0.000000000000000e+00,0.000000000000000e+00
	5.733584314110984e-04,-1.779990290398165e-13
	6.215922365896260e-23,3.514924240365609e-13
	5.733584288770965e-12,-3.417074350112685e-15
	-5.733584371446827e-04,-1.700763206466318e-13
	-5.733584314110984e-04,1.779990290398164e-13
	-6.215922365896260e-23,-3.514924240365609e-13
	-5.733584314110984e-04,1.779990290398164e-13
17		1.479108388168207e+00,0.000000000000000e+00
	-5.733584314110984e+00,1.821451590492226e-09
	1.000000000000000e+00,0.000000000000000e+00
	0.000000000000000e+00,0.000000000000000e+00
	5.733584314110984e-04,-1.821451590492226e-13
	6.508869761798062e-23,3.596797343563880e-13
	5.733584288770965e-12,-3.496668236572675e-15
	-5.733584371446827e-04,-1.740379070705928e-13
	-5.733584314110984e-04,1.821451590492226e-13
	-6.508869761798062e-23,-3.596797343563880e-13
	-5.733584314110984e-04,1.821451590492226e-13
18		1.513561248436208e+00,0.000000000000000e+00
	-5.733584314110984e+00,1.863878648329328e-09
	1.000000000000000e+00,0.000000000000000e+00
	0.000000000000000e+00,0.000000000000000e+00
	5.733584314110984e-04,-1.863878648329329e-13
	6.815623343124009e-23,3.680577516322951e-13
	5.733584288770965e-12,-3.578116102815492e-15
	-5.733584371446827e-04,-1.780917706965467e-13
	-5.733584314110984e-04,1.863878648329328e-13
	-6.815623343124009e-23,-3.680577516322951e-13
	-5.733584314110984e-04,1.863878648329328e-13
19		1.548816618912481e+00,0.000000000000000e+00
	-5.733584314110984e+00,1.907293959297126e-09
	1.000000000000000e+00,0.000000000000000e+00
	0.000000000000000e+00,0.000000000000000e+00
	5.733584314110984e-04,-1.907293959297126e-13
	7.136833775347261e-23,3.766309179999378e-13
	5.733584288770965e-12,-3.661461133578021e-15
	-5.733584371446827e-04,-1.822400609366472e-13
	-5.733584314110984e-04,1.907293959297126e-13
	-7.136833775347261e-23,-3.766309179999378e-13
	-5.733584314110984e-04,1.907293959297126e-13
20		1.584893192461113e+00,0.000000000000000e+00
	-5.733584314110984e+00,1.951720542768163e-09
	1.000000000000000e+00,0.000000000000000e+00
	0.000000000000000e+00,0.000000000000000e+00
	5.733584314110984e-04,-1.951720542768163e-13
	7.473182388859998e-23,3.854037790656037e-13
	5.733584288770965e-12,-3.746747519498703e-15
	-5.733584371446827e-04,-1.864849772692887e-13
	-5.733584314110984e-04,1.951720542768163e-13
	-7.473182388859998e-23,-3.854037790656037e-13
	-5.733584314110984e-04,1.951720542768163e-13
21		1.621810097358929e+00,0.000000000000000e+00
	-5.733584314110984e+00,1.997181954305051e-09
	1.000000000000000e+00,0.000000000000000e+00
	0.000000000000000e+00,0.000000000000000e+00
	5.733584314110984e-04,-1.997181954305051e-13
	7.825382624166520e-23,3.943809863163523e-13
	5.733584288770965e-12,-3.834020480548343e-15
	-5.733584371446827e-04,-1.908287704052988e-13
	-5.733584314110984e-04,1.997181954305051e-13
	-7.825382624166520e-23,-3.943809863163523e-13
	-5.733584314110984e-04,1.997181954305051e-13
22		1.659586907437560e+00,0.000000000000000e+00
	-5.733584314110984e+00,2.043702298149940e-09
	1.000000000000000e+00,0.000000000000000e+00
	0.000000000000000e+00,0.000000000000000e+00
	5.733584314110984e-04,-2.043702298149940e-13
	8.194181545186228e-23,4.035672995862953e-13
	5.733584288770965e-12,-3.923326290006011e-15
	-5.733584371446827e-04,-1.952737434812953e-13
	-5.733584314110984e-04,2.043702298149940e-13
	-8.194181545186228e-23,-4.035672995862953e-13
	-5.733584314110984e-04,2.043702298149940e-13
23		1.698243652461743e+00,0.000000000000000e+00
	-5.733584314110984e+00,2.091306240004906e-09
	1.000000000000000e+00,0.000000000000000e+00
	0.000000000000000e+00,0.000000000000000e+00
	5.733584314110984e-04,-2.091306240004906e-13
	8.580361423876331e-23,4.129675895803236e-13
	5.733584288770965e-12,-4.014712298993944e-15
	-5.733584371446827e-04,-1.998222532808391e-13
	-5.733584314110984e-04,2.091306240004906e-13
	-8.580361423876331e-23,-4.129675895803236e-13
	-5.733584314110984e-04,2.091306240004906e-13
24		1.737800828749374e+00,0.000000000000000e+00
	-5.733584314110984e+00,2.140019020110033e-09
	1.000000000000000e+00,0.000000000000000e+00
	0.000000000000000e+00,0.000000000000000e+00
	5.733584314110984e-04,-2.140019020110033e-13
	8.984741399535568e-23,4.225868404566197e-13
	5.733584288770965e-12,-4.108226961583854e-15
	-5.733584371446827e-04,-2.044767114840325e-13
	-5.733584314110984e-04,2.140019020110033e-13
	-8.984741399535568e-23,-4.225868404566197e-13
	-5.733584314110984e-04,2.140019020110033e-13
25		1.778279410038922e+00,0.000000000000000e+00
	-5.733584314110984e+00,2.189866466626123e-09
	1.000000000000000e+00,0.000000000000000e+00
	0.000000000000000e+00,0.000000000000000e+00
	5.733584314110984e-04,-2.189866466626123e-13
	9.408179216308487e-23,4.324301524693241e-13
	5.733584288770965e-12,-4.203919860487637e-15
	-5.733584371446827e-04,-2.092395859462241e-13
	-5.733584314110984e-04,2.189866466626123e-13
	-9.408179216308487e-23,-4.324301524693241e-13
	-5.733584314110984e-04,2.189866466626123e-13
26		1.819700858609982e+00,0.000000000000000e+00
	-5.733584314110984e+00,2.240875009329127e-09
	1.000000000000000e+00,0.000000000000000e+00
	0.000000000000000e+00,0.000000000000000e+00
	5.733584314110984e-04,-2.240875009329127e-13
	9.851573042575754e-23,4.425027446727573e-13
	5.733584288770965e-12,-4.301841733346890e-15
	-5.733584371446827e-04,-2.141134020064976e-13
	-5.733584314110984e-04,2.240875009329127e-13
	-9.851573042575754e-23,-4.425027446727573e-13
	-5.733584314110984e-04,2.240875009329127e-13
27		1.862087136662866e+00,0.000000000000000e+00
	-5.733584314110984e+00,2.293071693623566e-09
	1.000000000000000e+00,0.000000000000000e+00
	0.000000000000000e+00,0.000000000000000e+00
	5.733584314110984e-04,-2.293071693623566e-13
	1.031586337608973e-22,4.528099576886324e-13
	5.733584288770965e-12,-4.402044499634783e-15
	-5.733584371446827e-04,-2.191007438266410e-13
	-5.733584314110984e-04,2.293071693623566e-13
	-1.031586337608973e-22,-4.528099576886324e-13
	-5.733584314110984e-04,2.293071693623566e-13
28		1.905460717963246e+00,0.000000000000000e+00
	-5.733584314110984e+00,2.346484194882355e-09
	1.000000000000000e+00,0.000000000000000e+00
	0.000000000000000e+00,0.000000000000000e+00
	5.733584314110984e-04,-2.346484194882355e-13
	1.080203503889629e-22,4.633572565377222e-13
	5.733584288770965e-12,-4.504581288184352e-15
	-5.733584371446827e-04,-2.242042557613024e-13
	-5.733584314110984e-04,2.346484194882355e-13
	-1.080203503889629e-22,-4.633572565377222e-13
	-5.733584314110984e-04,2.346484194882355e-13
29		1.949844599758044e+00,0.000000000000000e+00
	-5.733584314110984e+00,2.401140833120662e-09
	1.000000000000000e+00,0.000000000000000e+00
	0.000000000000000e+00,0.000000000000000e+00
	5.733584314110984e-04,-2.401140833120662e-13
	1.131111926627442e-22,4.741502335374869e-13
	5.733584288770965e-12,-4.609506465358053e-15
	-5.733584371446827e-04,-2.294266437600627e-13
	-5.733584314110984e-04,2.401140833120662e-13
	-1.131111926627442e-22,-4.741502335374869e-13
	-5.733584314110984e-04,2.401140833120662e-13
30		1.995262314968878e+00,0.000000000000000e+00
	-5.733584314110984e+00,2.457070588011544e-09
	1.000000000000000e+00,0.000000000000000e+00
	0.000000000000000e+00,0.000000000000000e+00
	5.733584314110984e-04,-2.457070588011544e-13
	1.184419589412448e-22,4.851946112671932e-13
	5.733584288770965e-12,-4.716875663873700e-15
	-5.733584371446827e-04,-2.347706768021651e-13
	-5.733584314110984e-04,2.457070588011544e-13
	-1.184419589412448e-22,-4.851946112671932e-13
	-5.733584314110984e-04,2.457070588011544e-13
31		2.041737944669527e+00,0.000000000000000e+00
	-5.733584314110984e+00,2.514303114251365e-09
	1.000000000000000e+00,0.000000000000000e+00
	0.000000000000000e+00,0.000000000000000e+00
	5.733584314110984e-04,-2.514303114251365e-13
	1.240239564944499e-22,4.964962456021033e-13
	5.733584288770965e-12,-4.826745812301550e-15
	-5.733584371446827e-04,-2.402391883646653e-13
	-5.733584314110984e-04,2.514303114251365e-13
	-1.240239564944499e-22,-4.964962456021033e-13
	-5.733584314110984e-04,2.514303114251365e-13
32		2.089296130854037e+00,0.000000000000000e+00
	-5.733584314110984e+00,2.572868757283098e-09
	1.000000000000000e+00,0.000000000000000e+00
	0.000000000000000e+00,0.000000000000000e+00
	5.733584314110984e-04,-2.572868757283099e-13
	1.298690254875613e-22,5.080611288183366e-13
	5.733584288770965e-12,-4.939175165248568e-15
	-5.733584371446827e-04,-2.458350779247781e-13
	-5.733584314110984e-04,2.572868757283098e-13
	-1.298690254875613e-22,-5.080611288183366e-13
	-5.733584314110984e-04,2.572868757283098e-13
33		2.137962089502230e+00,0.000000000000000e+00
	-5.733584314110984e+00,2.632798569385887e-09
	1.000000000000000e+00,0.000000000000000e+00
	0.000000000000000e+00,0.000000000000000e+00
	5.733584314110984e-04,-2.632798569385887e-13
	1.359895640955753e-22,5.198953927700533e-13
	5.733584288770965e-12,-5.054223334246037e-15
	-5.733584371446827e-04,-2.515613124972186e-13
	-5.733584314110984e-04,2.632798569385887e-13
	-1.359895640955753e-22,-5.198953927700533e-13
	-5.733584314110984e-04,2.632798569385887e-13
34		2.187761623949550e+00,0.000000000000000e+00
	-5.733584314110984e+00,2.694124326139372e-09
	1.000000000000000e+00,0.000000000000000e+00
	0.000000000000000e+00,0.000000000000000e+00
	5.733584314110984e-04,-2.694124326139373e-13
	1.423985548014745e-22,5.320053121406458e-13
	5.733584288770965e-12,-5.171951319355886e-15
	-5.733584371446827e-04,-2.574209282073526e-13
	-5.733584314110984e-04,2.694124326139372e-13
	-1.423985548014745e-22,-5.320053121406458e-13
	-5.733584314110984e-04,2.694124326139372e-13
35		2.238721138568337e+00,0.000000000000000e+00
	-5.733584314110984e+00,2.756878543271528e-09
	1.000000000000000e+00,0.000000000000000e+00
	0.000000000000000e+00,0.000000000000000e+00
	5.733584314110984e-04,-2.756878543271529e-13
	1.491095919338144e-22,5.443973077696581e-13
	5.733584288770965e-12,-5.292421541514144e-15
	-5.733584371446827e-04,-2.634170319009910e-13
	-5.733584314110984e-04,2.756878543271529e-13
	-1.491095919338144e-22,-5.443973077696581e-13
	-5.733584314110984e-04,2.756878543271529e-13
36		2.290867652767770e+00,0.000000000000000e+00
	-5.733584314110984e+00,2.821094493898929e-09
	1.000000000000000e+00,0.000000000000000e+00
	0.000000000000000e+00,0.000000000000000e+00
	5.733584314110984e-04,-2.821094493898929e-13
	1.561369105021172e-22,5.570779500572000e-13
	5.733584288770965e-12,-5.415697875627100e-15
	-5.733584371446827e-04,-2.695528027916800e-13
	-5.733584314110984e-04,2.821094493898929e-13
	-1.561369105021172e-22,-5.570779500572000e-13
	-5.733584314110984e-04,2.821094493898929e-13
37		2.344228815319919e+00,0.000000000000000e+00
	-5.733584314110984e+00,2.886806226168594e-09
	1.000000000000000e+00,0.000000000000000e+00
	0.000000000000000e+00,0.000000000000000e+00
	5.733584314110984e-04,-2.886806226168595e-13
	1.634954163912352e-22,5.700539624476607e-13
	5.733584288770965e-12,-5.541845684438955e-15
	-5.733584371446827e-04,-2.758314941463622e-13
	-5.733584314110984e-04,2.886806226168594e-13
	-1.634954163912352e-22,-5.700539624476607e-13
	-5.733584314110984e-04,2.886806226168594e-13
38		2.398832919019488e+00,0.000000000000000e+00
	-5.733584314110984e+00,2.954048581310773e-09
	1.000000000000000e+00,0.000000000000000e+00
