LTspice 24.0.9 for Windows
Circuit: * GA CMOS Amp | W=2.7231623896351872e-05 L=8.948173029840918e-07 Vbias=0.8240077886251439
Start Time: Sat Sep  6 22:36:48 2025
solver = Normal
Maximum thread count: 2
tnom = 27
temp = 27
method = modified trap
AsciiRawFile = 1
Direct Newton iteration for .op point succeeded.
Semiconductor Device Operating Points:
                        --- BSIM4 MOSFETS ---
Name:      m1
Model:      n
Id:      1.74e-04
Vgs:     8.24e-01
Vds:     6.27e-02
Vbs:     0.00e+00
Vth:     2.37e-01
Vdsat:   4.31e-01
Gm:      7.36e-05
Gds:     2.56e-03
Gmb      1.47e-04
Cbd:     1.33e-14
Cbs:     2.18e-14


.measure op idd find i(vdd)
  Error: FIND can not be evaluated over an interval.

gain_db: MAX(db(v(out)/v(g)))=(32.3861dB,139.032°) FROM 1 TO 1e+09
gain_lin: MAX(mag(v(out)/v(g)))=(-2.98638dB,0°) FROM 1 TO 1e+09

Measurement "fc" FAIL'ed

Total elapsed time: 0.676 seconds.

