LTspice 24.0.9 for Windows
Circuit: * GA CMOS Amp | W=2.7946830097930246e-05 L=6.55321341870031e-07 Vbias=0.7383097477206688
Start Time: Mon Sep  8 18:45:53 2025
solver = Normal
Maximum thread count: 2
tnom = 27
temp = 27
method = modified trap
AsciiRawFile = 1
Instance "m1": Length shorter than recommended for a level 3 MOSFET.
Direct Newton iteration for .op point succeeded.
Semiconductor Device Operating Points:
                        --- MOSFET Transistors ---
Name:          m1
Model:        n_1u
Id:          6.40e-06
Vgs:         7.38e-01
Vds:         1.74e+00
Vbs:         0.00e+00
Vth:         7.67e-01
Vdsat:       4.80e-02
Gm:          1.20e-04
Gds:         9.06e-07
Gmb:         2.26e-05
Cbd:         0.00e+00
Cbs:         0.00e+00
Cgsov:       5.59e-15
Cgdov:       5.59e-15
Cgbov:       4.55e-17
Cgs:         1.35e-14
Cgd:         0.00e+00
Cgb:         8.88e-16



gain_db: MAX(db(v(out)/v(g)))=(28.7325dB,86.8342°) FROM 1 TO 1e+09
gain_lin: MAX(mag(v(out)/v(g)))=(1.50927dB,0°) FROM 1 TO 1e+09

Measurement "fc" FAIL'ed

Total elapsed time: 0.535 seconds.

