LTspice 24.0.9 for Windows
Circuit: * Amplificador CMOS – W=4.156345566296567e-06 L=1.859035656674129e-07 Vbias=0.4888732812494557
Start Time: Wed Jul 30 16:05:59 2025
solver = Normal
Maximum thread count: 2
tnom = 27
temp = 27
method = modified trap
AsciiRawFile = 1
Instance "m1": Length shorter than recommended for a level 1 MOSFET.
Instance "m1": Width narrower than recommended for a level 1 MOSFET.
Direct Newton iteration for .op point succeeded.
Semiconductor Device Operating Points:
                        --- MOSFET Transistors ---
Name:          m1
Model:        nmos
Id:          3.12e-12
Vgs:        -4.89e-01
Vds:         1.31e+00
Vbs:        -4.89e-01
Vth:         0.00e+00
Vdsat:       0.00e+00
Gm:          0.00e+00
Gds:         0.00e+00
Gmb:         0.00e+00
Cbd:         0.00e+00
Cbs:         0.00e+00
Cgsov:       0.00e+00
Cgdov:       0.00e+00
Cgbov:       0.00e+00
Cgs:         0.00e+00
Cgd:         0.00e+00
Cgb:         0.00e+00


.measure op idd find i(vdd)
  Error: FIND can not be evaluated over an interval.

gain_lin: MAX(mag(v(out)/v(in)))=(-infdB,0°) FROM 1 TO 1e+09

Measurement "gain_db" FAIL'ed

Measurement "fc" FAIL'ed

Total elapsed time: 1.068 seconds.

