Title: * GA CMOS Amp | W=2.5201904543152753e-05 L=6.644758077144996e-07 Vbias=1.067480391552836
Date: Mon Sep  8 18:45:35 2025
Plotname: AC Analysis
Flags: complex forward log
No. Variables: 11
No. Points:          901
Offset:    0.0000000000000000e+00
Command: Linear Technology Corporation LTspice
Variables:
	0	frequency	frequency
	1	V(out)	voltage
	2	V(g)	voltage
	3	V(vdd)	voltage
	4	Id(M1)	device_current
	5	Ig(M1)	device_current
	6	Ib(M1)	device_current
	7	Is(M1)	device_current
	8	I(Rload)	device_current
	9	I(Vg)	device_current
	10	I(Vdd)	device_current
Values:
0		1.000000000000000e+00,0.000000000000000e+00
	-4.645573695343275e-01,1.295434091674349e-10
	1.000000000000000e+00,0.000000000000000e+00
	0.000000000000000e+00,0.000000000000000e+00
	4.645573695343278e-05,-1.295434091674347e-14
	1.203941714070855e-23,2.336908110703963e-13
	4.677647158501941e-13,2.126332172192600e-15
	-4.645573742119750e-05,-2.228628023258455e-13
	-4.645573695343275e-05,1.295434091674349e-14
	-1.203941714070855e-23,-2.336908110703963e-13
	-4.645573695343275e-05,1.295434091674349e-14
1		1.023292992280754e+00,0.000000000000000e+00
	-4.645573695343275e-01,1.325608627971945e-10
	1.000000000000000e+00,0.000000000000000e+00
	0.000000000000000e+00,0.000000000000000e+00
	4.645573695343278e-05,-1.325608627971947e-14
	1.260681738992926e-23,2.391341693287423e-13
	4.677647158501941e-13,2.175860811065797e-15
	-4.645573742119750e-05,-2.280539438600886e-13
	-4.645573695343275e-05,1.325608627971945e-14
	-1.260681738992926e-23,-2.391341693287423e-13
	-4.645573695343275e-05,1.325608627971945e-14
2		1.047128548050899e+00,0.000000000000000e+00
	-4.645573695343275e-01,1.356486019510597e-10
	1.000000000000000e+00,0.000000000000000e+00
	0.000000000000000e+00,0.000000000000000e+00
	4.645573695343278e-05,-1.356486019510598e-14
	1.320095838905945e-23,2.447043196889812e-13
	4.677647158501941e-13,2.226543120141955e-15
	-4.645573742119750e-05,-2.333660026140172e-13
	-4.645573695343275e-05,1.356486019510597e-14
	-1.320095838905945e-23,-2.447043196889812e-13
	-4.645573695343275e-05,1.356486019510597e-14
3		1.071519305237606e+00,0.000000000000000e+00
	-4.645573695343275e-01,1.388082637892008e-10
	1.000000000000000e+00,0.000000000000000e+00
	0.000000000000000e+00,0.000000000000000e+00
	4.645573695343278e-05,-1.388082637892009e-14
	1.382310039081616e-23,2.504042155185637e-13
	4.677647158501941e-13,2.278405971852244e-15
	-4.645573742119750e-05,-2.388017951114959e-13
	-4.645573695343275e-05,1.388082637892008e-14
	-1.382310039081616e-23,-2.504042155185637e-13
	-4.645573695343275e-05,1.388082637892008e-14
4		1.096478196143185e+00,0.000000000000000e+00
	-4.645573695343275e-01,1.420415236061475e-10
	1.000000000000000e+00,0.000000000000000e+00
	0.000000000000000e+00,0.000000000000000e+00
	4.645573695343278e-05,-1.420415236061476e-14
	1.447456304179715e-23,2.562368789777059e-13
	4.677647158501941e-13,2.331476864566953e-15
	-4.645573742119750e-05,-2.443642034816581e-13
	-4.645573695343275e-05,1.420415236061475e-14
	-1.447456304179715e-23,-2.562368789777059e-13
	-4.645573695343275e-05,1.420415236061475e-14
5		1.122018454301963e+00,0.000000000000000e+00
	-4.645573695343275e-01,1.453500957190520e-10
	1.000000000000000e+00,0.000000000000000e+00
	0.000000000000000e+00,0.000000000000000e+00
	4.645573695343278e-05,-1.453500957190521e-14
	1.515672818162826e-23,2.622054026217782e-13
	4.677647158501941e-13,2.385783937176056e-15
	-4.645573742119750e-05,-2.500561769870490e-13
	-4.645573695343275e-05,1.453500957190520e-14
	-1.515672818162826e-23,-2.622054026217782e-13
	-4.645573695343275e-05,1.453500957190520e-14
6		1.148153621496882e+00,0.000000000000000e+00
	-4.645573695343275e-01,1.487357343766428e-10
	1.000000000000000e+00,0.000000000000000e+00
	0.000000000000000e+00,0.000000000000000e+00
	4.645573695343278e-05,-1.487357343766429e-14
	1.587104277403055e-23,2.683129510410193e-13
	4.677647158501941e-13,2.441355984008334e-15
	-4.645573742119750e-05,-2.558807335873633e-13
	-4.645573695343275e-05,1.487357343766428e-14
	-1.587104277403055e-23,-2.683129510410193e-13
	-4.645573695343275e-05,1.487357343766428e-14
7		1.174897554939529e+00,0.000000000000000e+00
	-4.645573695343275e-01,1.522002346893502e-10
	1.000000000000000e+00,0.000000000000000e+00
	0.000000000000000e+00,0.000000000000000e+00
	4.645573695343278e-05,-1.522002346893503e-14
	1.661902197602433e-23,2.745627625384441e-13
	4.677647158501941e-13,2.498222470098338e-15
	-4.645573742119750e-05,-2.618409615396074e-13
	-4.645573695343275e-05,1.522002346893502e-14
	-1.661902197602433e-23,-2.745627625384441e-13
	-4.645573695343275e-05,1.522002346893502e-14
8		1.202264434617413e+00,0.000000000000000e+00
	-4.645573695343275e-01,1.557454335810983e-10
	1.000000000000000e+00,0.000000000000000e+00
	0.000000000000000e+00,0.000000000000000e+00
	4.645573695343278e-05,-1.557454335810978e-14
	1.740225235178035e-23,2.809581508468346e-13
	4.677647158501941e-13,2.556413546809955e-15
	-4.645573742119750e-05,-2.679400210355348e-13
	-4.645573695343275e-05,1.557454335810983e-14
	-1.740225235178035e-23,-2.809581508468346e-13
	-4.645573695343275e-05,1.557454335810983e-14
9		1.230268770812381e+00,0.000000000000000e+00
	-4.645573695343275e-01,1.593732107632654e-10
	1.000000000000000e+00,0.000000000000000e+00
	0.000000000000000e+00,0.000000000000000e+00
	4.645573695343278e-05,-1.593732107632655e-14
	1.822239523793510e-23,2.875025068857249e-13
	4.677647158501941e-13,2.615960067822235e-15
	-4.645573742119750e-05,-2.741811458772206e-13
	-4.645573695343275e-05,1.593732107632655e-14
	-1.822239523793510e-23,-2.875025068857249e-13
	-4.645573695343275e-05,1.593732107632655e-14
10		1.258925411794167e+00,0.000000000000000e+00
	-4.645573695343275e-01,1.630854897313332e-10
	1.000000000000000e+00,0.000000000000000e+00
	0.000000000000000e+00,0.000000000000000e+00
	4.645573695343278e-05,-1.630854897313333e-14
	1.908119026750862e-23,2.941993005593116e-13
	4.677647158501941e-13,2.676893605488754e-15
	-4.645573742119750e-05,-2.805676451916670e-13
	-4.645573695343275e-05,1.630854897313332e-14
	-1.908119026750862e-23,-2.941993005593116e-13
	-4.645573695343275e-05,1.630854897313332e-14
11		1.288249551693134e+00,0.000000000000000e+00
	-4.645573695343275e-01,1.668842387847482e-10
	1.000000000000000e+00,0.000000000000000e+00
	0.000000000000000e+00,0.000000000000000e+00
	4.645573695343278e-05,-1.668842387847479e-14
	1.998045905989926e-23,3.010520825962429e-13
	4.677647158501941e-13,2.739246467577794e-15
	-4.645573742119750e-05,-2.871029051853459e-13
	-4.645573695343275e-05,1.668842387847482e-14
	-1.998045905989926e-23,-3.010520825962429e-13
	-4.645573695343275e-05,1.668842387847482e-14
12		1.318256738556407e+00,0.000000000000000e+00
	-4.645573695343275e-01,1.707714720705408e-10
	1.000000000000000e+00,0.000000000000000e+00
	0.000000000000000e+00,0.000000000000000e+00
	4.645573695343278e-05,-1.707714720705408e-14
	2.092210908478275e-23,3.080644864322622e-13
	4.677647158501941e-13,2.803051714402089e-15
	-4.645573742119750e-05,-2.937903909396102e-13
	-4.645573695343275e-05,1.707714720705408e-14
	-2.092210908478275e-23,-3.080644864322622e-13
	-4.645573695343275e-05,1.707714720705408e-14
13		1.348962882591653e+00,0.000000000000000e+00
	-4.645573695343275e-01,1.747492506512530e-10
	1.000000000000000e+00,0.000000000000000e+00
	0.000000000000000e+00,0.000000000000000e+00
	4.645573695343278e-05,-1.747492506512529e-14
	2.190813770811110e-23,3.152402301367033e-13
	4.677647158501941e-13,2.868343176348322e-15
	-4.645573742119750e-05,-3.006336482479263e-13
	-4.645573695343275e-05,1.747492506512530e-14
	-2.190813770811110e-23,-3.152402301367033e-13
	-4.645573695343275e-05,1.747492506512530e-14
14		1.380384264602885e+00,0.000000000000000e+00
	-4.645573695343275e-01,1.788196835977402e-10
	1.000000000000000e+00,0.000000000000000e+00
	0.000000000000000e+00,0.000000000000000e+00
	4.645573695343278e-05,-1.788196835977401e-14
	2.294063642879354e-23,3.225831183838607e-13
	4.677647158501941e-13,2.935155471813548e-15
	-4.645573742119750e-05,-3.076363054959002e-13
	-4.645573695343275e-05,1.788196835977402e-14
	-2.294063642879354e-23,-3.225831183838607e-13
	-4.645573695343275e-05,1.788196835977402e-14
15		1.412537544622754e+00,0.000000000000000e+00
	-4.645573695343275e-01,1.829849291074292e-10
	1.000000000000000e+00,0.000000000000000e+00
	0.000000000000000e+00,0.000000000000000e+00
	4.645573695343278e-05,-1.829849291074295e-14
	2.402179531504615e-23,3.300970444702776e-13
	4.677647158501941e-13,3.003524025561299e-15
	-4.645573742119750e-05,-3.148020755850960e-13
	-4.645573695343275e-05,1.829849291074292e-14
	-2.402179531504615e-23,-3.300970444702776e-13
	-4.645573695343275e-05,1.829849291074292e-14
16		1.445439770745927e+00,0.000000000000000e+00
	-4.645573695343275e-01,1.872471956486229e-10
	1.000000000000000e+00,0.000000000000000e+00
	0.000000000000000e+00,0.000000000000000e+00
	4.645573695343278e-05,-1.872471956486231e-14
	2.515390764982016e-23,3.377859923790234e-13
	4.677647158501941e-13,3.073485087503762e-15
	-4.645573742119750e-05,-3.221347579016649e-13
	-4.645573695343275e-05,1.872471956486229e-14
	-2.515390764982016e-23,-3.377859923790234e-13
	-4.645573695343275e-05,1.872471956486229e-14
17		1.479108388168207e+00,0.000000000000000e+00
	-4.645573695343275e-01,1.916087431314591e-10
	1.000000000000000e+00,0.000000000000000e+00
	0.000000000000000e+00,0.000000000000000e+00
	4.645573695343278e-05,-1.916087431314592e-14
	2.633937479516260e-23,3.456540388920549e-13
	4.677647158501941e-13,3.145075751922021e-15
	-4.645573742119750e-05,-3.296382403308310e-13
	-4.645573695343275e-05,1.916087431314591e-14
	-2.633937479516260e-23,-3.456540388920549e-13
	-4.645573695343275e-05,1.916087431314591e-14
18		1.513561248436208e+00,0.000000000000000e+00
	-4.645573695343275e-01,1.960718841061452e-10
	1.000000000000000e+00,0.000000000000000e+00
	0.000000000000000e+00,0.000000000000000e+00
	4.645573695343278e-05,-1.960718841061448e-14
	2.758071128582708e-23,3.537053557517790e-13
	4.677647158501941e-13,3.218333977133858e-15
	-4.645573742119750e-05,-3.373165013182984e-13
	-4.645573695343275e-05,1.960718841061452e-14
	-2.758071128582708e-23,-3.537053557517790e-13
	-4.645573695343275e-05,1.960718841061452e-14
19		1.548816618912481e+00,0.000000000000000e+00
	-4.645573695343275e-01,2.006389849891025e-10
	1.000000000000000e+00,0.000000000000000e+00
	0.000000000000000e+00,0.000000000000000e+00
	4.645573695343278e-05,-2.006389849891026e-14
	2.888055016293916e-23,3.619442118729665e-13
	4.677647158501941e-13,3.293298605620208e-15
	-4.645573742119750e-05,-3.451736119796765e-13
	-4.645573695343275e-05,2.006389849891026e-14
	-2.888055016293916e-23,-3.619442118729665e-13
	-4.645573695343275e-05,2.006389849891026e-14
20		1.584893192461113e+00,0.000000000000000e+00
	-4.645573695343275e-01,2.053124673176720e-10
	1.000000000000000e+00,0.000000000000000e+00
	0.000000000000000e+00,0.000000000000000e+00
	4.645573695343278e-05,-2.053124673176725e-14
	3.024164855902965e-23,3.703749756061872e-13
	4.677647158501941e-13,3.370009384619150e-15
	-4.645573742119750e-05,-3.532137382590391e-13
	-4.645573695343275e-05,2.053124673176721e-14
	-3.024164855902965e-23,-3.703749756061872e-13
	-4.645573695343275e-05,2.053124673176721e-14
21		1.621810097358929e+00,0.000000000000000e+00
	-4.645573695343275e-01,2.100948090340451e-10
	1.000000000000000e+00,0.000000000000000e+00
	0.000000000000000e+00,0.000000000000000e+00
	4.645573695343278e-05,-2.100948090340454e-14
	3.166689354628229e-23,3.790021170539666e-13
	4.677647158501941e-13,3.448506987201140e-15
	-4.645573742119750e-05,-3.614411431377632e-13
	-4.645573695343275e-05,2.100948090340451e-14
	-3.166689354628229e-23,-3.790021170539666e-13
	-4.645573695343275e-05,2.100948090340451e-14
22		1.659586907437560e+00,0.000000000000000e+00
	-4.645573695343275e-01,2.149885457991016e-10
	1.000000000000000e+00,0.000000000000000e+00
	0.000000000000000e+00,0.000000000000000e+00
	4.645573695343278e-05,-2.149885457991023e-14
	3.315930826040097e-23,3.878302104408942e-13
	4.677647158501941e-13,3.528833033834093e-15
	-4.645573742119750e-05,-3.698601888948180e-13
	-4.645573695343275e-05,2.149885457991017e-14
	-3.315930826040097e-23,-3.878302104408942e-13
	-4.645573695343275e-05,2.149885457991017e-14
23		1.698243652461743e+00,0.000000000000000e+00
	-4.645573695343275e-01,2.199962723368507e-10
	1.000000000000000e+00,0.000000000000000e+00
	0.000000000000000e+00,0.000000000000000e+00
	4.645573695343278e-05,-2.199962723368507e-14
	3.472205831308588e-23,3.968639365389371e-13
	4.677647158501941e-13,3.611030114451273e-15
	-4.645573742119750e-05,-3.784753394197033e-13
	-4.645573695343275e-05,2.199962723368507e-14
	-3.472205831308588e-23,-3.968639365389371e-13
	-4.645573695343275e-05,2.199962723368507e-14
24		1.737800828749374e+00,0.000000000000000e+00
	-4.645573695343275e-01,2.251206438101876e-10
	1.000000000000000e+00,0.000000000000000e+00
	0.000000000000000e+00,0.000000000000000e+00
	4.645573695343278e-05,-2.251206438101876e-14
	3.635845850672027e-23,4.061080851492483e-13
	4.677647158501941e-13,3.695141811032753e-15
	-4.645573742119750e-05,-3.872911625792622e-13
	-4.645573695343275e-05,2.251206438101876e-14
	-3.635845850672027e-23,-4.061080851492483e-13
	-4.645573695343275e-05,2.251206438101876e-14
25		1.778279410038922e+00,0.000000000000000e+00
	-4.645573695343275e-01,2.303643772286967e-10
	1.000000000000000e+00,0.000000000000000e+00
	0.000000000000000e+00,0.000000000000000e+00
	4.645573695343278e-05,-2.303643772286972e-14
	3.807197986551087e-23,4.155675576417815e-13
	4.677647158501941e-13,3.781212720713541e-15
	-4.645573742119750e-05,-3.963123326396253e-13
	-4.645573695343275e-05,2.303643772286967e-14
	-3.807197986551087e-23,-4.155675576417815e-13
	-4.645573695343275e-05,2.303643772286967e-14
26		1.819700858609982e+00,0.000000000000000e+00
	-4.645573695343275e-01,2.357302528892455e-10
	1.000000000000000e+00,0.000000000000000e+00
	0.000000000000000e+00,0.000000000000000e+00
	4.645573695343278e-05,-2.357302528892458e-14
	3.986625699799547e-23,4.252473695540633e-13
	4.677647158501941e-13,3.869288479428955e-15
	-4.645573742119750e-05,-4.055436327445677e-13
	-4.645573695343275e-05,2.357302528892455e-14
	-3.986625699799547e-23,-4.252473695540633e-13
	-4.645573695343275e-05,2.357302528892455e-14
27		1.862087136662866e+00,0.000000000000000e+00
	-4.645573695343275e-01,2.412211158501349e-10
	1.000000000000000e+00,0.000000000000000e+00
	0.000000000000000e+00,0.000000000000000e+00
	4.645573695343278e-05,-2.412211158501345e-14
	4.174509580653502e-23,4.351526532504971e-13
	4.677647158501941e-13,3.959415786112237e-15
	-4.645573742119750e-05,-4.149899574515959e-13
	-4.645573695343275e-05,2.412211158501349e-14
	-4.174509580653502e-23,-4.351526532504971e-13
	-4.645573695343275e-05,2.412211158501349e-14
28		1.905460717963246e+00,0.000000000000000e+00
	-4.645573695343275e-01,2.468398774395869e-10
	1.000000000000000e+00,0.000000000000000e+00
	0.000000000000000e+00,0.000000000000000e+00
	4.645573695343278e-05,-2.468398774395869e-14
	4.371248156014269e-23,4.452886606436106e-13
	4.677647158501941e-13,4.051642427454480e-15
	-4.645573742119750e-05,-4.246563153271064e-13
	-4.645573695343275e-05,2.468398774395869e-14
	-4.371248156014269e-23,-4.452886606436106e-13
	-4.645573695343275e-05,2.468398774395869e-14
29		1.949844599758044e+00,0.000000000000000e+00
	-4.645573695343275e-01,2.525895167993696e-10
	1.000000000000000e+00,0.000000000000000e+00
	0.000000000000000e+00,0.000000000000000e+00
	4.645573695343278e-05,-2.525895167993696e-14
	4.577258734777395e-23,4.556607659786896e-13
	4.677647158501941e-13,4.146017303241531e-15
	-4.645573742119750e-05,-4.345478316019942e-13
	-4.645573695343275e-05,2.525895167993696e-14
	-4.577258734777395e-23,-4.556607659786896e-13
	-4.645573695343275e-05,2.525895167993696e-14
30		1.995262314968878e+00,0.000000000000000e+00
	-4.645573695343275e-01,2.584730824643767e-10
	1.000000000000000e+00,0.000000000000000e+00
	0.000000000000000e+00,0.000000000000000e+00
	4.645573695343278e-05,-2.584730824643761e-14
	4.792978293000750e-23,4.662744686832737e-13
	4.677647158501941e-13,4.242590452281842e-15
	-4.645573742119750e-05,-4.446697508891179e-13
	-4.645573695343275e-05,2.584730824643767e-14
	-4.792978293000750e-23,-4.662744686832737e-13
	-4.645573695343275e-05,2.584730824643767e-14
31		2.041737944669527e+00,0.000000000000000e+00
	-4.645573695343275e-01,2.644936939790021e-10
	1.000000000000000e+00,0.000000000000000e+00
	0.000000000000000e+00,0.000000000000000e+00
	4.645573695343278e-05,-2.644936939790021e-14
	5.018864400789352e-23,4.771353962830258e-13
	4.677647158501941e-13,4.341413078937235e-15
	-4.645573742119750e-05,-4.550274399640629e-13
	-4.645573695343275e-05,2.644936939790021e-14
	-5.018864400789352e-23,-4.771353962830258e-13
	-4.645573695343275e-05,2.644936939790021e-14
32		2.089296130854037e+00,0.000000000000000e+00
	-4.645573695343275e-01,2.706545435511631e-10
	1.000000000000000e+00,0.000000000000000e+00
	0.000000000000000e+00,0.000000000000000e+00
	4.645573695343278e-05,-2.706545435511628e-14
	5.255396192862903e-23,4.882493073855209e-13
	4.677647158501941e-13,4.442537580272496e-15
	-4.645573742119750e-05,-4.656263906106772e-13
	-4.645573695343275e-05,2.706545435511632e-14
	-5.255396192862903e-23,-4.882493073855209e-13
	-4.645573695343275e-05,2.706545435511632e-14
33		2.137962089502230e+00,0.000000000000000e+00
	-4.645573695343275e-01,2.769588977448514e-10
	1.000000000000000e+00,0.000000000000000e+00
	0.000000000000000e+00,0.000000000000000e+00
	4.645573695343278e-05,-2.769588977448513e-14
	5.503075384864756e-23,4.996220947335355e-13
	4.677647158501941e-13,4.546017573836602e-15
	-4.645573742119750e-05,-4.764722225328869e-13
	-4.645573695343275e-05,2.769588977448514e-14
	-5.503075384864756e-23,-4.996220947335355e-13
	-4.645573695343275e-05,2.769588977448514e-14
34		2.187761623949550e+00,0.000000000000000e+00
	-4.645573695343275e-01,2.834100992121084e-10
	1.000000000000000e+00,0.000000000000000e+00
	0.000000000000000e+00,0.000000000000000e+00
	4.645573695343278e-05,-2.834100992121086e-14
	5.762427337568077e-23,5.112597883294578e-13
	4.677647158501941e-13,4.651907926092261e-15
	-4.645573742119750e-05,-4.875706863343392e-13
	-4.645573695343275e-05,2.834100992121084e-14
	-5.762427337568077e-23,-5.112597883294578e-13
	-4.645573695343275e-05,2.834100992121084e-14
35		2.238721138568337e+00,0.000000000000000e+00
	-4.645573695343275e-01,2.900115684653438e-10
	1.000000000000000e+00,0.000000000000000e+00
	0.000000000000000e+00,0.000000000000000e+00
	4.645573695343278e-05,-2.900115684653443e-14
	6.034002171236470e-23,5.231685586324759e-13
	4.677647158501941e-13,4.760264781505566e-15
	-4.645573742119750e-05,-4.989276665674470e-13
	-4.645573695343275e-05,2.900115684653438e-14
	-6.034002171236470e-23,-5.231685586324759e-13
	-4.645573695343275e-05,2.900115684653438e-14
36		2.290867652767770e+00,0.000000000000000e+00
	-4.645573695343275e-01,2.967668056909364e-10
	1.000000000000000e+00,0.000000000000000e+00
	0.000000000000000e+00,0.000000000000000e+00
	4.645573695343278e-05,-2.967668056909362e-14
	6.318375932502820e-23,5.353547198302354e-13
	4.677647158501941e-13,4.871145592315363e-15
	-4.645573742119750e-05,-5.105491848534572e-13
	-4.645573695343275e-05,2.967668056909364e-14
	-6.318375932502820e-23,-5.353547198302354e-13
	-4.645573695343275e-05,2.967668056909364e-14
37		2.344228815319919e+00,0.000000000000000e+00
	-4.645573695343275e-01,3.036793926050794e-10
	1.000000000000000e+00,0.000000000000000e+00
	0.000000000000000e+00,0.000000000000000e+00
	4.645573695343278e-05,-3.036793926050800e-14
	6.616151816241425e-23,5.478247331867064e-13
	4.677647158501941e-13,4.984609148995647e-15
	-4.645573742119750e-05,-5.224414030751940e-13
	-4.645573695343275e-05,3.036793926050794e-14
	-6.616151816241425e-23,-5.478247331867064e-13
	-4.645573695343275e-05,3.036793926050794e-14
38		2.398832919019488e+00,0.000000000000000e+00
	-4.645573695343275e-01,3.107529943528537e-10
	1.000000000000000e+00,0.000000000000000e+00
	0.000000000000000e+00,0.000000000000000e+00
