Title: * GA CMOS Amp | W=3.6116760685012814e-05 L=5.457519561166883e-07 Vbias=1.4960076119572054
Date: Sat Sep  6 22:04:19 2025
Plotname: AC Analysis
Flags: complex forward log
No. Variables: 13
No. Points:          901
Offset:    0.0000000000000000e+00
Command: Linear Technology Corporation LTspice
Variables:
	0	frequency	frequency
	1	V(out)	voltage
	2	V(g)	voltage
	3	V(vdd)	voltage
	4	V(m1#dbody)	voltage
	5	V(m1#sbody)	voltage
	6	Id(M1)	device_current
	7	Ig(M1)	device_current
	8	Ib(M1)	device_current
	9	Is(M1)	device_current
	10	I(Rload)	device_current
	11	I(Vg)	device_current
	12	I(Vdd)	device_current
Values:
0		1.000000000000000e+00,0.000000000000000e+00
	9.785214443548750e-03,4.220554328219958e-10
	1.000000000000000e+00,0.000000000000000e+00
	0.000000000000000e+00,0.000000000000000e+00
	6.488846776257071e-04,5.225473563585241e-14
	6.488846775432551e-04,4.367177857244567e-14
	-9.785214443548682e-07,-4.220554328219880e-14
	4.066467113479360e-04,5.222258476179136e-12
	-3.460718282903667e-04,-2.421722278924035e-14
	-5.959636161321450e-05,-5.155835710107697e-12
	9.785214443548751e-07,4.220554328219958e-14
	-4.066467113479494e-04,-5.222258476179136e-12
	9.785214443548751e-07,4.220554328219958e-14
1		1.023292992280754e+00,0.000000000000000e+00
	9.785214443548750e-03,4.318863667607688e-10
	1.000000000000000e+00,0.000000000000000e+00
	0.000000000000000e+00,0.000000000000000e+00
	6.488846776257071e-04,5.347190478965117e-14
	6.488846775432551e-04,4.468902497362046e-14
	-9.785214443548682e-07,-4.318863667607637e-14
	4.066467113479360e-04,5.343900502552880e-12
	-3.460718282903667e-04,-2.478131437273143e-14
	-5.959636161321450e-05,-5.275930551504072e-12
	9.785214443548751e-07,4.318863667607688e-14
	-4.066467113479494e-04,-5.343900502552880e-12
	9.785214443548751e-07,4.318863667607688e-14
2		1.047128548050899e+00,0.000000000000000e+00
	9.785214443548750e-03,4.419462925678904e-10
	1.000000000000000e+00,0.000000000000000e+00
	0.000000000000000e+00,0.000000000000000e+00
	6.488846776257071e-04,5.471742545515373e-14
	6.488846775432551e-04,4.572996608736541e-14
	-9.785214443548682e-07,-4.419462925678844e-14
	4.066467113479360e-04,5.468375935707962e-12
	-3.460718282903667e-04,-2.535854533712240e-14
	-5.959636161321450e-05,-5.398822761114051e-12
	9.785214443548751e-07,4.419462925678904e-14
	-4.066467113479494e-04,-5.468375935707962e-12
	9.785214443548751e-07,4.419462925678904e-14
3		1.071519305237606e+00,0.000000000000000e+00
	9.785214443548750e-03,4.522405441491821e-10
	1.000000000000000e+00,0.000000000000000e+00
	0.000000000000000e+00,0.000000000000000e+00
	6.488846776257071e-04,5.599195802390336e-14
	6.488846775432551e-04,4.679515383443756e-14
	-9.785214443548682e-07,-4.522405441491779e-14
	4.066467113479360e-04,5.595750774166669e-12
	-3.460718282903667e-04,-2.594922173791114e-14
	-5.959636161321450e-05,-5.524577498013839e-12
	9.785214443548751e-07,4.522405441491822e-14
	-4.066467113479494e-04,-5.595750774166669e-12
	9.785214443548751e-07,4.522405441491822e-14
4		1.096478196143185e+00,0.000000000000000e+00
	9.785214443548750e-03,4.627745796530930e-10
	1.000000000000000e+00,0.000000000000000e+00
	0.000000000000000e+00,0.000000000000000e+00
	6.488846776257071e-04,5.729617826993844e-14
	6.488846775432551e-04,4.788515299147982e-14
	-9.785214443548682e-07,-4.627745796530847e-14
	4.066467113479360e-04,5.726092553754355e-12
	-3.460718282903667e-04,-2.655365675954388e-14
	-5.959636161321450e-05,-5.653261439029504e-12
	9.785214443548751e-07,4.627745796530931e-14
	-4.066467113479494e-04,-5.726092553754355e-12
	9.785214443548751e-07,4.627745796530931e-14
5		1.122018454301963e+00,0.000000000000000e+00
	9.785214443548750e-03,4.735539843646817e-10
	1.000000000000000e+00,0.000000000000000e+00
	0.000000000000000e+00,0.000000000000000e+00
	6.488846776257071e-04,5.863077770809684e-14
	6.488846775432551e-04,4.900054149047308e-14
	-9.785214443548682e-07,-4.735539843646838e-14
	4.066467113479360e-04,5.859470383407840e-12
	-3.460718282903667e-04,-2.717217088146974e-14
	-5.959636161321450e-05,-5.784942814089902e-12
	9.785214443548751e-07,4.735539843646817e-14
	-4.066467113479494e-04,-5.859470383407839e-12
	9.785214443548751e-07,4.735539843646817e-14
6		1.148153621496882e+00,0.000000000000000e+00
	9.785214443548750e-03,4.845844736670087e-10
	1.000000000000000e+00,0.000000000000000e+00
	0.000000000000000e+00,0.000000000000000e+00
	6.488846776257071e-04,5.999646396066614e-14
	6.488846775432551e-04,5.014191072516344e-14
	-9.785214443548682e-07,-4.845844736670070e-14
	4.066467113479360e-04,5.995954981817866e-12
	-3.460718282903667e-04,-2.780509204806313e-14
	-5.959636161321450e-05,-5.919691442403102e-12
	9.785214443548751e-07,4.845844736670087e-14
	-4.066467113479494e-04,-5.995954981817867e-12
	9.785214443548751e-07,4.845844736670087e-14
7		1.174897554939529e+00,0.000000000000000e+00
	9.785214443548750e-03,4.958718960715076e-10
	1.000000000000000e+00,0.000000000000000e+00
	0.000000000000000e+00,0.000000000000000e+00
	6.488846776257071e-04,6.139396113257449e-14
	6.488846775432551e-04,5.130986586462695e-14
	-9.785214443548682e-07,-4.958718960715010e-14
	4.066467113479360e-04,6.135618714925099e-12
	-3.460718282903667e-04,-2.845275584250433e-14
	-5.959636161321450e-05,-6.057578769475445e-12
	9.785214443548751e-07,4.958718960715076e-14
	-4.066467113479494e-04,-6.135618714925099e-12
	9.785214443548751e-07,4.958718960715076e-14
8		1.202264434617413e+00,0.000000000000000e+00
	9.785214443548750e-03,5.074222363189441e-10
	1.000000000000000e+00,0.000000000000000e+00
	0.000000000000000e+00,0.000000000000000e+00
	6.488846776257071e-04,6.282401019532046e-14
	6.488846775432551e-04,5.250502617413822e-14
	-9.785214443548682e-07,-5.074222363189488e-14
	4.066467113479360e-04,6.278535634289501e-12
	-3.460718282903667e-04,-2.911550566470996e-14
	-5.959636161321450e-05,-6.198677904992896e-12
	9.785214443548751e-07,5.074222363189441e-14
	-4.066467113479494e-04,-6.278535634289500e-12
	9.785214443548751e-07,5.074222363189441e-14
9		1.230268770812381e+00,0.000000000000000e+00
	9.785214443548750e-03,5.192416185526044e-10
	1.000000000000000e+00,0.000000000000000e+00
	0.000000000000000e+00,0.000000000000000e+00
	6.488846776257071e-04,6.428736937984606e-14
	6.488846775432551e-04,5.372802534351321e-14
	-9.785214443548682e-07,-5.192416185525959e-14
	4.066467113479360e-04,6.424781516353445e-12
	-3.460718282903667e-04,-2.979369291340831e-14
	-5.959636161321450e-05,-6.343063661584777e-12
	9.785214443548751e-07,5.192416185526044e-14
	-4.066467113479494e-04,-6.424781516353444e-12
	9.785214443548751e-07,5.192416185526044e-14
10		1.258925411794167e+00,0.000000000000000e+00
	9.785214443548750e-03,5.313363095653964e-10
	1.000000000000000e+00,0.000000000000000e+00
	0.000000000000000e+00,0.000000000000000e+00
	6.488846776257071e-04,6.578481457856080e-14
	6.488846775432551e-04,5.497951182309982e-14
	-9.785214443548682e-07,-5.313363095653958e-14
	4.066467113479360e-04,6.574433902619398e-12
	-3.460718282903667e-04,-3.048767717245548e-14
	-5.959636161321450e-05,-6.490812594490403e-12
	9.785214443548751e-07,5.313363095653964e-14
	-4.066467113479494e-04,-6.574433902619398e-12
	9.785214443548751e-07,5.313363095653964e-14
11		1.288249551693134e+00,0.000000000000000e+00
	9.785214443548750e-03,5.437127221225876e-10
	1.000000000000000e+00,0.000000000000000e+00
	0.000000000000000e+00,0.000000000000000e+00
	6.488846776257071e-04,6.731713975673007e-14
	6.488846775432551e-04,5.626014916759493e-14
	-9.785214443548682e-07,-5.437127221225818e-14
	4.066467113479360e-04,6.727572140763441e-12
	-3.460718282903667e-04,-3.119782640149162e-14
	-5.959636161321450e-05,-6.642003042149691e-12
	9.785214443548751e-07,5.437127221225876e-14
	-4.066467113479494e-04,-6.727572140763439e-12
	9.785214443548751e-07,5.437127221225876e-14
12		1.318256738556407e+00,0.000000000000000e+00
	9.785214443548750e-03,5.563774183619369e-10
	1.000000000000000e+00,0.000000000000000e+00
	0.000000000000000e+00,0.000000000000000e+00
	6.488846776257071e-04,6.888515737344605e-14
	6.488846775432551e-04,5.757061638786982e-14
	-9.785214443548682e-07,-5.563774183619291e-14
	4.066467113479360e-04,6.884277426706460e-12
	-3.460718282903667e-04,-3.192451713103788e-14
	-5.959636161321450e-05,-6.796715167739229e-12
	9.785214443548751e-07,5.563774183619370e-14
	-4.066467113479494e-04,-6.884277426706457e-12
	9.785214443548751e-07,5.563774183619370e-14
13		1.348962882591653e+00,0.000000000000000e+00
	9.785214443548750e-03,5.693371132730273e-10
	1.000000000000000e+00,0.000000000000000e+00
	0.000000000000000e+00,0.000000000000000e+00
	6.488846776257071e-04,7.048969881240428e-14
	6.488846775432551e-04,5.891160831099073e-14
	-9.785214443548682e-07,-5.693371132730221e-14
	4.066467113479360e-04,7.044632847665303e-12
	-3.460718282903667e-04,-3.266813466213794e-14
	-5.959636161321450e-05,-6.955031001675863e-12
	9.785214443548751e-07,5.693371132730273e-14
	-4.066467113479494e-04,-7.044632847665302e-12
	9.785214443548751e-07,5.693371132730273e-14
14		1.380384264602885e+00,0.000000000000000e+00
	9.785214443548750e-03,5.825986782576428e-10
	1.000000000000000e+00,0.000000000000000e+00
	0.000000000000000e+00,0.000000000000000e+00
	6.488846776257071e-04,7.213161482271426e-14
	6.488846775432551e-04,6.028383594862541e-14
	-9.785214443548682e-07,-5.825986782576412e-14
	4.066467113479360e-04,7.208723426206718e-12
	-3.460718282903667e-04,-3.342907327064975e-14
	-5.959636161321450e-05,-7.117034485110304e-12
	9.785214443548751e-07,5.825986782576429e-14
	-4.066467113479494e-04,-7.208723426206719e-12
	9.785214443548751e-07,5.825986782576429e-14
15		1.412537544622754e+00,0.000000000000000e+00
	9.785214443548750e-03,5.961691447730755e-10
	1.000000000000000e+00,0.000000000000000e+00
	0.000000000000000e+00,0.000000000000000e+00
	6.488846776257071e-04,7.381177596997809e-14
	6.488846775432551e-04,6.168802687403100e-14
	-9.785214443548682e-07,-5.961691447730734e-14
	4.066467113479360e-04,7.376636165327445e-12
	-3.460718282903667e-04,-3.420773641629576e-14
	-5.959636161321450e-05,-7.282811514433840e-12
	9.785214443548751e-07,5.961691447730756e-14
	-4.066467113479494e-04,-7.376636165327443e-12
	9.785214443548751e-07,5.961691447730756e-14
16		1.445439770745927e+00,0.000000000000000e+00
	9.785214443548750e-03,6.100557080602986e-10
	1.000000000000000e+00,0.000000000000000e+00
	0.000000000000000e+00,0.000000000000000e+00
	6.488846776257071e-04,7.553107309787553e-14
	6.488846775432551e-04,6.312492560782276e-14
	-9.785214443548682e-07,-6.100557080603014e-14
	4.066467113479360e-04,7.548460094584346e-12
	-3.460718282903667e-04,-3.500453695658260e-14
	-5.959636161321450e-05,-7.452449986821733e-12
	9.785214443548751e-07,6.100557080602986e-14
	-4.066467113479494e-04,-7.548460094584344e-12
	9.785214443548751e-07,6.100557080602986e-14
17		1.479108388168207e+00,0.000000000000000e+00
	9.785214443548750e-03,6.242657309589771e-10
	1.000000000000000e+00,0.000000000000000e+00
	0.000000000000000e+00,0.000000000000000e+00
	6.488846776257071e-04,7.729041780050140e-14
	6.488846775432551e-04,6.459529401272893e-14
	-9.785214443548682e-07,-6.242657309589749e-14
	4.066467113479360e-04,7.724286317299081e-12
	-3.460718282903667e-04,-3.581989736570365e-14
	-5.959636161321450e-05,-7.626039846837479e-12
	9.785214443548751e-07,6.242657309589772e-14
	-4.066467113479494e-04,-7.724286317299076e-12
	9.785214443548751e-07,6.242657309589772e-14
18		1.513561248436208e+00,0.000000000000000e+00
	9.785214443548750e-03,6.388067478113440e-10
	1.000000000000000e+00,0.000000000000000e+00
	0.000000000000000e+00,0.000000000000000e+00
	6.488846776257071e-04,7.909074290570476e-14
	6.488846775432551e-04,6.609991169754049e-14
	-9.785214443548682e-07,-6.388067478113350e-14
	4.066467113479360e-04,7.904208058862262e-12
	-3.460718282903667e-04,-3.665424995854040e-14
	-5.959636161321450e-05,-7.803673134122587e-12
	9.785214443548751e-07,6.388067478113440e-14
	-4.066467113479494e-04,-7.904208058862259e-12
	9.785214443548751e-07,6.388067478113440e-14
19		1.548816618912481e+00,0.000000000000000e+00
	9.785214443548750e-03,6.536864684570072e-10
	1.000000000000000e+00,0.000000000000000e+00
	0.000000000000000e+00,0.000000000000000e+00
	6.488846776257071e-04,8.093300296968645e-14
	6.488846775432551e-04,6.763957643046983e-14
	-9.785214443548749e-07,-6.536864684569999e-14
	4.066467113479360e-04,8.088320716162813e-12
	-3.460718282903667e-04,-3.750803711988151e-14
	-5.959636161321450e-05,-7.985444032197231e-12
	9.785214443548751e-07,6.536864684570073e-14
	-4.066467113479494e-04,-8.088320716162815e-12
	9.785214443548751e-07,6.536864684570073e-14
20		1.584893192461113e+00,0.000000000000000e+00
	9.785214443548750e-03,6.689127823208097e-10
	1.000000000000000e+00,0.000000000000000e+00
	0.000000000000000e+00,0.000000000000000e+00
	6.488846776257071e-04,8.281817478311760e-14
	6.488846775432551e-04,6.921510456213823e-14
	-9.785214443548749e-07,-6.689127823208047e-14
	4.066467113479360e-04,8.276721908168656e-12
	-3.460718282903667e-04,-3.838171153898115e-14
	-5.959636161321450e-05,-8.171448918397596e-12
	9.785214443548751e-07,6.689127823208098e-14
	-4.066467113479494e-04,-8.276721908168658e-12
	9.785214443548751e-07,6.689127823208098e-14
21		1.621810097358929e+00,0.000000000000000e+00
	9.785214443548750e-03,6.844937625959059e-10
	1.000000000000000e+00,0.000000000000000e+00
	0.000000000000000e+00,0.000000000000000e+00
	6.488846776257071e-04,8.474725788904691e-14
	6.488846775432551e-04,7.082733145841571e-14
	-9.785214443548749e-07,-6.844937625958950e-14
	4.066467113479360e-04,8.469511527685577e-12
	-3.460718282903667e-04,-3.927573644958076e-14
	-5.959636161321450e-05,-8.361786414976407e-12
	9.785214443548751e-07,6.844937625959060e-14
	-4.066467113479494e-04,-8.469511527685578e-12
	9.785214443548751e-07,6.844937625959060e-14
22		1.659586907437560e+00,0.000000000000000e+00
	9.785214443548750e-03,7.004376705242769e-10
	1.000000000000000e+00,0.000000000000000e+00
	0.000000000000000e+00,0.000000000000000e+00
	6.488846776257071e-04,8.672127511287156e-14
	6.488846775432551e-04,7.247711194334301e-14
	-9.785214443548749e-07,-7.004376705242659e-14
	4.066467113479360e-04,8.666791794321717e-12
	-3.460718282903667e-04,-4.019058587552179e-14
	-5.959636161321450e-05,-8.556557441393770e-12
	9.785214443548751e-07,7.004376705242769e-14
	-4.066467113479494e-04,-8.666791794321717e-12
	9.785214443548751e-07,7.004376705242769e-14
23		1.698243652461743e+00,0.000000000000000e+00
	9.785214443548750e-03,7.167529597769482e-10
	1.000000000000000e+00,0.000000000000000e+00
	0.000000000000000e+00,0.000000000000000e+00
	6.488846776257071e-04,8.874127310465285e-14
	6.488846775432551e-04,7.416532075237066e-14
	-9.785214443548749e-07,-7.167529597769419e-14
	4.066467113479360e-04,8.868667308685757e-12
	-3.460718282903667e-04,-4.112674488207931e-14
	-5.959636161321450e-05,-8.755865267825983e-12
	9.785214443548751e-07,7.167529597769483e-14
	-4.066467113479494e-04,-8.868667308685756e-12
	9.785214443548751e-07,7.167529597769483e-14
24		1.737800828749374e+00,0.000000000000000e+00
	9.785214443548750e-03,7.334482809362402e-10
	1.000000000000000e+00,0.000000000000000e+00
	0.000000000000000e+00,0.000000000000000e+00
	6.488846776257071e-04,9.080832289406377e-14
	6.488846775432551e-04,7.589285299615525e-14
	-9.785214443548749e-07,-7.334482809362371e-14
	4.066467113479360e-04,9.075245107847551e-12
	-3.460718282903667e-04,-4.208470983315011e-14
	-5.959636161321450e-05,-8.959815569920777e-12
	9.785214443548751e-07,7.334482809362403e-14
	-4.066467113479494e-04,-9.075245107847547e-12
	9.785214443548751e-07,7.334482809362403e-14
25		1.778279410038922e+00,0.000000000000000e+00
	9.785214443548750e-03,7.505324860824204e-10
	1.000000000000000e+00,0.000000000000000e+00
	0.000000000000000e+00,0.000000000000000e+00
	6.488846776257071e-04,9.292352045826344e-14
	6.488846775432551e-04,7.766062463515910e-14
	-9.785214443548749e-07,-7.505324860824158e-14
	4.066467113479360e-04,9.286634722090595e-12
	-3.460718282903667e-04,-4.306498865443146e-14
	-5.959636161321450e-05,-9.168516484827922e-12
	9.785214443548751e-07,7.505324860824205e-14
	-4.066467113479494e-04,-9.286634722090594e-12
	9.785214443548751e-07,7.505324860824205e-14
26		1.819700858609982e+00,0.000000000000000e+00
	9.785214443548750e-03,7.680146334871932e-10
	1.000000000000000e+00,0.000000000000000e+00
	0.000000000000000e+00,0.000000000000000e+00
	6.488846776257071e-04,9.508798730299823e-14
	6.488846775432551e-04,7.946957296530438e-14
	-9.785214443548749e-07,-7.680146334871989e-14
	4.066467113479360e-04,9.502948232986431e-12
	-3.460718282903667e-04,-4.406810110272987e-14
	-5.959636161321450e-05,-9.382078668534982e-12
	9.785214443548751e-07,7.680146334871933e-14
	-4.066467113479494e-04,-9.502948232986433e-12
	9.785214443548751e-07,7.680146334871933e-14
27		1.862087136662866e+00,0.000000000000000e+00
	9.785214443548750e-03,7.859039924165168e-10
	1.000000000000000e+00,0.000000000000000e+00
	0.000000000000000e+00,0.000000000000000e+00
	6.488846776257071e-04,9.730287105723946e-14
	6.488846775432551e-04,8.132065711494007e-14
	-9.785214443548749e-07,-7.859039924165168e-14
	4.066467113479360e-04,9.724300332821792e-12
	-3.460718282903667e-04,-4.509457904154327e-14
	-5.959636161321450e-05,-9.600615354538597e-12
	9.785214443548751e-07,7.859039924165168e-14
	-4.066467113479494e-04,-9.724300332821789e-12
	9.785214443548751e-07,7.859039924165168e-14
28		1.905460717963246e+00,0.000000000000000e+00
	9.785214443548752e-03,8.042100480452886e-10
	1.000000000000000e+00,0.000000000000000e+00
	0.000000000000000e+00,0.000000000000000e+00
	6.488846776257071e-04,9.956934608167094e-14
	6.488846775432551e-04,8.321485855338422e-14
	-9.785214443548682e-07,-8.042100480452707e-14
	4.066467113479360e-04,9.950808385409943e-12
	-3.460718282903667e-04,-4.614496672306180e-14
	-5.959636161321451e-05,-9.824242413882354e-12
	9.785214443548751e-07,8.042100480452886e-14
	-4.066467113479494e-04,-9.950808385409943e-12
	9.785214443548751e-07,8.042100480452886e-14
29		1.949844599758044e+00,0.000000000000000e+00
	9.785214443548752e-03,8.229425064865124e-10
	1.000000000000000e+00,0.000000000000000e+00
	0.000000000000000e+00,0.000000000000000e+00
	6.488846776257071e-04,1.018886140913510e-13
	6.488846775432551e-04,8.515318161131226e-14
	-9.785214443548682e-07,-8.229425064865185e-14
	4.066467113479360e-04,1.018259248831856e-11
	-3.460718282903667e-04,-4.721982107673773e-14
	-5.959636161321451e-05,-1.005307841659317e-11
	9.785214443548751e-07,8.229425064865124e-14
	-4.066467113479494e-04,-1.018259248831856e-11
	9.785214443548751e-07,8.229425064865124e-14
30		1.995262314968878e+00,0.000000000000000e+00
	9.785214443548752e-03,8.421112999376071e-10
	1.000000000000000e+00,0.000000000000000e+00
	0.000000000000000e+00,0.000000000000000e+00
	6.488846776257071e-04,1.042619047928776e-13
	6.488846775432551e-04,8.713665401326622e-14
	-9.785214443548682e-07,-8.421112999376039e-14
	4.066467113479360e-04,1.041977553654703e-11
	-3.460718282903667e-04,-4.831971200457679e-14
	-5.959636161321451e-05,-1.028724469454869e-11
	9.785214443548751e-07,8.421112999376072e-14
	-4.066467113479494e-04,-1.041977553654703e-11
	9.785214443548751e-07,8.421112999376072e-14
31		2.041737944669527e+00,0.000000000000000e+00
	9.785214443548752e-03,8.617265919465894e-10
	1.000000000000000e+00,0.000000000000000e+00
	0.000000000000000e+00,0.000000000000000e+00
	6.488846776257071e-04,1.066904765363949e-13
	6.488846775432551e-04,8.916632742256797e-14
	-9.785214443548682e-07,-8.617265919465912e-14
	4.066467113479360e-04,1.066248328768701e-11
	-3.460718282903667e-04,-4.944522268330765e-14
	-5.959636161321451e-05,-1.052686540580904e-11
	9.785214443548751e-07,8.617265919465895e-14
	-4.066467113479494e-04,-1.066248328768701e-11
	9.785214443548751e-07,8.617265919465895e-14
32		2.089296130854037e+00,0.000000000000000e+00
	9.785214443548752e-03,8.817987828009220e-10
	1.000000000000000e+00,0.000000000000000e+00
	0.000000000000000e+00,0.000000000000000e+00
	6.488846776257071e-04,1.091756169827871e-13
	6.488846775432551e-04,9.124327799892503e-14
