LTspice 24.0.9 for Windows
Circuit: * GA CMOS Amp | W=3.313237460309091e-06 L=9.108209752462524e-07 Vbias=1.4818071903798158
Start Time: Sat Sep  6 22:09:55 2025
solver = Normal
Maximum thread count: 2
tnom = 27
temp = 27
method = modified trap
AsciiRawFile = 1
Direct Newton iteration for .op point succeeded.
Semiconductor Device Operating Points:
                        --- BSIM4 MOSFETS ---
Name:      m1
Model:      n
Id:      1.27e-04
Vgs:     1.48e+00
Vds:     5.31e-01
Vbs:     0.00e+00
Vth:     2.37e-01
Vdsat:   8.58e-01
Gm:      1.82e-05
Gds:     1.33e-04
Gmb      6.47e-05
Cbd:     1.44e-15
Cbs:     2.65e-15


.measure op idd find i(vdd)
  Error: FIND can not be evaluated over an interval.

gain_db: MAX(db(v(out)/v(g)))=(31.182dB,131.139°) FROM 1 TO 1e+09
gain_lin: MAX(mag(v(out)/v(g)))=(0.0460432dB,0°) FROM 1 TO 1e+09
fc: mag(v(out)/v(g))=1 AT 9.92096e+08

Total elapsed time: 0.771 seconds.

