Title: * GA CMOS Amp | W=1.76049306229839e-05 L=9.526541503115229e-07 Vbias=1.5
Date: Mon Sep  8 18:44:15 2025
Plotname: AC Analysis
Flags: complex forward log
No. Variables: 11
No. Points:          901
Offset:    0.0000000000000000e+00
Command: Linear Technology Corporation LTspice
Variables:
	0	frequency	frequency
	1	V(out)	voltage
	2	V(g)	voltage
	3	V(vdd)	voltage
	4	Id(M1)	device_current
	5	Ig(M1)	device_current
	6	Ib(M1)	device_current
	7	Is(M1)	device_current
	8	I(Rload)	device_current
	9	I(Vg)	device_current
	10	I(Vdd)	device_current
Values:
0		1.000000000000000e+00,0.000000000000000e+00
	-1.551704647225109e-01,7.696043810429229e-11
	1.000000000000000e+00,0.000000000000000e+00
	0.000000000000000e+00,0.000000000000000e+00
	1.551704647225112e-05,-7.696043810429253e-15
	7.098421756352956e-24,2.027189957468947e-13
	1.563261781308001e-13,4.498346530061505e-16
	-1.551704662857730e-05,-1.954727865894716e-13
	-1.551704647225110e-05,7.696043810429229e-15
	-7.098421756352956e-24,-2.027189957468947e-13
	-1.551704647225110e-05,7.696043810429229e-15
1		1.023292992280754e+00,0.000000000000000e+00
	-1.551704647225109e-01,7.875307699497904e-11
	1.000000000000000e+00,0.000000000000000e+00
	0.000000000000000e+00,0.000000000000000e+00
	1.551704647225112e-05,-7.875307699497915e-15
	7.432960067182788e-24,2.074409277499894e-13
	1.563261781308001e-13,4.603126481062582e-16
	-1.551704662857730e-05,-2.000259326985977e-13
	-1.551704647225110e-05,7.875307699497904e-15
	-7.432960067182788e-24,-2.074409277499894e-13
	-1.551704647225110e-05,7.875307699497904e-15
2		1.047128548050899e+00,0.000000000000000e+00
	-1.551704647225109e-01,8.058747180950872e-11
	1.000000000000000e+00,0.000000000000000e+00
	0.000000000000000e+00,0.000000000000000e+00
	1.551704647225112e-05,-8.058747180950856e-15
	7.783264682869430e-24,2.122728476787823e-13
	1.563261781308001e-13,4.710347070653191e-16
	-1.551704662857730e-05,-2.046851352048968e-13
	-1.551704647225110e-05,8.058747180950873e-15
	-7.783264682869430e-24,-2.122728476787823e-13
	-1.551704647225110e-05,8.058747180950873e-15
3		1.071519305237606e+00,0.000000000000000e+00
	-1.551704647225109e-01,8.246459516829308e-11
	1.000000000000000e+00,0.000000000000000e+00
	0.000000000000000e+00,0.000000000000000e+00
	1.551704647225112e-05,-8.246459516829331e-15
	8.150078646468907e-24,2.172173174811779e-13
	1.563261781308001e-13,4.820065148609814e-16
	-1.551704662857730e-05,-2.094528644792095e-13
	-1.551704647225110e-05,8.246459516829309e-15
	-8.150078646468907e-24,-2.172173174811779e-13
	-1.551704647225110e-05,8.246459516829309e-15
4		1.096478196143185e+00,0.000000000000000e+00
	-1.551704647225109e-01,8.438544234698364e-11
	1.000000000000000e+00,0.000000000000000e+00
	0.000000000000000e+00,0.000000000000000e+00
	1.551704647225112e-05,-8.438544234698359e-15
	8.534180019577626e-24,2.222769587805130e-13
	1.563261781308001e-13,4.932338888908643e-16
	-1.551704662857730e-05,-2.143316484347055e-13
	-1.551704647225110e-05,8.438544234698364e-15
	-8.534180019577626e-24,-2.222769587805130e-13
	-1.551704647225110e-05,8.438544234698364e-15
5		1.122018454301963e+00,0.000000000000000e+00
	-1.551704647225109e-01,8.635103180417996e-11
	1.000000000000000e+00,0.000000000000000e+00
	0.000000000000000e+00,0.000000000000000e+00
	1.551704647225112e-05,-8.635103180417998e-15
	8.936383532705319e-24,2.274544542655771e-13
	1.563261781308001e-13,5.047227820574340e-16
	-1.551704662857730e-05,-2.193240738672165e-13
	-1.551704647225110e-05,8.635103180417997e-15
	-8.936383532705319e-24,-2.274544542655771e-13
	-1.551704647225110e-05,8.635103180417997e-15
6		1.148153621496882e+00,0.000000000000000e+00
	-1.551704647225109e-01,8.836240572142988e-11
	1.000000000000000e+00,0.000000000000000e+00
	0.000000000000000e+00,0.000000000000000e+00
	1.551704647225112e-05,-8.836240572142979e-15
	9.357542313427688e-24,2.327525491130083e-13
	1.563261781308001e-13,5.164792859237745e-16
	-1.551704662857730e-05,-2.244327878267891e-13
	-1.551704647225110e-05,8.836240572142988e-15
	-9.357542313427688e-24,-2.327525491130083e-13
	-1.551704647225110e-05,8.836240572142988e-15
7		1.174897554939529e+00,0.000000000000000e+00
	-1.551704647225109e-01,9.042063055580800e-11
	1.000000000000000e+00,0.000000000000000e+00
	0.000000000000000e+00,0.000000000000000e+00
	1.551704647225112e-05,-9.042063055580810e-15
	9.798549695984389e-24,2.381740524428234e-13
	1.563261781308001e-13,5.285096339439547e-16
	-1.551704662857730e-05,-2.296604990211866e-13
	-1.551704647225110e-05,9.042063055580801e-15
	-9.798549695984389e-24,-2.381740524428234e-13
	-1.551704647225110e-05,9.042063055580801e-15
8		1.202264434617413e+00,0.000000000000000e+00
	-1.551704647225109e-01,9.252679760536537e-11
	1.000000000000000e+00,0.000000000000000e+00
	0.000000000000000e+00,0.000000000000000e+00
	1.551704647225112e-05,-9.252679760536547e-15
	1.026034111616072e-23,2.437218388078500e-13
	1.563261781308001e-13,5.408202047677624e-16
	-1.551704662857730e-05,-2.350099792520813e-13
	-1.551704647225110e-05,9.252679760536538e-15
	-1.026034111616072e-23,-2.437218388078500e-13
	-1.551704647225110e-05,9.252679760536538e-15
9		1.230268770812381e+00,0.000000000000000e+00
	-1.551704647225109e-01,9.468202358775003e-11
	1.000000000000000e+00,0.000000000000000e+00
	0.000000000000000e+00,0.000000000000000e+00
	1.551704647225112e-05,-9.468202358775017e-15
	1.074389609547232e-23,2.493988497178525e-13
	1.563261781308001e-13,5.534175256226328e-16
	-1.551704662857730e-05,-2.404840648847001e-13
	-1.551704647225110e-05,9.468202358775003e-15
	-1.074389609547232e-23,-2.493988497178525e-13
	-1.551704647225110e-05,9.468202358775003e-15
10		1.258925411794167e+00,0.000000000000000e+00
	-1.551704647225109e-01,9.688745123230568e-11
	1.000000000000000e+00,0.000000000000000e+00
	0.000000000000000e+00,0.000000000000000e+00
	1.551704647225112e-05,-9.688745123230574e-15
	1.125024031886166e-23,2.552080951991594e-13
	1.563261781308001e-13,5.663082757750943e-16
	-1.551704662857730e-05,-2.460856583517039e-13
	-1.551704647225110e-05,9.688745123230570e-15
	-1.125024031886166e-23,-2.552080951991594e-13
	-1.551704647225110e-05,9.688745123230570e-15
11		1.288249551693134e+00,0.000000000000000e+00
	-1.551704647225109e-01,9.914424988596172e-11
	1.000000000000000e+00,0.000000000000000e+00
	0.000000000000000e+00,0.000000000000000e+00
	1.551704647225112e-05,-9.914424988596186e-15
	1.178044781031330e-23,2.611526553906194e-13
	1.563261781308001e-13,5.794992900712020e-16
	-1.551704662857730e-05,-2.518177296920944e-13
	-1.551704647225110e-05,9.914424988596172e-15
	-1.178044781031330e-23,-2.611526553906194e-13
	-1.551704647225110e-05,9.914424988596172e-15
12		1.318256738556407e+00,0.000000000000000e+00
	-1.551704647225109e-01,1.014536161332366e-10
	1.000000000000000e+00,0.000000000000000e+00
	0.000000000000000e+00,0.000000000000000e+00
	1.551704647225112e-05,-1.014536161332369e-14
	1.233564321100276e-23,2.672356821767315e-13
	1.563261781308001e-13,5.929975625615864e-16
	-1.551704662857730e-05,-2.576833181259694e-13
	-1.551704647225110e-05,1.014536161332366e-14
	-1.233564321100276e-23,-2.672356821767315e-13
	-1.551704647225110e-05,1.014536161332366e-14
13		1.348962882591653e+00,0.000000000000000e+00
	-1.551704647225109e-01,1.038167744306827e-10
	1.000000000000000e+00,0.000000000000000e+00
	0.000000000000000e+00,0.000000000000000e+00
	1.551704647225112e-05,-1.038167744306826e-14
	1.291700416481126e-23,2.734604008588162e-13
	1.563261781308001e-13,6.068102502087973e-16
	-1.551704662857730e-05,-2.636855336659567e-13
	-1.551704647225110e-05,1.038167744306827e-14
	-1.291700416481126e-23,-2.734604008588162e-13
	-1.551704647225110e-05,1.038167744306827e-14
14		1.380384264602885e+00,0.000000000000000e+00
	-1.551704647225109e-01,1.062349777561093e-10
	1.000000000000000e+00,0.000000000000000e+00
	0.000000000000000e+00,0.000000000000000e+00
	1.551704647225112e-05,-1.062349777561095e-14
	1.352576381626624e-23,2.798301118651126e-13
	1.563261781308001e-13,6.209446766827722e-16
	-1.551704662857730e-05,-2.698275587661844e-13
	-1.551704647225110e-05,1.062349777561094e-14
	-1.352576381626624e-23,-2.798301118651126e-13
	-1.551704647225110e-05,1.062349777561094e-14
15		1.412537544622754e+00,0.000000000000000e+00
	-1.551704647225109e-01,1.087095082729285e-10
	1.000000000000000e+00,0.000000000000000e+00
	0.000000000000000e+00,0.000000000000000e+00
	1.551704647225112e-05,-1.087095082729285e-14
	1.416321342620626e-23,2.863481925007092e-13
	1.563261781308001e-13,6.354083362435462e-16
	-1.551704662857730e-05,-2.761126500096599e-13
	-1.551704647225110e-05,1.087095082729285e-14
	-1.416321342620626e-23,-2.863481925007092e-13
	-1.551704647225110e-05,1.087095082729285e-14
16		1.445439770745927e+00,0.000000000000000e+00
	-1.551704647225109e-01,1.112416780099744e-10
	1.000000000000000e+00,0.000000000000000e+00
	0.000000000000000e+00,0.000000000000000e+00
	1.551704647225112e-05,-1.112416780099742e-14
	1.483070511071836e-23,2.930180987382361e-13
	1.563261781308001e-13,6.502088977147135e-16
	-1.551704662857730e-05,-2.825441398349533e-13
	-1.551704647225110e-05,1.112416780099744e-14
	-1.483070511071836e-23,-2.930180987382361e-13
	-1.551704647225110e-05,1.112416780099744e-14
17		1.479108388168207e+00,0.000000000000000e+00
	-1.551704647225109e-01,1.138328295571588e-10
	1.000000000000000e+00,0.000000000000000e+00
	0.000000000000000e+00,0.000000000000000e+00
	1.551704647225112e-05,-1.138328295571589e-14
	1.552965470915757e-23,2.998433670502670e-13
	1.563261781308001e-13,6.653542085502130e-16
	-1.551704662857730e-05,-2.891254383031013e-13
	-1.551704647225110e-05,1.138328295571588e-14
	-1.552965470915757e-23,-2.998433670502670e-13
	-1.551704647225110e-05,1.138328295571588e-14
18		1.513561248436208e+00,0.000000000000000e+00
	-1.551704647225109e-01,1.164843367773301e-10
	1.000000000000000e+00,0.000000000000000e+00
	0.000000000000000e+00,0.000000000000000e+00
	1.551704647225112e-05,-1.164843367773305e-14
	1.626154478733198e-23,3.068276162844043e-13
	1.563261781308001e-13,6.808522989938091e-16
	-1.551704662857730e-05,-2.958600349056650e-13
	-1.551704647225110e-05,1.164843367773301e-14
	-1.626154478733198e-23,-3.068276162844043e-13
	-1.551704647225110e-05,1.164843367773301e-14
19		1.548816618912481e+00,0.000000000000000e+00
	-1.551704647225109e-01,1.191976055347132e-10
	1.000000000000000e+00,0.000000000000000e+00
	0.000000000000000e+00,0.000000000000000e+00
	1.551704647225112e-05,-1.191976055347133e-14
	1.702792778222361e-23,3.139745495820390e-13
	1.563261781308001e-13,6.967113863386883e-16
	-1.551704662857730e-05,-3.027515004149064e-13
	-1.551704647225110e-05,1.191976055347133e-14
	-1.702792778222361e-23,-3.139745495820390e-13
	-1.551704647225110e-05,1.191976055347133e-14
20		1.584893192461113e+00,0.000000000000000e+00
	-1.551704647225109e-01,1.219740744403177e-10
	1.000000000000000e+00,0.000000000000000e+00
	0.000000000000000e+00,0.000000000000000e+00
	1.551704647225112e-05,-1.219740744403179e-14
	1.783042929491538e-23,3.212879563418067e-13
	1.563261781308001e-13,7.129398792825264e-16
	-1.551704662857730e-05,-3.098034887770575e-13
	-1.551704647225110e-05,1.219740744403177e-14
	-1.783042929491538e-23,-3.212879563418067e-13
	-1.551704647225110e-05,1.219740744403177e-14
21		1.621810097358929e+00,0.000000000000000e+00
	-1.551704647225109e-01,1.248152156147081e-10
	1.000000000000000e+00,0.000000000000000e+00
	0.000000000000000e+00,0.000000000000000e+00
	1.551704647225112e-05,-1.248152156147084e-14
	1.867075153870896e-23,3.287717142287757e-13
	1.563261781308001e-13,7.295463823872919e-16
	-1.551704662857730e-05,-3.170197390496921e-13
	-1.551704647225110e-05,1.248152156147081e-14
	-1.867075153870896e-23,-3.287717142287757e-13
	-1.551704647225110e-05,1.248152156147081e-14
22		1.659586907437560e+00,0.000000000000000e+00
	-1.551704647225109e-01,1.277225354685422e-10
	1.000000000000000e+00,0.000000000000000e+00
	0.000000000000000e+00,0.000000000000000e+00
	1.551704647225112e-05,-1.277225354685420e-14
	1.955067694974742e-23,3.364297912304369e-13
	1.563261781308001e-13,7.465397006406795e-16
	-1.551704662857730e-05,-3.244040773842234e-13
	-1.551704647225110e-05,1.277225354685422e-14
	-1.955067694974742e-23,-3.364297912304369e-13
	-1.551704647225110e-05,1.277225354685422e-14
23		1.698243652461743e+00,0.000000000000000e+00
	-1.551704647225109e-01,1.306975755012893e-10
	1.000000000000000e+00,0.000000000000000e+00
	0.000000000000000e+00,0.000000000000000e+00
	1.551704647225112e-05,-1.306975755012895e-14
	2.047207196780120e-23,3.442662477605831e-13
	1.563261781308001e-13,7.639288441250554e-16
	-1.551704662857730e-05,-3.319604190545792e-13
	-1.551704647225110e-05,1.306975755012893e-14
	-2.047207196780120e-23,-3.442662477605831e-13
	-1.551704647225110e-05,1.306975755012893e-14
24		1.737800828749374e+00,0.000000000000000e+00
	-1.551704647225109e-01,1.337419131185541e-10
	1.000000000000000e+00,0.000000000000000e+00
	0.000000000000000e+00,0.000000000000000e+00
	1.551704647225112e-05,-1.337419131185543e-14
	2.143689099523719e-23,3.522852388121945e-13
	1.563261781308001e-13,7.817230327943203e-16
	-1.551704662857730e-05,-3.396927705331334e-13
	-1.551704647225110e-05,1.337419131185541e-14
	-2.143689099523719e-23,-3.522852388121945e-13
	-1.551704647225110e-05,1.337419131185541e-14
25		1.778279410038922e+00,0.000000000000000e+00
	-1.551704647225109e-01,1.368571624684379e-10
	1.000000000000000e+00,0.000000000000000e+00
	0.000000000000000e+00,0.000000000000000e+00
	1.551704647225112e-05,-1.368571624684377e-14
	2.244718054256812e-23,3.604910161604706e-13
	1.563261781308001e-13,7.999317013628267e-16
	-1.551704662857730e-05,-3.476052316149897e-13
	-1.551704647225110e-05,1.368571624684379e-14
	-2.244718054256812e-23,-3.604910161604706e-13
	-1.551704647225110e-05,1.368571624684379e-14
26		1.819700858609982e+00,0.000000000000000e+00
	-1.551704647225109e-01,1.400449752973811e-10
	1.000000000000000e+00,0.000000000000000e+00
	0.000000000000000e+00,0.000000000000000e+00
	1.551704647225112e-05,-1.400449752973810e-14
	2.350508356937576e-23,3.688879306171776e-13
	1.563261781308001e-13,8.185645043078176e-16
	-1.551704662857730e-05,-3.557019975917473e-13
	-1.551704647225110e-05,1.400449752973811e-14
	-2.350508356937576e-23,-3.688879306171776e-13
	-1.551704647225110e-05,1.400449752973811e-14
27		1.862087136662866e+00,0.000000000000000e+00
	-1.551704647225109e-01,1.433070418259414e-10
	1.000000000000000e+00,0.000000000000000e+00
	0.000000000000000e+00,0.000000000000000e+00
	1.551704647225112e-05,-1.433070418259416e-14
	2.461284402981549e-23,3.774804343375069e-13
	1.563261781308001e-13,8.376313209879851e-16
	-1.551704662857730e-05,-3.639873614759007e-13
	-1.551704647225110e-05,1.433070418259414e-14
	-2.461284402981549e-23,-3.774804343375069e-13
	-1.551704647225110e-05,1.433070418259414e-14
28		1.905460717963246e+00,0.000000000000000e+00
	-1.551704647225109e-01,1.466450916449707e-10
	1.000000000000000e+00,0.000000000000000e+00
	0.000000000000000e+00,0.000000000000000e+00
	1.551704647225112e-05,-1.466450916449709e-14
	2.577281163234394e-23,3.862730831806661e-13
	1.563261781308001e-13,8.571422608818857e-16
	-1.551704662857730e-05,-3.724657162770509e-13
	-1.551704647225110e-05,1.466450916449708e-14
	-2.577281163234394e-23,-3.862730831806661e-13
	-1.551704647225110e-05,1.466450916449708e-14
29		1.949844599758044e+00,0.000000000000000e+00
	-1.551704647225109e-01,1.500608946326675e-10
	1.000000000000000e+00,0.000000000000000e+00
	0.000000000000000e+00,0.000000000000000e+00
	1.551704647225112e-05,-1.500608946326678e-14
	2.698744682376565e-23,3.952705391254565e-13
	1.563261781308001e-13,8.771076689481804e-16
	-1.551704662857730e-05,-3.811415573311379e-13
	-1.551704647225110e-05,1.500608946326676e-14
	-2.698744682376565e-23,-3.952705391254565e-13
	-1.551704647225110e-05,1.500608946326676e-14
30		1.995262314968878e+00,0.000000000000000e+00
	-1.551704647225109e-01,1.535562618929893e-10
	1.000000000000000e+00,0.000000000000000e+00
	0.000000000000000e+00,0.000000000000000e+00
	1.551704647225112e-05,-1.535562618929897e-14
	2.825932600817057e-23,4.044775727421152e-13
	1.563261781308001e-13,8.975381311103512e-16
	-1.551704662857730e-05,-3.900194846839266e-13
	-1.551704647225110e-05,1.535562618929893e-14
	-2.825932600817057e-23,-4.044775727421152e-13
	-1.551704647225110e-05,1.535562618929893e-14
31		2.041737944669527e+00,0.000000000000000e+00
	-1.551704647225109e-01,1.571330467159241e-10
	1.000000000000000e+00,0.000000000000000e+00
	0.000000000000000e+00,0.000000000000000e+00
	1.551704647225112e-05,-1.571330467159243e-14
	2.959114701183267e-23,4.138990657217354e-13
	1.563261781308001e-13,9.184444798699578e-16
	-1.551704662857730e-05,-3.991042055300130e-13
	-1.551704647225110e-05,1.571330467159241e-14
	-2.959114701183267e-23,-4.138990657217354e-13
	-1.551704647225110e-05,1.571330467159241e-14
32		2.089296130854037e+00,0.000000000000000e+00
	-1.551704647225109e-01,1.607931455601296e-10
	1.000000000000000e+00,0.000000000000000e+00
	0.000000000000000e+00,0.000000000000000e+00
	1.551704647225112e-05,-1.607931455601297e-14
	3.098573480566106e-23,4.235400134646032e-13
	1.563261781308001e-13,9.398378000498224e-16
	-1.551704662857730e-05,-4.084005367086401e-13
	-1.551704647225110e-05,1.607931455601296e-14
	-3.098573480566106e-23,-4.235400134646032e-13
	-1.551704647225110e-05,1.607931455601296e-14
33		2.137962089502230e+00,0.000000000000000e+00
	-1.551704647225109e-01,1.645384990584598e-10
	1.000000000000000e+00,0.000000000000000e+00
	0.000000000000000e+00,0.000000000000000e+00
	1.551704647225112e-05,-1.645384990584595e-14
	3.244604749734209e-23,4.334055277288247e-13
	1.563261781308001e-13,9.617294346715357e-16
	-1.551704662857730e-05,-4.179134072576503e-13
	-1.551704647225110e-05,1.645384990584598e-14
	-3.244604749734209e-23,-4.334055277288247e-13
	-1.551704647225110e-05,1.645384990584598e-14
34		2.187761623949550e+00,0.000000000000000e+00
	-1.551704647225109e-01,1.683710930469154e-10
	1.000000000000000e+00,0.000000000000000e+00
	0.000000000000000e+00,0.000000000000000e+00
	1.551704647225112e-05,-1.683710930469157e-14
	3.397518260588233e-23,4.435008393406484e-13
	1.563261781308001e-13,9.841309909695056e-16
	-1.551704662857730e-05,-4.276478610269263e-13
	-1.551704647225110e-05,1.683710930469154e-14
	-3.397518260588233e-23,-4.435008393406484e-13
	-1.551704647225110e-05,1.683710930469154e-14
35		2.238721138568337e+00,0.000000000000000e+00
	-1.551704647225109e-01,1.722929596175593e-10
	1.000000000000000e+00,0.000000000000000e+00
	0.000000000000000e+00,0.000000000000000e+00
	1.551704647225112e-05,-1.722929596175592e-14
	3.557638363186175e-23,4.538313009679180e-13
	1.563261781308001e-13,1.007054346545460e-15
	-1.551704662857730e-05,-4.376090593527076e-13
	-1.551704647225110e-05,1.722929596175594e-14
	-3.557638363186175e-23,-4.538313009679180e-13
	-1.551704647225110e-05,1.722929596175594e-14
36		2.290867652767770e+00,0.000000000000000e+00
	-1.551704647225109e-01,1.763061781959594e-10
	1.000000000000000e+00,0.000000000000000e+00
	0.000000000000000e+00,0.000000000000000e+00
	1.551704647225112e-05,-1.763061781959594e-14
	3.725304693733318e-23,4.644023899581283e-13
	1.563261781308001e-13,1.030511655665830e-15
	-1.551704662857730e-05,-4.478022837941982e-13
	-1.551704647225110e-05,1.763061781959594e-14
	-3.725304693733318e-23,-4.644023899581283e-13
	-1.551704647225110e-05,1.763061781959594e-14
37		2.344228815319919e+00,0.000000000000000e+00
	-1.551704647225109e-01,1.804128766437272e-10
	1.000000000000000e+00,0.000000000000000e+00
	0.000000000000000e+00,0.000000000000000e+00
	1.551704647225112e-05,-1.804128766437269e-14
	3.900872894996170e-23,4.752197112425868e-13
	1.563261781308001e-13,1.054515355706426e-15
	-1.551704662857730e-05,-4.582329389339206e-13
	-1.551704647225110e-05,1.804128766437272e-14
	-3.900872894996170e-23,-4.752197112425868e-13
	-1.551704647225110e-05,1.804128766437272e-14
38		2.398832919019488e+00,0.000000000000000e+00
	-1.551704647225109e-01,1.846152323867381e-10
	1.000000000000000e+00,0.000000000000000e+00
	0.000000000000000e+00,0.000000000000000e+00
