Title: * GA CMOS Amp | W=2.6689501818766033e-05 L=5.809138848192157e-07 Vbias=0.7870072240750832
Date: Sat Sep  6 22:02:06 2025
Plotname: AC Analysis
Flags: complex forward log
No. Variables: 13
No. Points:          901
Offset:    0.0000000000000000e+00
Command: Linear Technology Corporation LTspice
Variables:
	0	frequency	frequency
	1	V(out)	voltage
	2	V(g)	voltage
	3	V(vdd)	voltage
	4	V(m1#dbody)	voltage
	5	V(m1#sbody)	voltage
	6	Id(M1)	device_current
	7	Ig(M1)	device_current
	8	Ib(M1)	device_current
	9	Is(M1)	device_current
	10	I(Rload)	device_current
	11	I(Vg)	device_current
	12	I(Vdd)	device_current
Values:
0		1.000000000000000e+00,0.000000000000000e+00
	-2.288769257069108e-02,4.999774939183984e-10
	1.000000000000000e+00,0.000000000000000e+00
	0.000000000000000e+00,0.000000000000000e+00
	1.454751116080237e-07,1.249973735565773e-14
	1.454752959769033e-07,2.669530430273710e-14
	2.288769257069125e-06,-4.999774939183999e-14
	2.422477037711545e-06,3.980739036128414e-12
	-7.758681228843250e-08,-1.329118305685033e-14
	-4.633659482492238e-06,-3.917450103679724e-12
	-2.288769257069107e-06,4.999774939183984e-14
	-2.422477037689053e-06,-3.980739036128415e-12
	-2.288769257069107e-06,4.999774939183984e-14
1		1.023292992280754e+00,0.000000000000000e+00
	-2.288769257069108e-02,5.116234658247904e-10
	1.000000000000000e+00,0.000000000000000e+00
	0.000000000000000e+00,0.000000000000000e+00
	1.454751116080236e-07,1.279089364139453e-14
	1.454752959769033e-07,2.731711781979314e-14
	2.288769257069125e-06,-5.116234658247876e-14
	2.422477037711545e-06,4.073462359768650e-12
	-7.758681228843248e-08,-1.360077448119564e-14
	-4.633659482492238e-06,-4.008699238704976e-12
	-2.288769257069107e-06,5.116234658247905e-14
	-2.422477037689053e-06,-4.073462359768650e-12
	-2.288769257069107e-06,5.116234658247905e-14
2		1.047128548050899e+00,0.000000000000000e+00
	-2.288769257069108e-02,5.235407072648998e-10
	1.000000000000000e+00,0.000000000000000e+00
	0.000000000000000e+00,0.000000000000000e+00
	1.454751116080235e-07,1.308883182824747e-14
	1.454752959769032e-07,2.795341523430203e-14
	2.288769257069125e-06,-5.235407072649032e-14
	2.422477037711545e-06,4.168345487070683e-12
	-7.758681228843244e-08,-1.391757721619840e-14
	-4.633659482492238e-06,-4.102073839127994e-12
	-2.288769257069107e-06,5.235407072648998e-14
	-2.422477037689053e-06,-4.168345487070683e-12
	-2.288769257069107e-06,5.235407072648998e-14
3		1.071519305237606e+00,0.000000000000000e+00
	-2.288769257069108e-02,5.357355369178818e-10
	1.000000000000000e+00,0.000000000000000e+00
	0.000000000000000e+00,0.000000000000000e+00
	1.454751116080234e-07,1.339370988698694e-14
	1.454752959769031e-07,2.860453391957534e-14
	2.288769257069125e-06,-5.357355369178803e-14
	2.422477037711545e-06,4.265438726324537e-12
	-7.758681228843241e-08,-1.424175923486211e-14
	-4.633659482492238e-06,-4.197623413397887e-12
	-2.288769257069107e-06,5.357355369178818e-14
	-2.422477037689053e-06,-4.265438726324537e-12
	-2.288769257069107e-06,5.357355369178818e-14
4		1.096478196143185e+00,0.000000000000000e+00
	-2.288769257069108e-02,5.482144206438353e-10
	1.000000000000000e+00,0.000000000000000e+00
	0.000000000000000e+00,0.000000000000000e+00
	1.454751116080233e-07,1.370568946799516e-14
	1.454752959769030e-07,2.927081910735856e-14
	2.288769257069125e-06,-5.482144206438422e-14
	2.422477037711545e-06,4.364793557650844e-12
	-7.758681228843236e-08,-1.457349242278410e-14
	-4.633659482492238e-06,-4.295398623163675e-12
	-2.288769257069107e-06,5.482144206438353e-14
	-2.422477037689053e-06,-4.364793557650843e-12
	-2.288769257069107e-06,5.482144206438353e-14
5		1.122018454301963e+00,0.000000000000000e+00
	-2.288769257069108e-02,5.609839749120906e-10
	1.000000000000000e+00,0.000000000000000e+00
	0.000000000000000e+00,0.000000000000000e+00
	1.454751116080232e-07,1.402493598697557e-14
	1.454752959769030e-07,2.995262407087760e-14
	2.288769257069125e-06,-5.609839749120807e-14
	2.422477037711545e-06,4.466462660296291e-12
	-7.758681228843232e-08,-1.491295266929164e-14
	-4.633659482492238e-06,-4.395451310135791e-12
	-2.288769257069107e-06,5.609839749120907e-14
	-2.422477037689053e-06,-4.466462660296291e-12
	-2.288769257069107e-06,5.609839749120907e-14
6		1.148153621496882e+00,0.000000000000000e+00
	-2.288769257069108e-02,5.740509703093446e-10
	1.000000000000000e+00,0.000000000000000e+00
	0.000000000000000e+00,0.000000000000000e+00
	1.454751116080231e-07,1.435161871265830e-14
	1.454752959769029e-07,3.065031031214891e-14
	2.288769257069125e-06,-5.740509703093440e-14
	2.422477037711545e-06,4.570499940564849e-12
	-7.758681228843227e-08,-1.526031996070071e-14
	-4.633659482492238e-06,-4.497834523573214e-12
	-2.288769257069107e-06,5.740509703093446e-14
	-2.422477037689053e-06,-4.570499940564849e-12
	-2.288769257069107e-06,5.740509703093446e-14
7		1.174897554939529e+00,0.000000000000000e+00
	-2.288769257069108e-02,5.874223351295195e-10
	1.000000000000000e+00,0.000000000000000e+00
	0.000000000000000e+00,0.000000000000000e+00
	1.454751116080230e-07,1.468591085654859e-14
	1.454752959769028e-07,3.136424775365253e-14
	2.288769257069125e-06,-5.874223351295177e-14
	2.422477037711545e-06,4.676960560399612e-12
	-7.758681228843223e-08,-1.561577847574716e-14
	-4.633659482492238e-06,-4.602602548410914e-12
	-2.288769257069107e-06,5.874223351295195e-14
	-2.422477037689053e-06,-4.676960560399611e-12
	-2.288769257069107e-06,5.874223351295195e-14
8		1.202264434617413e+00,0.000000000000000e+00
	-2.288769257069108e-02,6.011051590472340e-10
	1.000000000000000e+00,0.000000000000000e+00
	0.000000000000000e+00,0.000000000000000e+00
	1.454751116080229e-07,1.502798966476602e-14
	1.454752959769027e-07,3.209481493447002e-14
	2.288769257069125e-06,-6.011051590472359e-14
	2.422477037711544e-06,4.785900966630392e-12
	-7.758681228843217e-08,-1.597951668324071e-14
	-4.633659482492238e-06,-4.709810934042428e-12
	-2.288769257069107e-06,6.011051590472340e-14
	-2.422477037689053e-06,-4.785900966630392e-12
	-2.288769257069107e-06,6.011051590472340e-14
9		1.230268770812381e+00,0.000000000000000e+00
	-2.288769257069108e-02,6.151066968768427e-10
	1.000000000000000e+00,0.000000000000000e+00
	0.000000000000000e+00,0.000000000000000e+00
	1.454751116080228e-07,1.537803651202264e-14
	1.454752959769026e-07,3.284239921099083e-14
	2.288769257069125e-06,-6.151066968768474e-14
	2.422477037711544e-06,4.897378920902567e-12
	-7.758681228843212e-08,-1.635172744199360e-14
	-4.633659482492238e-06,-4.819516523772889e-12
	-2.288769257069107e-06,6.151066968768428e-14
	-2.422477037689053e-06,-4.897378920902568e-12
	-2.288769257069107e-06,6.151066968768428e-14
10		1.258925411794167e+00,0.000000000000000e+00
	-2.288769257069108e-02,6.294343724190352e-10
	1.000000000000000e+00,0.000000000000000e+00
	0.000000000000000e+00,0.000000000000000e+00
	1.454751116080227e-07,1.573623699779032e-14
	1.454752959769025e-07,3.360739696229387e-14
	2.288769257069125e-06,-6.294343724190400e-14
	2.422477037711544e-06,5.011453530303081e-12
	-7.758681228843207e-08,-1.673260810307694e-14
	-4.633659482492238e-06,-4.931777484958100e-12
	-2.288769257069107e-06,6.294343724190353e-14
	-2.422477037689053e-06,-5.011453530303080e-12
	-2.288769257069107e-06,6.294343724190353e-14
11		1.288249551693134e+00,0.000000000000000e+00
	-2.288769257069108e-02,6.440957823970332e-10
	1.000000000000000e+00,0.000000000000000e+00
	0.000000000000000e+00,0.000000000000000e+00
	1.454751116080226e-07,1.610278104470802e-14
	1.454752959769024e-07,3.439021380031287e-14
	2.288769257069125e-06,-6.440957823970283e-14
	2.422477037711544e-06,5.128185278699788e-12
	-7.758681228843200e-08,-1.712236061445883e-14
	-4.633659482492238e-06,-5.046653339845626e-12
	-2.288769257069107e-06,6.440957823970333e-14
	-2.422477037689053e-06,-5.128185278699786e-12
	-2.288769257069107e-06,6.440957823970333e-14
12		1.318256738556407e+00,0.000000000000000e+00
	-2.288769257069108e-02,6.590987004844736e-10
	1.000000000000000e+00,0.000000000000000e+00
	0.000000000000000e+00,0.000000000000000e+00
	1.454751116080224e-07,1.647786299928104e-14
	1.454752959769023e-07,3.519126478489700e-14
	2.288769257069125e-06,-6.590987004844677e-14
	2.422477037711544e-06,5.247636058810818e-12
	-7.758681228843196e-08,-1.752119162807968e-14
	-4.633659482492238e-06,-5.164204997134292e-12
	-2.288769257069107e-06,6.590987004844736e-14
	-2.422477037689053e-06,-5.247636058810819e-12
	-2.288769257069107e-06,6.590987004844736e-14
13		1.348962882591653e+00,0.000000000000000e+00
	-2.288769257069108e-02,6.744510814271134e-10
	1.000000000000000e+00,0.000000000000000e+00
	0.000000000000000e+00,0.000000000000000e+00
	1.454751116080223e-07,1.686168173492662e-14
	1.454752959769022e-07,3.601097464388158e-14
	2.288769257069125e-06,-6.744510814271110e-14
	2.422477037711544e-06,5.369869205020906e-12
	-7.758681228843188e-08,-1.792931260942215e-14
	-4.633659482492238e-06,-5.284494784268773e-12
	-2.288769257069107e-06,6.744510814271135e-14
	-2.422477037689053e-06,-5.369869205020906e-12
	-2.288769257069107e-06,6.744510814271135e-14
14		1.380384264602885e+00,0.000000000000000e+00
	-2.288769257069108e-02,6.901610652605415e-10
	1.000000000000000e+00,0.000000000000000e+00
	0.000000000000000e+00,0.000000000000000e+00
	1.454751116080221e-07,1.725444075741884e-14
	1.454752959769021e-07,3.684977799828400e-14
	2.288769257069125e-06,-6.901610652605418e-14
	2.422477037711544e-06,5.494949526962119e-12
	-7.758681228843182e-08,-1.834693994963268e-14
	-4.633659482492238e-06,-5.407586480486431e-12
	-2.288769257069107e-06,6.901610652605415e-14
	-2.422477037689053e-06,-5.494949526962118e-12
	-2.288769257069107e-06,6.901610652605415e-14
15		1.412537544622754e+00,0.000000000000000e+00
	-2.288769257069108e-02,7.062369816261324e-10
	1.000000000000000e+00,0.000000000000000e+00
	0.000000000000000e+00,0.000000000000000e+00
	1.454751116080220e-07,1.765634831279006e-14
	1.454752959769019e-07,3.770811959274546e-14
	2.288769257069125e-06,-7.062369816261262e-14
	2.422477037711544e-06,5.622943343876780e-12
	-7.758681228843176e-08,-1.877429508025490e-14
	-4.633659482492238e-06,-5.533545350633912e-12
	-2.288769257069107e-06,7.062369816261323e-14
	-2.422477037689053e-06,-5.622943343876780e-12
	-2.288769257069107e-06,7.062369816261323e-14
16		1.445439770745927e+00,0.000000000000000e+00
	-2.288769257069108e-02,7.226873541875328e-10
	1.000000000000000e+00,0.000000000000000e+00
	0.000000000000000e+00,0.000000000000000e+00
	1.454751116080218e-07,1.806761749774623e-14
	1.454752959769018e-07,3.858645453134108e-14
	2.288769257069125e-06,-7.226873541875353e-14
	2.422477037711544e-06,5.753918519780818e-12
	-7.758681228843168e-08,-1.921160459063590e-14
	-4.633659482492238e-06,-5.662438179771429e-12
	-2.288769257069107e-06,7.226873541875328e-14
	-2.422477037689053e-06,-5.753918519780817e-12
	-2.288769257069107e-06,7.226873541875328e-14
17		1.479108388168207e+00,0.000000000000000e+00
	-2.288769257069108e-02,7.395209051500215e-10
	1.000000000000000e+00,0.000000000000000e+00
	0.000000000000000e+00,0.000000000000000e+00
	1.454751116080216e-07,1.848846637265284e-14
	1.454752959769017e-07,3.948524851888126e-14
	2.288769257069125e-06,-7.395209051500275e-14
	2.422477037711544e-06,5.887944499446161e-12
	-7.758681228843160e-08,-1.965910034806647e-14
	-4.633659482492238e-06,-5.794333308583092e-12
	-2.288769257069107e-06,7.395209051500215e-14
	-2.422477037689053e-06,-5.887944499446161e-12
	-2.288769257069107e-06,7.395209051500215e-14
18		1.513561248436208e+00,0.000000000000000e+00
	-2.288769257069108e-02,7.567465598851373e-10
	1.000000000000000e+00,0.000000000000000e+00
	0.000000000000000e+00,0.000000000000000e+00
	1.454751116080215e-07,1.891911807715402e-14
	1.454752959769015e-07,4.040497810783522e-14
	2.288769257069125e-06,-7.567465598851387e-14
	2.422477037711544e-06,6.025092345221268e-12
	-7.758681228843153e-08,-2.011701962072055e-14
	-4.633659482492238e-06,-5.929300669612033e-12
	-2.288769257069107e-06,7.567465598851373e-14
	-2.422477037689053e-06,-6.025092345221270e-12
	-2.288769257069107e-06,7.567465598851373e-14
19		1.548816618912481e+00,0.000000000000000e+00
	-2.288769257069108e-02,7.743734516630291e-10
	1.000000000000000e+00,0.000000000000000e+00
	0.000000000000000e+00,0.000000000000000e+00
	1.454751116080213e-07,1.935980094848387e-14
	1.454752959769014e-07,4.134613095100508e-14
	2.288769257069125e-06,-7.743734516630325e-14
	2.422477037711544e-06,6.165434774709339e-12
	-7.758681228843145e-08,-2.058560520345779e-14
	-4.633659482492238e-06,-6.067411824339578e-12
	-2.288769257069107e-06,7.743734516630291e-14
	-2.422477037689053e-06,-6.165434774709338e-12
	-2.288769257069107e-06,7.743734516630291e-14
20		1.584893192461113e+00,0.000000000000000e+00
	-2.288769257069108e-02,7.924109264950371e-10
	1.000000000000000e+00,0.000000000000000e+00
	0.000000000000000e+00,0.000000000000000e+00
	1.454751116080211e-07,1.981074864253384e-14
	1.454752959769012e-07,4.230920606008590e-14
	2.288769257069125e-06,-7.924109264950324e-14
	2.422477037711543e-06,6.309046199324135e-12
	-7.758681228843135e-08,-2.106510554655658e-14
	-4.633659482492238e-06,-6.208740001128076e-12
	-2.288769257069107e-06,7.924109264950371e-14
	-2.422477037689053e-06,-6.309046199324136e-12
	-2.288769257069107e-06,7.924109264950371e-14
21		1.621810097358929e+00,0.000000000000000e+00
	-2.288769257069108e-02,8.108685480890709e-10
	1.000000000000000e+00,0.000000000000000e+00
	0.000000000000000e+00,0.000000000000000e+00
	1.454751116080209e-07,2.027220025774029e-14
	1.454752959769011e-07,4.329471407024827e-14
	2.288769257069125e-06,-8.108685480890720e-14
	2.422477037711543e-06,6.456002763743913e-12
	-7.758681228843127e-08,-2.155577488744577e-14
	-4.633659482492238e-06,-6.353360134047561e-12
	-2.288769257069107e-06,8.108685480890709e-14
	-2.422477037689053e-06,-6.456002763743914e-12
	-2.288769257069107e-06,8.108685480890709e-14
22		1.659586907437560e+00,0.000000000000000e+00
	-2.288769257069108e-02,8.297561029204161e-10
	1.000000000000000e+00,0.000000000000000e+00
	0.000000000000000e+00,0.000000000000000e+00
	1.454751116080207e-07,2.074440046185775e-14
	1.454752959769009e-07,4.430317751088402e-14
	2.288769257069125e-06,-8.297561029204170e-14
	2.422477037711543e-06,6.606382386284329e-12
	-7.758681228843117e-08,-2.205787338550473e-14
	-4.633659482492238e-06,-6.501348902606782e-12
	-2.288769257069107e-06,8.297561029204162e-14
	-2.422477037689053e-06,-6.606382386284329e-12
	-2.288769257069107e-06,8.297561029204162e-14
23		1.698243652461743e+00,0.000000000000000e+00
	-2.288769257069108e-02,8.490836054206500e-10
	1.000000000000000e+00,0.000000000000000e+00
	0.000000000000000e+00,0.000000000000000e+00
	1.454751116080204e-07,2.122759962168471e-14
	1.454752959769007e-07,4.533513108265797e-14
	2.288769257069125e-06,-8.490836054206445e-14
	2.422477037711543e-06,6.760264800211760e-12
	-7.758681228843108e-08,-2.257166726000316e-14
	-4.633659482492238e-06,-6.652784772409691e-12
	-2.288769257069107e-06,8.490836054206501e-14
	-2.422477037689053e-06,-6.760264800211759e-12
	-2.288769257069107e-06,8.490836054206501e-14
24		1.737800828749374e+00,0.000000000000000e+00
	-2.288769257069108e-02,8.688613032874279e-10
	1.000000000000000e+00,0.000000000000000e+00
	0.000000000000000e+00,0.000000000000000e+00
	1.454751116080202e-07,2.172205393581153e-14
	1.454752959769005e-07,4.639112194101327e-14
	2.288769257069125e-06,-8.688613032874277e-14
	2.422477037711543e-06,6.917731596018944e-12
	-7.758681228843097e-08,-2.309742893125415e-14
	-4.633659482492238e-06,-6.807748036758948e-12
	-2.288769257069107e-06,8.688613032874279e-14
	-2.422477037689053e-06,-6.917731596018943e-12
	-2.288769257069107e-06,8.688613032874279e-14
25		1.778279410038922e+00,0.000000000000000e+00
	-2.288769257069108e-02,8.890996829179479e-10
	1.000000000000000e+00,0.000000000000000e+00
	0.000000000000000e+00,0.000000000000000e+00
	1.454751116080200e-07,2.222802557046047e-14
	1.454752959769003e-07,4.747170998628078e-14
	2.288769257069125e-06,-8.890996829179531e-14
	2.422477037711543e-06,7.078866264685343e-12
	-7.758681228843088e-08,-2.363543716505510e-14
	-4.633659482492238e-06,-6.966320859228493e-12
	-2.288769257069107e-06,8.890996829179479e-14
	-2.422477037689053e-06,-7.078866264685342e-12
	-2.288769257069107e-06,8.890996829179479e-14
26		1.819700858609982e+00,0.000000000000000e+00
	-2.288769257069108e-02,9.098094749689765e-10
	1.000000000000000e+00,0.000000000000000e+00
	0.000000000000000e+00,0.000000000000000e+00
	1.454751116080197e-07,2.274578279848964e-14
	1.454752959769001e-07,4.857746816054543e-14
	2.288769257069125e-06,-9.098094749689798e-14
	2.422477037711543e-06,7.243754241945148e-12
	-7.758681228843074e-08,-2.418597722049299e-14
	-4.633659482492238e-06,-7.128587317227758e-12
	-2.288769257069107e-06,9.098094749689766e-14
	-2.422477037689053e-06,-7.243754241945148e-12
	-2.288769257069107e-06,9.098094749689766e-14
27		1.862087136662866e+00,0.000000000000000e+00
	-2.288769257069108e-02,9.310016600463859e-10
	1.000000000000000e+00,0.000000000000000e+00
	0.000000000000000e+00,0.000000000000000e+00
	1.454751116080194e-07,2.327560014163456e-14
	1.454752959768999e-07,4.970898275142759e-14
	2.288769257069125e-06,-9.310016600463841e-14
	2.422477037711543e-06,7.412482953586457e-12
	-7.758681228843063e-08,-2.474934100119242e-14
	-4.633659482492238e-06,-7.294633446580625e-12
	-2.288769257069107e-06,9.310016600463859e-14
	-2.422477037689053e-06,-7.412482953586458e-12
	-2.288769257069107e-06,9.310016600463859e-14
28		1.905460717963246e+00,0.000000000000000e+00
	-2.288769257069108e-02,9.526874745272156e-10
	1.000000000000000e+00,0.000000000000000e+00
	0.000000000000000e+00,0.000000000000000e+00
	1.454751116080192e-07,2.381775851606361e-14
	1.454752959768997e-07,5.086685370294076e-14
	2.288769257069125e-06,-9.526874745272188e-14
	2.422477037711543e-06,7.585141861805570e-12
	-7.758681228843052e-08,-2.532582721008696e-14
	-4.633659482492238e-06,-7.464547287142761e-12
	-2.288769257069107e-06,9.526874745272157e-14
	-2.422477037689053e-06,-7.585141861805567e-12
	-2.288769257069107e-06,9.526874745272157e-14
29		1.949844599758044e+00,0.000000000000000e+00
	-2.288769257069108e-02,9.748784165173494e-10
	1.000000000000000e+00,0.000000000000000e+00
	0.000000000000000e+00,0.000000000000000e+00
	1.454751116080189e-07,2.437254538132319e-14
	1.454752959768994e-07,5.205169493358966e-14
	2.288769257069125e-06,-9.748784165173358e-14
	2.422477037711543e-06,7.761822512641030e-12
	-7.758681228843037e-08,-2.591574150779526e-14
	-4.633659482492238e-06,-7.638418929481501e-12
	-2.288769257069107e-06,9.748784165173494e-14
	-2.422477037689053e-06,-7.761822512641030e-12
	-2.288769257069107e-06,9.748784165173494e-14
30		1.995262314968878e+00,0.000000000000000e+00
	-2.288769257069108e-02,9.975862519479614e-10
	1.000000000000000e+00,0.000000000000000e+00
	0.000000000000000e+00,0.000000000000000e+00
	1.454751116080186e-07,2.494025489275261e-14
	1.454752959768991e-07,5.326413466187786e-14
	2.288769257069125e-06,-9.975862519479658e-14
	2.422477037711543e-06,7.942618584512562e-12
	-7.758681228843023e-08,-2.651939667468631e-14
	-4.633659482492238e-06,-7.816340562643079e-12
	-2.288769257069107e-06,9.975862519479615e-14
	-2.422477037689053e-06,-7.942618584512560e-12
	-2.288769257069107e-06,9.975862519479615e-14
31		2.041737944669527e+00,0.000000000000000e+00
	-2.288769257069108e-02,1.020823020813972e-09
	1.000000000000000e+00,0.000000000000000e+00
	0.000000000000000e+00,0.000000000000000e+00
	1.454751116080183e-07,2.552118805744950e-14
	1.454752959768989e-07,5.450481573939799e-14
	2.288769257069125e-06,-1.020823020813973e-13
	2.422477037711542e-06,8.127625937890586e-12
	-7.758681228843010e-08,-2.713711277672002e-14
	-4.633659482492238e-06,-7.998406523032469e-12
	-2.288769257069107e-06,1.020823020813972e-13
	-2.422477037689053e-06,-8.127625937890583e-12
	-2.288769257069107e-06,1.020823020813972e-13
32		2.089296130854037e+00,0.000000000000000e+00
	-2.288769257069108e-02,1.044601043557808e-09
	1.000000000000000e+00,0.000000000000000e+00
	0.000000000000000e+00,0.000000000000000e+00
	1.454751116080179e-07,2.611565289386738e-14
