LTspice 24.0.9 for Windows
Circuit: * GA CMOS Amp | W=1.4459731383344697e-05 L=7.191327579666897e-07 Vbias=1.4818071903798158
Start Time: Sat Sep  6 22:09:58 2025
solver = Normal
Maximum thread count: 2
tnom = 27
temp = 27
method = modified trap
AsciiRawFile = 1
Direct Newton iteration for .op point succeeded.
Semiconductor Device Operating Points:
                        --- BSIM4 MOSFETS ---
Name:      m1
Model:      n
Id:      1.70e-04
Vgs:     1.48e+00
Vds:     9.61e-02
Vbs:     0.00e+00
Vth:     2.42e-01
Vdsat:   8.56e-01
Gm:     -2.41e-05
Gds:     1.70e-03
Gmb      8.18e-05
Cbd:     7.01e-15
Cbs:     1.16e-14


.measure op idd find i(vdd)
  Error: FIND can not be evaluated over an interval.

gain_db: MAX(db(v(out)/v(g)))=(30.4674dB,180°) FROM 1 TO 1e+09
gain_lin: MAX(mag(v(out)/v(g)))=(-5.14428dB,0°) FROM 1 TO 1e+09

Measurement "fc" FAIL'ed

Total elapsed time: 0.498 seconds.

