Title: * GA CMOS Amp | W=3.8556115442358365e-05 L=8.858897657172009e-07 Vbias=1.1562398617076846
Date: Sat Sep  6 22:36:30 2025
Plotname: AC Analysis
Flags: complex forward log
No. Variables: 13
No. Points:          901
Offset:    0.0000000000000000e+00
Command: Linear Technology Corporation LTspice
Variables:
	0	frequency	frequency
	1	V(out)	voltage
	2	V(g)	voltage
	3	V(vdd)	voltage
	4	V(m1#dbody)	voltage
	5	V(m1#sbody)	voltage
	6	Id(M1)	device_current
	7	Ig(M1)	device_current
	8	Ib(M1)	device_current
	9	Is(M1)	device_current
	10	I(Rload)	device_current
	11	I(Vg)	device_current
	12	I(Vdd)	device_current
Values:
0		1.000000000000000e+00,0.000000000000000e+00
	5.518183566402319e-03,1.048688313747049e-09
	1.000000000000000e+00,0.000000000000000e+00
	0.000000000000000e+00,0.000000000000000e+00
	7.999578593240196e-05,1.311323509231462e-13
	7.999578588783244e-05,1.261426357437510e-13
	-5.518183566402303e-07,-1.048688313747056e-13
	7.063208837690277e-05,8.896828168568036e-12
	-4.266441917542626e-05,-6.765523078436687e-14
	-2.741585084483629e-05,-8.724304106408965e-12
	5.518183566402320e-07,1.048688313747049e-13
	-7.063208837690405e-05,-8.896828168568037e-12
	5.518183566402320e-07,1.048688313747049e-13
1		1.023292992280754e+00,0.000000000000000e+00
	5.518183566402319e-03,1.073115402544076e-09
	1.000000000000000e+00,0.000000000000000e+00
	0.000000000000000e+00,0.000000000000000e+00
	7.999578593240195e-05,1.341868157609561e-13
	7.999578588783243e-05,1.290808751844042e-13
	-5.518183566402303e-07,-1.073115402544092e-13
	7.063208837690277e-05,9.104061918421689e-12
	-4.266441917542626e-05,-6.923112355277979e-14
	-2.741585084483629e-05,-8.927519254614499e-12
	5.518183566402320e-07,1.073115402544076e-13
	-7.063208837690405e-05,-9.104061918421689e-12
	5.518183566402320e-07,1.073115402544076e-13
2		1.047128548050899e+00,0.000000000000000e+00
	5.518183566402319e-03,1.098111471331893e-09
	1.000000000000000e+00,0.000000000000000e+00
	0.000000000000000e+00,0.000000000000000e+00
	7.999578593240195e-05,1.373124282246551e-13
	7.999578588783243e-05,1.320875550136675e-13
	-5.518183566402303e-07,-1.098111471331909e-13
	7.063208837690277e-05,9.316122762410991e-12
	-4.266441917542626e-05,-7.084372357928262e-14
	-2.741585084483629e-05,-9.135467891698518e-12
	5.518183566402320e-07,1.098111471331893e-13
	-7.063208837690405e-05,-9.316122762410993e-12
	5.518183566402320e-07,1.098111471331893e-13
3		1.071519305237606e+00,0.000000000000000e+00
	5.518183566402319e-03,1.123689773357034e-09
	1.000000000000000e+00,0.000000000000000e+00
	0.000000000000000e+00,0.000000000000000e+00
	7.999578593240195e-05,1.405108455553435e-13
	7.999578588783243e-05,1.351642694129845e-13
	-5.518183566402303e-07,-1.123689773357045e-13
	7.063208837690277e-05,9.533123138002386e-12
	-4.266441917542626e-05,-7.249388588575470e-14
	-2.741585084483629e-05,-9.348260274780927e-12
	5.518183566402320e-07,1.123689773357034e-13
	-7.063208837690405e-05,-9.533123138002386e-12
	5.518183566402320e-07,1.123689773357034e-13
4		1.096478196143185e+00,0.000000000000000e+00
	5.518183566402319e-03,1.149863870573802e-09
	1.000000000000000e+00,0.000000000000000e+00
	0.000000000000000e+00,0.000000000000000e+00
	7.999578593240195e-05,1.437837635962263e-13
	7.999578588783243e-05,1.383126496970549e-13
	-5.518183566402303e-07,-1.149863870573817e-13
	7.063208837690277e-05,9.755178101667354e-12
	-4.266441917542626e-05,-7.418248541009344e-14
	-2.741585084483629e-05,-9.566009229199879e-12
	5.518183566402320e-07,1.149863870573802e-13
	-7.063208837690405e-05,-9.755178101667351e-12
	5.518183566402320e-07,1.149863870573802e-13
5		1.122018454301963e+00,0.000000000000000e+00
	5.518183566402319e-03,1.176647640834996e-09
	1.000000000000000e+00,0.000000000000000e+00
	0.000000000000000e+00,0.000000000000000e+00
	7.999578593240195e-05,1.471329176917711e-13
	7.999578588783243e-05,1.415343651787791e-13
	-5.518183566402303e-07,-1.176647640835008e-13
	7.063208837690277e-05,9.982405389886875e-12
	-4.266441917542626e-05,-7.591041747011793e-14
	-2.741585084483629e-05,-9.788830208333256e-12
	5.518183566402320e-07,1.176647640834996e-13
	-7.063208837690405e-05,-9.982405389886875e-12
	5.518183566402320e-07,1.176647640834996e-13
6		1.148153621496882e+00,0.000000000000000e+00
	5.518183566402319e-03,1.204055285250132e-09
	1.000000000000000e+00,0.000000000000000e+00
	0.000000000000000e+00,0.000000000000000e+00
	7.999578593240195e-05,1.505600836078103e-13
	7.999578588783243e-05,1.448311240543498e-13
	-5.518183566402303e-07,-1.204055285250158e-13
	7.063208837690277e-05,1.021492548157687e-11
	-4.266441917542626e-05,-7.767859823827822e-14
	-2.741585084483629e-05,-1.001684135481357e-11
	5.518183566402320e-07,1.204055285250132e-13
	-7.063208837690405e-05,-1.021492548157687e-11
	5.518183566402320e-07,1.204055285250132e-13
7		1.174897554939529e+00,0.000000000000000e+00
	5.518183566402319e-03,1.232101335715065e-09
	1.000000000000000e+00,0.000000000000000e+00
	0.000000000000000e+00,0.000000000000000e+00
	7.999578593240195e-05,1.540670784730767e-13
	7.999578588783243e-05,1.482046743089607e-13
	-5.518183566402303e-07,-1.232101335715059e-13
	7.063208837690277e-05,1.045286166196771e-11
	-4.266441917542626e-05,-7.948796522742220e-14
	-2.741585084483629e-05,-1.025016356316879e-11
	5.518183566402320e-07,1.232101335715065e-13
	-7.063208837690405e-05,-1.045286166196771e-11
	5.518183566402320e-07,1.232101335715065e-13
8		1.202264434617413e+00,0.000000000000000e+00
	5.518183566402319e-03,1.260800662616983e-09
	1.000000000000000e+00,0.000000000000000e+00
	0.000000000000000e+00,0.000000000000000e+00
	7.999578593240195e-05,1.576557617426684e-13
	7.999578588783243e-05,1.516568046436110e-13
	-5.518183566402303e-07,-1.260800662616982e-13
	7.063208837690277e-05,1.069634008797172e-11
	-4.266441917542626e-05,-8.133947778787739e-14
	-2.741585084483629e-05,-1.048892054392214e-11
	5.518183566402320e-07,1.260800662616983e-13
	-7.063208837690405e-05,-1.069634008797172e-11
	5.518183566402320e-07,1.260800662616983e-13
9		1.230268770812381e+00,0.000000000000000e+00
	5.518183566402319e-03,1.290168482718890e-09
	1.000000000000000e+00,0.000000000000000e+00
	0.000000000000000e+00,0.000000000000000e+00
	7.999578593240195e-05,1.613280361839568e-13
	7.999578588783243e-05,1.551893454234985e-13
	-5.518183566402303e-07,-1.290168482718896e-13
	7.063208837690277e-05,1.094548985507316e-11
	-4.266441917542626e-05,-8.323411761611102e-14
	-2.741585084483629e-05,-1.073323888918516e-11
	5.518183566402320e-07,1.290168482718890e-13
	-7.063208837690405e-05,-1.094548985507317e-11
	5.518183566402320e-07,1.290168482718890e-13
10		1.258925411794167e+00,0.000000000000000e+00
	5.518183566402319e-03,1.320220367227734e-09
	1.000000000000000e+00,0.000000000000000e+00
	0.000000000000000e+00,0.000000000000000e+00
	7.999578593240195e-05,1.650858488854590e-13
	7.999578588783243e-05,1.588041696485033e-13
	-5.518183566402337e-07,-1.320220367227734e-13
	7.063208837690277e-05,1.120044306577646e-11
	-4.266441917542626e-05,-8.517288927523848e-14
	-2.741585084483629e-05,-1.098324813977845e-11
	5.518183566402320e-07,1.320220367227734e-13
	-7.063208837690405e-05,-1.120044306577646e-11
	5.518183566402320e-07,1.320220367227734e-13
11		1.288249551693134e+00,0.000000000000000e+00
	5.518183566402320e-03,1.350972250050463e-09
	1.000000000000000e+00,0.000000000000000e+00
	0.000000000000000e+00,0.000000000000000e+00
	7.999578593240195e-05,1.689311922892098e-13
	7.999578588783243e-05,1.625031939462775e-13
	-5.518183566402303e-07,-1.350972250050472e-13
	7.063208837690277e-05,1.146133489964862e-11
	-4.266441917542626e-05,-8.715682072765616e-14
	-2.741585084483629e-05,-1.123908085391591e-11
	5.518183566402320e-07,1.350972250050464e-13
	-7.063208837690405e-05,-1.146133489964861e-11
	5.518183566402320e-07,1.350972250050464e-13
12		1.318256738556407e+00,0.000000000000000e+00
	5.518183566402320e-03,1.382440436242402e-09
	1.000000000000000e+00,0.000000000000000e+00
	0.000000000000000e+00,0.000000000000000e+00
	7.999578593240195e-05,1.728661052471809e-13
	7.999578588783243e-05,1.662883795884660e-13
	-5.518183566402303e-07,-1.382440436242396e-13
	7.063208837690277e-05,1.172830368499327e-11
	-4.266441917542626e-05,-8.918696388008050e-14
	-2.741585084483629e-05,-1.150087267748895e-11
	5.518183566402320e-07,1.382440436242402e-13
	-7.063208837690405e-05,-1.172830368499327e-11
	5.518183566402320e-07,1.382440436242402e-13
13		1.348962882591653e+00,0.000000000000000e+00
	5.518183566402320e-03,1.414641610652399e-09
	1.000000000000000e+00,0.000000000000000e+00
	0.000000000000000e+00,0.000000000000000e+00
	7.999578593240195e-05,1.768926741023075e-13
	7.999578588783243e-05,1.701617335305993e-13
	-5.518183566402303e-07,-1.414641610652403e-13
	7.063208837690277e-05,1.200149097219416e-11
	-4.266441917542626e-05,-9.126439514128312e-14
	-2.741585084483629e-05,-1.176876241598763e-11
	5.518183566402320e-07,1.414641610652399e-13
	-7.063208837690405e-05,-1.200149097219416e-11
	5.518183566402320e-07,1.414641610652399e-13
14		1.380384264602885e+00,0.000000000000000e+00
	5.518183566402320e-03,1.447592846769359e-09
	1.000000000000000e+00,0.000000000000000e+00
	0.000000000000000e+00,0.000000000000000e+00
	7.999578593240195e-05,1.810130337946945e-13
	7.999578588783243e-05,1.741253094762073e-13
	-5.518183566402303e-07,-1.447592846769362e-13
	7.063208837690277e-05,1.228104160876702e-11
	-4.266441917542626e-05,-9.339021599281671e-14
	-2.741585084483629e-05,-1.204289210809726e-11
	5.518183566402320e-07,1.447592846769359e-13
	-7.063208837690405e-05,-1.228104160876702e-11
	5.518183566402320e-07,1.447592846769359e-13
15		1.412537544622754e+00,0.000000000000000e+00
	5.518183566402320e-03,1.481311615774832e-09
	1.000000000000000e+00,0.000000000000000e+00
	0.000000000000000e+00,0.000000000000000e+00
	7.999578593240195e-05,1.852293689935902e-13
	7.999578588783243e-05,1.781812089657205e-13
	-5.518183566402303e-07,-1.481311615774844e-13
	7.063208837690277e-05,1.256710381615965e-11
	-4.266441917542626e-05,-9.556555357303537e-14
	-2.741585084483629e-05,-1.232340710100913e-11
	5.518183566402320e-07,1.481311615774832e-13
	-7.063208837690405e-05,-1.256710381615965e-11
	5.518183566402320e-07,1.481311615774832e-13
16		1.445439770745927e+00,0.000000000000000e+00
	5.518183566402320e-03,1.515815795806467e-09
	1.000000000000000e+00,0.000000000000000e+00
	0.000000000000000e+00,0.000000000000000e+00
	7.999578593240195e-05,1.895439152557268e-13
	7.999578588783243e-05,1.823315824907345e-13
	-5.518183566402303e-07,-1.515815795806469e-13
	7.063208837690278e-05,1.285982926834089e-11
	-4.266441917542626e-05,-9.779156127471807e-14
	-2.741585084483629e-05,-1.261045612748552e-11
	5.518183566402320e-07,1.515815795806467e-13
	-7.063208837690405e-05,-1.285982926834089e-11
	5.518183566402320e-07,1.515815795806467e-13
17		1.479108388168207e+00,0.000000000000000e+00
	5.518183566402320e-03,1.551123681437232e-09
	1.000000000000000e+00,0.000000000000000e+00
	0.000000000000000e+00,0.000000000000000e+00
	7.999578593240195e-05,1.939589602106423e-13
	7.999578588783243e-05,1.865786306342288e-13
	-5.518183566402337e-07,-1.551123681437240e-13
	7.063208837690278e-05,1.315937317222017e-11
	-4.266441917542626e-05,-1.000694193566129e-13
	-2.741585084483629e-05,-1.290419138471983e-11
	5.518183566402320e-07,1.551123681437232e-13
	-7.063208837690405e-05,-1.315937317222017e-11
	5.518183566402320e-07,1.551123681437232e-13
18		1.513561248436208e+00,0.000000000000000e+00
	5.518183566402320e-03,1.587253993375444e-09
	1.000000000000000e+00,0.000000000000000e+00
	0.000000000000000e+00,0.000000000000000e+00
	7.999578593240195e-05,1.984768447736119e-13
	7.999578588783243e-05,1.909246052373456e-13
	-5.518183566402337e-07,-1.587253993375457e-13
	7.063208837690278e-05,1.346589434994025e-11
	-4.266441917542626e-05,-1.024003355692261e-13
	-2.741585084483629e-05,-1.320476861503348e-11
	5.518183566402320e-07,1.587253993375444e-13
	-7.063208837690405e-05,-1.346589434994025e-11
	5.518183566402320e-07,1.587253993375444e-13
19		1.548816618912481e+00,0.000000000000000e+00
	5.518183566402321e-03,1.624225888390734e-09
	1.000000000000000e+00,0.000000000000000e+00
	0.000000000000000e+00,0.000000000000000e+00
	7.999578593240195e-05,2.030999643868321e-13
	7.999578588783243e-05,1.953718105933451e-13
	-5.518183566402303e-07,-1.624225888390745e-13
	7.063208837690278e-05,1.377955532308686e-11
	-4.266441917542626e-05,-1.047855457951867e-13
	-2.741585084483630e-05,-1.351234718845260e-11
	5.518183566402321e-07,1.624225888390734e-13
	-7.063208837690405e-05,-1.377955532308686e-11
	5.518183566402321e-07,1.624225888390734e-13
20		1.584893192461113e+00,0.000000000000000e+00
	5.518183566402321e-03,1.662058969471221e-09
	1.000000000000000e+00,0.000000000000000e+00
	0.000000000000000e+00,0.000000000000000e+00
	7.999578593240195e-05,2.078307702895161e-13
	7.999578588783243e-05,1.999226046693728e-13
	-5.518183566402303e-07,-1.662058969471219e-13
	7.063208837690278e-05,1.410052239885975e-11
	-4.266441917542626e-05,-1.072263147045286e-13
	-2.741585084483630e-05,-1.382709018720810e-11
	5.518183566402321e-07,1.662058969471221e-13
	-7.063208837690405e-05,-1.410052239885975e-11
	5.518183566402321e-07,1.662058969471221e-13
21		1.621810097358929e+00,0.000000000000000e+00
	5.518183566402321e-03,1.700773296217272e-09
	1.000000000000000e+00,0.000000000000000e+00
	0.000000000000000e+00,0.000000000000000e+00
	7.999578593240195e-05,2.126717708175729e-13
	7.999578588783243e-05,2.045794003566848e-13
	-5.518183566402303e-07,-1.700773296217276e-13
	7.063208837690278e-05,1.442896575825099e-11
	-4.266441917542626e-05,-1.097239364252349e-13
	-2.741585084483630e-05,-1.414916449220403e-11
	5.518183566402321e-07,1.700773296217272e-13
	-7.063208837690405e-05,-1.442896575825099e-11
	5.518183566402321e-07,1.700773296217272e-13
22		1.659586907437560e+00,0.000000000000000e+00
	5.518183566402321e-03,1.740389395477374e-09
	1.000000000000000e+00,0.000000000000000e+00
	0.000000000000000e+00,0.000000000000000e+00
	7.999578593240195e-05,2.176255327335610e-13
	7.999578588783243e-05,2.093446667499943e-13
	-5.518183566402303e-07,-1.740389395477374e-13
	7.063208837690278e-05,1.476505954627720e-11
	-4.266441917542626e-05,-1.122797352294018e-13
	-2.741585084483630e-05,-1.447874087150006e-11
	5.518183566402321e-07,1.740389395477374e-13
	-7.063208837690405e-05,-1.476505954627720e-11
	5.518183566402321e-07,1.740389395477374e-13
23		1.698243652461743e+00,0.000000000000000e+00
	5.518183566402321e-03,1.780928272231735e-09
	1.000000000000000e+00,0.000000000000000e+00
	0.000000000000000e+00,0.000000000000000e+00
	7.999578593240195e-05,2.226946825876188e-13
	7.999578588783243e-05,2.142209304566190e-13
	-5.518183566402337e-07,-1.780928272231720e-13
	7.063208837690278e-05,1.510898196431350e-11
	-4.266441917542626e-05,-1.148950662353854e-13
	-2.741585084483630e-05,-1.481599407085495e-11
	5.518183566402321e-07,1.780928272231735e-13
	-7.063208837690405e-05,-1.510898196431351e-11
	5.518183566402321e-07,1.780928272231735e-13
24		1.737800828749374e+00,0.000000000000000e+00
	5.518183566402322e-03,1.822411420729405e-09
	1.000000000000000e+00,0.000000000000000e+00
	0.000000000000000e+00,0.000000000000000e+00
	7.999578593240195e-05,2.278819081100972e-13
	7.999578588783243e-05,2.192107769361210e-13
	-5.518183566402303e-07,-1.822411420729433e-13
	7.063208837690278e-05,1.546091536457831e-11
	-4.266441917542626e-05,-1.175713161263030e-13
	-2.741585084483630e-05,-1.516110290637907e-11
	5.518183566402322e-07,1.822411420729405e-13
	-7.063208837690405e-05,-1.546091536457831e-11
	5.518183566402322e-07,1.822411420729405e-13
25		1.778279410038922e+00,0.000000000000000e+00
	5.518183566402322e-03,1.864860835884813e-09
	1.000000000000000e+00,0.000000000000000e+00
	0.000000000000000e+00,0.000000000000000e+00
	7.999578593240193e-05,2.331899596366292e-13
	7.999578588783241e-05,2.243168518711522e-13
	-5.518183566402303e-07,-1.864860835884819e-13
	7.063208837690278e-05,1.582104634681883e-11
	-4.266441917542625e-05,-1.203099038852711e-13
	-2.741585084483630e-05,-1.551425035934507e-11
	5.518183566402322e-07,1.864860835884813e-13
	-7.063208837690405e-05,-1.582104634681883e-11
	5.518183566402322e-07,1.864860835884813e-13
26		1.819700858609982e+00,0.000000000000000e+00
	5.518183566402322e-03,1.908299024939759e-09
	1.000000000000000e+00,0.000000000000000e+00
	0.000000000000000e+00,0.000000000000000e+00
	7.999578593240193e-05,2.386216515663946e-13
	7.999578588783241e-05,2.295418625702300e-13
	-5.518183566402303e-07,-1.908299024939761e-13
	7.063208837690278e-05,1.618956585724873e-11
	-4.266441917542625e-05,-1.231122815477689e-13
	-2.741585084483630e-05,-1.587562367320698e-11
	5.518183566402322e-07,1.908299024939759e-13
	-7.063208837690405e-05,-1.618956585724873e-11
	5.518183566402322e-07,1.908299024939759e-13
27		1.862087136662866e+00,0.000000000000000e+00
	5.518183566402322e-03,1.952749019397051e-09
	1.000000000000000e+00,0.000000000000000e+00
	0.000000000000000e+00,0.000000000000000e+00
	7.999578593240193e-05,2.441798638543513e-13
	7.999578588783241e-05,2.348885794031882e-13
	-5.518183566402337e-07,-1.952749019397073e-13
	7.063208837690278e-05,1.656666928979038e-11
	-4.266441917542625e-05,-1.259799349715271e-13
	-2.741585084483630e-05,-1.624541445287915e-11
	5.518183566402322e-07,1.952749019397051e-13
	-7.063208837690405e-05,-1.656666928979038e-11
	5.518183566402322e-07,1.952749019397051e-13
28		1.905460717963246e+00,0.000000000000000e+00
	5.518183566402323e-03,1.998234387232117e-09
	1.000000000000000e+00,0.000000000000000e+00
	0.000000000000000e+00,0.000000000000000e+00
	7.999578593240193e-05,2.498675435382264e-13
	7.999578588783241e-05,2.403598372700640e-13
	-5.518183566402303e-07,-1.998234387232113e-13
	7.063208837690278e-05,1.695255658967528e-11
	-4.266441917542625e-05,-1.289143846243488e-13
	-2.741585084483631e-05,-1.662381876632772e-11
	5.518183566402323e-07,1.998234387232117e-13
	-7.063208837690405e-05,-1.695255658967528e-11
	5.518183566402323e-07,1.998234387232117e-13
29		1.949844599758044e+00,0.000000000000000e+00
	5.518183566402323e-03,2.044779245389051e-09
	1.000000000000000e+00,0.000000000000000e+00
	0.000000000000000e+00,0.000000000000000e+00
	7.999578593240193e-05,2.556877063010734e-13
	7.999578588783241e-05,2.459585371041990e-13
	-5.518183566402303e-07,-2.044779245389057e-13
	7.063208837690278e-05,1.734743235945763e-11
	-4.266441917542625e-05,-1.319171863902820e-13
	-2.741585084483631e-05,-1.701103724852844e-11
	5.518183566402323e-07,2.044779245389052e-13
	-7.063208837690405e-05,-1.734743235945763e-11
	5.518183566402323e-07,2.044779245389052e-13
30		1.995262314968878e+00,0.000000000000000e+00
	5.518183566402323e-03,2.092408272567745e-09
	1.000000000000000e+00,0.000000000000000e+00
	0.000000000000000e+00,0.000000000000000e+00
	7.999578593240193e-05,2.616434380702279e-13
	7.999578588783241e-05,2.516876474103526e-13
	-5.518183566402303e-07,-2.092408272567754e-13
	7.063208837690278e-05,1.775150596749738e-11
	-4.266441917542625e-05,-1.349899323945696e-13
	-2.741585084483631e-05,-1.740727520784604e-11
	5.518183566402323e-07,2.092408272567746e-13
	-7.063208837690405e-05,-1.775150596749738e-11
	5.518183566402323e-07,2.092408272567746e-13
31		2.041737944669527e+00,0.000000000000000e+00
	5.518183566402323e-03,2.141146722308851e-09
	1.000000000000000e+00,0.000000000000000e+00
	0.000000000000000e+00,0.000000000000000e+00
	7.999578593240193e-05,2.677378966535077e-13
	7.999578588783241e-05,2.575502058386431e-13
	-5.518183566402337e-07,-2.141146722308865e-13
	7.063208837690280e-05,1.816499165897006e-11
	-4.266441917542625e-05,-1.381342518478158e-13
	-2.741585084483631e-05,-1.781274273489135e-11
	5.518183566402323e-07,2.141146722308851e-13
	-7.063208837690405e-05,-1.816499165897006e-11
	5.518183566402323e-07,2.141146722308851e-13
32		2.089296130854037e+00,0.000000000000000e+00
	5.518183566402324e-03,2.191020436383554e-09
	1.000000000000000e+00,0.000000000000000e+00
	0.000000000000000e+00,0.000000000000000e+00
	7.999578593240193e-05,2.739743134135232e-13
	7.999578588783241e-05,2.635493207951493e-13
