LTspice 24.0.9 for Windows
Circuit: * GA CMOS Amp | W=2.8730379610889412e-06 L=9.141173723362561e-07 Vbias=1.4767415907721777
Start Time: Sat Sep  6 22:14:59 2025
solver = Normal
Maximum thread count: 2
tnom = 27
temp = 27
method = modified trap
AsciiRawFile = 1
Direct Newton iteration for .op point succeeded.
Semiconductor Device Operating Points:
                        --- BSIM4 MOSFETS ---
Name:      m1
Model:      n
Id:      1.18e-04
Vgs:     1.48e+00
Vds:     6.18e-01
Vbs:     0.00e+00
Vth:     2.37e-01
Vdsat:   8.55e-01
Gm:      2.72e-05
Gds:     8.52e-05
Gmb      6.16e-05
Cbd:     1.23e-15
Cbs:     2.30e-15


.measure op idd find i(vdd)
  Error: FIND can not be evaluated over an interval.

gain_db: MAX(db(v(out)/v(g)))=(30.2224dB,122.745°) FROM 1 TO 1e+09
gain_lin: MAX(mag(v(out)/v(g)))=(0.83811dB,0°) FROM 1 TO 1e+09
fc: mag(v(out)/v(g))=1 AT 8.90616e+08

Total elapsed time: 0.882 seconds.

