LTspice 24.0.9 for Windows
Circuit: * GA CMOS Amp | W=1e-06 L=6.731777658040559e-07 Vbias=0.7907941639500162
Start Time: Mon Sep  8 18:45:49 2025
solver = Normal
Maximum thread count: 2
tnom = 27
temp = 27
method = modified trap
AsciiRawFile = 1
Instance "m1": Length shorter than recommended for a level 3 MOSFET.
Instance "m1": Width narrower than recommended for a level 3 MOSFET.
Direct Newton iteration for .op point succeeded.
Semiconductor Device Operating Points:
                        --- MOSFET Transistors ---
Name:          m1
Model:        n_1u
Id:          1.79e-08
Vgs:         7.91e-01
Vds:         1.80e+00
Vbs:         0.00e+00
Vth:         9.65e-01
Vdsat:       4.13e-02
Gm:          3.17e-07
Gds:         2.12e-09
Gmb:         1.48e-07
Cbd:         0.00e+00
Cbs:         0.00e+00
Cgsov:       2.00e-16
Cgdov:       2.00e-16
Cgbov:       4.73e-17
Cgs:         2.74e-16
Cgd:         0.00e+00
Cgb:         2.03e-16



gain_db: MAX(db(v(out)/v(g)))=(35.1099dB,151.37°) FROM 1 TO 1e+09
gain_lin: MAX(mag(v(out)/v(g)))=(-37.7492dB,0°) FROM 1 TO 1e+09

Measurement "fc" FAIL'ed

Total elapsed time: 0.475 seconds.

