LTspice 24.0.9 for Windows
Circuit: * GA CMOS Amp | W=1.1531083424181747e-05 L=6.070615094108287e-07 Vbias=0.8813150855055555
Start Time: Mon Sep  8 18:46:31 2025
solver = Normal
Maximum thread count: 2
tnom = 27
temp = 27
method = modified trap
AsciiRawFile = 1
Instance "m1": Length shorter than recommended for a level 3 MOSFET.
Direct Newton iteration for .op point succeeded.
Semiconductor Device Operating Points:
                        --- MOSFET Transistors ---
Name:          m1
Model:        n_1u
Id:          4.10e-05
Vgs:         8.81e-01
Vds:         1.39e+00
Vbs:         0.00e+00
Vth:         7.65e-01
Vdsat:       1.34e-01
Gm:          4.27e-04
Gds:         1.43e-05
Gmb:         8.11e-05
Cbd:         0.00e+00
Cbs:         0.00e+00
Cgsov:       2.31e-15
Cgdov:       2.31e-15
Cgbov:       4.07e-17
Cgs:         5.40e-15
Cgd:         0.00e+00
Cgb:         0.00e+00



gain_db: MAX(db(v(out)/v(g)))=(29.4237dB,67.2351°) FROM 1 TO 1e+09
gain_lin: MAX(mag(v(out)/v(g)))=(11.451dB,0°) FROM 1 TO 1e+09

Measurement "fc" FAIL'ed

Total elapsed time: 0.470 seconds.

