Title: * GA CMOS Amp | W=1.6127481107302573e-05 L=7.197000852626343e-07 Vbias=1.2005344154409805
Date: Mon Sep  8 18:44:57 2025
Plotname: AC Analysis
Flags: complex forward log
No. Variables: 11
No. Points:          901
Offset:    0.0000000000000000e+00
Command: Linear Technology Corporation LTspice
Variables:
	0	frequency	frequency
	1	V(out)	voltage
	2	V(g)	voltage
	3	V(vdd)	voltage
	4	Id(M1)	device_current
	5	Ig(M1)	device_current
	6	Ib(M1)	device_current
	7	Is(M1)	device_current
	8	I(Rload)	device_current
	9	I(Vg)	device_current
	10	I(Vdd)	device_current
Values:
0		1.000000000000000e+00,0.000000000000000e+00
	-4.566179390925924e-01,1.199656289809442e-10
	1.000000000000000e+00,0.000000000000000e+00
	0.000000000000000e+00,0.000000000000000e+00
	4.566179390925925e-05,-1.199656289809444e-14
	7.654310673190878e-24,1.608125778455892e-13
	4.574650120520163e-13,1.359555759390619e-15
	-4.566179436672426e-05,-1.501755707068854e-13
	-4.566179390925924e-05,1.199656289809442e-14
	-7.654310673190878e-24,-1.608125778455892e-13
	-4.566179390925924e-05,1.199656289809442e-14
1		1.023292992280754e+00,0.000000000000000e+00
	-4.566179390925924e-01,1.227599874507532e-10
	1.000000000000000e+00,0.000000000000000e+00
	0.000000000000000e+00,0.000000000000000e+00
	4.566179390925925e-05,-1.227599874507534e-14
	8.015047221548867e-24,1.645583839799947e-13
	4.574650120520163e-13,1.391223881199379e-15
	-4.566179436672426e-05,-1.536736091161187e-13
	-4.566179390925924e-05,1.227599874507532e-14
	-8.015047221548867e-24,-1.645583839799947e-13
	-4.566179390925924e-05,1.227599874507532e-14
2		1.047128548050899e+00,0.000000000000000e+00
	-4.566179390925924e-01,1.256194348908290e-10
	1.000000000000000e+00,0.000000000000000e+00
	0.000000000000000e+00,0.000000000000000e+00
	4.566179390925925e-05,-1.256194348908293e-14
	8.392784759659859e-24,1.683914411477740e-13
	4.574650120520163e-13,1.423629648324936e-15
	-4.566179436672426e-05,-1.572531273070160e-13
	-4.566179390925924e-05,1.256194348908290e-14
	-8.392784759659859e-24,-1.683914411477740e-13
	-4.566179390925924e-05,1.256194348908290e-14
3		1.071519305237606e+00,0.000000000000000e+00
	-4.566179390925924e-01,1.285454874180538e-10
	1.000000000000000e+00,0.000000000000000e+00
	0.000000000000000e+00,0.000000000000000e+00
	4.566179390925925e-05,-1.285454874180539e-14
	8.788324519486345e-24,1.723137816865742e-13
	4.574650120520163e-13,1.456790242734026e-15
	-4.566179436672426e-05,-1.609160231875028e-13
	-4.566179390925924e-05,1.285454874180538e-14
	-8.788324519486345e-24,-1.723137816865742e-13
	-4.566179390925924e-05,1.285454874180538e-14
4		1.096478196143185e+00,0.000000000000000e+00
	-4.566179390925924e-01,1.315396964642083e-10
	1.000000000000000e+00,0.000000000000000e+00
	0.000000000000000e+00,0.000000000000000e+00
	4.566179390925925e-05,-1.315396964642083e-14
	9.202505493889853e-24,1.763274852732671e-13
	4.574650120520163e-13,1.490723246612716e-15
	-4.566179436672426e-05,-1.646642388734589e-13
	-4.566179390925924e-05,1.315396964642083e-14
	-9.202505493889853e-24,-1.763274852732671e-13
	-4.566179390925924e-05,1.315396964642083e-14
5		1.122018454301963e+00,0.000000000000000e+00
	-4.566179390925924e-01,1.346036495985618e-10
	1.000000000000000e+00,0.000000000000000e+00
	0.000000000000000e+00,0.000000000000000e+00
	4.566179390925925e-05,-1.346036495985621e-14
	9.636206216247309e-24,1.804346800266221e-13
	4.574650120520163e-13,1.525446651688805e-15
	-4.566179436672426e-05,-1.684997617184547e-13
	-4.566179390925924e-05,1.346036495985618e-14
	-9.636206216247309e-24,-1.804346800266221e-13
	-4.566179390925924e-05,1.346036495985618e-14
6		1.148153621496882e+00,0.000000000000000e+00
	-4.566179390925924e-01,1.377389713696225e-10
	1.000000000000000e+00,0.000000000000000e+00
	0.000000000000000e+00,0.000000000000000e+00
	4.566179390925925e-05,-1.377389713696226e-14
	1.009034662393810e-23,1.846375436356625e-13
	4.574650120520163e-13,1.560978868771312e-15
	-4.566179436672426e-05,-1.724246253674716e-13
	-4.566179390925924e-05,1.377389713696225e-14
	-1.009034662393810e-23,-1.846375436356625e-13
	-4.566179390925924e-05,1.377389713696225e-14
7		1.174897554939529e+00,0.000000000000000e+00
	-4.566179390925924e-01,1.409473241664941e-10
	1.000000000000000e+00,0.000000000000000e+00
	0.000000000000000e+00,0.000000000000000e+00
	4.566179390925925e-05,-1.409473241664942e-14
	1.056589000965460e-23,1.889383045143054e-13
	4.574650120520163e-13,1.597338737512018e-15
	-4.566179436672426e-05,-1.764409108351680e-13
	-4.566179390925924e-05,1.409473241664941e-14
	-1.056589000965460e-23,-1.889383045143054e-13
	-4.566179390925924e-05,1.409473241664941e-14
8		1.202264434617413e+00,0.000000000000000e+00
	-4.566179390925924e-01,1.442304091002972e-10
	1.000000000000000e+00,0.000000000000000e+00
	0.000000000000000e+00,0.000000000000000e+00
	4.566179390925925e-05,-1.442304091002972e-14
	1.106384506467512e-23,1.933392429828959e-13
	4.574650120520163e-13,1.634545536394666e-15
	-4.566179436672426e-05,-1.805507476092608e-13
	-4.566179390925924e-05,1.442304091002972e-14
	-1.106384506467512e-23,-1.933392429828959e-13
	-4.566179390925924e-05,1.442304091002972e-14
9		1.230268770812381e+00,0.000000000000000e+00
	-4.566179390925924e-01,1.475899669061204e-10
	1.000000000000000e+00,0.000000000000000e+00
	0.000000000000000e+00,0.000000000000000e+00
	4.566179390925925e-05,-1.475899669061206e-14
	1.158526801843337e-23,1.978426924772633e-13
	4.574650120520163e-13,1.672618992956415e-15
	-4.566179436672426e-05,-1.847563147796077e-13
	-4.566179390925924e-05,1.475899669061204e-14
	-1.158526801843337e-23,-1.978426924772633e-13
	-4.566179390925924e-05,1.475899669061204e-14
10		1.258925411794167e+00,0.000000000000000e+00
	-4.566179390925924e-01,1.510277788659814e-10
	1.000000000000000e+00,0.000000000000000e+00
	0.000000000000000e+00,0.000000000000000e+00
	4.566179390925925e-05,-1.510277788659818e-14
	1.213126487892266e-23,2.024510407859399e-13
	4.574650120520163e-13,1.711579294247970e-15
	-4.566179436672426e-05,-1.890598421935897e-13
	-4.566179390925924e-05,1.510277788659814e-14
	-1.213126487892266e-23,-2.024510407859399e-13
	-4.566179390925924e-05,1.510277788659814e-14
11		1.288249551693134e+00,0.000000000000000e+00
	-4.566179390925924e-01,1.545456677532862e-10
	1.000000000000000e+00,0.000000000000000e+00
	0.000000000000000e+00,0.000000000000000e+00
	4.566179390925925e-05,-1.545456677532864e-14
	1.270299377868716e-23,2.071667313161974e-13
	4.574650120520163e-13,1.751447097536798e-15
	-4.566179436672426e-05,-1.934636116384056e-13
	-4.566179390925924e-05,1.545456677532862e-14
	-1.270299377868716e-23,-2.071667313161974e-13
	-4.566179390925924e-05,1.545456677532862e-14
12		1.318256738556407e+00,0.000000000000000e+00
	-4.566179390925924e-01,1.581454987992875e-10
	1.000000000000000e+00,0.000000000000000e+00
	0.000000000000000e+00,0.000000000000000e+00
	4.566179390925925e-05,-1.581454987992877e-14
	1.330166743137629e-23,2.119922643895747e-13
	4.574650120520163e-13,1.792243541259875e-15
	-4.566179436672426e-05,-1.979699580509058e-13
	-4.566179390925924e-05,1.581454987992875e-14
	-1.330166743137629e-23,-2.119922643895747e-13
	-4.566179390925924e-05,1.581454987992875e-14
13		1.348962882591653e+00,0.000000000000000e+00
	-4.566179390925924e-01,1.618291806820553e-10
	1.000000000000000e+00,0.000000000000000e+00
	0.000000000000000e+00,0.000000000000000e+00
	4.566179390925925e-05,-1.618291806820555e-14
	1.392855570407299e-23,2.169301985675806e-13
	4.574650120520163e-13,1.833990256231669e-15
	-4.566179436672426e-05,-2.025812707556067e-13
	-4.566179390925924e-05,1.618291806820553e-14
	-1.392855570407299e-23,-2.169301985675806e-13
	-4.566179390925924e-05,1.618291806820553e-14
14		1.380384264602885e+00,0.000000000000000e+00
	-4.566179390925924e-01,1.655986665384832e-10
	1.000000000000000e+00,0.000000000000000e+00
	0.000000000000000e+00,0.000000000000000e+00
	4.566179390925925e-05,-1.655986665384830e-14
	1.458498831085203e-23,2.219831520082778e-13
	4.574650120520163e-13,1.876709377113018e-15
	-4.566179436672426e-05,-2.072999947315425e-13
	-4.566179390925924e-05,1.655986665384832e-14
	-1.458498831085203e-23,-2.219831520082778e-13
	-4.566179390925924e-05,1.655986665384832e-14
15		1.412537544622754e+00,0.000000000000000e+00
	-4.566179390925924e-01,1.694559549998673e-10
	1.000000000000000e+00,0.000000000000000e+00
	0.000000000000000e+00,0.000000000000000e+00
	4.566179390925925e-05,-1.694559549998674e-14
	1.527235763328183e-23,2.271538038544640e-13
	4.574650120520163e-13,1.920423554147383e-15
	-4.566179436672426e-05,-2.121286319086247e-13
	-4.566179390925924e-05,1.694559549998673e-14
	-1.527235763328183e-23,-2.271538038544640e-13
	-4.566179390925924e-05,1.694559549998673e-14
16		1.445439770745927e+00,0.000000000000000e+00
	-4.566179390925924e-01,1.734030912516069e-10
	1.000000000000000e+00,0.000000000000000e+00
	0.000000000000000e+00,0.000000000000000e+00
	4.566179390925925e-05,-1.734030912516072e-14
	1.599212167385247e-23,2.324448956541899e-13
	4.574650120520163e-13,1.965155965169915e-15
	-4.566179436672426e-05,-2.170697424941991e-13
	-4.566179390925924e-05,1.734030912516069e-14
	-1.599212167385247e-23,-2.324448956541899e-13
	-4.566179390925924e-05,1.734030912516069e-14
17		1.479108388168207e+00,0.000000000000000e+00
	-4.566179390925924e-01,1.774421681175895e-10
	1.000000000000000e+00,0.000000000000000e+00
	0.000000000000000e+00,0.000000000000000e+00
	4.566179390925925e-05,-1.774421681175898e-14
	1.674580714859445e-23,2.378592328143637e-13
	4.574650120520163e-13,2.010930327897096e-15
	-4.566179436672426e-05,-2.221259463305018e-13
	-4.566179390925924e-05,1.774421681175895e-14
	-1.674580714859445e-23,-2.378592328143637e-13
	-4.566179390925924e-05,1.774421681175895e-14
18		1.513561248436208e+00,0.000000000000000e+00
	-4.566179390925924e-01,1.815753271698328e-10
	1.000000000000000e+00,0.000000000000000e+00
	0.000000000000000e+00,0.000000000000000e+00
	4.566179390925925e-05,-1.815753271698329e-14
	1.753501272544808e-23,2.433996860882147e-13
	4.574650120520163e-13,2.057770912501943e-15
	-4.566179436672426e-05,-2.272999242837334e-13
	-4.566179390925924e-05,1.815753271698328e-14
	-1.753501272544808e-23,-2.433996860882147e-13
	-4.566179390925924e-05,1.815753271698328e-14
19		1.548816618912481e+00,0.000000000000000e+00
	-4.566179390925924e-01,1.858047598639751e-10
	1.000000000000000e+00,0.000000000000000e+00
	0.000000000000000e+00,0.000000000000000e+00
	4.566179390925925e-05,-1.858047598639751e-14
	1.836141241525250e-23,2.490691930974055e-13
	4.574650120520163e-13,2.105702554482386e-15
	-4.566179436672426e-05,-2.325944196654904e-13
	-4.566179390925924e-05,1.858047598639751e-14
	-1.836141241525250e-23,-2.490691930974055e-13
	-4.566179390925924e-05,1.858047598639751e-14
20		1.584893192461113e+00,0.000000000000000e+00
	-4.566179390925924e-01,1.901327087012141e-10
	1.000000000000000e+00,0.000000000000000e+00
	0.000000000000000e+00,0.000000000000000e+00
	4.566179390925925e-05,-1.901327087012145e-14
	1.922675912254711e-23,2.548707598895971e-13
	4.574650120520163e-13,2.154750667829484e-15
	-4.566179436672426e-05,-2.380122396873051e-13
	-4.566179390925924e-05,1.901327087012141e-14
	-1.922675912254711e-23,-2.548707598895971e-13
	-4.566179390925924e-05,1.901327087012141e-14
21		1.621810097358929e+00,0.000000000000000e+00
	-4.566179390925924e-01,1.945614684173103e-10
	1.000000000000000e+00,0.000000000000000e+00
	0.000000000000000e+00,0.000000000000000e+00
	4.566179390925925e-05,-1.945614684173107e-14
	2.013288836371713e-23,2.608074625322953e-13
	4.574650120520163e-13,2.204941258502265e-15
	-4.566179436672426e-05,-2.435562569490665e-13
	-4.566179390925924e-05,1.945614684173103e-14
	-2.013288836371713e-23,-2.608074625322953e-13
	-4.566179390925924e-05,1.945614684173103e-14
22		1.659586907437560e+00,0.000000000000000e+00
	-4.566179390925924e-01,1.990933871992869e-10
	1.000000000000000e+00,0.000000000000000e+00
	0.000000000000000e+00,0.000000000000000e+00
	4.566179390925925e-05,-1.990933871992872e-14
	2.108172216036998e-23,2.668824487438232e-13
	4.574650120520163e-13,2.256300938215996e-15
	-4.566179436672426e-05,-2.492294109621104e-13
	-4.566179390925924e-05,1.990933871992869e-14
	-2.108172216036998e-23,-2.668824487438232e-13
	-4.566179390925924e-05,1.990933871992869e-14
23		1.698243652461743e+00,0.000000000000000e+00
	-4.566179390925924e-01,2.037308679304691e-10
	1.000000000000000e+00,0.000000000000000e+00
	0.000000000000000e+00,0.000000000000000e+00
	4.566179390925925e-05,-2.037308679304695e-14
	2.207527311620069e-23,2.730989395622818e-13
	4.574650120520163e-13,2.308856938552951e-15
	-4.566179436672426e-05,-2.550347097077878e-13
	-4.566179390925924e-05,2.037308679304691e-14
	-2.207527311620069e-23,-2.730989395622818e-13
	-4.566179390925924e-05,2.037308679304691e-14
24		1.737800828749374e+00,0.000000000000000e+00
	-4.566179390925924e-01,2.084763694645248e-10
	1.000000000000000e+00,0.000000000000000e+00
	0.000000000000000e+00,0.000000000000000e+00
	4.566179390925925e-05,-2.084763694645250e-14
	2.311564868599428e-23,2.794602310533881e-13
	4.574650120520163e-13,2.362637125400031e-15
	-4.566179436672426e-05,-2.609752312323357e-13
	-4.566179390925924e-05,2.084763694645248e-14
	-2.311564868599428e-23,-2.794602310533881e-13
	-4.566179390925924e-05,2.084763694645248e-14
25		1.778279410038922e+00,0.000000000000000e+00
	-4.566179390925924e-01,2.133324079291816e-10
	1.000000000000000e+00,0.000000000000000e+00
	0.000000000000000e+00,0.000000000000000e+00
	4.566179390925925e-05,-2.133324079291819e-14
	2.420505564581987e-23,2.859696960580925e-13
	4.574650120520163e-13,2.417670013724192e-15
	-4.566179436672426e-05,-2.670541252788985e-13
	-4.566179390925924e-05,2.133324079291816e-14
	-2.420505564581987e-23,-2.859696960580925e-13
	-4.566179390925924e-05,2.133324079291816e-14
26		1.819700858609982e+00,0.000000000000000e+00
	-4.566179390925924e-01,2.183015580603108e-10
	1.000000000000000e+00,0.000000000000000e+00
	0.000000000000000e+00,0.000000000000000e+00
	4.566179390925925e-05,-2.183015580603109e-14
	2.534580477389859e-23,2.926307859809032e-13
	4.574650120520163e-13,2.473984782691284e-15
	-4.566179436672426e-05,-2.732746149575634e-13
	-4.566179390925924e-05,2.183015580603108e-14
	-2.534580477389859e-23,-2.926307859809032e-13
	-4.566179390925924e-05,2.183015580603108e-14
27		1.862087136662866e+00,0.000000000000000e+00
	-4.566179390925924e-01,2.233864545670862e-10
	1.000000000000000e+00,0.000000000000000e+00
	0.000000000000000e+00,0.000000000000000e+00
	4.566179390925925e-05,-2.233864545670863e-14
	2.654031575207398e-23,2.994470326198673e-13
	4.574650120520163e-13,2.531611291137242e-15
	-4.566179436672426e-05,-2.796399984542960e-13
	-4.566179390925924e-05,2.233864545670862e-14
	-2.654031575207398e-23,-2.994470326198673e-13
	-4.566179390925924e-05,2.233864545670862e-14
28		1.905460717963246e+00,0.000000000000000e+00
	-4.566179390925924e-01,2.285897935289423e-10
	1.000000000000000e+00,0.000000000000000e+00
	0.000000000000000e+00,0.000000000000000e+00
	4.566179390925925e-05,-2.285897935289427e-14
	2.779112229828164e-23,3.064220500391767e-13
	4.574650120520163e-13,2.590580093399529e-15
	-4.566179436672426e-05,-2.861536507796819e-13
	-4.566179390925924e-05,2.285897935289423e-14
	-2.779112229828164e-23,-3.064220500391767e-13
	-4.566179390925924e-05,2.285897935289423e-14
29		1.949844599758044e+00,0.000000000000000e+00
	-4.566179390925924e-01,2.339143338250712e-10
	1.000000000000000e+00,0.000000000000000e+00
	0.000000000000000e+00,0.000000000000000e+00
	4.566179390925925e-05,-2.339143338250714e-14
	2.910087754090464e-23,3.135595364853921e-13
	4.574650120520163e-13,2.650922455517738e-15
	-4.566179436672426e-05,-2.928190255584027e-13
	-4.566179390925924e-05,2.339143338250712e-14
	-2.910087754090464e-23,-3.135595364853921e-13
	-4.566179390925924e-05,2.339143338250712e-14
30		1.995262314968878e+00,0.000000000000000e+00
	-4.566179390925924e-01,2.393628985972162e-10
	1.000000000000000e+00,0.000000000000000e+00
	0.000000000000000e+00,0.000000000000000e+00
	4.566179390925925e-05,-2.393628985972167e-14
	3.047235964641450e-23,3.208632763483032e-13
	4.574650120520163e-13,2.712670371810978e-15
	-4.566179436672426e-05,-2.996396568603925e-13
	-4.566179390925924e-05,2.393628985972162e-14
	-3.047235964641450e-23,-3.208632763483032e-13
	-4.566179390925924e-05,2.393628985972162e-14
31		2.041737944669527e+00,0.000000000000000e+00
	-4.566179390925924e-01,2.449383767465401e-10
	1.000000000000000e+00,0.000000000000000e+00
	0.000000000000000e+00,0.000000000000000e+00
	4.566179390925925e-05,-2.449383767465400e-14
	3.190847771223483e-23,3.283371421674616e-13
	4.574650120520163e-13,2.775856581841820e-15
	-4.566179436672426e-05,-3.066191610746494e-13
	-4.566179390925924e-05,2.449383767465401e-14
	-3.190847771223483e-23,-3.283371421674616e-13
	-4.566179390925924e-05,2.449383767465401e-14
32		2.089296130854037e+00,0.000000000000000e+00
	-4.566179390925924e-01,2.506437244653577e-10
	1.000000000000000e+00,0.000000000000000e+00
	0.000000000000000e+00,0.000000000000000e+00
	4.566179390925925e-05,-2.506437244653586e-14
	3.341227793732694e-23,3.359850966854531e-13
	4.574650120520163e-13,2.840514587775249e-15
	-4.566179436672426e-05,-3.137612388266925e-13
	-4.566179390925924e-05,2.506437244653577e-14
	-3.341227793732694e-23,-3.359850966854531e-13
	-4.566179390925924e-05,2.506437244653577e-14
33		2.137962089502230e+00,0.000000000000000e+00
	-4.566179390925924e-01,2.564819668045488e-10
	1.000000000000000e+00,0.000000000000000e+00
	0.000000000000000e+00,0.000000000000000e+00
	4.566179390925925e-05,-2.564819668045490e-14
	3.498695008358627e-23,3.438111949489958e-13
	4.574650120520163e-13,2.906678672141641e-15
	-4.566179436672426e-05,-3.210696769406825e-13
	-4.566179390925924e-05,2.564819668045488e-14
	-3.498695008358627e-23,-3.438111949489958e-13
	-4.566179390925924e-05,2.564819668045488e-14
34		2.187761623949550e+00,0.000000000000000e+00
	-4.566179390925924e-01,2.624561992774797e-10
	1.000000000000000e+00,0.000000000000000e+00
	0.000000000000000e+00,0.000000000000000e+00
	4.566179390925925e-05,-2.624561992774804e-14
	3.663583424175498e-23,3.518195864589796e-13
	4.574650120520163e-13,2.974383916014414e-15
	-4.566179436672426e-05,-3.285483504472460e-13
	-4.566179390925924e-05,2.624561992774798e-14
	-3.663583424175498e-23,-3.518195864589796e-13
	-4.566179390925924e-05,2.624561992774798e-14
35		2.238721138568337e+00,0.000000000000000e+00
	-4.566179390925924e-01,2.685695895012862e-10
	1.000000000000000e+00,0.000000000000000e+00
	0.000000000000000e+00,0.000000000000000e+00
	4.566179390925925e-05,-2.685695895012864e-14
	3.836242791620232e-23,3.600145173705867e-13
	4.574650120520163e-13,3.043666217610110e-15
	-4.566179436672426e-05,-3.362012246380682e-13
	-4.566179390925924e-05,2.685695895012862e-14
	-3.836242791620232e-23,-3.600145173705867e-13
	-4.566179390925924e-05,2.685695895012862e-14
36		2.290867652767770e+00,0.000000000000000e+00
	-4.566179390925924e-01,2.748253788763849e-10
	1.000000000000000e+00,0.000000000000000e+00
	0.000000000000000e+00,0.000000000000000e+00
	4.566179390925925e-05,-2.748253788763853e-14
	4.017039344360023e-23,3.684003327446592e-13
	4.574650120520163e-13,3.114562311322074e-15
	-4.566179436672426e-05,-3.440323571683428e-13
	-4.566179390925924e-05,2.748253788763849e-14
	-4.017039344360023e-23,-3.684003327446592e-13
	-4.566179390925924e-05,2.748253788763849e-14
37		2.344228815319919e+00,0.000000000000000e+00
	-4.566179390925924e-01,2.812268843051078e-10
	1.000000000000000e+00,0.000000000000000e+00
	0.000000000000000e+00,0.000000000000000e+00
	4.566179390925925e-05,-2.812268843051079e-14
	4.206356576123048e-23,3.769814788515078e-13
	4.574650120520163e-13,3.187109787197652e-15
	-4.566179436672426e-05,-3.520459002081947e-13
	-4.566179390925924e-05,2.812268843051079e-14
	-4.206356576123048e-23,-3.769814788515078e-13
	-4.566179390925924e-05,2.812268843051079e-14
38		2.398832919019488e+00,0.000000000000000e+00
	-4.566179390925924e-01,2.877774999503672e-10
	1.000000000000000e+00,0.000000000000000e+00
	0.000000000000000e+00,0.000000000000000e+00
