Title: * GA CMOS Amp | W=1.3732645591418022e-05 L=4.124316827029052e-07 Vbias=0.5930741100893161
Date: Sat Sep  6 22:00:54 2025
Plotname: AC Analysis
Flags: complex forward log
No. Variables: 13
No. Points:          901
Offset:    0.0000000000000000e+00
Command: Linear Technology Corporation LTspice
Variables:
	0	frequency	frequency
	1	V(out)	voltage
	2	V(g)	voltage
	3	V(vdd)	voltage
	4	V(m1#dbody)	voltage
	5	V(m1#sbody)	voltage
	6	Id(M1)	device_current
	7	Ig(M1)	device_current
	8	Ib(M1)	device_current
	9	Is(M1)	device_current
	10	I(Rload)	device_current
	11	I(Vg)	device_current
	12	I(Vdd)	device_current
Values:
0		1.000000000000000e+00,0.000000000000000e+00
	-1.746959778828218e-01,3.723274233565310e-10
	1.000000000000000e+00,0.000000000000000e+00
	0.000000000000000e+00,0.000000000000000e+00
	1.096579751223230e-09,-2.422697283404225e-14
	1.097914098360426e-09,3.090274907172415e-14
	1.746959778828219e-05,-3.723274233565323e-14
	2.957614686131045e-07,1.400983189923596e-12
	-5.854652297589324e-10,-1.280615161217451e-14
	-1.776477379166554e-05,-1.350944295975768e-12
	-1.746959778828218e-05,3.723274233565310e-14
	-2.957614686216470e-07,-1.400983189923596e-12
	-1.746959778828218e-05,3.723274233565310e-14
1		1.023292992280754e+00,0.000000000000000e+00
	-1.746959778828218e-01,3.810000431546878e-10
	1.000000000000000e+00,0.000000000000000e+00
	0.000000000000000e+00,0.000000000000000e+00
	1.096579751223213e-09,-2.479129152525152e-14
	1.097914098360415e-09,3.162256656730601e-14
	1.746959778828219e-05,-3.810000431546872e-14
	2.957614686131045e-07,1.433616280551952e-12
	-5.854652297589262e-10,-1.310444520282311e-14
	-1.776477379166554e-05,-1.382411831033661e-12
	-1.746959778828218e-05,3.810000431546878e-14
	-2.957614686216470e-07,-1.433616280551952e-12
	-1.746959778828218e-05,3.810000431546878e-14
2		1.047128548050899e+00,0.000000000000000e+00
	-1.746959778828218e-01,3.898746742188569e-10
	1.000000000000000e+00,0.000000000000000e+00
	0.000000000000000e+00,0.000000000000000e+00
	1.096579751223196e-09,-2.536875488737920e-14
	1.097914098360403e-09,3.235915076625583e-14
	1.746959778828219e-05,-3.898746742188577e-14
	2.957614686131044e-07,1.467009493508413e-12
	-5.854652297589194e-10,-1.340968694377600e-14
	-1.776477379166554e-05,-1.414612339142751e-12
	-1.746959778828218e-05,3.898746742188568e-14
	-2.957614686216470e-07,-1.467009493508412e-12
	-1.746959778828218e-05,3.898746742188568e-14
3		1.071519305237606e+00,0.000000000000000e+00
	-1.746959778828218e-01,3.989560219958981e-10
	1.000000000000000e+00,0.000000000000000e+00
	0.000000000000000e+00,0.000000000000000e+00
	1.096579751223178e-09,-2.595966909914322e-14
	1.097914098360391e-09,3.311289221526603e-14
	1.746959778828219e-05,-3.989560219958992e-14
	2.957614686131044e-07,1.501180534316497e-12
	-5.854652297589125e-10,-1.372203867824473e-14
	-1.776477379166554e-05,-1.447562893438662e-12
	-1.746959778828218e-05,3.989560219958981e-14
	-2.957614686216470e-07,-1.501180534316497e-12
	-1.746959778828218e-05,3.989560219958981e-14
4		1.096478196143185e+00,0.000000000000000e+00
	-1.746959778828218e-01,4.082489015366089e-10
	1.000000000000000e+00,0.000000000000000e+00
	0.000000000000000e+00,0.000000000000000e+00
	1.096579751223158e-09,-2.656434747108050e-14
	1.097914098360378e-09,3.388419055802965e-14
	1.746959778828219e-05,-4.082489015366116e-14
	2.957614686131044e-07,1.536147520914349e-12
	-5.854652297589053e-10,-1.404166601925328e-14
	-1.776477379166554e-05,-1.481280964741435e-12
	-1.746959778828218e-05,4.082489015366089e-14
	-2.957614686216470e-07,-1.536147520914349e-12
	-1.746959778828218e-05,4.082489015366089e-14
5		1.122018454301963e+00,0.000000000000000e+00
	-1.746959778828218e-01,4.177582400487276e-10
	1.000000000000000e+00,0.000000000000000e+00
	0.000000000000000e+00,0.000000000000000e+00
	1.096579751223138e-09,-2.718311061166766e-14
	1.097914098360365e-09,3.467345474713744e-14
	1.746959778828219e-05,-4.177582400487281e-14
	2.957614686131044e-07,1.571928993261107e-12
	-5.854652297588977e-10,-1.436873843744868e-14
	-1.776477379166554e-05,-1.515784430818785e-12
	-1.746959778828218e-05,4.177582400487276e-14
	-2.957614686216470e-07,-1.571928993261107e-12
	-1.746959778828218e-05,4.177582400487276e-14
6		1.148153621496882e+00,0.000000000000000e+00
	-1.746959778828218e-01,4.274890795094040e-10
	1.000000000000000e+00,0.000000000000000e+00
	0.000000000000000e+00,0.000000000000000e+00
	1.096579751223117e-09,-2.781628659731211e-14
	1.097914098360350e-09,3.548110326090959e-14
	1.746959778828219e-05,-4.274890795094059e-14
	2.957614686131044e-07,1.608543923167031e-12
	-5.854652297588898e-10,-1.470342935095635e-14
	-1.776477379166554e-05,-1.551091585865134e-12
	-1.746959778828218e-05,4.274890795094040e-14
	-2.957614686216470e-07,-1.608543923167031e-12
	-1.746959778828218e-05,4.274890795094040e-14
7		1.174897554939529e+00,0.000000000000000e+00
	-1.746959778828218e-01,4.374465793385231e-10
	1.000000000000000e+00,0.000000000000000e+00
	0.000000000000000e+00,0.000000000000000e+00
	1.096579751223095e-09,-2.846421114630256e-14
	1.097914098360336e-09,3.630756432527856e-14
	1.746959778828219e-05,-4.374465793385269e-14
	2.957614686131044e-07,1.646011724352615e-12
	-5.854652297588814e-10,-1.504591621732877e-14
	-1.776477379166554e-05,-1.587221150201433e-12
	-1.746959778828218e-05,4.374465793385231e-14
	-2.957614686216470e-07,-1.646011724352615e-12
	-1.746959778828218e-05,4.374465793385231e-14
8		1.202264434617413e+00,0.000000000000000e+00
	-1.746959778828218e-01,4.476360191342978e-10
	1.000000000000000e+00,0.000000000000000e+00
	0.000000000000000e+00,0.000000000000000e+00
	1.096579751223072e-09,-2.912722779681111e-14
	1.097914098360320e-09,3.715327614084029e-14
	1.746959778828219e-05,-4.476360191342977e-14
	2.957614686131044e-07,1.684352262741991e-12
	-5.854652297588728e-10,-1.539638062763590e-14
	-1.776477379166554e-05,-1.624192280200925e-12
	-1.746959778828218e-05,4.476360191342978e-14
	-2.957614686216470e-07,-1.684352262741991e-12
	-1.746959778828218e-05,4.476360191342978e-14
9		1.230268770812381e+00,0.000000000000000e+00
	-1.746959778828218e-01,4.580628014725805e-10
	1.000000000000000e+00,0.000000000000000e+00
	0.000000000000000e+00,0.000000000000000e+00
	1.096579751223048e-09,-2.980568808904202e-14
	1.097914098360305e-09,3.801868711519360e-14
	1.746959778828219e-05,-4.580628014725804e-14
	2.957614686131044e-07,1.723585866996111e-12
	-5.854652297588637e-10,-1.575500840274697e-14
	-1.776477379166554e-05,-1.662024578446106e-12
	-1.746959778828218e-05,4.580628014725805e-14
	-2.957614686216470e-07,-1.723585866996111e-12
	-1.746959778828218e-05,4.580628014725805e-14
10		1.258925411794167e+00,0.000000000000000e+00
	-1.746959778828218e-01,4.687324547713819e-10
	1.000000000000000e+00,0.000000000000000e+00
	0.000000000000000e+00,0.000000000000000e+00
	1.096579751223023e-09,-3.049995175162266e-14
	1.097914098360288e-09,3.890425610069220e-14
	1.746959778828219e-05,-4.687324547713831e-14
	2.957614686131044e-07,1.763733339291269e-12
	-5.854652297588542e-10,-1.612198969185536e-14
	-1.776477379166554e-05,-1.700738104122275e-12
	-1.746959778828218e-05,4.687324547713820e-14
	-2.957614686216470e-07,-1.763733339291268e-12
	-1.746959778828218e-05,4.687324547713820e-14
11		1.288249551693134e+00,0.000000000000000e+00
	-1.746959778828218e-01,4.796506362221107e-10
	1.000000000000000e+00,0.000000000000000e+00
	0.000000000000000e+00,0.000000000000000e+00
	1.096579751222997e-09,-3.121038689233658e-14
	1.097914098360270e-09,3.981045263773412e-14
	1.746959778828219e-05,-4.796506362221128e-14
	2.957614686131044e-07,1.804815966348689e-12
	-5.854652297588442e-10,-1.649751907329815e-14
	-1.776477379166554e-05,-1.740353383653179e-12
	-1.746959778828218e-05,4.796506362221107e-14
	-2.957614686216470e-07,-1.804815966348689e-12
	-1.746959778828218e-05,4.796506362221107e-14
12		1.318256738556407e+00,0.000000000000000e+00
	-1.746959778828218e-01,4.908231347890910e-10
	1.000000000000000e+00,0.000000000000000e+00
	0.000000000000000e+00,0.000000000000000e+00
	1.096579751222969e-09,-3.193737019329913e-14
	1.097914098360252e-09,4.073775720371817e-14
	1.746959778828219e-05,-4.908231347890924e-14
	2.957614686131044e-07,1.846855530721031e-12
	-5.854652297588337e-10,-1.688179565772407e-14
	-1.776477379166554e-05,-1.780891421584397e-12
	-1.746959778828218e-05,4.908231347890910e-14
	-2.957614686216470e-07,-1.846855530721031e-12
	-1.746959778828218e-05,4.908231347890910e-14
13		1.348962882591653e+00,0.000000000000000e+00
	-1.746959778828218e-01,5.022558742789489e-10
	1.000000000000000e+00,0.000000000000000e+00
	0.000000000000000e+00,0.000000000000000e+00
	1.096579751222940e-09,-3.268128711067921e-14
	1.097914098360232e-09,4.168666146779965e-14
	1.746959778828219e-05,-5.022558742789509e-14
	2.957614686131044e-07,1.889874322341784e-12
	-5.854652297588227e-10,-1.727502319366473e-14
	-1.776477379166554e-05,-1.822373711720224e-12
	-1.746959778828218e-05,5.022558742789489e-14
	-2.957614686216470e-07,-1.889874322341784e-12
	-1.746959778828218e-05,5.022558742789489e-14
14		1.380384264602885e+00,0.000000000000000e+00
	-1.746959778828218e-01,5.139549164814919e-10
	1.000000000000000e+00,0.000000000000000e+00
	0.000000000000000e+00,0.000000000000000e+00
	1.096579751222910e-09,-3.344253207907341e-14
	1.097914098360212e-09,4.265766855157948e-14
	1.746959778828219e-05,-5.139549164814950e-14
	2.957614686131043e-07,1.933895150343686e-12
	-5.854652297588113e-10,-1.767741017556459e-14
	-1.776477379166554e-05,-1.864822248519972e-12
	-1.746959778828218e-05,5.139549164814919e-14
	-2.957614686216470e-07,-1.933895150343686e-12
	-1.746959778828218e-05,5.139549164814919e-14
15		1.412537544622754e+00,0.000000000000000e+00
	-1.746959778828218e-01,5.259264643837510e-10
	1.000000000000000e+00,0.000000000000000e+00
	0.000000000000000e+00,0.000000000000000e+00
	1.096579751222878e-09,-3.422150872064005e-14
	1.097914098360191e-09,4.365129329586646e-14
	1.746959778828219e-05,-5.259264643837515e-14
	2.957614686131043e-07,1.978941355152430e-12
	-5.854652297587993e-10,-1.808916995432777e-14
	-1.776477379166554e-05,-1.908259538759727e-12
	-1.746959778828218e-05,5.259264643837510e-14
	-2.957614686216470e-07,-1.978941355152429e-12
	-1.746959778828218e-05,5.259264643837510e-14
16		1.445439770745927e+00,0.000000000000000e+00
	-1.746959778828218e-01,5.381768654588858e-10
	1.000000000000000e+00,0.000000000000000e+00
	0.000000000000000e+00,0.000000000000000e+00
	1.096579751222845e-09,-3.501863005910573e-14
	1.097914098360168e-09,4.466806253365195e-14
	1.746959778828219e-05,-5.381768654588901e-14
	2.957614686131043e-07,2.025036820862060e-12
	-5.854652297587867e-10,-1.851052085043915e-14
	-1.776477379166554e-05,-1.952708613465732e-12
	-1.746959778828218e-05,5.381768654588858e-14
	-2.957614686216470e-07,-2.025036820862059e-12
	-1.746959778828218e-05,5.381768654588858e-14
17		1.479108388168207e+00,0.000000000000000e+00
	-1.746959778828218e-01,5.507126150317002e-10
	1.000000000000000e+00,0.000000000000000e+00
	0.000000000000000e+00,0.000000000000000e+00
	1.096579751222810e-09,-3.583431873875503e-14
	1.097914098360145e-09,4.570851536944459e-14
	1.746959778828219e-05,-5.507126150317013e-14
	2.957614686131043e-07,2.072205987898643e-12
	-5.854652297587734e-10,-1.894168626972119e-14
	-1.776477379166554e-05,-1.998193040125751e-12
	-1.746959778828218e-05,5.507126150317002e-14
	-2.957614686216470e-07,-2.072205987898642e-12
	-1.746959778828218e-05,5.507126150317002e-14
18		1.513561248436208e+00,0.000000000000000e+00
	-1.746959778828218e-01,5.635403597225474e-10
	1.000000000000000e+00,0.000000000000000e+00
	0.000000000000000e+00,0.000000000000000e+00
	1.096579751222774e-09,-3.666900724852297e-14
	1.097914098360121e-09,4.677320346510973e-14
	1.746959778828219e-05,-5.635403597225503e-14
	2.957614686131043e-07,2.120473865978899e-12
	-5.854652297587598e-10,-1.938289482178624e-14
	-1.776477379166554e-05,-2.044736935184857e-12
	-1.746959778828218e-05,5.635403597225475e-14
	-2.957614686216470e-07,-2.120473865978898e-12
	-1.746959778828218e-05,5.635403597225475e-14
19		1.548816618912481e+00,0.000000000000000e+00
	-1.746959778828218e-01,5.766669009714580e-10
	1.000000000000000e+00,0.000000000000000e+00
	0.000000000000000e+00,0.000000000000000e+00
	1.096579751222735e-09,-3.752313815130566e-14
	1.097914098360095e-09,4.786269133236878e-14
	1.746959778828219e-05,-5.766669009714609e-14
	2.957614686131043e-07,2.169866047370685e-12
	-5.854652297587452e-10,-1.983438044124883e-14
	-1.776477379166554e-05,-2.092364976832290e-12
	-1.746959778828218e-05,5.766669009714580e-14
	-2.957614686216470e-07,-2.169866047370685e-12
	-1.746959778828218e-05,5.766669009714580e-14
20		1.584893192461113e+00,0.000000000000000e+00
	-1.746959778828218e-01,5.900991986443527e-10
	1.000000000000000e+00,0.000000000000000e+00
	0.000000000000000e+00,0.000000000000000e+00
	1.096579751222696e-09,-3.839716431861374e-14
	1.097914098360069e-09,4.897755663210969e-14
	1.746959778828219e-05,-5.900991986443566e-14
	2.957614686131043e-07,2.220408720462362e-12
	-5.854652297587304e-10,-2.029638251176035e-14
	-1.776477379166554e-05,-2.141102418086166e-12
	-1.746959778828218e-05,5.900991986443527e-14
	-2.957614686216470e-07,-2.220408720462361e-12
	-1.746959778828218e-05,5.900991986443527e-14
21		1.621810097358929e+00,0.000000000000000e+00
	-1.746959778828218e-01,6.038443747232547e-10
	1.000000000000000e+00,0.000000000000000e+00
	0.000000000000000e+00,0.000000000000000e+00
	1.096579751222654e-09,-3.929154917069009e-14
	1.097914098360041e-09,5.011839048067160e-14
	1.746959778828219e-05,-6.038443747232593e-14
	2.957614686131043e-07,2.272128683648211e-12
	-5.854652297587145e-10,-2.076914599293400e-14
	-1.776477379166554e-05,-2.190975100182951e-12
	-1.746959778828218e-05,6.038443747232548e-14
	-2.957614686216470e-07,-2.272128683648210e-12
	-1.746959778828218e-05,6.038443747232548e-14
22		1.659586907437560e+00,0.000000000000000e+00
	-1.746959778828218e-01,6.179097170824604e-10
	1.000000000000000e+00,0.000000000000000e+00
	0.000000000000000e+00,0.000000000000000e+00
	1.096579751222610e-09,-4.020676692222177e-14
	1.097914098360012e-09,5.128579776326180e-14
	1.746959778828219e-05,-6.179097170824610e-14
	2.957614686131042e-07,2.325053359537308e-12
	-5.854652297586979e-10,-2.125292155022531e-14
	-1.776477379166554e-05,-2.242009466278837e-12
	-1.746959778828218e-05,6.179097170824605e-14
	-2.957614686216470e-07,-2.325053359537308e-12
	-1.746959778828218e-05,6.179097170824605e-14
23		1.698243652461743e+00,0.000000000000000e+00
	-1.746959778828218e-01,6.323026833526652e-10
	1.000000000000000e+00,0.000000000000000e+00
	0.000000000000000e+00,0.000000000000000e+00
	1.096579751222564e-09,-4.114330283377516e-14
	1.097914098359981e-09,5.248039745467374e-14
	1.746959778828219e-05,-6.323026833526634e-14
	2.957614686131042e-07,2.379210809493352e-12
	-5.854652297586806e-10,-2.174796568783817e-14
	-1.776477379166554e-05,-2.294232575470247e-12
	-1.746959778828218e-05,6.323026833526652e-14
	-2.957614686216470e-07,-2.379210809493352e-12
	-1.746959778828218e-05,6.323026833526652e-14
24		1.737800828749374e+00,0.000000000000000e+00
	-1.746959778828218e-01,6.470309048750986e-10
	1.000000000000000e+00,0.000000000000000e+00
	0.000000000000000e+00,0.000000000000000e+00
	1.096579751222516e-09,-4.210165346908707e-14
	1.097914098359949e-09,5.370282294747630e-14
	1.746959778828219e-05,-6.470309048751009e-14
	2.957614686131042e-07,2.434629748513167e-12
	-5.854652297586624e-10,-2.225454088472706e-14
	-1.776477379166554e-05,-2.347672117140929e-12
	-1.746959778828218e-05,6.470309048750986e-14
	-2.957614686216470e-07,-2.434629748513167e-12
	-1.746959778828218e-05,6.470309048750986e-14
25		1.778279410038922e+00,0.000000000000000e+00
	-1.746959778828218e-01,6.621021907477639e-10
	1.000000000000000e+00,0.000000000000000e+00
	0.000000000000000e+00,0.000000000000000e+00
	1.096579751222466e-09,-4.308232695834947e-14
	1.097914098359916e-09,5.495372238784661e-14
	1.746959778828219e-05,-6.621021907477633e-14
	2.957614686131042e-07,2.491339560451779e-12
	-5.854652297586435e-10,-2.277291573376675e-14
	-1.776477379166554e-05,-2.402356425643235e-12
	-1.746959778828218e-05,6.621021907477640e-14
	-2.957614686216470e-07,-2.491339560451779e-12
	-1.746959778828218e-05,6.621021907477640e-14
26		1.819700858609982e+00,0.000000000000000e+00
	-1.746959778828218e-01,6.775245319659217e-10
	1.000000000000000e+00,0.000000000000000e+00
	0.000000000000000e+00,0.000000000000000e+00
	1.096579751222413e-09,-4.408584326762725e-14
	1.097914098359880e-09,5.623375901922541e-14
	1.746959778828219e-05,-6.775245319659261e-14
	2.957614686131042e-07,2.549370313602119e-12
	-5.854652297586233e-10,-2.330336508416364e-14
	-1.776477379166554e-05,-2.458314495321363e-12
	-1.746959778828218e-05,6.775245319659217e-14
	-2.957614686216470e-07,-2.549370313602119e-12
	-1.746959778828218e-05,6.775245319659217e-14
27		1.862087136662866e+00,0.000000000000000e+00
	-1.746959778828218e-01,6.933061056590255e-10
	1.000000000000000e+00,0.000000000000000e+00
	0.000000000000000e+00,0.000000000000000e+00
	1.096579751222358e-09,-4.511273447455062e-14
	1.097914098359843e-09,5.754361153397800e-14
	1.746959778828219e-05,-6.933061056590271e-14
	2.957614686131041e-07,2.608752776637636e-12
	-5.854652297586025e-10,-2.384617018718465e-14
	-1.776477379166554e-05,-2.515575995884549e-12
	-1.746959778828218e-05,6.933061056590256e-14
	-2.957614686216470e-07,-2.608752776637637e-12
	-1.746959778828218e-05,6.933061056590256e-14
28		1.905460717963246e+00,0.000000000000000e+00
	-1.746959778828218e-01,7.094552794263406e-10
	1.000000000000000e+00,0.000000000000000e+00
	0.000000000000000e+00,0.000000000000000e+00
	1.096579751222300e-09,-4.616354505043001e-14
	1.097914098359805e-09,5.888397443324570e-14
	1.746959778828219e-05,-7.094552794263491e-14
	2.957614686131041e-07,2.669518434926253e-12
	-5.854652297585807e-10,-2.440161884528031e-14
	-1.776477379166554e-05,-2.574171288138338e-12
	-1.746959778828218e-05,7.094552794263407e-14
	-2.957614686216470e-07,-2.669518434926253e-12
	-1.746959778828218e-05,7.094552794263407e-14
29		1.949844599758044e+00,0.000000000000000e+00
	-1.746959778828218e-01,7.259806157735589e-10
	1.000000000000000e+00,0.000000000000000e+00
	0.000000000000000e+00,0.000000000000000e+00
	1.096579751222239e-09,-4.723883214894200e-14
	1.097914098359764e-09,6.025555839517935e-14
	1.746959778828219e-05,-7.259806157735597e-14
	2.957614686131041e-07,2.731699507224321e-12
	-5.854652297585577e-10,-2.497000556468129e-14
	-1.776477379166554e-05,-2.634131440082284e-12
	-1.746959778828218e-05,7.259806157735589e-14
	-2.957614686216470e-07,-2.731699507224322e-12
	-1.746959778828218e-05,7.259806157735589e-14
30		1.995262314968878e+00,0.000000000000000e+00
	-1.746959778828218e-01,7.428908766527494e-10
	1.000000000000000e+00,0.000000000000000e+00
	0.000000000000000e+00,0.000000000000000e+00
	1.096579751222176e-09,-4.833916590153915e-14
	1.097914098359722e-09,6.165909065175074e-14
	1.746959778828219e-05,-7.428908766527553e-14
	2.957614686131041e-07,2.795328962759437e-12
	-5.854652297585339e-10,-2.555163171154978e-14
	-1.776477379166554e-05,-2.695488243382612e-12
	-1.746959778828218e-05,7.428908766527495e-14
	-2.957614686216470e-07,-2.795328962759436e-12
	-1.746959778828218e-05,7.428908766527495e-14
31		2.041737944669527e+00,0.000000000000000e+00
	-1.746959778828218e-01,7.601950281080646e-10
	1.000000000000000e+00,0.000000000000000e+00
	0.000000000000000e+00,0.000000000000000e+00
	1.096579751222110e-09,-4.946512971974170e-14
	1.097914098359678e-09,6.309531537434039e-14
	1.746959778828219e-05,-7.601950281080680e-14
	2.957614686131041e-07,2.860440538711160e-12
	-5.854652297585089e-10,-2.614680567176764e-14
	-1.776477379166554e-05,-2.758274230228586e-12
	-1.746959778828218e-05,7.601950281080646e-14
	-2.957614686216470e-07,-2.860440538711161e-12
	-1.746959778828218e-05,7.601950281080646e-14
32		2.089296130854037e+00,0.000000000000000e+00
	-1.746959778828218e-01,7.779022450296535e-10
	1.000000000000000e+00,0.000000000000000e+00
	0.000000000000000e+00,0.000000000000000e+00
