LTspice 24.0.9 for Windows
Circuit: * GA CMOS Amp | W=1e-06 L=1e-06 Vbias=1.499731739065584
Start Time: Sat Sep  6 22:10:07 2025
solver = Normal
Maximum thread count: 2
tnom = 27
temp = 27
method = modified trap
AsciiRawFile = 1
Direct Newton iteration for .op point succeeded.
Semiconductor Device Operating Points:
                        --- BSIM4 MOSFETS ---
Name:      m1
Model:      n
Id:      4.35e-05
Vgs:     1.50e+00
Vds:     1.37e+00
Vbs:     0.00e+00
Vth:     2.35e-01
Vdsat:   8.70e-01
Gm:      2.05e-05
Gds:     3.02e-06
Gmb      2.35e-05
Cbd:     3.76e-16
Cbs:     8.00e-16


.measure op idd find i(vdd)
  Error: FIND can not be evaluated over an interval.

gain_db: MAX(db(v(out)/v(g)))=(29.7872dB,117.833°) FROM 1 TO 1e+09
gain_lin: MAX(mag(v(out)/v(g)))=(-2.80214dB,0°) FROM 1 TO 1e+09

Measurement "fc" FAIL'ed

Total elapsed time: 15.864 seconds.

