Title: * GA CMOS Amp | W=1.815856126986581e-05 L=9.474044604240344e-07 Vbias=0.7971356730411914
Date: Mon Sep  8 18:44:46 2025
Plotname: AC Analysis
Flags: complex forward log
No. Variables: 11
No. Points:          901
Offset:    0.0000000000000000e+00
Command: Linear Technology Corporation LTspice
Variables:
	0	frequency	frequency
	1	V(out)	voltage
	2	V(g)	voltage
	3	V(vdd)	voltage
	4	Id(M1)	device_current
	5	Ig(M1)	device_current
	6	Ib(M1)	device_current
	7	Is(M1)	device_current
	8	I(Rload)	device_current
	9	I(Vg)	device_current
	10	I(Vdd)	device_current
Values:
0		1.000000000000000e+00,0.000000000000000e+00
	-6.058197033224944e-01,3.657003808453909e-10
	1.000000000000000e+00,0.000000000000000e+00
	0.000000000000000e+00,0.000000000000000e+00
	6.058197033224943e-05,-3.657003808453909e-14
	8.344814987191499e-24,1.619415371035738e-13
	6.058197021298339e-13,-4.325522965097717e-15
	-6.058197093806914e-05,-1.210459760539370e-13
	-6.058197033224944e-05,3.657003808453909e-14
	-8.344814987191499e-24,-1.619415371035738e-13
	-6.058197033224944e-05,3.657003808453909e-14
1		1.023292992280754e+00,0.000000000000000e+00
	-6.058197033224944e-01,3.742186369934914e-10
	1.000000000000000e+00,0.000000000000000e+00
	0.000000000000000e+00,0.000000000000000e+00
	6.058197033224943e-05,-3.742186369934914e-14
	8.738094001291218e-24,1.657136400772608e-13
	6.058197021298339e-13,-4.426277338133963e-15
	-6.058197093806914e-05,-1.238654990397777e-13
	-6.058197033224944e-05,3.742186369934914e-14
	-8.738094001291218e-24,-1.657136400772608e-13
	-6.058197033224944e-05,3.742186369934914e-14
2		1.047128548050899e+00,0.000000000000000e+00
	-6.058197033224944e-01,3.829353088162950e-10
	1.000000000000000e+00,0.000000000000000e+00
	0.000000000000000e+00,0.000000000000000e+00
	6.058197033224943e-05,-3.829353088162950e-14
	9.149907684304345e-24,1.695736066163961e-13
	6.058197021298339e-13,-4.529378582003627e-15
	-6.058197093806914e-05,-1.267506971527630e-13
	-6.058197033224944e-05,3.829353088162950e-14
	-9.149907684304345e-24,-1.695736066163961e-13
	-6.058197033224944e-05,3.829353088162950e-14
3		1.071519305237606e+00,0.000000000000000e+00
	-6.058197033224944e-01,3.918550180085812e-10
	1.000000000000000e+00,0.000000000000000e+00
	0.000000000000000e+00,0.000000000000000e+00
	6.058197033224943e-05,-3.918550180085813e-14
	9.581129548265376e-24,1.735234833263315e-13
	6.058197021298339e-13,-4.634881362350831e-15
	-6.058197093806914e-05,-1.297031001631225e-13
	-6.058197033224944e-05,3.918550180085812e-14
	-9.581129548265376e-24,-1.735234833263314e-13
	-6.058197033224944e-05,3.918550180085812e-14
4		1.096478196143185e+00,0.000000000000000e+00
	-6.058197033224944e-01,4.009824939182298e-10
	1.000000000000000e+00,0.000000000000000e+00
	0.000000000000000e+00,0.000000000000000e+00
	6.058197033224943e-05,-4.009824939182298e-14
	1.003267427256269e-23,1.775653644839813e-13
	6.058197021298339e-13,-4.742841618146275e-15
	-6.058197093806914e-05,-1.327242734740120e-13
	-6.058197033224944e-05,4.009824939182298e-14
	-1.003267427256269e-23,-1.775653644839812e-13
	-6.058197033224944e-05,4.009824939182298e-14
5		1.122018454301963e+00,0.000000000000000e+00
	-6.058197033224944e-01,4.103225760537848e-10
	1.000000000000000e+00,0.000000000000000e+00
	0.000000000000000e+00,0.000000000000000e+00
	6.058197033224943e-05,-4.103225760537847e-14
	1.050549964409619e-23,1.817013931482359e-13
	6.058197021298339e-13,-4.853316591346595e-15
	-6.058197093806914e-05,-1.358158189515109e-13
	-6.058197033224944e-05,4.103225760537848e-14
	-1.050549964409619e-23,-1.817013931482359e-13
	-6.058197033224944e-05,4.103225760537848e-14
6		1.148153621496882e+00,0.000000000000000e+00
	-6.058197033224944e-01,4.198802166504247e-10
	1.000000000000000e+00,0.000000000000000e+00
	0.000000000000000e+00,0.000000000000000e+00
	6.058197033224943e-05,-4.198802166504247e-14
	1.100060858887168e-23,1.859337622962401e-13
	6.058197021298339e-13,-4.966364857244917e-15
	-6.058197093806914e-05,-1.389793757739527e-13
	-6.058197033224944e-05,4.198802166504247e-14
	-1.100060858887168e-23,-1.859337622962401e-13
	-6.058197033224944e-05,4.198802166504247e-14
7		1.174897554939529e+00,0.000000000000000e+00
	-6.058197033224944e-01,4.296604832957043e-10
	1.000000000000000e+00,0.000000000000000e+00
	0.000000000000000e+00,0.000000000000000e+00
	6.058197033224943e-05,-4.296604832957043e-14
	1.151905129934146e-23,1.902647159861379e-13
	6.058197021298339e-13,-5.082046355528111e-15
	-6.058197093806914e-05,-1.422166213010394e-13
	-6.058197033224944e-05,4.296604832957043e-14
	-1.151905129934146e-23,-1.902647159861379e-13
	-6.058197033224944e-05,4.296604832957043e-14
8		1.202264434617413e+00,0.000000000000000e+00
	-6.058197033224944e-01,4.396685616164563e-10
	1.000000000000000e+00,0.000000000000000e+00
	0.000000000000000e+00,0.000000000000000e+00
	6.058197033224943e-05,-4.396685616164563e-14
	1.206192746200325e-23,1.946965505469029e-13
	6.058197021298339e-13,-5.200422422057856e-15
	-6.058197093806914e-05,-1.455292719631995e-13
	-6.058197033224944e-05,4.396685616164563e-14
	-1.206192746200325e-23,-1.946965505469029e-13
	-6.058197033224944e-05,4.396685616164563e-14
9		1.230268770812381e+00,0.000000000000000e+00
	-6.058197033224944e-01,4.499097580282786e-10
	1.000000000000000e+00,0.000000000000000e+00
	0.000000000000000e+00,0.000000000000000e+00
	6.058197033224943e-05,-4.499097580282786e-14
	1.263038858998273e-23,1.992316157958814e-13
	6.058197021298339e-13,-5.321555821391529e-15
	-6.058197093806914e-05,-1.489190841716620e-13
	-6.058197033224944e-05,4.499097580282786e-14
	-1.263038858998273e-23,-1.992316157958814e-13
	-6.058197033224944e-05,4.499097580282786e-14
10		1.258925411794167e+00,0.000000000000000e+00
	-6.058197033224944e-01,4.603895025490673e-10
	1.000000000000000e+00,0.000000000000000e+00
	0.000000000000000e+00,0.000000000000000e+00
	6.058197033224943e-05,-4.603895025490674e-14
	1.322564046554727e-23,2.038723162846970e-13
	6.058197021298339e-13,-5.445510780060776e-15
	-6.058197093806914e-05,-1.523878552497295e-13
	-6.058197033224944e-05,4.603895025490674e-14
	-1.322564046554727e-23,-2.038723162846970e-13
	-6.058197033224944e-05,4.603895025490674e-14
11		1.288249551693134e+00,0.000000000000000e+00
	-6.058197033224944e-01,4.711133516780830e-10
	1.000000000000000e+00,0.000000000000000e+00
	0.000000000000000e+00,0.000000000000000e+00
	6.058197033224943e-05,-4.711133516780830e-14
	1.384894569773173e-23,2.086211125741760e-13
	6.058197021298339e-13,-5.572353020625501e-15
	-6.058197093806914e-05,-1.559374243857422e-13
	-6.058197033224944e-05,4.711133516780830e-14
	-1.384894569773173e-23,-2.086211125741760e-13
	-6.058197033224944e-05,4.711133516780830e-14
12		1.318256738556407e+00,0.000000000000000e+00
	-6.058197033224944e-01,4.820869913420808e-10
	1.000000000000000e+00,0.000000000000000e+00
	0.000000000000000e+00,0.000000000000000e+00
	6.058197033224943e-05,-4.820869913420808e-14
	1.450162640050158e-23,2.134805225389686e-13
	6.058197021298339e-13,-5.702149796520582e-15
	-6.058197093806914e-05,-1.595696736082399e-13
	-6.058197033224944e-05,4.820869913420808e-14
	-1.450162640050158e-23,-2.134805225389686e-13
	-6.058197033224944e-05,4.820869913420808e-14
13		1.348962882591653e+00,0.000000000000000e+00
	-6.058197033224944e-01,4.933162399100640e-10
	1.000000000000000e+00,0.000000000000000e+00
	0.000000000000000e+00,0.000000000000000e+00
	6.058197033224943e-05,-4.933162399100640e-14
	1.518506699713382e-23,2.184531227025602e-13
	6.058197021298339e-13,-5.834969927714624e-15
	-6.058197093806914e-05,-1.632865287838391e-13
	-6.058197033224944e-05,4.933162399100640e-14
	-1.518506699713382e-23,-2.184531227025601e-13
	-6.058197033224944e-05,4.933162399100640e-14
14		1.380384264602885e+00,0.000000000000000e+00
	-6.058197033224944e-01,5.048070512782597e-10
	1.000000000000000e+00,0.000000000000000e+00
	0.000000000000000e+00,0.000000000000000e+00
	6.058197033224943e-05,-5.048070512782598e-14
	1.590071715676437e-23,2.235415496033775e-13
	6.058197021298339e-13,-5.970883837199276e-15
	-6.058197093806914e-05,-1.670899606383523e-13
	-6.058197033224944e-05,5.048070512782598e-14
	-1.590071715676437e-23,-2.235415496033775e-13
	-6.058197033224944e-05,5.048070512782598e-14
15		1.412537544622754e+00,0.000000000000000e+00
	-6.058197033224944e-01,5.165655180269545e-10
	1.000000000000000e+00,0.000000000000000e+00
	0.000000000000000e+00,0.000000000000000e+00
	6.058197033224943e-05,-5.165655180269545e-14
	1.665009486933071e-23,2.287485011927168e-13
	6.058197021298339e-13,-6.109963588328505e-15
	-6.058197093806914e-05,-1.709819858016929e-13
	-6.058197033224944e-05,5.165655180269546e-14
	-1.665009486933071e-23,-2.287485011927168e-13
	-6.058197033224944e-05,5.165655180269546e-14
16		1.445439770745927e+00,0.000000000000000e+00
	-6.058197033224944e-01,5.285978746508599e-10
	1.000000000000000e+00,0.000000000000000e+00
	0.000000000000000e+00,0.000000000000000e+00
	6.058197033224943e-05,-5.285978746508599e-14
	1.743478966543198e-23,2.340767382652328e-13
	6.058197021298339e-13,-6.252282923027091e-15
	-6.058197093806914e-05,-1.749646678771197e-13
	-6.058197033224944e-05,5.285978746508600e-14
	-1.743478966543198e-23,-2.340767382652328e-13
	-6.058197033224944e-05,5.285978746508600e-14
17		1.479108388168207e+00,0.000000000000000e+00
	-6.058197033224944e-01,5.409105008647254e-10
	1.000000000000000e+00,0.000000000000000e+00
	0.000000000000000e+00,0.000000000000000e+00
	6.058197033224943e-05,-5.409105008647255e-14
	1.825646598793662e-23,2.395290859227489e-13
	6.058197021298339e-13,-6.397917300890260e-15
	-6.058197093806914e-05,-1.790401185353861e-13
	-6.058197033224944e-05,5.409105008647254e-14
	-1.825646598793662e-23,-2.395290859227489e-13
	-6.058197033224944e-05,5.409105008647254e-14
18		1.513561248436208e+00,0.000000000000000e+00
	-6.058197033224944e-01,5.535099249859464e-10
	1.000000000000000e+00,0.000000000000000e+00
	0.000000000000000e+00,0.000000000000000e+00
	6.058197033224943e-05,-5.535099249859463e-14
	1.911686672248870e-23,2.451084350721637e-13
	6.058197021298339e-13,-6.546943939192837e-15
	-6.058197093806914e-05,-1.832104986343762e-13
	-6.058197033224944e-05,5.535099249859464e-14
	-1.911686672248870e-23,-2.451084350721636e-13
	-6.058197033224944e-05,5.535099249859464e-14
19		1.548816618912481e+00,0.000000000000000e+00
	-6.058197033224944e-01,5.664028273959648e-10
	1.000000000000000e+00,0.000000000000000e+00
	0.000000000000000e+00,0.000000000000000e+00
	6.058197033224943e-05,-5.664028273959648e-14
	2.001781689440216e-23,2.508177439582473e-13
	6.058197021298339e-13,-6.699441853830927e-15
	-6.058197093806914e-05,-1.874780193648199e-13
	-6.058197033224944e-05,5.664028273959648e-14
	-2.001781689440216e-23,-2.508177439582473e-13
	-6.058197033224944e-05,5.664028273959648e-14
20		1.584893192461113e+00,0.000000000000000e+00
	-6.058197033224944e-01,5.795960440822963e-10
	1.000000000000000e+00,0.000000000000000e+00
	0.000000000000000e+00,0.000000000000000e+00
	6.058197033224943e-05,-5.795960440822963e-14
	2.096122753978409e-23,2.566600397321429e-13
	6.058197021298339e-13,-6.855491901217625e-15
	-6.058197093806914e-05,-1.918449434226956e-13
	-6.058197033224944e-05,5.795960440822963e-14
	-2.096122753978409e-23,-2.566600397321429e-13
	-6.058197033224944e-05,5.795960440822963e-14
21		1.621810097358929e+00,0.000000000000000e+00
	-6.058197033224944e-01,5.930965702630608e-10
	1.000000000000000e+00,0.000000000000000e+00
	0.000000000000000e+00,0.000000000000000e+00
	6.058197033224943e-05,-5.930965702630608e-14
	2.194909975909864e-23,2.626384200564017e-13
	6.058197021298339e-13,-7.015176821153452e-15
	-6.058197093806914e-05,-1.963135862089422e-13
	-6.058197033224944e-05,5.930965702630608e-14
	-2.194909975909864e-23,-2.626384200564017e-13
	-6.058197033224944e-05,5.930965702630608e-14
22		1.659586907437560e+00,0.000000000000000e+00
	-6.058197033224944e-01,6.069115640959399e-10
	1.000000000000000e+00,0.000000000000000e+00
	0.000000000000000e+00,0.000000000000000e+00
	6.058197033224943e-05,-6.069115640959401e-14
	2.298352896176931e-23,2.687560547474050e-13
	6.058197021298339e-13,-7.178581280696675e-15
	-6.058197093806914e-05,-2.008863170571143e-13
	-6.058197033224944e-05,6.069115640959400e-14
	-2.298352896176931e-23,-2.687560547474050e-13
	-6.058197033224944e-05,6.069115640959400e-14
23		1.698243652461743e+00,0.000000000000000e+00
	-6.058197033224944e-01,6.210483504735272e-10
	1.000000000000000e+00,0.000000000000000e+00
	0.000000000000000e+00,0.000000000000000e+00
	6.058197033224943e-05,-6.210483504735272e-14
	2.406670931082330e-23,2.750161874560422e-13
	6.058197021298339e-13,-7.345791919054694e-15
	-6.058197093806914e-05,-2.055655604896348e-13
	-6.058197033224944e-05,6.210483504735272e-14
	-2.406670931082330e-23,-2.750161874560421e-13
	-6.058197033224944e-05,6.210483504735272e-14
24		1.737800828749374e+00,0.000000000000000e+00
	-6.058197033224944e-01,6.355144249070821e-10
	1.000000000000000e+00,0.000000000000000e+00
	0.000000000000000e+00,0.000000000000000e+00
	6.058197033224943e-05,-6.355144249070821e-14
	2.520093837700546e-23,2.814221373875382e-13
	6.058197021298339e-13,-7.516897393521331e-15
	-6.058197093806914e-05,-2.103537975033087e-13
	-6.058197033224944e-05,6.355144249070821e-14
	-2.520093837700546e-23,-2.814221373875381e-13
	-6.058197033224944e-05,6.355144249070821e-14
25		1.778279410038922e+00,0.000000000000000e+00
	-6.058197033224944e-01,6.503174575007506e-10
	1.000000000000000e+00,0.000000000000000e+00
	0.000000000000000e+00,0.000000000000000e+00
	6.058197033224943e-05,-6.503174575007507e-14
	2.638862201223392e-23,2.879773010613394e-13
	6.058197021298339e-13,-7.691988426483776e-15
	-6.058197093806914e-05,-2.152535668847806e-13
	-6.058197033224944e-05,6.503174575007507e-14
	-2.638862201223392e-23,-2.879773010613394e-13
	-6.058197033224944e-05,6.503174575007507e-14
26		1.819700858609982e+00,0.000000000000000e+00
	-6.058197033224944e-01,6.654652970183552e-10
	1.000000000000000e+00,0.000000000000000e+00
	0.000000000000000e+00,0.000000000000000e+00
	6.058197033224943e-05,-6.654652970183553e-14
	2.763227945273450e-23,2.946851541119936e-13
	6.058197021298339e-13,-7.871157853525521e-15
	-6.058197093806914e-05,-2.202674665566325e-13
	-6.058197033224944e-05,6.654652970183553e-14
	-2.763227945273450e-23,-2.946851541119936e-13
	-6.058197033224944e-05,6.654652970183553e-14
27		1.862087136662866e+00,0.000000000000000e+00
	-6.058197033224944e-01,6.809659750449136e-10
	1.000000000000000e+00,0.000000000000000e+00
	0.000000000000000e+00,0.000000000000000e+00
	6.058197033224943e-05,-6.809659750449136e-14
	2.893454866267859e-23,3.015492531319771e-13
	6.058197021298339e-13,-8.054500672648301e-15
	-6.058197093806914e-05,-2.253981549548374e-13
	-6.058197033224944e-05,6.809659750449136e-14
	-2.893454866267859e-23,-3.015492531319770e-13
	-6.058197033224944e-05,6.809659750449136e-14
28		1.905460717963246e+00,0.000000000000000e+00
	-6.058197033224944e-01,6.968277102450908e-10
	1.000000000000000e+00,0.000000000000000e+00
	0.000000000000000e+00,0.000000000000000e+00
	6.058197033224943e-05,-6.968277102450910e-14
	3.029819192965872e-23,3.085732375574474e-13
	6.058197021298339e-13,-8.242114094641570e-15
	-6.058197093806914e-05,-2.306483524382967e-13
	-6.058197033224944e-05,6.968277102450909e-14
	-3.029819192965872e-23,-3.085732375574474e-13
	-6.058197033224944e-05,6.968277102450909e-14
29		1.949844599758044e+00,0.000000000000000e+00
	-6.058197033224944e-01,7.130589127208454e-10
	1.000000000000000e+00,0.000000000000000e+00
	0.000000000000000e+00,0.000000000000000e+00
	6.058197033224943e-05,-7.130589127208454e-14
	3.172610172387102e-23,3.157608315979204e-13
	6.058197021298339e-13,-8.434097594625196e-15
	-6.058197093806914e-05,-2.360208427312106e-13
	-6.058197033224944e-05,7.130589127208454e-14
	-3.172610172387102e-23,-3.157608315979203e-13
	-6.058197033224944e-05,7.130589127208454e-14
30		1.995262314968878e+00,0.000000000000000e+00
	-6.058197033224944e-01,7.296681884705749e-10
	1.000000000000000e+00,0.000000000000000e+00
	0.000000000000000e+00,0.000000000000000e+00
	6.058197033224943e-05,-7.296681884705749e-14
	3.322130683343220e-23,3.231158462108952e-13
	6.058197021298339e-13,-8.630552964791906e-15
	-6.058197093806914e-05,-2.415184743990458e-13
	-6.058197033224944e-05,7.296681884705749e-14
	-3.322130683343220e-23,-3.231158462108952e-13
	-6.058197033224944e-05,7.296681884705749e-14
31		2.041737944669527e+00,0.000000000000000e+00
	-6.058197033224944e-01,7.466643439521317e-10
	1.000000000000000e+00,0.000000000000000e+00
	0.000000000000000e+00,0.000000000000000e+00
	6.058197033224943e-05,-7.466643439521318e-14
	3.478697878884527e-23,3.306421811224749e-13
	6.058197021298339e-13,-8.831584368379480e-15
	-6.058197093806914e-05,-2.471441623588822e-13
	-6.058197033224944e-05,7.466643439521318e-14
	-3.478697878884527e-23,-3.306421811224748e-13
	-6.058197033224944e-05,7.466643439521318e-14
32		2.089296130854037e+00,0.000000000000000e+00
	-6.058197033224944e-01,7.640563907521231e-10
	1.000000000000000e+00,0.000000000000000e+00
	0.000000000000000e+00,0.000000000000000e+00
	6.058197033224943e-05,-7.640563907521232e-14
	3.642643859024099e-23,3.383438268950523e-13
	6.058197021298339e-13,-9.037298394898884e-15
	-6.058197093806914e-05,-2.529008894249411e-13
	-6.058197033224944e-05,7.640563907521230e-14
	-3.642643859024099e-23,-3.383438268950523e-13
	-6.058197033224944e-05,7.640563907521230e-14
33		2.137962089502230e+00,0.000000000000000e+00
	-6.058197033224944e-01,7.818535503639732e-10
	1.000000000000000e+00,0.000000000000000e+00
	0.000000000000000e+00,0.000000000000000e+00
	6.058197033224943e-05,-7.818535503639731e-14
	3.814316375166430e-23,3.462248670431597e-13
	6.058197021298339e-13,-9.247804116650266e-15
	-6.058197093806914e-05,-2.587917078901121e-13
	-6.058197033224944e-05,7.818535503639733e-14
	-3.814316375166430e-23,-3.462248670431596e-13
	-6.058197033224944e-05,7.818535503639733e-14
34		2.187761623949550e+00,0.000000000000000e+00
	-6.058197033224944e-01,8.000652590772814e-10
	1.000000000000000e+00,0.000000000000000e+00
	0.000000000000000e+00,0.000000000000000e+00
	6.058197033224943e-05,-8.000652590772814e-14
	3.994079567734794e-23,3.542894801986011e-13
	6.058197021298339e-13,-9.463213146553292e-15
	-6.058197093806914e-05,-2.648197411443197e-13
	-6.058197033224944e-05,8.000652590772814e-14
	-3.994079567734794e-23,-3.542894801986010e-13
	-6.058197033224944e-05,8.000652590772814e-14
35		2.238721138568337e+00,0.000000000000000e+00
	-6.058197033224944e-01,8.187011729810680e-10
	1.000000000000000e+00,0.000000000000000e+00
	0.000000000000000e+00,0.000000000000000e+00
	6.058197033224943e-05,-8.187011729810681e-14
	4.182314738561899e-23,3.625419423260195e-13
	6.058197021298339e-13,-9.683639697327062e-15
	-6.058197093806914e-05,-2.709881853305856e-13
	-6.058197033224944e-05,8.187011729810679e-14
	-4.182314738561899e-23,-3.625419423260194e-13
	-6.058197033224944e-05,8.187011729810679e-14
36		2.290867652767770e+00,0.000000000000000e+00
	-6.058197033224944e-01,8.377711730835603e-10
	1.000000000000000e+00,0.000000000000000e+00
	0.000000000000000e+00,0.000000000000000e+00
	6.058197033224943e-05,-8.377711730835604e-14
	4.379421159682199e-23,3.709866289900690e-13
	6.058197021298339e-13,-9.909200642046492e-15
	-6.058197093806914e-05,-2.773003110396665e-13
	-6.058197033224944e-05,8.377711730835604e-14
	-4.379421159682199e-23,-3.709866289900690e-13
	-6.058197033224944e-05,8.377711730835604e-14
37		2.344228815319919e+00,0.000000000000000e+00
	-6.058197033224944e-01,8.572853705512341e-10
	1.000000000000000e+00,0.000000000000000e+00
	0.000000000000000e+00,0.000000000000000e+00
	6.058197033224943e-05,-8.572853705512340e-14
	4.585816920241407e-23,3.796280176753977e-13
	6.058197021298339e-13,-1.014001557611015e-14
	-6.058197093806914e-05,-2.837594650441641e-13
	-6.058197033224944e-05,8.572853705512341e-14
	-4.585816920241407e-23,-3.796280176753976e-13
	-6.058197033224944e-05,8.572853705512341e-14
38		2.398832919019488e+00,0.000000000000000e+00
	-6.058197033224944e-01,8.772541120698874e-10
	1.000000000000000e+00,0.000000000000000e+00
