Title: * GA CMOS Amp | W=1.734729561550202e-05 L=9.634188005941925e-07 Vbias=1.2974359162909153
Date: Sat Sep  6 22:03:48 2025
Plotname: AC Analysis
Flags: complex forward log
No. Variables: 13
No. Points:          901
Offset:    0.0000000000000000e+00
Command: Linear Technology Corporation LTspice
Variables:
	0	frequency	frequency
	1	V(out)	voltage
	2	V(g)	voltage
	3	V(vdd)	voltage
	4	V(m1#dbody)	voltage
	5	V(m1#sbody)	voltage
	6	Id(M1)	device_current
	7	Ig(M1)	device_current
	8	Ib(M1)	device_current
	9	Is(M1)	device_current
	10	I(Rload)	device_current
	11	I(Vg)	device_current
	12	I(Vdd)	device_current
Values:
0		1.000000000000000e+00,0.000000000000000e+00
	1.575019339681381e-02,1.290329117120217e-09
	1.000000000000000e+00,0.000000000000000e+00
	0.000000000000000e+00,0.000000000000000e+00
	1.368460094386336e-04,1.270775824201349e-13
	1.368460093196129e-04,1.208109652588791e-13
	-1.575019339681377e-06,-1.290329117120212e-13
	9.663456935930020e-05,4.323462233771944e-12
	-7.298453836690751e-05,-6.488608719740640e-14
	-2.207501165271131e-05,-4.129543234862516e-12
	1.575019339681381e-06,1.290329117120218e-13
	-9.663456935926629e-05,-4.323462233771945e-12
	1.575019339681381e-06,1.290329117120218e-13
1		1.023292992280754e+00,0.000000000000000e+00
	1.575019339681381e-02,1.320384743284931e-09
	1.000000000000000e+00,0.000000000000000e+00
	0.000000000000000e+00,0.000000000000000e+00
	1.368460094386336e-04,1.300375995665040e-13
	1.368460093196129e-04,1.236250141400846e-13
	-1.575019339681377e-06,-1.320384743284928e-13
	9.663456935930020e-05,4.424168606209326e-12
	-7.298453836690751e-05,-6.639747832562392e-14
	-2.207501165271131e-05,-4.225732653555209e-12
	1.575019339681381e-06,1.320384743284931e-13
	-9.663456935926629e-05,-4.424168606209328e-12
	1.575019339681381e-06,1.320384743284931e-13
2		1.047128548050899e+00,0.000000000000000e+00
	1.575019339681381e-02,1.351140454917892e-09
	1.000000000000000e+00,0.000000000000000e+00
	0.000000000000000e+00,0.000000000000000e+00
	1.368460094386336e-04,1.330665643694143e-13
	1.368460093196129e-04,1.265046106401577e-13
	-1.575019339681377e-06,-1.351140454917891e-13
	9.663456935930020e-05,4.527220731402515e-12
	-7.298453836690751e-05,-6.794407427572421e-14
	-2.207501165271131e-05,-4.324162611635001e-12
	1.575019339681381e-06,1.351140454917893e-13
	-9.663456935926629e-05,-4.527220731402514e-12
	1.575019339681381e-06,1.351140454917893e-13
3		1.071519305237606e+00,0.000000000000000e+00
	1.575019339681381e-02,1.382612559104509e-09
	1.000000000000000e+00,0.000000000000000e+00
	0.000000000000000e+00,0.000000000000000e+00
	1.368460094386336e-04,1.361660828260976e-13
	1.368460093196129e-04,1.294512815592787e-13
	-1.575019339681377e-06,-1.382612559104508e-13
	9.663456935930020e-05,4.632673248952345e-12
	-7.298453836690751e-05,-6.952669507335165e-14
	-2.207501165271131e-05,-4.424885297968542e-12
	1.575019339681381e-06,1.382612559104509e-13
	-9.663456935926629e-05,-4.632673248952343e-12
	1.575019339681381e-06,1.382612559104509e-13
4		1.096478196143185e+00,0.000000000000000e+00
	1.575019339681381e-02,1.414817742771004e-09
	1.000000000000000e+00,0.000000000000000e+00
	0.000000000000000e+00,0.000000000000000e+00
	1.368460094386336e-04,1.393377983422664e-13
	1.368460093196129e-04,1.324665892613727e-13
	-1.575019339681377e-06,-1.414817742771004e-13
	9.663456935930020e-05,4.740582071179445e-12
	-7.298453836690751e-05,-7.114617984500155e-14
	-2.207501165271131e-05,-4.527954117057343e-12
	1.575019339681381e-06,1.414817742771004e-13
	-9.663456935926629e-05,-4.740582071179446e-12
	1.575019339681381e-06,1.414817742771004e-13
5		1.122018454301963e+00,0.000000000000000e+00
	1.575019339681381e-02,1.447773081532043e-09
	1.000000000000000e+00,0.000000000000000e+00
	0.000000000000000e+00,0.000000000000000e+00
	1.368460094386336e-04,1.425833926034701e-13
	1.368460093196129e-04,1.355521325024957e-13
	-1.575019339681377e-06,-1.447773081532036e-13
	9.663456935930020e-05,4.851004412769710e-12
	-7.298453836690751e-05,-7.280338726293633e-14
	-2.207501165271132e-05,-4.633423717353570e-12
	1.575019339681381e-06,1.447773081532043e-13
	-9.663456935926629e-05,-4.851004412769710e-12
	1.575019339681381e-06,1.447773081532043e-13
6		1.148153621496882e+00,0.000000000000000e+00
	1.575019339681381e-02,1.481496048744453e-09
	1.000000000000000e+00,0.000000000000000e+00
	0.000000000000000e+00,0.000000000000000e+00
	1.368460094386336e-04,1.459045864667464e-13
	1.368460093196129e-04,1.387095472785161e-13
	-1.575019339681377e-06,-1.481496048744450e-13
	9.663456935930020e-05,4.963998821110259e-12
	-7.298453836690751e-05,-7.449919600046466e-14
	-2.207501165271132e-05,-4.741350020235350e-12
	1.575019339681381e-06,1.481496048744453e-13
	-9.663456935926629e-05,-4.963998821110259e-12
	1.575019339681381e-06,1.481496048744453e-13
7		1.174897554939529e+00,0.000000000000000e+00
	1.575019339681381e-02,1.516004524771825e-09
	1.000000000000000e+00,0.000000000000000e+00
	0.000000000000000e+00,0.000000000000000e+00
	1.368460094386336e-04,1.493031408730430e-13
	1.368460093196129e-04,1.419405076925415e-13
	-1.575019339681377e-06,-1.516004524771827e-13
	9.663456935930020e-05,5.079625207332053e-12
	-7.298453836690751e-05,-7.623450519782587e-14
	-2.207501165271132e-05,-4.851790249657044e-12
	1.575019339681381e-06,1.516004524771825e-13
	-9.663456935926629e-05,-5.079625207332052e-12
	1.575019339681381e-06,1.516004524771825e-13
8		1.202264434617413e+00,0.000000000000000e+00
	1.575019339681381e-02,1.551316806464923e-09
	1.000000000000000e+00,0.000000000000000e+00
	0.000000000000000e+00,0.000000000000000e+00
	1.368460094386336e-04,1.527808577808912e-13
	1.368460093196129e-04,1.452467268425502e-13
	-1.575019339681377e-06,-1.551316806464921e-13
	9.663456935930020e-05,5.197944878075563e-12
	-7.298453836690751e-05,-7.801023493892595e-14
	-2.207501165271132e-05,-4.964802962490145e-12
	1.575019339681381e-06,1.551316806464923e-13
	-9.663456935926629e-05,-5.197944878075562e-12
	1.575019339681381e-06,1.551316806464923e-13
9		1.230268770812381e+00,0.000000000000000e+00
	1.575019339681381e-02,1.587451616862915e-09
	1.000000000000000e+00,0.000000000000000e+00
	0.000000000000000e+00,0.000000000000000e+00
	1.368460094386336e-04,1.563395811218284e-13
	1.368460093196129e-04,1.486299577296985e-13
	-1.575019339681377e-06,-1.587451616862913e-13
	9.663456935930020e-05,5.319020567996361e-12
	-7.298453836690751e-05,-7.982732673917816e-14
	-2.207501165271132e-05,-5.080448079570892e-12
	1.575019339681381e-06,1.587451616862915e-13
	-9.663456935926629e-05,-5.319020567996362e-12
	1.575019339681381e-06,1.587451616862915e-13
10		1.258925411794167e+00,0.000000000000000e+00
	1.575019339681381e-02,1.624428115120573e-09
	1.000000000000000e+00,0.000000000000000e+00
	0.000000000000000e+00,0.000000000000000e+00
	1.368460094386336e-04,1.599811977780755e-13
	1.368460093196129e-04,1.520919941877851e-13
	-1.575019339681377e-06,-1.624428115120574e-13
	9.663456935930020e-05,5.442916473027873e-12
	-7.298453836690751e-05,-8.168674404470707e-14
	-2.207501165271132e-05,-5.198786917471109e-12
	1.575019339681381e-06,1.624428115120573e-13
	-9.663456935926629e-05,-5.442916473027873e-12
	1.575019339681381e-06,1.624428115120573e-13
11		1.288249551693134e+00,0.000000000000000e+00
	1.575019339681381e-02,1.662265906666717e-09
	1.000000000000000e+00,0.000000000000000e+00
	0.000000000000000e+00,0.000000000000000e+00
	1.368460094386336e-04,1.637076385829860e-13
	1.368460093196129e-04,1.556346718343657e-13
	-1.575019339681381e-06,-1.662265906666722e-13
	9.663456935930021e-05,5.569698284418903e-12
	-7.298453836690751e-05,-8.358947274318038e-14
	-2.207501165271132e-05,-5.319882221009050e-12
	1.575019339681381e-06,1.662265906666717e-13
	-9.663456935926629e-05,-5.569698284418901e-12
	1.575019339681381e-06,1.662265906666717e-13
12		1.318256738556407e+00,0.000000000000000e+00
	1.575019339681381e-02,1.700985053599266e-09
	1.000000000000000e+00,0.000000000000000e+00
	0.000000000000000e+00,0.000000000000000e+00
	1.368460094386336e-04,1.675208793448000e-13
	1.368460093196129e-04,1.592598690440213e-13
	-1.575019339681381e-06,-1.700985053599266e-13
	9.663456935930021e-05,5.699433223564002e-12
	-7.298453836690751e-05,-8.553652168653958e-14
	-2.207501165271132e-05,-5.443798196517535e-12
	1.575019339681381e-06,1.700985053599266e-13
	-9.663456935926629e-05,-5.699433223564001e-12
	1.575019339681381e-06,1.700985053599266e-13
13		1.348962882591653e+00,0.000000000000000e+00
	1.575019339681381e-02,1.740606085322432e-09
	1.000000000000000e+00,0.000000000000000e+00
	0.000000000000000e+00,0.000000000000000e+00
	1.368460094386336e-04,1.714229418942436e-13
	1.368460093196129e-04,1.629695079442976e-13
	-1.575019339681381e-06,-1.740606085322433e-13
	9.663456935930021e-05,5.832190077645152e-12
	-7.298453836690751e-05,-8.752892322590672e-14
	-2.207501165271132e-05,-5.570600545887001e-12
	1.575019339681381e-06,1.740606085322432e-13
	-9.663456935926629e-05,-5.832190077645151e-12
	1.575019339681381e-06,1.740606085322432e-13
14		1.380384264602885e+00,0.000000000000000e+00
	1.575019339681381e-02,1.781150009431681e-09
	1.000000000000000e+00,0.000000000000000e+00
	0.000000000000000e+00,0.000000000000000e+00
	1.368460094386336e-04,1.754158951565304e-13
	1.368460093196129e-04,1.667655554348425e-13
	-1.575019339681381e-06,-1.781150009431676e-13
	9.663456935930021e-05,5.968039236103631e-12
	-7.298453836690751e-05,-8.956773375895049e-14
	-2.207501165271132e-05,-5.700356501401512e-12
	1.575019339681381e-06,1.781150009431681e-13
	-9.663456935926629e-05,-5.968039236103630e-12
	1.575019339681381e-06,1.781150009431681e-13
15		1.412537544622754e+00,0.000000000000000e+00
	1.575019339681381e-02,1.822638322852238e-09
	1.000000000000000e+00,0.000000000000000e+00
	0.000000000000000e+00,0.000000000000000e+00
	1.368460094386336e-04,1.795018562483330e-13
	1.368460093196129e-04,1.706500242302819e-13
	-1.575019339681381e-06,-1.822638322852239e-13
	9.663456935930021e-05,6.107052727961430e-12
	-7.298453836690751e-05,-9.165403429000234e-14
	-2.207501165271132e-05,-5.833134861386204e-12
	1.575019339681381e-06,1.822638322852238e-13
	-9.663456935926629e-05,-6.107052727961430e-12
	1.575019339681381e-06,1.822638322852238e-13
16		1.445439770745927e+00,0.000000000000000e+00
	1.575019339681381e-02,1.865093023237042e-09
	1.000000000000000e+00,0.000000000000000e+00
	0.000000000000000e+00,0.000000000000000e+00
	1.368460094386336e-04,1.836829916003064e-13
	1.368460093196129e-04,1.746249739273883e-13
	-1.575019339681381e-06,-1.865093023237032e-13
	9.663456935930021e-05,6.249304260011991e-12
	-7.298453836690751e-05,-9.378893100321933e-14
	-2.207501165271132e-05,-5.969006026685069e-12
	1.575019339681381e-06,1.865093023237042e-13
	-9.663456935926629e-05,-6.249304260011992e-12
	1.575019339681381e-06,1.865093023237042e-13
17		1.479108388168207e+00,0.000000000000000e+00
	1.575019339681381e-02,1.908536620630190e-09
	1.000000000000000e+00,0.000000000000000e+00
	0.000000000000000e+00,0.000000000000000e+00
	1.368460094386336e-04,1.879615181057581e-13
	1.368460093196129e-04,1.786925120971059e-13
	-1.575019339681381e-06,-1.908536620630182e-13
	9.663456935930021e-05,6.394869255900535e-12
	-7.298453836690751e-05,-9.597355584909748e-14
	-2.207501165271132e-05,-6.108042037988419e-12
	1.575019339681381e-06,1.908536620630191e-13
	-9.663456935926629e-05,-6.394869255900536e-12
	1.575019339681381e-06,1.908536620630191e-13
18		1.513561248436208e+00,0.000000000000000e+00
	1.575019339681381e-02,1.952992149402066e-09
	1.000000000000000e+00,0.000000000000000e+00
	0.000000000000000e+00,0.000000000000000e+00
	1.368460094386336e-04,1.923397042960744e-13
	1.368460093196129e-04,1.828547954020124e-13
	-1.575019339681381e-06,-1.952992149402068e-13
	9.663456935930021e-05,6.543824896114659e-12
	-7.298453836690751e-05,-9.820906714464707e-14
	-2.207501165271132e-05,-6.250316614029805e-12
	1.575019339681381e-06,1.952992149402066e-13
	-9.663456935926629e-05,-6.543824896114659e-12
	1.575019339681381e-06,1.952992149402066e-13
19		1.548816618912481e+00,0.000000000000000e+00
	1.575019339681381e-02,1.998483180462461e-09
	1.000000000000000e+00,0.000000000000000e+00
	0.000000000000000e+00,0.000000000000000e+00
	1.368460094386336e-04,1.968198715435254e-13
	1.368460093196129e-04,1.871140307398103e-13
	-1.575019339681381e-06,-1.998483180462460e-13
	9.663456935930021e-05,6.696250158906465e-12
	-7.298453836690751e-05,-1.004966501875474e-13
	-2.207501165271132e-05,-6.395905190672671e-12
	1.575019339681381e-06,1.998483180462461e-13
	-9.663456935926629e-05,-6.696250158906466e-12
	1.575019339681381e-06,1.998483180462461e-13
20		1.584893192461113e+00,0.000000000000000e+00
	1.575019339681381e-02,2.045033833758190e-09
	1.000000000000000e+00,0.000000000000000e+00
	0.000000000000000e+00,0.000000000000000e+00
	1.368460094386336e-04,2.014043952920877e-13
	1.368460093196129e-04,1.914724764134534e-13
	-1.575019339681381e-06,-2.045033833758190e-13
	9.663456935930021e-05,6.852225862167870e-12
	-7.298453836690751e-05,-1.028375178846075e-13
	-2.207501165271132e-05,-6.544884960907444e-12
	1.575019339681381e-06,2.045033833758190e-13
	-9.663456935926629e-05,-6.852225862167872e-12
	1.575019339681381e-06,2.045033833758190e-13
21		1.621810097358929e+00,0.000000000000000e+00
	1.575019339681381e-02,2.092668791061801e-09
	1.000000000000000e+00,0.000000000000000e+00
	0.000000000000000e+00,0.000000000000000e+00
	1.368460094386336e-04,2.060957063169363e-13
	1.368460093196129e-04,1.959324433285289e-13
	-1.575019339681374e-06,-2.092668791061805e-13
	9.663456935930020e-05,7.011834706281331e-12
	-7.298453836690751e-05,-1.052329113948656e-13
	-2.207501165271132e-05,-6.697334915780285e-12
	1.575019339681381e-06,2.092668791061801e-13
	-9.663456935926629e-05,-7.011834706281330e-12
	1.575019339681381e-06,2.092668791061801e-13
22		1.659586907437560e+00,0.000000000000000e+00
	1.575019339681381e-02,2.141413309058178e-09
	1.000000000000000e+00,0.000000000000000e+00
	0.000000000000000e+00,0.000000000000000e+00
	1.368460094386336e-04,2.108962920132733e-13
	1.368460093196129e-04,2.004962962185297e-13
	-1.575019339681377e-06,-2.141413309058176e-13
	9.663456935930021e-05,7.175161317968667e-12
	-7.298453836690751e-05,-1.076841007876675e-13
	-2.207501165271132e-05,-6.853335886275181e-12
	1.575019339681381e-06,2.141413309058178e-13
	-9.663456935926629e-05,-7.175161317968667e-12
	1.575019339681381e-06,2.141413309058178e-13
23		1.698243652461743e+00,0.000000000000000e+00
	1.575019339681381e-02,2.191293232735975e-09
	1.000000000000000e+00,0.000000000000000e+00
	0.000000000000000e+00,0.000000000000000e+00
	1.368460094386336e-04,2.158086977151781e-13
	1.368460093196129e-04,2.051664548986677e-13
	-1.575019339681377e-06,-2.191293232735958e-13
	9.663456935930021e-05,7.342292295161275e-12
	-7.298453836690751e-05,-1.101923857160746e-13
	-2.207501165271132e-05,-7.012970586171604e-12
	1.575019339681381e-06,2.191293232735975e-13
	-9.663456935926629e-05,-7.342292295161275e-12
	1.575019339681381e-06,2.191293232735975e-13
24		1.737800828749374e+00,0.000000000000000e+00
	1.575019339681381e-02,2.242335009090962e-09
	1.000000000000000e+00,0.000000000000000e+00
	0.000000000000000e+00,0.000000000000000e+00
	1.368460094386336e-04,2.208355280451774e-13
	1.368460093196129e-04,2.099453955488920e-13
	-1.575019339681377e-06,-2.242335009090967e-13
	9.663456935930021e-05,7.513316252915506e-12
	-7.298453836690751e-05,-1.127590961059570e-13
	-2.207501165271132e-05,-7.176323655900453e-12
	1.575019339681381e-06,2.242335009090962e-13
	-9.663456935926629e-05,-7.513316252915506e-12
	1.575019339681381e-06,2.242335009090962e-13
25		1.778279410038922e+00,0.000000000000000e+00
	1.575019339681381e-02,2.294565701148583e-09
	1.000000000000000e+00,0.000000000000000e+00
	0.000000000000000e+00,0.000000000000000e+00
	1.368460094386336e-04,2.259794482952499e-13
	1.368460093196129e-04,2.148356520267922e-13
	-1.575019339681377e-06,-2.294565701148581e-13
	9.663456935930021e-05,7.688323870397532e-12
	-7.298453836690751e-05,-1.153855928611379e-13
	-2.207501165271132e-05,-7.343481707421536e-12
	1.575019339681381e-06,2.294565701148583e-13
	-9.663456935926629e-05,-7.688323870397532e-12
	1.575019339681381e-06,2.294565701148583e-13
26		1.819700858609982e+00,0.000000000000000e+00
	1.575019339681381e-02,2.348013002313120e-09
	1.000000000000000e+00,0.000000000000000e+00
	0.000000000000000e+00,0.000000000000000e+00
	1.368460094386336e-04,2.312431858400002e-13
	1.368460093196129e-04,2.198398172110830e-13
	-1.575019339681377e-06,-2.348013002313106e-13
	9.663456935930021e-05,7.867407938962639e-12
	-7.298453836690751e-05,-1.180732685849626e-13
	-2.207501165271132e-05,-7.514533370146365e-12
	1.575019339681381e-06,2.348013002313121e-13
	-9.663456935926629e-05,-7.867407938962639e-12
	1.575019339681381e-06,2.348013002313121e-13
27		1.862087136662866e+00,0.000000000000000e+00
	1.575019339681381e-02,2.402705251051110e-09
	1.000000000000000e+00,0.000000000000000e+00
	0.000000000000000e+00,0.000000000000000e+00
	1.368460094386336e-04,2.366295315827484e-13
	1.368460093196129e-04,2.249605443763832e-13
	-1.575019339681377e-06,-2.402705251051101e-13
	9.663456935930021e-05,8.050663411354439e-12
	-7.298453836690751e-05,-1.208235483186755e-13
	-2.207501165271132e-05,-7.689569337930653e-12
	1.575019339681381e-06,2.402705251051110e-13
	-9.663456935926629e-05,-8.050663411354439e-12
	1.575019339681381e-06,2.402705251051110e-13
28		1.905460717963246e+00,0.000000000000000e+00
	1.575019339681381e-02,2.458671445916770e-09
	1.000000000000000e+00,0.000000000000000e+00
	0.000000000000000e+00,0.000000000000000e+00
	1.368460094386335e-04,2.421413414353037e-13
	1.368460093196129e-04,2.302005486000165e-13
	-1.575019339681377e-06,-2.458671445916771e-13
	9.663456935930020e-05,8.238187452050065e-12
	-7.298453836690750e-05,-1.236378902969958e-13
	-2.207501165271132e-05,-7.868682417161393e-12
	1.575019339681381e-06,2.458671445916770e-13
	-9.663456935926629e-05,-8.238187452050068e-12
	1.575019339681381e-06,2.458671445916770e-13
29		1.949844599758044e+00,0.000000000000000e+00
	1.575019339681381e-02,2.515941260927420e-09
	1.000000000000000e+00,0.000000000000000e+00
	0.000000000000000e+00,0.000000000000000e+00
	1.368460094386335e-04,2.477815378322077e-13
	1.368460093196129e-04,2.355626082015821e-13
	-1.575019339681381e-06,-2.515941260927420e-13
	9.663456935930020e-05,8.430079488778076e-12
	-7.298453836690750e-05,-1.265177867212924e-13
	-2.207501165271132e-05,-8.051967575964042e-12
	1.575019339681381e-06,2.515941260927420e-13
	-9.663456935926629e-05,-8.430079488778074e-12
	1.575019339681381e-06,2.515941260927420e-13
30		1.995262314968878e+00,0.000000000000000e+00
	1.575019339681381e-02,2.574545061297033e-09
	1.000000000000000e+00,0.000000000000000e+00
	0.000000000000000e+00,0.000000000000000e+00
	1.368460094386335e-04,2.535531112802468e-13
	1.368460093196129e-04,2.410495662160559e-13
	-1.575019339681381e-06,-2.574545061297024e-13
	9.663456935930020e-05,8.626441265236325e-12
	-7.298453836690750e-05,-1.294647645507696e-13
	-2.207501165271132e-05,-8.239521994555853e-12
	1.575019339681381e-06,2.574545061297033e-13
	-9.663456935926629e-05,-8.626441265236327e-12
	1.575019339681381e-06,2.574545061297033e-13
31		2.041737944669527e+00,0.000000000000000e+00
	1.575019339681381e-02,2.634513919536278e-09
	1.000000000000000e+00,0.000000000000000e+00
	0.000000000000000e+00,0.000000000000000e+00
	1.368460094386335e-04,2.594591219440587e-13
	1.368460093196129e-04,2.466643319012055e-13
	-1.575019339681381e-06,-2.634513919536277e-13
	9.663456935930020e-05,8.827376895037851e-12
	-7.298453836690750e-05,-1.324803863120803e-13
	-2.207501165271132e-05,-8.431445116772144e-12
	1.575019339681381e-06,2.634513919536279e-13
	-9.663456935926629e-05,-8.827376895037853e-12
	1.575019339681381e-06,2.634513919536279e-13
32		2.089296130854037e+00,0.000000000000000e+00
	1.575019339681381e-02,2.695879631927576e-09
	1.000000000000000e+00,0.000000000000000e+00
	0.000000000000000e+00,0.000000000000000e+00
	1.368460094386335e-04,2.655027012686728e-13
	1.368460093196129e-04,2.524098822801176e-13
