LTspice 24.0.9 for Windows
Circuit: * GA CMOS Amp | W=3.205404595790639e-05 L=6.481943168868997e-07 Vbias=0.8684371880794263
Start Time: Mon Sep  8 18:43:24 2025
solver = Normal
Maximum thread count: 2
tnom = 27
temp = 27
method = modified trap
AsciiRawFile = 1
Instance "m1": Length shorter than recommended for a level 3 MOSFET.
Direct Newton iteration for .op point succeeded.
Semiconductor Device Operating Points:
                        --- MOSFET Transistors ---
Name:          m1
Model:        n_1u
Id:          8.85e-05
Vgs:         8.68e-01
Vds:         9.15e-01
Vbs:         0.00e+00
Vth:         7.64e-01
Vdsat:       1.28e-01
Gm:          1.00e-03
Gds:         2.67e-05
Gmb:         1.87e-04
Cbd:         0.00e+00
Cbs:         0.00e+00
Cgsov:       6.41e-15
Cgdov:       6.41e-15
Cgbov:       4.48e-17
Cgs:         1.65e-14
Cgd:         0.00e+00
Cgb:         0.00e+00



gain_db: MAX(db(v(out)/v(g)))=(30.2843dB,56.628°) FROM 1 TO 1e+09
gain_lin: MAX(mag(v(out)/v(g)))=(17.9737dB,0°) FROM 1 TO 1e+09

Measurement "fc" FAIL'ed

Total elapsed time: 0.437 seconds.

