Title: * GA CMOS Amp | W=4.580216035789886e-06 L=9.98552913183847e-07 Vbias=1.455020938057715
Date: Sat Sep  6 22:15:35 2025
Plotname: AC Analysis
Flags: complex forward log
No. Variables: 13
No. Points:          901
Offset:    0.0000000000000000e+00
Command: Linear Technology Corporation LTspice
Variables:
	0	frequency	frequency
	1	V(out)	voltage
	2	V(g)	voltage
	3	V(vdd)	voltage
	4	V(m1#dbody)	voltage
	5	V(m1#sbody)	voltage
	6	Id(M1)	device_current
	7	Ig(M1)	device_current
	8	Ib(M1)	device_current
	9	Is(M1)	device_current
	10	I(Rload)	device_current
	11	I(Vg)	device_current
	12	I(Vdd)	device_current
Values:
0		1.000000000000000e+00,0.000000000000000e+00
	-1.354736736160078e-02,1.568237997032953e-09
	1.000000000000000e+00,0.000000000000000e+00
	0.000000000000000e+00,0.000000000000000e+00
	1.252211092207924e-04,1.271247439530209e-13
	1.252211093223793e-04,1.284176430576378e-13
	1.354736736160078e-06,-1.568237997032952e-13
	7.711915644910286e-05,1.121607513017439e-12
	-6.678459168230127e-05,-6.841186522877613e-14
	-1.168930150296167e-05,-8.963718480853679e-13
	-1.354736736160078e-06,1.568237997032953e-13
	-7.711915644903478e-05,-1.121607513017439e-12
	-1.354736736160078e-06,1.568237997032953e-13
1		1.023292992280754e+00,0.000000000000000e+00
	-1.354736736160078e-02,1.604766952592227e-09
	1.000000000000000e+00,0.000000000000000e+00
	0.000000000000000e+00,0.000000000000000e+00
	1.252211092207924e-04,1.300858596326115e-13
	1.252211093223793e-04,1.314088742260920e-13
	1.354736736160077e-06,-1.604766952592228e-13
	7.711915644910286e-05,1.147733108160190e-12
	-6.678459168230127e-05,-7.000538227746203e-14
	-1.168930150296167e-05,-9.172510306235053e-13
	-1.354736736160078e-06,1.604766952592227e-13
	-7.711915644903478e-05,-1.147733108160190e-12
	-1.354736736160078e-06,1.604766952592227e-13
2		1.047128548050899e+00,0.000000000000000e+00
	-1.354736736160078e-02,1.642146776831366e-09
	1.000000000000000e+00,0.000000000000000e+00
	0.000000000000000e+00,0.000000000000000e+00
	1.252211092207924e-04,1.331159485568692e-13
	1.252211093223793e-04,1.344697801190629e-13
	1.354736736160077e-06,-1.642146776831366e-13
	7.711915644910286e-05,1.174467246588931e-12
	-6.678459168230127e-05,-7.163601710646218e-14
	-1.168930150296167e-05,-9.386165517993324e-13
	-1.354736736160078e-06,1.642146776831367e-13
	-7.711915644903478e-05,-1.174467246588931e-12
	-1.354736736160078e-06,1.642146776831367e-13
3		1.071519305237606e+00,0.000000000000000e+00
	-1.354736736160078e-02,1.680397289027965e-09
	1.000000000000000e+00,0.000000000000000e+00
	0.000000000000000e+00,0.000000000000000e+00
	1.252211092207924e-04,1.362166173190496e-13
	1.252211093223793e-04,1.376019836693710e-13
	1.354736736160077e-06,-1.680397289027963e-13
	7.711915644910286e-05,1.201824103097726e-12
	-6.678459168230127e-05,-7.330463429994697e-14
	-1.168930150296167e-05,-9.604797398949823e-13
	-1.354736736160078e-06,1.680397289027965e-13
	-7.711915644903478e-05,-1.201824103097726e-12
	-1.354736736160078e-06,1.680397289027965e-13
4		1.096478196143185e+00,0.000000000000000e+00
	-1.354736736160078e-02,1.719538770109893e-09
	1.000000000000000e+00,0.000000000000000e+00
	0.000000000000000e+00,0.000000000000000e+00
	1.252211092207924e-04,1.393895099347726e-13
	1.252211093223793e-04,1.408071456127980e-13
	1.354736736160077e-06,-1.719538770109895e-13
	7.711915644910286e-05,1.229818182654005e-12
	-6.678459168230127e-05,-7.501211858083912e-14
	-1.168930150296167e-05,-9.828521870621767e-13
	-1.354736736160078e-06,1.719538770109893e-13
	-7.711915644903478e-05,-1.229818182654005e-12
	-1.354736736160078e-06,1.719538770109893e-13
5		1.122018454301963e+00,0.000000000000000e+00
	-1.354736736160078e-02,1.759591973408521e-09
	1.000000000000000e+00,0.000000000000000e+00
	0.000000000000000e+00,0.000000000000000e+00
	1.252211092207924e-04,1.426363087137014e-13
	1.252211093223793e-04,1.440869653686320e-13
	1.354736736160077e-06,-1.759591973408520e-13
	7.711915644910286e-05,1.258464328089296e-12
	-6.678459168230127e-05,-7.675937527990561e-14
	-1.168930150296167e-05,-1.005745755468538e-12
	-1.354736736160078e-06,1.759591973408521e-13
	-7.711915644903478e-05,-1.258464328089296e-12
	-1.354736736160078e-06,1.759591973408521e-13
6		1.148153621496882e+00,0.000000000000000e+00
	-1.354736736160078e-02,1.800578135662402e-09
	1.000000000000000e+00,0.000000000000000e+00
	0.000000000000000e+00,0.000000000000000e+00
	1.252211092207924e-04,1.459587351515249e-13
	1.252211093223793e-04,1.474431819407208e-13
	1.354736736160077e-06,-1.800578135662402e-13
	7.711915644910286e-05,1.287777727969084e-12
	-6.678459168230127e-05,-7.854733081577599e-14
	-1.168930150296167e-05,-1.029172583587068e-12
	-1.354736736160078e-06,1.800578135662402e-13
	-7.711915644903478e-05,-1.287777727969085e-12
	-1.354736736160078e-06,1.800578135662402e-13
7		1.174897554939529e+00,0.000000000000000e+00
	-1.354736736160077e-02,1.842518988277281e-09
	1.000000000000000e+00,0.000000000000000e+00
	0.000000000000000e+00,0.000000000000000e+00
	1.252211092207924e-04,1.493585508427180e-13
	1.252211093223793e-04,1.508775748395158e-13
	1.354736736160078e-06,-1.842518988277280e-13
	7.711915644910286e-05,1.317773924645995e-12
	-6.678459168230127e-05,-8.037693318614169e-14
	-1.168930150296167e-05,-1.053145092632126e-12
	-1.354736736160078e-06,1.842518988277281e-13
	-7.711915644903478e-05,-1.317773924645995e-12
	-1.354736736160078e-06,1.842518988277281e-13
8		1.202264434617413e+00,0.000000000000000e+00
	-1.354736736160077e-02,1.885436768848367e-09
	1.000000000000000e+00,0.000000000000000e+00
	0.000000000000000e+00,0.000000000000000e+00
	1.252211092207924e-04,1.528375584145621e-13
	1.252211093223793e-04,1.543919650255916e-13
	1.354736736160078e-06,-1.885436768848366e-13
	7.711915644910286e-05,1.348468822500554e-12
	-6.678459168230127e-05,-8.224915247039716e-14
	-1.168930150296167e-05,-1.077675993145320e-12
	-1.354736736160078e-06,1.885436768848367e-13
	-7.711915644903478e-05,-1.348468822500554e-12
	-1.354736736160078e-06,1.885436768848367e-13
9		1.230268770812381e+00,0.000000000000000e+00
	-1.354736736160077e-02,1.929354232951002e-09
	1.000000000000000e+00,0.000000000000000e+00
	0.000000000000000e+00,0.000000000000000e+00
	1.252211092207924e-04,1.563976024829217e-13
	1.252211093223793e-04,1.579882158751431e-13
	1.354736736160078e-06,-1.929354232951001e-13
	7.711915644910286e-05,1.379878696373897e-12
	-6.678459168230127e-05,-8.416498134398869e-14
	-1.168930150296167e-05,-1.102778291734808e-12
	-1.354736736160078e-06,1.929354232951002e-13
	-7.711915644903478e-05,-1.379878696373897e-12
	-1.354736736160078e-06,1.929354232951002e-13
10		1.258925411794167e+00,0.000000000000000e+00
	-1.354736736160077e-02,1.974294666205970e-09
	1.000000000000000e+00,0.000000000000000e+00
	0.000000000000000e+00,0.000000000000000e+00
	1.252211092207924e-04,1.600405706302849e-13
	1.252211093223793e-04,1.616682341679730e-13
	1.354736736160078e-06,-1.974294666205968e-13
	7.711915644910286e-05,1.412020200196911e-12
	-6.678459168230127e-05,-8.612543560474404e-14
	-1.168930150296167e-05,-1.128465297971570e-12
	-1.354736736160078e-06,1.974294666205970e-13
	-7.711915644903478e-05,-1.412020200196911e-12
	-1.354736736160078e-06,1.974294666205970e-13
11		1.288249551693134e+00,0.000000000000000e+00
	-1.354736736160077e-02,2.020281896625840e-09
	1.000000000000000e+00,0.000000000000000e+00
	0.000000000000000e+00,0.000000000000000e+00
	1.252211092207924e-04,1.637683944065836e-13
	1.252211093223793e-04,1.654339710984907e-13
	1.354736736160078e-06,-2.020281896625839e-13
	7.711915644910286e-05,1.444910375820367e-12
	-6.678459168230127e-05,-8.813155471146193e-14
	-1.168930150296167e-05,-1.154750631446321e-12
	-1.354736736160078e-06,2.020281896625840e-13
	-7.711915644903478e-05,-1.444910375820367e-12
	-1.354736736160078e-06,2.020281896625840e-13
12		1.318256738556407e+00,0.000000000000000e+00
	-1.354736736160077e-02,2.067340307248892e-09
	1.000000000000000e+00,0.000000000000000e+00
	0.000000000000000e+00,0.000000000000000e+00
	1.252211092207924e-04,1.675830503533277e-13
	1.252211093223793e-04,1.692874233102623e-13
	1.354736736160077e-06,-2.067340307248893e-13
	7.711915644910286e-05,1.478566662050732e-12
	-6.678459168230127e-05,-9.018440233504686e-14
	-1.168930150296167e-05,-1.181648228990796e-12
	-1.354736736160078e-06,2.067340307248892e-13
	-7.711915644903478e-05,-1.478566662050732e-12
	-1.354736736160078e-06,2.067340307248892e-13
13		1.348962882591653e+00,0.000000000000000e+00
	-1.354736736160077e-02,2.115494849067333e-09
	1.000000000000000e+00,0.000000000000000e+00
	0.000000000000000e+00,0.000000000000000e+00
	1.252211092207924e-04,1.714865610515930e-13
	1.252211093223793e-04,1.732306339546571e-13
	1.354736736160077e-06,-2.115494849067332e-13
	7.711915644910286e-05,1.513006903896460e-12
	-6.678459168230127e-05,-9.228506692248154e-14
	-1.168930150296167e-05,-1.209172352067245e-12
	-1.354736736160078e-06,2.115494849067333e-13
	-7.711915644903478e-05,-1.513006903896460e-12
	-1.354736736160078e-06,2.115494849067333e-13
14		1.380384264602885e+00,0.000000000000000e+00
	-1.354736736160077e-02,2.164771054256634e-09
	1.000000000000000e+00,0.000000000000000e+00
	0.000000000000000e+00,0.000000000000000e+00
	1.252211092207924e-04,1.754809961944209e-13
	1.252211093223793e-04,1.772656937741531e-13
	1.354736736160077e-06,-2.164771054256633e-13
	7.711915644910286e-05,1.548249362029648e-12
	-6.678459168230127e-05,-9.443466227393581e-14
	-1.168930150296167e-05,-1.237337594330049e-12
	-1.354736736160078e-06,2.164771054256634e-13
	-7.711915644903478e-05,-1.548249362029648e-12
	-1.354736736160078e-06,2.164771054256634e-13
15		1.412537544622754e+00,0.000000000000000e+00
	-1.354736736160077e-02,2.215195049713033e-09
	1.000000000000000e+00,0.000000000000000e+00
	0.000000000000000e+00,0.000000000000000e+00
	1.252211092207924e-04,1.795684736841965e-13
	1.252211093223793e-04,1.813947422108769e-13
	1.354736736160077e-06,-2.215195049713032e-13
	7.711915644910286e-05,1.584312722468087e-12
	-6.678459168230127e-05,-9.663432813331820e-14
	-1.168930150296167e-05,-1.266158889363466e-12
	-1.354736736160078e-06,2.215195049713033e-13
	-7.711915644903478e-05,-1.584312722468087e-12
	-1.354736736160078e-06,2.215195049713033e-13
16		1.445439770745927e+00,0.000000000000000e+00
	-1.354736736160077e-02,2.266793570906363e-09
	1.000000000000000e+00,0.000000000000000e+00
	0.000000000000000e+00,0.000000000000000e+00
	1.252211092207924e-04,1.837511607555893e-13
	1.252211093223793e-04,1.856199685409642e-13
	1.354736736160077e-06,-2.266793570906362e-13
	7.711915644910286e-05,1.621216106482836e-12
	-6.678459168230127e-05,-9.888523079258344e-14
	-1.168930150296167e-05,-1.295651518599617e-12
	-1.354736736160078e-06,2.266793570906363e-13
	-7.711915644903478e-05,-1.621216106482836e-12
	-1.354736736160078e-06,2.266793570906363e-13
17		1.479108388168207e+00,0.000000000000000e+00
	-1.354736736160077e-02,2.319593976055548e-09
	1.000000000000000e+00,0.000000000000000e+00
	0.000000000000000e+00,0.000000000000000e+00
	1.252211092207924e-04,1.880312751246488e-13
	1.252211093223793e-04,1.899436130353427e-13
	1.354736736160077e-06,-2.319593976055548e-13
	7.711915644910286e-05,1.658979080736575e-12
	-6.678459168230127e-05,-1.011885637101157e-13
	-1.168930150296167e-05,-1.325831119420905e-12
	-1.354736736160078e-06,2.319593976055548e-13
	-7.711915644903478e-05,-1.658979080736575e-12
	-1.354736736160078e-06,2.319593976055548e-13
18		1.513561248436208e+00,0.000000000000000e+00
	-1.354736736160077e-02,2.373624260634294e-09
	1.000000000000000e+00,0.000000000000000e+00
	0.000000000000000e+00,0.000000000000000e+00
	1.252211092207924e-04,1.924110861646676e-13
	1.252211093223793e-04,1.943679681475535e-13
	1.354736736160078e-06,-2.373624260634291e-13
	7.711915644910286e-05,1.697621667658105e-12
	-6.678459168230127e-05,-1.035455481435160e-13
	-1.168930150296167e-05,-1.356713693451160e-12
	-1.354736736160077e-06,2.373624260634294e-13
	-7.711915644903478e-05,-1.697621667658105e-12
	-1.354736736160077e-06,2.373624260634294e-13
19		1.548816618912481e+00,0.000000000000000e+00
	-1.354736736160077e-02,2.428913072214658e-09
	1.000000000000000e+00,0.000000000000000e+00
	0.000000000000000e+00,0.000000000000000e+00
	1.252211092207924e-04,1.968929161094327e-13
	1.252211093223793e-04,1.988953797292404e-13
	1.354736736160077e-06,-2.428913072214659e-13
	7.711915644910286e-05,1.737164356058506e-12
	-6.678459168230127e-05,-1.059574337971294e-13
	-1.168930150296167e-05,-1.388315615039911e-12
	-1.354736736160077e-06,2.428913072214659e-13
	-7.711915644903478e-05,-1.737164356058506e-12
	-1.354736736160077e-06,2.428913072214659e-13
20		1.584893192461113e+00,0.000000000000000e+00
	-1.354736736160077e-02,2.485489725656378e-09
	1.000000000000000e+00,0.000000000000000e+00
	0.000000000000000e+00,0.000000000000000e+00
	1.252211092207924e-04,2.014791412845049e-13
	1.252211093223793e-04,2.035282482739512e-13
	1.354736736160077e-06,-2.485489725656377e-13
	7.711915644910286e-05,1.777628111994578e-12
	-6.678459168230127e-05,-1.084254994846544e-13
	-1.168930150296167e-05,-1.420653639944286e-12
	-1.354736736160077e-06,2.485489725656378e-13
	-7.711915644903478e-05,-1.777628111994578e-12
	-1.354736736160077e-06,2.485489725656378e-13
21		1.621810097358929e+00,0.000000000000000e+00
	-1.354736736160077e-02,2.543384218649986e-09
	1.000000000000000e+00,0.000000000000000e+00
	0.000000000000000e+00,0.000000000000000e+00
	1.252211092207924e-04,2.061721933671778e-13
	1.252211093223793e-04,2.082690301899117e-13
	1.354736736160077e-06,-2.543384218649984e-13
	7.711915644910286e-05,1.819034389885319e-12
	-6.678459168230127e-05,-1.109510538071873e-13
	-1.168930150296167e-05,-1.453744914213133e-12
	-1.354736736160077e-06,2.543384218649986e-13
	-7.711915644903478e-05,-1.819034389885319e-12
	-1.354736736160077e-06,2.543384218649986e-13
22		1.659586907437560e+00,0.000000000000000e+00
	-1.354736736160077e-02,2.602627247621991e-09
	1.000000000000000e+00,0.000000000000000e+00
	0.000000000000000e+00,0.000000000000000e+00
	1.252211092207924e-04,2.109745606757857e-13
	1.252211093223793e-04,2.131202391024455e-13
	1.354736736160077e-06,-2.602627247621991e-13
	7.711915644910286e-05,1.861405143887345e-12
	-6.678459168230127e-05,-1.135354358470597e-13
	-1.168930150296167e-05,-1.487606983278086e-12
	-1.354736736160077e-06,2.602627247621992e-13
	-7.711915644903478e-05,-1.861405143887344e-12
	-1.354736736160077e-06,2.602627247621992e-13
23		1.698243652461743e+00,0.000000000000000e+00
	-1.354736736160077e-02,2.663250224010531e-09
	1.000000000000000e+00,0.000000000000000e+00
	0.000000000000000e+00,0.000000000000000e+00
	1.252211092207924e-04,2.158887894890423e-13
	1.252211093223793e-04,2.180844471867313e-13
	1.354736736160077e-06,-2.663250224010530e-13
	7.711915644910286e-05,1.904762839535269e-12
	-6.678459168230127e-05,-1.161800158778373e-13
	-1.168930150296167e-05,-1.522257801256378e-12
	-1.354736736160077e-06,2.663250224010531e-13
	-7.711915644903478e-05,-1.904762839535268e-12
	-1.354736736160077e-06,2.663250224010531e-13
24		1.737800828749374e+00,0.000000000000000e+00
	-1.354736736160077e-02,2.725285290920125e-09
	1.000000000000000e+00,0.000000000000000e+00
	0.000000000000000e+00,0.000000000000000e+00
	1.252211092207924e-04,2.209174853961118e-13
	1.252211093223793e-04,2.231642865316043e-13
	1.354736736160077e-06,-2.725285290920122e-13
	7.711915644910286e-05,1.949130465653231e-12
	-6.678459168230127e-05,-1.188861960908577e-13
	-1.168930150296167e-05,-1.557715740470360e-12
	-1.354736736160077e-06,2.725285290920125e-13
	-7.711915644903478e-05,-1.949130465653230e-12
	-1.354736736160077e-06,2.725285290920125e-13
25		1.778279410038922e+00,0.000000000000000e+00
	-1.354736736160077e-02,2.788765340164380e-09
	1.000000000000000e+00,0.000000000000000e+00
	0.000000000000000e+00,0.000000000000000e+00
	1.252211092207924e-04,2.260633146781271e-13
	1.252211093223793e-04,2.283624505351249e-13
	1.354736736160077e-06,-2.788765340164379e-13
	7.711915644910286e-05,1.994531546543874e-12
	-6.678459168230127e-05,-1.216554113386903e-13
	-1.168930150296167e-05,-1.593999601188745e-12
	-1.354736736160077e-06,2.788765340164380e-13
	-7.711915644903478e-05,-1.994531546543873e-12
	-1.354736736160077e-06,2.788765340164380e-13
26		1.819700858609982e+00,0.000000000000000e+00
	-1.354736736160077e-02,2.853724029705663e-09
	1.000000000000000e+00,0.000000000000000e+00
	0.000000000000000e+00,0.000000000000000e+00
	1.252211092207924e-04,2.313290057218864e-13
	1.252211093223793e-04,2.336816953326537e-13
	1.354736736160077e-06,-2.853724029705662e-13
	7.711915644910286e-05,2.040990154461241e-12
	-6.678459168230127e-05,-1.244891298959143e-13
	-1.168930150296167e-05,-1.631128621594760e-12
	-1.354736736160077e-06,2.853724029705663e-13
	-7.711915644903478e-05,-2.040990154461241e-12
	-1.354736736160077e-06,2.853724029705663e-13
27		1.862087136662866e+00,0.000000000000000e+00
	-1.354736736160077e-02,2.920195801501000e-09
	1.000000000000000e+00,0.000000000000000e+00
	0.000000000000000e+00,0.000000000000000e+00
	1.252211092207924e-04,2.367173504664808e-13
	1.252211093223793e-04,2.391248412581908e-13
	1.354736736160077e-06,-2.920195801500997e-13
	7.711915644910286e-05,2.088530922374201e-12
	-6.678459168230127e-05,-1.273888542376177e-13
	-1.168930150296167e-05,-1.669122487986484e-12
	-1.354736736160077e-06,2.920195801501000e-13
	-7.711915644903478e-05,-2.088530922374202e-12
	-1.354736736160077e-06,2.920195801501000e-13
28		1.905460717963246e+00,0.000000000000000e+00
	-1.354736736160077e-02,2.988215899763652e-09
	1.000000000000000e+00,0.000000000000000e+00
	0.000000000000000e+00,0.000000000000000e+00
	1.252211092207924e-04,2.422312058836172e-13
	1.252211093223793e-04,2.446947743397544e-13
	1.354736736160077e-06,-2.988215899763653e-13
	7.711915644910286e-05,2.137179057027180e-12
	-6.678459168230127e-05,-1.303561218360286e-13
	-1.168930150296167e-05,-1.708001345214786e-12
	-1.354736736160077e-06,2.988215899763652e-13
	-7.711915644903478e-05,-2.137179057027180e-12
	-1.354736736160077e-06,2.988215899763652e-13
29		1.949844599758044e+00,0.000000000000000e+00
	-1.354736736160077e-02,3.057820389650074e-09
	1.000000000000000e+00,0.000000000000000e+00
	0.000000000000000e+00,0.000000000000000e+00
	1.252211092207924e-04,2.478734954924220e-13
	1.252211093223793e-04,2.503944478295911e-13
	1.354736736160077e-06,-3.057820389650075e-13
	7.711915644910286e-05,2.186960352305104e-12
	-6.678459168230127e-05,-1.333925059757043e-13
	-1.168930150296167e-05,-1.747785807364392e-12
	-1.354736736160077e-06,3.057820389650074e-13
	-7.711915644903478e-05,-2.186960352305104e-12
	-1.354736736160077e-06,3.057820389650074e-13
30		1.995262314968878e+00,0.000000000000000e+00
	-1.354736736160077e-02,3.129046176382126e-09
	1.000000000000000e+00,0.000000000000000e+00
	0.000000000000000e+00,0.000000000000000e+00
	1.252211092207924e-04,2.536472109095305e-13
	1.252211093223793e-04,2.562268837700295e-13
	1.354736736160077e-06,-3.129046176382127e-13
	7.711915644910286e-05,2.237901202909662e-12
	-6.678459168230127e-05,-1.364996165877068e-13
	-1.168930150296167e-05,-1.788496968683742e-12
	-1.354736736160077e-06,3.129046176382126e-13
	-7.711915644903478e-05,-2.237901202909661e-12
	-1.354736736160077e-06,3.129046176382126e-13
31		2.041737944669527e+00,0.000000000000000e+00
	-1.354736736160077e-02,3.201931024814718e-09
	1.000000000000000e+00,0.000000000000000e+00
	0.000000000000000e+00,0.000000000000000e+00
	1.252211092207924e-04,2.595554134352809e-13
	1.252211093223793e-04,2.621951745958063e-13
	1.354736736160077e-06,-3.201931024814716e-13
	7.711915644910288e-05,2.290028618354127e-12
	-6.678459168230127e-05,-1.396791011032101e-13
	-1.168930150296168e-05,-1.830156414769445e-12
	-1.354736736160077e-06,3.201931024814718e-13
	-7.711915644903478e-05,-2.290028618354126e-12
	-1.354736736160077e-06,3.201931024814718e-13
32		2.089296130854037e+00,0.000000000000000e+00
	-1.354736736160077e-02,3.276513579459235e-09
	1.000000000000000e+00,0.000000000000000e+00
	0.000000000000000e+00,0.000000000000000e+00
	1.252211092207924e-04,2.656012356768569e-13
