Title: * GA CMOS Amp | W=1.29089980054129e-05 L=1e-06 Vbias=1.1794683508827852
Date: Sat Sep  6 22:06:06 2025
Plotname: AC Analysis
Flags: complex forward log
No. Variables: 13
No. Points:          901
Offset:    0.0000000000000000e+00
Command: Linear Technology Corporation LTspice
Variables:
	0	frequency	frequency
	1	V(out)	voltage
	2	V(g)	voltage
	3	V(vdd)	voltage
	4	V(m1#dbody)	voltage
	5	V(m1#sbody)	voltage
	6	Id(M1)	device_current
	7	Ig(M1)	device_current
	8	Ib(M1)	device_current
	9	Is(M1)	device_current
	10	I(Rload)	device_current
	11	I(Vg)	device_current
	12	I(Vdd)	device_current
Values:
0		1.000000000000000e+00,0.000000000000000e+00
	2.170463183727316e-03,1.446024014345112e-09
	1.000000000000000e+00,0.000000000000000e+00
	0.000000000000000e+00,0.000000000000000e+00
	3.850006621370800e-05,1.072137884529972e-13
	3.850006619738999e-05,1.065747276133511e-13
	-2.170463183727312e-07,-1.446024014345113e-13
	3.164292569168391e-05,3.318569488242838e-12
	-2.053336865521773e-05,-5.688995337710567e-14
	-1.089251071809345e-05,-3.117077133431222e-12
	2.170463183727316e-07,1.446024014345112e-13
	-3.164292569179938e-05,-3.318569488242839e-12
	2.170463183727316e-07,1.446024014345112e-13
1		1.023292992280754e+00,0.000000000000000e+00
	2.170463183727316e-03,1.479706240549038e-09
	1.000000000000000e+00,0.000000000000000e+00
	0.000000000000000e+00,0.000000000000000e+00
	3.850006621370800e-05,1.097111183998232e-13
	3.850006619738999e-05,1.090571719209724e-13
	-2.170463183727312e-07,-1.479706240549035e-13
	3.164292569168391e-05,3.395868901715626e-12
	-2.053336865521773e-05,-5.821509062197105e-14
	-1.089251071809345e-05,-3.189683187038751e-12
	2.170463183727316e-07,1.479706240549038e-13
	-3.164292569179938e-05,-3.395868901715626e-12
	2.170463183727316e-07,1.479706240549038e-13
2		1.047128548050899e+00,0.000000000000000e+00
	2.170463183727316e-03,1.514173026587930e-09
	1.000000000000000e+00,0.000000000000000e+00
	0.000000000000000e+00,0.000000000000000e+00
	3.850006621370800e-05,1.122666186338232e-13
	3.850006619738999e-05,1.115974397846885e-13
	-2.170463183727312e-07,-1.514173026587928e-13
	3.164292569168391e-05,3.474968849829740e-12
	-2.053336865521773e-05,-5.957109427845202e-14
	-1.089251071809345e-05,-3.263980452892495e-12
	2.170463183727316e-07,1.514173026587930e-13
	-3.164292569179938e-05,-3.474968849829741e-12
	2.170463183727316e-07,1.514173026587930e-13
3		1.071519305237606e+00,0.000000000000000e+00
	2.170463183727316e-03,1.549442647207969e-09
	1.000000000000000e+00,0.000000000000000e+00
	0.000000000000000e+00,0.000000000000000e+00
	3.850006621370799e-05,1.148816441150472e-13
	3.850006619738998e-05,1.141968780881451e-13
	-2.170463183727312e-07,-1.549442647207966e-13
	3.164292569168390e-05,3.555911272424685e-12
	-2.053336865521773e-05,-6.095868331763607e-14
	-1.089251071809345e-05,-3.340008324386253e-12
	2.170463183727316e-07,1.549442647207969e-13
	-3.164292569179938e-05,-3.555911272424685e-12
	2.170463183727316e-07,1.549442647207969e-13
4		1.096478196143185e+00,0.000000000000000e+00
	2.170463183727316e-03,1.585533802828855e-09
	1.000000000000000e+00,0.000000000000000e+00
	0.000000000000000e+00,0.000000000000000e+00
	3.850006621370799e-05,1.175575813646193e-13
	3.850006619738998e-05,1.168568650879385e-13
	-2.170463183727312e-07,-1.585533802828856e-13
	3.164292569168390e-05,3.638739086244319e-12
	-2.053336865521773e-05,-6.237859345759869e-14
	-1.089251071809345e-05,-3.417807112503835e-12
	2.170463183727316e-07,1.585533802828855e-13
	-3.164292569179938e-05,-3.638739086244319e-12
	2.170463183727316e-07,1.585533802828855e-13
5		1.122018454301963e+00,0.000000000000000e+00
	2.170463183727317e-03,1.622465629459022e-09
	1.000000000000000e+00,0.000000000000000e+00
	0.000000000000000e+00,0.000000000000000e+00
	3.850006621370799e-05,1.202958491998895e-13
	3.850006619738998e-05,1.195788111443850e-13
	-2.170463183727312e-07,-1.622465629459023e-13
	3.164292569168390e-05,3.723496207691887e-12
	-2.053336865521773e-05,-6.383157755349083e-14
	-1.089251071809345e-05,-3.497418067192494e-12
	2.170463183727317e-07,1.622465629459022e-13
	-3.164292569179938e-05,-3.723496207691887e-12
	2.170463183727317e-07,1.622465629459022e-13
6		1.148153621496882e+00,0.000000000000000e+00
	2.170463183727317e-03,1.660257708841800e-09
	1.000000000000000e+00,0.000000000000000e+00
	0.000000000000000e+00,0.000000000000000e+00
	3.850006621370799e-05,1.230978994867093e-13
	3.850006619738998e-05,1.223641594693129e-13
	-2.170463183727312e-07,-1.660257708841801e-13
	3.164292569168390e-05,3.810227576115072e-12
	-2.053336865521773e-05,-6.531840599671266e-14
	-1.089251071809345e-05,-3.578883399234179e-12
	2.170463183727317e-07,1.660257708841800e-13
	-3.164292569179938e-05,-3.810227576115072e-12
	2.170463183727317e-07,1.660257708841800e-13
7		1.174897554939529e+00,0.000000000000000e+00
	2.170463183727317e-03,1.698930078837915e-09
	1.000000000000000e+00,0.000000000000000e+00
	0.000000000000000e+00,0.000000000000000e+00
	3.850006621370799e-05,1.259652179092303e-13
	3.850006619738998e-05,1.252143868912726e-13
	-2.170463183727312e-07,-1.698930078837911e-13
	3.164292569168390e-05,3.898979177633436e-12
	-2.053336865521773e-05,-6.683986712338524e-14
	-1.089251071809345e-05,-3.662246302626259e-12
	2.170463183727317e-07,1.698930078837915e-13
	-3.164292569179938e-05,-3.898979177633436e-12
	2.170463183727317e-07,1.698930078837915e-13
8		1.202264434617413e+00,0.000000000000000e+00
	2.170463183727317e-03,1.738503244049827e-09
	1.000000000000000e+00,0.000000000000000e+00
	0.000000000000000e+00,0.000000000000000e+00
	3.850006621370799e-05,1.288993247576335e-13
	3.850006619738998e-05,1.281310046385703e-13
	-2.170463183727312e-07,-1.738503244049820e-13
	3.164292569168390e-05,3.989798069520873e-12
	-2.053336865521773e-05,-6.839676763233689e-14
	-1.089251071809345e-05,-3.747550977483554e-12
	2.170463183727318e-07,1.738503244049827e-13
	-3.164292569179938e-05,-3.989798069520873e-12
	2.170463183727318e-07,1.738503244049827e-13
9		1.230268770812381e+00,0.000000000000000e+00
	2.170463183727317e-03,1.778998186693546e-09
	1.000000000000000e+00,0.000000000000000e+00
	0.000000000000000e+00,0.000000000000000e+00
	3.850006621370799e-05,1.319017757342075e-13
	3.850006619738998e-05,1.311155591405418e-13
	-2.170463183727312e-07,-1.778998186693547e-13
	3.164292569168390e-05,4.082732405155990e-12
	-2.053336865521773e-05,-6.998993301282546e-14
	-1.089251071809345e-05,-3.834842653473810e-12
	2.170463183727318e-07,1.778998186693546e-13
	-3.164292569179938e-05,-4.082732405155991e-12
	2.170463183727318e-07,1.778998186693546e-13
10		1.258925411794167e+00,0.000000000000000e+00
	2.170463183727317e-03,1.820436377723674e-09
	1.000000000000000e+00,0.000000000000000e+00
	0.000000000000000e+00,0.000000000000000e+00
	3.850006621370799e-05,1.349741627782021e-13
	3.850006619738998e-05,1.341696328474892e-13
	-2.170463183727312e-07,-1.820436377723678e-13
	3.164292569168390e-05,4.177831459553674e-12
	-2.053336865521773e-05,-7.162020798222368e-14
	-1.089251071809345e-05,-3.924167613799083e-12
	2.170463183727318e-07,1.820436377723674e-13
	-3.164292569179938e-05,-4.177831459553673e-12
	2.170463183727318e-07,1.820436377723674e-13
11		1.288249551693134e+00,0.000000000000000e+00
	2.170463183727318e-03,1.862839788217596e-09
	1.000000000000000e+00,0.000000000000000e+00
	0.000000000000000e+00,0.000000000000000e+00
	3.850006621370799e-05,1.381181149098961e-13
	3.850006619738998e-05,1.372948450697174e-13
	-2.170463183727312e-07,-1.862839788217588e-13
	3.164292569168390e-05,4.275145655491349e-12
	-2.053336865521773e-05,-7.328845693389964e-14
	-1.089251071809345e-05,-4.015573219735691e-12
	2.170463183727318e-07,1.862839788217597e-13
	-3.164292569179938e-05,-4.275145655491349e-12
	2.170463183727318e-07,1.862839788217597e-13
12		1.318256738556407e+00,0.000000000000000e+00
	2.170463183727318e-03,1.906230901024830e-09
	1.000000000000000e+00,0.000000000000000e+00
	0.000000000000000e+00,0.000000000000000e+00
	3.850006621370799e-05,1.413352990943246e-13
	3.850006619738998e-05,1.404928528361137e-13
	-2.170463183727312e-07,-1.906230901024819e-13
	3.164292569168390e-05,4.374726590243809e-12
	-2.053336865521773e-05,-7.499556439552937e-14
	-1.089251071809345e-05,-4.109107935745797e-12
	2.170463183727318e-07,1.906230901024830e-13
	-3.164292569179938e-05,-4.374726590243809e-12
	2.170463183727318e-07,1.906230901024830e-13
13		1.348962882591653e+00,0.000000000000000e+00
	2.170463183727318e-03,1.950632722687736e-09
	1.000000000000000e+00,0.000000000000000e+00
	0.000000000000000e+00,0.000000000000000e+00
	3.850006621370799e-05,1.446274211251268e-13
	3.850006619738998e-05,1.437653517727264e-13
	-2.170463183727312e-07,-1.950632722687745e-13
	3.164292569168391e-05,4.476627062940768e-12
	-2.053336865521773e-05,-7.674243549808522e-14
	-1.089251071809345e-05,-4.204821355173908e-12
	2.170463183727318e-07,1.950632722687736e-13
	-3.164292569179938e-05,-4.476627062940767e-12
	2.170463183727318e-07,1.950632722687736e-13
14		1.380384264602885e+00,0.000000000000000e+00
	2.170463183727318e-03,1.996068795639889e-09
	1.000000000000000e+00,0.000000000000000e+00
	0.000000000000000e+00,0.000000000000000e+00
	3.850006621370799e-05,1.479962265289797e-13
	3.850006619738998e-05,1.471140770018085e-13
	-2.170463183727312e-07,-1.996068795639888e-13
	3.164292569168391e-05,4.580901102561662e-12
	-2.053336865521773e-05,-7.852999645574840e-14
	-1.089251071809345e-05,-4.302764226541925e-12
	2.170463183727318e-07,1.996068795639889e-13
	-3.164292569179938e-05,-4.580901102561662e-12
	2.170463183727318e-07,1.996068795639889e-13
15		1.412537544622754e+00,0.000000000000000e+00
	2.170463183727318e-03,2.042563210688583e-09
	1.000000000000000e+00,0.000000000000000e+00
	0.000000000000000e+00,0.000000000000000e+00
	3.850006621370799e-05,1.514435014911000e-13
	3.850006619738998e-05,1.505408040618019e-13
	-2.170463183727316e-07,-2.042563210688581e-13
	3.164292569168391e-05,4.687603996582529e-12
	-2.053336865521773e-05,-8.035919505699982e-14
	-1.089251071809345e-05,-4.402988480456672e-12
	2.170463183727318e-07,2.042563210688583e-13
	-3.164292569179938e-05,-4.687603996582529e-12
	2.170463183727318e-07,2.042563210688583e-13
16		1.445439770745927e+00,0.000000000000000e+00
	2.170463183727319e-03,2.090140619788104e-09
	1.000000000000000e+00,0.000000000000000e+00
	0.000000000000000e+00,0.000000000000000e+00
	3.850006621370799e-05,1.549710738023025e-13
	3.850006619738998e-05,1.540473498487519e-13
	-2.170463183727312e-07,-2.090140619788096e-13
	3.164292569168391e-05,4.796792320290158e-12
	-2.053336865521773e-05,-8.223100116715008e-14
	-1.089251071809345e-05,-4.505547257144198e-12
	2.170463183727319e-07,2.090140619788104e-13
	-3.164292569179938e-05,-4.796792320290158e-12
	2.170463183727319e-07,2.090140619788104e-13
17		1.479108388168207e+00,0.000000000000000e+00
	2.170463183727319e-03,2.138826249110518e-09
	1.000000000000000e+00,0.000000000000000e+00
	0.000000000000000e+00,0.000000000000000e+00
	3.850006621370799e-05,1.585808138281197e-13
	3.850006619738998e-05,1.576355735796494e-13
	-2.170463183727316e-07,-2.138826249110524e-13
	3.164292569168391e-05,4.908523966779056e-12
	-2.053336865521773e-05,-8.414640724257518e-14
	-1.089251071809345e-05,-4.610494934625429e-12
	2.170463183727319e-07,2.138826249110518e-13
	-3.164292569179938e-05,-4.908523966779057e-12
	2.170463183727319e-07,2.138826249110518e-13
18		1.513561248436208e+00,0.000000000000000e+00
	2.170463183727319e-03,2.188645912420924e-09
	1.000000000000000e+00,0.000000000000000e+00
	0.000000000000000e+00,0.000000000000000e+00
	3.850006621370799e-05,1.622746355004939e-13
	3.850006619738998e-05,1.613073777782125e-13
	-2.170463183727316e-07,-2.188645912420924e-13
	3.164292569168391e-05,5.022858177647138e-12
	-2.053336865521773e-05,-8.610642885692969e-14
	-1.089251071809345e-05,-4.717887157548116e-12
	2.170463183727319e-07,2.188645912420924e-13
	-3.164292569179938e-05,-5.022858177647138e-12
	2.170463183727319e-07,2.188645912420924e-13
19		1.548816618912481e+00,0.000000000000000e+00
	2.170463183727319e-03,2.239626024764249e-09
	1.000000000000000e+00,0.000000000000000e+00
	0.000000000000000e+00,0.000000000000000e+00
	3.850006621370799e-05,1.660544973325690e-13
	3.850006619738998e-05,1.650647092836291e-13
	-2.170463183727312e-07,-2.239626024764245e-13
	3.164292569168391e-05,5.139855574406395e-12
	-2.053336865521773e-05,-8.811210523961744e-14
	-1.089251071809345e-05,-4.827780866690353e-12
	2.170463183727320e-07,2.239626024764249e-13
	-3.164292569179938e-05,-5.139855574406395e-12
	2.170463183727320e-07,2.239626024764249e-13
20		1.584893192461113e+00,0.000000000000000e+00
	2.170463183727319e-03,2.291793616470859e-09
	1.000000000000000e+00,0.000000000000000e+00
	0.000000000000000e+00,0.000000000000000e+00
	3.850006621370799e-05,1.699224034571211e-13
	3.850006619738998e-05,1.689095602827976e-13
	-2.170463183727316e-07,-2.291793616470856e-13
	3.164292569168391e-05,5.259578190625235e-12
	-2.053336865521773e-05,-9.016449982680486e-14
	-1.089251071809345e-05,-4.940234329151345e-12
	2.170463183727320e-07,2.291793616470859e-13
	-3.164292569179938e-05,-5.259578190625234e-12
	2.170463183727320e-07,2.291793616470859e-13
21		1.621810097358929e+00,0.000000000000000e+00
	2.170463183727320e-03,2.345176347488396e-09
	1.000000000000000e+00,0.000000000000000e+00
	0.000000000000000e+00,0.000000000000000e+00
	3.850006621370799e-05,1.738804046891750e-13
	3.850006619738998e-05,1.728439693666104e-13
	-2.170463183727316e-07,-2.345176347488396e-13
	3.164292569168391e-05,5.382089504819491e-12
	-2.053336865521773e-05,-9.226470082526868e-14
	-1.089251071809345e-05,-5.055307169245382e-12
	2.170463183727320e-07,2.345176347488396e-13
	-3.164292569179938e-05,-5.382089504819491e-12
	2.170463183727320e-07,2.345176347488396e-13
22		1.659586907437560e+00,0.000000000000000e+00
	2.170463183727320e-03,2.399802522047450e-09
	1.000000000000000e+00,0.000000000000000e+00
	0.000000000000000e+00,0.000000000000000e+00
	3.850006621370799e-05,1.779305996133743e-13
	3.850006619738998e-05,1.768700226108417e-13
	-2.170463183727316e-07,-2.399802522047446e-13
	3.164292569168391e-05,5.507454474109579e-12
	-2.053336865521773e-05,-9.441382178937775e-14
	-1.089251071809345e-05,-5.173060400115456e-12
	2.170463183727320e-07,2.399802522047451e-13
	-3.164292569179938e-05,-5.507454474109579e-12
	2.170463183727320e-07,2.399802522047451e-13
23		1.698243652461743e+00,0.000000000000000e+00
	2.170463183727320e-03,2.455701103668836e-09
	1.000000000000000e+00,0.000000000000000e+00
	0.000000000000000e+00,0.000000000000000e+00
	3.850006621370799e-05,1.820751356966786e-13
	3.850006619738998e-05,1.809898546822129e-13
	-2.170463183727316e-07,-2.455701103668832e-13
	3.164292569168391e-05,5.635739568661617e-12
	-2.053336865521773e-05,-9.661300221151423e-14
	-1.089251071809345e-05,-5.293556456083220e-12
	2.170463183727320e-07,2.455701103668836e-13
	-3.164292569179938e-05,-5.635739568661619e-12
	2.170463183727320e-07,2.455701103668836e-13
24		1.737800828749374e+00,0.000000000000000e+00
	2.170463183727321e-03,2.512901730520433e-09
	1.000000000000000e+00,0.000000000000000e+00
	0.000000000000000e+00,0.000000000000000e+00
	3.850006621370799e-05,1.863162104269786e-13
	3.850006619738998e-05,1.852056499702204e-13
	-2.170463183727316e-07,-2.512901730520437e-13
	3.164292569168391e-05,5.767012806930792e-12
	-2.053336865521773e-05,-9.886340812624751e-14
	-1.089251071809345e-05,-5.416859225752501e-12
	2.170463183727321e-07,2.512901730520433e-13
	-3.164292569179938e-05,-5.767012806930793e-12
	2.170463183727321e-07,2.512901730520433e-13
25		1.778279410038922e+00,0.000000000000000e+00
	2.170463183727321e-03,2.571434731131739e-09
	1.000000000000000e+00,0.000000000000000e+00
	0.000000000000000e+00,0.000000000000000e+00
	3.850006621370799e-05,1.906560724782336e-13
	3.850006619738998e-05,1.895196437453288e-13
	-2.170463183727316e-07,-2.571434731131734e-13
	3.164292569168391e-05,5.901343791725643e-12
	-2.053336865521773e-05,-1.011662327285812e-13
	-1.089251071809345e-05,-5.543034085883888e-12
	2.170463183727321e-07,2.571434731131739e-13
	-3.164292569179938e-05,-5.901343791725643e-12
	2.170463183727321e-07,2.571434731131739e-13
26		1.819700858609982e+00,0.000000000000000e+00
	2.170463183727321e-03,2.631331140474453e-09
	1.000000000000000e+00,0.000000000000000e+00
	0.000000000000000e+00,0.000000000000000e+00
	3.850006621370799e-05,1.950970229027479e-13
	3.850006619738998e-05,1.939341233441400e-13
	-2.170463183727321e-07,-2.631331140474454e-13
	3.164292569168392e-05,6.038803747112384e-12
	-2.053336865521773e-05,-1.035226970066010e-13
	-1.089251071809345e-05,-5.672147936058338e-12
	2.170463183727321e-07,2.631331140474453e-13
	-3.164292569179938e-05,-6.038803747112384e-12
	2.170463183727321e-07,2.631331140474453e-13
27		1.862087136662866e+00,0.000000000000000e+00
	2.170463183727322e-03,2.692622716417633e-09
	1.000000000000000e+00,0.000000000000000e+00
	0.000000000000000e+00,0.000000000000000e+00
	3.850006621370799e-05,1.996414163512198e-13
	3.850006619738998e-05,1.984514293821699e-13
	-2.170463183727321e-07,-2.692622716417631e-13
	3.164292569168391e-05,6.179465556178861e-12
	-2.053336865521772e-05,-1.059340503888586e-13
	-1.089251071809345e-05,-5.804269234148240e-12
	2.170463183727322e-07,2.692622716417633e-13
	-3.164292569179938e-05,-6.179465556178861e-12
	2.170463183727322e-07,2.692622716417633e-13
28		1.905460717963246e+00,0.000000000000000e+00
	2.170463183727322e-03,2.755341956566132e-09
	1.000000000000000e+00,0.000000000000000e+00
	0.000000000000000e+00,0.000000000000000e+00
	3.850006621370799e-05,2.042916623212075e-13
	3.850006619738998e-05,2.030739569948734e-13
	-2.170463183727321e-07,-2.755341956566125e-13
	3.164292569168391e-05,6.323403799678122e-12
	-2.053336865521772e-05,-1.084015714068353e-13
	-1.089251071809346e-05,-5.939468032614673e-12
	2.170463183727322e-07,2.755341956566132e-13
	-3.164292569179938e-05,-6.323403799678122e-12
	2.170463183727322e-07,2.755341956566132e-13
29		1.949844599758044e+00,0.000000000000000e+00
	2.170463183727322e-03,2.819522115491265e-09
	1.000000000000000e+00,0.000000000000000e+00
	0.000000000000000e+00,0.000000000000000e+00
	3.850006621370799e-05,2.090502264346778e-13
	3.850006619738998e-05,2.078041571075772e-13
	-2.170463183727321e-07,-2.819522115491261e-13
	3.164292569168391e-05,6.470694795572115e-12
	-2.053336865521772e-05,-1.109265683728364e-13
	-1.089251071809346e-05,-6.077816015650153e-12
	2.170463183727323e-07,2.819522115491265e-13
	-3.164292569179938e-05,-6.470694795572116e-12
	2.170463183727323e-07,2.819522115491265e-13
30		1.995262314968878e+00,0.000000000000000e+00
	2.170463183727323e-03,2.885197222362818e-09
	1.000000000000000e+00,0.000000000000000e+00
	0.000000000000000e+00,0.000000000000000e+00
	3.850006621370799e-05,2.139196317453107e-13
	3.850006619738998e-05,2.126445377349926e-13
	-2.170463183727321e-07,-2.885197222362816e-13
	3.164292569168392e-05,6.621416639496492e-12
	-2.053336865521772e-05,-1.135103800736754e-13
	-1.089251071809346e-05,-6.219386537186535e-12
	2.170463183727323e-07,2.885197222362818e-13
	-3.164292569179938e-05,-6.621416639496491e-12
	2.170463183727323e-07,2.885197222362818e-13
31		2.041737944669527e+00,0.000000000000000e+00
	2.170463183727323e-03,2.952402098991768e-09
	1.000000000000000e+00,0.000000000000000e+00
	0.000000000000000e+00,0.000000000000000e+00
	3.850006621370799e-05,2.189024600762559e-13
	3.850006619738998e-05,2.175976653109983e-13
	-2.170463183727321e-07,-2.952402098991765e-13
	3.164292569168392e-05,6.775649246167939e-12
	-2.053336865521772e-05,-1.161543764805169e-13
	-1.089251071809346e-05,-6.364254659788246e-12
	2.170463183727323e-07,2.952402098991768e-13
	-3.164292569179938e-05,-6.775649246167939e-12
	2.170463183727323e-07,2.952402098991768e-13
32		2.089296130854037e+00,0.000000000000000e+00
	2.170463183727324e-03,3.021172378293265e-09
	1.000000000000000e+00,0.000000000000000e+00
	0.000000000000000e+00,0.000000000000000e+00
	3.850006621370799e-05,2.240013533890503e-13
	3.850006619738998e-05,2.226661660493975e-13
	-2.170463183727321e-07,-3.021172378293265e-13
