Title: * GA CMOS Amp | W=3.1921541083997094e-06 L=6.429081928881887e-07 Vbias=0.767483507488939
Date: Mon Sep  8 18:47:42 2025
Plotname: AC Analysis
Flags: complex forward log
No. Variables: 11
No. Points:          901
Offset:    0.0000000000000000e+00
Command: Linear Technology Corporation LTspice
Variables:
	0	frequency	frequency
	1	V(out)	voltage
	2	V(g)	voltage
	3	V(vdd)	voltage
	4	Id(M1)	device_current
	5	Ig(M1)	device_current
	6	Ib(M1)	device_current
	7	Is(M1)	device_current
	8	I(Rload)	device_current
	9	I(Vg)	device_current
	10	I(Vdd)	device_current
Values:
0		1.000000000000000e+00,0.000000000000000e+00
	-8.951110556906132e-02,4.367418010580007e-11
	1.000000000000000e+00,0.000000000000000e+00
	0.000000000000000e+00,0.000000000000000e+00
	8.951110556906132e-06,-4.367418010580007e-15
	1.751936958379246e-25,1.928697294724923e-14
	8.951110625008817e-14,-6.799745281759476e-16
	-8.951110646417238e-06,-1.423958040849327e-14
	-8.951110556906132e-06,4.367418010580007e-15
	-1.751936958379246e-25,-1.928697294724922e-14
	-8.951110556906132e-06,4.367418010580007e-15
1		1.023292992280754e+00,0.000000000000000e+00
	-8.951110556906132e-02,4.469148244587274e-11
	1.000000000000000e+00,0.000000000000000e+00
	0.000000000000000e+00,0.000000000000000e+00
	8.951110556906132e-06,-4.469148244587273e-15
	1.834503203504369e-25,1.973622425922862e-14
	8.951110625008817e-14,-6.958131696118599e-16
	-8.951110646417238e-06,-1.457126284502948e-14
	-8.951110556906132e-06,4.469148244587274e-15
	-1.834503203504369e-25,-1.973622425922862e-14
	-8.951110556906132e-06,4.469148244587274e-15
2		1.047128548050899e+00,0.000000000000000e+00
	-8.951110556906132e-02,4.573248080149990e-11
	1.000000000000000e+00,0.000000000000000e+00
	0.000000000000000e+00,0.000000000000000e+00
	8.951110556906132e-06,-4.573248080149990e-15
	1.920960675880253e-25,2.019593997855006e-14
	8.951110625008817e-14,-7.120207404004794e-16
	-8.951110646417238e-06,-1.491067115799959e-14
	-8.951110556906132e-06,4.573248080149990e-15
	-1.920960675880253e-25,-2.019593997855006e-14
	-8.951110556906132e-06,4.573248080149990e-15
3		1.071519305237606e+00,0.000000000000000e+00
	-8.951110556906132e-02,4.679772712378897e-11
	1.000000000000000e+00,0.000000000000000e+00
	0.000000000000000e+00,0.000000000000000e+00
	8.951110556906132e-06,-4.679772712378896e-15
	2.011492763397364e-25,2.066636385257300e-14
	8.951110625008817e-14,-7.286058340103604e-16
	-8.951110646417238e-06,-1.525798530618374e-14
	-8.951110556906132e-06,4.679772712378897e-15
	-2.011492763397364e-25,-2.066636385257300e-14
	-8.951110556906132e-06,4.679772712378897e-15
4		1.096478196143185e+00,0.000000000000000e+00
	-8.951110556906132e-02,4.788778622044022e-11
	1.000000000000000e+00,0.000000000000000e+00
	0.000000000000000e+00,0.000000000000000e+00
	8.951110556906132e-06,-4.788778622044021e-15
	2.106291496751173e-25,2.114774530626224e-14
	8.951110625008817e-14,-7.455772440776791e-16
	-8.951110646417238e-06,-1.561338944014054e-14
	-8.951110556906132e-06,4.788778622044022e-15
	-2.106291496751173e-25,-2.114774530626223e-14
	-8.951110556906132e-06,4.788778622044022e-15
5		1.122018454301963e+00,0.000000000000000e+00
	-8.951110556906132e-02,4.900323605521534e-11
	1.000000000000000e+00,0.000000000000000e+00
	0.000000000000000e+00,0.000000000000000e+00
	8.951110556906132e-06,-4.900323605521534e-15
	2.205557956765012e-25,2.164033957443636e-14
	8.951110625008817e-14,-7.629439690686848e-16
	-8.951110646417238e-06,-1.597707199984614e-14
	-8.951110556906132e-06,4.900323605521534e-15
	-2.205557956765012e-25,-2.164033957443636e-14
	-8.951110556906132e-06,4.900323605521534e-15
6		1.148153621496882e+00,0.000000000000000e+00
	-8.951110556906132e-02,5.014466805438145e-11
	1.000000000000000e+00,0.000000000000000e+00
	0.000000000000000e+00,0.000000000000000e+00
	8.951110556906132e-06,-5.014466805438144e-15
	2.309502700909455e-25,2.214440783709660e-14
	8.951110625008817e-14,-7.807152170508489e-16
	-8.951110646417238e-06,-1.634922581460761e-14
	-8.951110556906132e-06,5.014466805438145e-15
	-2.309502700909455e-25,-2.214440783709660e-14
	-8.951110556906132e-06,5.014466805438145e-15
7		1.174897554939529e+00,0.000000000000000e+00
	-8.951110556906132e-02,5.131268742029312e-11
	1.000000000000000e+00,0.000000000000000e+00
	0.000000000000000e+00,0.000000000000000e+00
	8.951110556906132e-06,-5.131268742029312e-15
	2.418346209922948e-25,2.266021735790796e-14
	8.951110625008817e-14,-7.989004105750831e-16
	-8.951110646417238e-06,-1.673004820530357e-14
	-8.951110556906132e-06,5.131268742029312e-15
	-2.418346209922948e-25,-2.266021735790796e-14
	-8.951110556906132e-06,5.131268742029312e-15
8		1.202264434617413e+00,0.000000000000000e+00
	-8.951110556906132e-02,5.250791345227877e-11
	1.000000000000000e+00,0.000000000000000e+00
	0.000000000000000e+00,0.000000000000000e+00
	8.951110556906132e-06,-5.250791345227876e-15
	2.532319355481013e-25,2.318804162590592e-14
	8.951110625008817e-14,-8.175091916716983e-16
	-8.951110646417238e-06,-1.711974108900635e-14
	-8.951110556906132e-06,5.250791345227877e-15
	-2.532319355481013e-25,-2.318804162590592e-14
	-8.951110556906132e-06,5.250791345227877e-15
9		1.230268770812381e+00,0.000000000000000e+00
	-8.951110556906132e-02,5.373097987500120e-11
	1.000000000000000e+00,0.000000000000000e+00
	0.000000000000000e+00,0.000000000000000e+00
	8.951110556906132e-06,-5.373097987500120e-15
	2.651663889906023e-25,2.372816050050396e-14
	8.951110625008817e-14,-8.365514269627549e-16
	-8.951110646417238e-06,-1.751851108604108e-14
	-8.951110556906132e-06,5.373097987500120e-15
	-2.651663889906023e-25,-2.372816050050395e-14
	-8.951110556906132e-06,5.373097987500120e-15
10		1.258925411794167e+00,0.000000000000000e+00
	-8.951110556906132e-02,5.498253517446696e-11
	1.000000000000000e+00,0.000000000000000e+00
	0.000000000000000e+00,0.000000000000000e+00
	8.951110556906132e-06,-5.498253517446695e-15
	2.776632958956294e-25,2.428086035987869e-14
	8.951110625008817e-14,-8.560372128934504e-16
	-8.951110646417238e-06,-1.792656962953854e-14
	-8.951110556906132e-06,5.498253517446696e-15
	-2.776632958956294e-25,-2.428086035987869e-14
	-8.951110556906132e-06,5.498253517446696e-15
11		1.288249551693134e+00,0.000000000000000e+00
	-8.951110556906132e-02,5.626324294186211e-11
	1.000000000000000e+00,0.000000000000000e+00
	0.000000000000000e+00,0.000000000000000e+00
	8.951110556906132e-06,-5.626324294186211e-15
	2.907491638782178e-25,2.484643425281142e-14
	8.951110625008817e-14,-8.759768810854192e-16
	-8.951110646417238e-06,-1.834413307753979e-14
	-8.951110556906132e-06,5.626324294186211e-15
	-2.907491638782178e-25,-2.484643425281141e-14
	-8.951110556906132e-06,5.626324294186211e-15
12		1.318256738556407e+00,0.000000000000000e+00
	-8.951110556906132e-02,5.757378222539710e-11
	1.000000000000000e+00,0.000000000000000e+00
	0.000000000000000e+00,0.000000000000000e+00
	8.951110556906132e-06,-5.757378222539710e-15
	3.044517498188112e-25,2.542518205406642e-14
	8.951110625008817e-14,-8.963810038146596e-16
	-8.951110646417238e-06,-1.877142282771205e-14
	-8.951110556906132e-06,5.757378222539710e-15
	-3.044517498188112e-25,-2.542518205406641e-14
	-8.951110556906132e-06,5.757378222539710e-15
13		1.348962882591653e+00,0.000000000000000e+00
	-8.951110556906132e-02,5.891484789034710e-11
	1.000000000000000e+00,0.000000000000000e+00
	0.000000000000000e+00,0.000000000000000e+00
	8.951110556906132e-06,-5.891484789034710e-15
	3.188001187393276e-25,2.601741062338855e-14
	8.951110625008817e-14,-9.172603996171257e-16
	-8.951110646417238e-06,-1.920866543473672e-14
	-8.951110556906132e-06,5.891484789034710e-15
	-3.188001187393276e-25,-2.601741062338855e-14
	-8.951110556906132e-06,5.891484789034710e-15
14		1.380384264602885e+00,0.000000000000000e+00
	-8.951110556906132e-02,6.028715098747876e-11
	1.000000000000000e+00,0.000000000000000e+00
	0.000000000000000e+00,0.000000000000000e+00
	8.951110556906132e-06,-6.028715098747876e-15
	3.338247054539664e-25,2.662343396820436e-14
	8.951110625008817e-14,-9.386261390248511e-16
	-8.951110646417238e-06,-1.965609273043163e-14
	-8.951110556906132e-06,6.028715098747876e-15
	-3.338247054539664e-25,-2.662343396820435e-14
	-8.951110556906132e-06,6.028715098747876e-15
15		1.412537544622754e+00,0.000000000000000e+00
	-8.951110556906132e-02,6.169141913005877e-11
	1.000000000000000e+00,0.000000000000000e+00
	0.000000000000000e+00,0.000000000000000e+00
	8.951110556906132e-06,-6.169141913005875e-15
	3.495573791255310e-25,2.724357341011291e-14
	8.951110625008817e-14,-9.604895504356698e-16
	-8.951110646417238e-06,-2.011394194667136e-14
	-8.951110556906132e-06,6.169141913005877e-15
	-3.495573791255310e-25,-2.724357341011290e-14
	-8.951110556906132e-06,6.169141913005877e-15
16		1.445439770745927e+00,0.000000000000000e+00
	-8.951110556906132e-02,6.312839687964397e-11
	1.000000000000000e+00,0.000000000000000e+00
	0.000000000000000e+00,0.000000000000000e+00
	8.951110556906132e-06,-6.312839687964397e-15
	3.660315108641950e-25,2.787815775525482e-14
	8.951110625008817e-14,-9.828622261197131e-16
	-8.951110646417238e-06,-2.058245584117071e-14
	-8.951110556906132e-06,6.312839687964398e-15
	-3.660315108641950e-25,-2.787815775525482e-14
	-8.951110556906132e-06,6.312839687964398e-15
17		1.479108388168207e+00,0.000000000000000e+00
	-8.951110556906132e-02,6.459884614085789e-11
	1.000000000000000e+00,0.000000000000000e+00
	0.000000000000000e+00,0.000000000000000e+00
	8.951110556906132e-06,-6.459884614085789e-15
	3.832820445121015e-25,2.852752346864961e-14
	8.951110625008817e-14,-1.005756028365764e-15
	-8.951110646417238e-06,-2.106188282619806e-14
	-8.951110556906132e-06,6.459884614085789e-15
	-3.832820445121015e-25,-2.852752346864961e-14
	-8.951110556906132e-06,6.459884614085789e-15
18		1.513561248436208e+00,0.000000000000000e+00
	-8.951110556906132e-02,6.610354656536253e-11
	1.000000000000000e+00,0.000000000000000e+00
	0.000000000000000e+00,0.000000000000000e+00
	8.951110556906132e-06,-6.610354656536253e-15
	4.013455707639371e-25,2.919201485259390e-14
	8.951110625008817e-14,-1.029183095770808e-15
	-8.951110646417238e-06,-2.155247710028684e-14
	-8.951110556906132e-06,6.610354656536254e-15
	-4.013455707639371e-25,-2.919201485259390e-14
	-8.951110556906132e-06,6.610354656536254e-15
19		1.548816618912481e+00,0.000000000000000e+00
	-8.951110556906132e-02,6.764329596524000e-11
	1.000000000000000e+00,0.000000000000000e+00
	0.000000000000000e+00,0.000000000000000e+00
	8.951110556906132e-06,-6.764329596523998e-15
	4.202604047807010e-25,2.987198422921503e-14
	8.951110625008817e-14,-1.053155849676086e-15
	-8.951110646417238e-06,-2.205449878301495e-14
	-8.951110556906132e-06,6.764329596524000e-15
	-4.202604047807010e-25,-2.987198422921503e-14
	-8.951110556906132e-06,6.764329596524000e-15
20		1.584893192461113e+00,0.000000000000000e+00
	-8.951110556906132e-02,6.921891073600309e-11
	1.000000000000000e+00,0.000000000000000e+00
	0.000000000000000e+00,0.000000000000000e+00
	8.951110556906132e-06,-6.921891073600309e-15
	4.400666674612988e-25,3.056779212727695e-14
	8.951110625008817e-14,-1.077687000753019e-15
	-8.951110646417238e-06,-2.256821405292362e-14
	-8.951110556906132e-06,6.921891073600309e-15
	-4.400666674612988e-25,-3.056779212727694e-14
	-8.951110556906132e-06,6.921891073600309e-15
21		1.621810097358929e+00,0.000000000000000e+00
	-8.951110556906132e-02,7.083122628945902e-11
	1.000000000000000e+00,0.000000000000000e+00
	0.000000000000000e+00,0.000000000000000e+00
	8.951110556906132e-06,-7.083122628945901e-15
	4.608063705443478e-25,3.127980747333730e-14
	8.951110625008817e-14,-1.102789555742630e-15
	-8.951110646417238e-06,-2.309389528864877e-14
	-8.951110556906132e-06,7.083122628945902e-15
	-4.608063705443478e-25,-3.127980747333730e-14
	-8.951110556906132e-06,7.083122628945902e-15
22		1.659586907437560e+00,0.000000000000000e+00
	-8.951110556906132e-02,7.248109749665573e-11
	1.000000000000000e+00,0.000000000000000e+00
	0.000000000000000e+00,0.000000000000000e+00
	8.951110556906132e-06,-7.248109749665574e-15
	4.825235057207077e-25,3.200840778735723e-14
	8.951110625008817e-14,-1.128476824351835e-15
	-8.951110646417238e-06,-2.363182121333982e-14
	-8.951110556906132e-06,7.248109749665574e-15
	-4.825235057207077e-25,-3.200840778735722e-14
	-8.951110556906132e-06,7.248109749665574e-15
23		1.698243652461743e+00,0.000000000000000e+00
	-8.951110556906132e-02,7.416939914114592e-11
	1.000000000000000e+00,0.000000000000000e+00
	0.000000000000000e+00,0.000000000000000e+00
	8.951110556906132e-06,-7.416939914114591e-15
	5.052641379457545e-25,3.275397938286736e-14
	8.951110625008817e-14,-1.154762426310470e-15
	-8.951110646417238e-06,-2.418227704244230e-14
	-8.951110556906132e-06,7.416939914114593e-15
	-5.052641379457545e-25,-3.275397938286736e-14
	-8.951110556906132e-06,7.416939914114593e-15
24		1.737800828749374e+00,0.000000000000000e+00
	-8.951110556906132e-02,7.589702638280879e-11
	1.000000000000000e+00,0.000000000000000e+00
	0.000000000000000e+00,0.000000000000000e+00
	8.951110556906132e-06,-7.589702638280879e-15
	5.290765031493272e-25,3.351691757179647e-14
	8.951110625008817e-14,-1.181660298592624e-15
	-8.951110646417238e-06,-2.474555463492296e-14
	-8.951110556906132e-06,7.589702638280879e-15
	-5.290765031493272e-25,-3.351691757179647e-14
	-8.951110556906132e-06,7.589702638280879e-15
25		1.778279410038922e+00,0.000000000000000e+00
	-8.951110556906132e-02,7.766489523247575e-11
	1.000000000000000e+00,0.000000000000000e+00
	0.000000000000000e+00,0.000000000000000e+00
	8.951110556906132e-06,-7.766489523247575e-15
	5.540111105506021e-25,3.429762687407100e-14
	8.951110625008817e-14,-1.209184702806218e-15
	-8.951110646417238e-06,-2.532195264801720e-14
	-8.951110556906132e-06,7.766489523247575e-15
	-5.540111105506021e-25,-3.429762687407100e-14
	-8.951110556906132e-06,7.766489523247575e-15
26		1.819700858609982e+00,0.000000000000000e+00
	-8.951110556906132e-02,7.947394303761138e-11
	1.000000000000000e+00,0.000000000000000e+00
	0.000000000000000e+00,0.000000000000000e+00
	8.951110556906132e-06,-7.947394303761137e-15
	5.801208497949182e-25,3.509652123209692e-14
	8.951110625008817e-14,-1.237350232754695e-15
	-8.951110646417238e-06,-2.591177669558109e-14
	-8.951110556906132e-06,7.947394303761138e-15
	-5.801208497949182e-25,-3.509652123209691e-14
	-8.951110556906132e-06,7.947394303761138e-15
27		1.862087136662866e+00,0.000000000000000e+00
	-8.951110556906132e-02,8.132512897930756e-11
	1.000000000000000e+00,0.000000000000000e+00
	0.000000000000000e+00,0.000000000000000e+00
	8.951110556906132e-06,-8.132512897930756e-15
	6.074611031398069e-25,3.591402423023748e-14
	8.951110625008817e-14,-1.266171822174838e-15
	-8.951110646417238e-06,-2.651533951013188e-14
	-8.951110556906132e-06,8.132512897930757e-15
	-6.074611031398069e-25,-3.591402423023747e-14
	-8.951110556906132e-06,8.132512897930757e-15
28		1.905460717963246e+00,0.000000000000000e+00
	-8.951110556906132e-02,8.321943458085388e-11
	1.000000000000000e+00,0.000000000000000e+00
	0.000000000000000e+00,0.000000000000000e+00
	8.951110556906132e-06,-8.321943458085387e-15
	6.360898629281833e-25,3.675056931940321e-14
	8.951110625008817e-14,-1.295664752654865e-15
	-8.951110646417238e-06,-2.713296110866296e-14
	-8.951110556906132e-06,8.321943458085389e-15
	-6.360898629281833e-25,-3.675056931940320e-14
	-8.951110556906132e-06,8.321943458085389e-15
29		1.949844599758044e+00,0.000000000000000e+00
	-8.951110556906132e-02,8.515786422815446e-11
	1.000000000000000e+00,0.000000000000000e+00
	0.000000000000000e+00,0.000000000000000e+00
	8.951110556906132e-06,-8.515786422815445e-15
	6.660678545978846e-25,3.760660004687339e-14
	8.951110625008817e-14,-1.325844661736899e-15
	-8.951110646417238e-06,-2.776496896232105e-14
	-8.951110556906132e-06,8.515786422815445e-15
	-6.660678545978846e-25,-3.760660004687339e-14
	-8.951110556906132e-06,8.515786422815445e-15
30		1.995262314968878e+00,0.000000000000000e+00
	-8.951110556906132e-02,8.714144570226635e-11
	1.000000000000000e+00,0.000000000000000e+00
	0.000000000000000e+00,0.000000000000000e+00
	8.951110556906132e-06,-8.714144570226635e-15
	6.974586654884603e-25,3.848257029147062e-14
	8.951110625008817e-14,-1.356727551208217e-15
	-8.951110646417238e-06,-2.841169817003577e-14
	-8.951110556906132e-06,8.714144570226635e-15
	-6.974586654884603e-25,-3.848257029147061e-14
	-8.951110556906132e-06,8.714144570226635e-15
31		2.041737944669527e+00,0.000000000000000e+00
	-8.951110556906132e-02,8.917123072434300e-11
	1.000000000000000e+00,0.000000000000000e+00
	0.000000000000000e+00,0.000000000000000e+00
	8.951110556906132e-06,-8.917123072434297e-15
	7.303288797184494e-25,3.937894450421342e-14
	8.951110625008817e-14,-1.388329795585595e-15
	-8.951110646417238e-06,-2.907349163619352e-14
	-8.951110556906132e-06,8.917123072434300e-15
	-7.303288797184494e-25,-3.937894450421341e-14
	-8.951110556906132e-06,8.917123072434300e-15
32		2.089296130854037e+00,0.000000000000000e+00
	-8.951110556906132e-02,9.124829551327046e-11
	1.000000000000000e+00,0.000000000000000e+00
	0.000000000000000e+00,0.000000000000000e+00
	8.951110556906132e-06,-9.124829551327045e-15
	7.647482194192199e-25,4.029619795457431e-14
	8.951110625008817e-14,-1.420668150797316e-15
	-8.951110646417238e-06,-2.975070025244995e-14
	-8.951110556906132e-06,9.124829551327045e-15
	-7.647482194192199e-25,-4.029619795457430e-14
	-8.951110556906132e-06,9.124829551327045e-15
33		2.137962089502230e+00,0.000000000000000e+00
	-8.951110556906132e-02,9.337374135629303e-11
	1.000000000000000e+00,0.000000000000000e+00
	0.000000000000000e+00,0.000000000000000e+00
	8.951110556906132e-06,-9.337374135629302e-15
	8.007896926249585e-25,4.123481698247394e-14
	8.951110625008817e-14,-1.453759763067346e-15
	-8.951110646417238e-06,-3.044368308377729e-14
	-8.951110556906132e-06,9.337374135629304e-15
	-8.007896926249585e-25,-4.123481698247394e-14
	-8.951110556906132e-06,9.337374135629304e-15
34		2.187761623949550e+00,0.000000000000000e+00
	-8.951110556906132e-02,9.554869519293029e-11
	1.000000000000000e+00,0.000000000000000e+00
	0.000000000000000e+00,0.000000000000000e+00
	8.951110556906132e-06,-9.554869519293027e-15
	8.385297481324988e-25,4.219529925614502e-14
	8.951110625008817e-14,-1.487622178006549e-15
	-8.951110646417238e-06,-3.115280755884544e-14
	-8.951110556906132e-06,9.554869519293029e-15
	-8.385297481324988e-25,-4.219529925614501e-14
	-8.951110556906132e-06,9.554869519293029e-15
35		2.238721138568337e+00,0.000000000000000e+00
	-8.951110556906132e-02,9.777431021249537e-11
	1.000000000000000e+00,0.000000000000000e+00
	0.000000000000000e+00,0.000000000000000e+00
	8.951110556906132e-06,-9.777431021249536e-15
	8.780484376594703e-25,4.317815403600251e-14
	8.951110625008817e-14,-1.522273349915531e-15
	-8.951110646417238e-06,-3.187844966483744e-14
	-8.951110556906132e-06,9.777431021249537e-15
	-8.780484376594703e-25,-4.317815403600250e-14
	-8.951110556906132e-06,9.777431021249537e-15
36		2.290867652767770e+00,0.000000000000000e+00
	-8.951110556906132e-02,1.000517664655311e-10
	1.000000000000000e+00,0.000000000000000e+00
	0.000000000000000e+00,0.000000000000000e+00
	8.951110556906132e-06,-1.000517664655311e-14
	9.194295856447218e-25,4.418390244466033e-14
	8.951110625008817e-14,-1.557731651304309e-15
	-8.951110646417238e-06,-3.262099414680291e-14
	-8.951110556906132e-06,1.000517664655311e-14
	-9.194295856447218e-25,-4.418390244466032e-14
	-8.951110556906132e-06,1.000517664655311e-14
37		2.344228815319919e+00,0.000000000000000e+00
	-8.951110556906132e-02,1.023822714894885e-10
	1.000000000000000e+00,0.000000000000000e+00
	0.000000000000000e+00,0.000000000000000e+00
	8.951110556906132e-06,-1.023822714894885e-14
	9.627609670511975e-25,4.521307774323739e-14
	8.951110625008817e-14,-1.594015882633625e-15
	-8.951110646417238e-06,-3.338083471165492e-14
	-8.951110556906132e-06,1.023822714894885e-14
	-9.627609670511975e-25,-4.521307774323739e-14
	-8.951110556906132e-06,1.023822714894885e-14
38		2.398832919019488e+00,0.000000000000000e+00
	-8.951110556906132e-02,1.047670609489792e-10
	1.000000000000000e+00,0.000000000000000e+00
