Title: * GA CMOS Amp | W=3.313237460309091e-06 L=9.108209752462524e-07 Vbias=1.4818071903798158
Date: Sat Sep  6 22:09:56 2025
Plotname: AC Analysis
Flags: complex forward log
No. Variables: 13
No. Points:          901
Offset:    0.0000000000000000e+00
Command: Linear Technology Corporation LTspice
Variables:
	0	frequency	frequency
	1	V(out)	voltage
	2	V(g)	voltage
	3	V(vdd)	voltage
	4	V(m1#dbody)	voltage
	5	V(m1#sbody)	voltage
	6	Id(M1)	device_current
	7	Ig(M1)	device_current
	8	Ib(M1)	device_current
	9	Is(M1)	device_current
	10	I(Rload)	device_current
	11	I(Vg)	device_current
	12	I(Vdd)	device_current
Values:
0		1.000000000000000e+00,0.000000000000000e+00
	-6.429164229295467e-02,1.277816154050073e-09
	1.000000000000000e+00,0.000000000000000e+00
	0.000000000000000e+00,0.000000000000000e+00
	9.900680911331309e-05,1.267136479812402e-13
	9.900680959548995e-05,1.310689059891789e-13
	6.429164229295472e-06,-1.277816154050074e-13
	5.998296192333361e-05,7.142467409049596e-13
	-5.280363179202011e-05,-6.961801268879577e-14
	-1.360849436060897e-05,-5.168471128111563e-13
	-6.429164229295467e-06,1.277816154050073e-13
	-5.998296192366581e-05,-7.142467409049595e-13
	-6.429164229295467e-06,1.277816154050073e-13
1		1.023292992280754e+00,0.000000000000000e+00
	-6.429164229295467e-02,1.307580315862584e-09
	1.000000000000000e+00,0.000000000000000e+00
	0.000000000000000e+00,0.000000000000000e+00
	9.900680911331309e-05,1.296651880055335e-13
	9.900680959548995e-05,1.341218930046318e-13
	6.429164229295472e-06,-1.307580315862585e-13
	5.998296192333361e-05,7.308836847274126e-13
	-5.280363179202011e-05,-7.123962452095734e-14
	-1.360849436060897e-05,-5.288860286201968e-13
	-6.429164229295467e-06,1.307580315862585e-13
	-5.998296192366581e-05,-7.308836847274124e-13
	-6.429164229295467e-06,1.307580315862585e-13
2		1.047128548050899e+00,0.000000000000000e+00
	-6.429164229295467e-02,1.338037774066438e-09
	1.000000000000000e+00,0.000000000000000e+00
	0.000000000000000e+00,0.000000000000000e+00
	9.900680911331309e-05,1.326854782288289e-13
	9.900680959548995e-05,1.372459932230688e-13
	6.429164229295472e-06,-1.338037774066438e-13
	5.998296192333361e-05,7.479081527538972e-13
	-5.280363179202011e-05,-7.289900854500783e-14
	-1.360849436060897e-05,-5.412053668022457e-13
	-6.429164229295467e-06,1.338037774066438e-13
	-5.998296192366581e-05,-7.479081527538970e-13
	-6.429164229295467e-06,1.338037774066438e-13
3		1.071519305237606e+00,0.000000000000000e+00
	-6.429164229295467e-02,1.369204677609124e-09
	1.000000000000000e+00,0.000000000000000e+00
	0.000000000000000e+00,0.000000000000000e+00
	9.900680911331309e-05,1.357761200489812e-13
	9.900680959548995e-05,1.404428630837781e-13
	6.429164229295472e-06,-1.369204677609125e-13
	5.998296192333361e-05,7.653291715827068e-13
	-5.280363179202011e-05,-7.459704458832133e-14
	-1.360849436060897e-05,-5.538116592334729e-13
	-6.429164229295467e-06,1.369204677609124e-13
	-5.998296192366581e-05,-7.653291715827066e-13
	-6.429164229295467e-06,1.369204677609124e-13
4		1.096478196143185e+00,0.000000000000000e+00
	-6.429164229295467e-02,1.401097551595446e-09
	1.000000000000000e+00,0.000000000000000e+00
	0.000000000000000e+00,0.000000000000000e+00
	9.900680911331309e-05,1.389387521651928e-13
	9.900680959548995e-05,1.437141976094755e-13
	6.429164229295472e-06,-1.401097551595446e-13
	5.998296192333361e-05,7.831559780686184e-13
	-5.280363179202011e-05,-7.633463297208414e-14
	-1.360849436060897e-05,-5.667115899369897e-13
	-6.429164229295467e-06,1.401097551595446e-13
	-5.998296192366581e-05,-7.831559780686185e-13
	-6.429164229295467e-06,1.401097551595446e-13
5		1.122018454301963e+00,0.000000000000000e+00
	-6.429164229295467e-02,1.433733306049343e-09
	1.000000000000000e+00,0.000000000000000e+00
	0.000000000000000e+00,0.000000000000000e+00
	9.900680911331309e-05,1.421750514468742e-13
	9.900680959548995e-05,1.470617313050279e-13
	6.429164229295472e-06,-1.433733306049343e-13
	5.998296192333361e-05,8.013980242203975e-13
	-5.280363179202011e-05,-7.811269498865710e-14
	-1.360849436060897e-05,-5.799119986268061e-13
	-6.429164229295467e-06,1.433733306049343e-13
	-5.998296192366581e-05,-8.013980242203974e-13
	-6.429164229295467e-06,1.433733306049343e-13
6		1.148153621496882e+00,0.000000000000000e+00
	-6.429164229295467e-02,1.467129244879810e-09
	1.000000000000000e+00,0.000000000000000e+00
	0.000000000000000e+00,0.000000000000000e+00
	9.900680911331309e-05,1.454867338227421e-13
	9.900680959548995e-05,1.504872390771102e-13
	6.429164229295472e-06,-1.467129244879810e-13
	5.998296192333361e-05,8.200649822123749e-13
	-5.280363179202011e-05,-7.993217339005678e-14
	-1.360849436060897e-05,-5.934198843343370e-13
	-6.429164229295467e-06,1.467129244879810e-13
	-5.998296192366581e-05,-8.200649822123746e-13
	-6.429164229295467e-06,1.467129244879810e-13
7		1.174897554939529e+00,0.000000000000000e+00
	-6.429164229295467e-02,1.501303075055664e-09
	1.000000000000000e+00,0.000000000000000e+00
	0.000000000000000e+00,0.000000000000000e+00
	9.900680911331309e-05,1.488755551906274e-13
	9.900680959548995e-05,1.539925371752853e-13
	6.429164229295472e-06,-1.501303075055664e-13
	5.998296192333361e-05,8.391667495127644e-13
	-5.280363179202011e-05,-8.179403288781529e-14
	-1.360849436060897e-05,-6.072424091193826e-13
	-6.429164229295467e-06,1.501303075055664e-13
	-5.998296192366581e-05,-8.391667495127642e-13
	-6.429164229295467e-06,1.501303075055664e-13
8		1.202264434617413e+00,0.000000000000000e+00
	-6.429164229295467e-02,1.536272915994008e-09
	1.000000000000000e+00,0.000000000000000e+00
	0.000000000000000e+00,0.000000000000000e+00
	9.900680911331309e-05,1.523433123484757e-13
	9.900680959548995e-05,1.575794841550030e-13
	6.429164229295472e-06,-1.536272915994008e-13
	5.998296192333361e-05,8.587134541314308e-13
	-5.280363179202011e-05,-8.369926066448293e-14
	-1.360849436060897e-05,-6.213869018675470e-13
	-6.429164229295467e-06,1.536272915994008e-13
	-5.998296192366581e-05,-8.587134541314306e-13
	-6.429164229295467e-06,1.536272915994008e-13
9		1.230268770812381e+00,0.000000000000000e+00
	-6.429164229295467e-02,1.572057309167388e-09
	1.000000000000000e+00,0.000000000000000e+00
	0.000000000000000e+00,0.000000000000000e+00
	9.900680911331309e-05,1.558918439470332e-13
	9.900680959548995e-05,1.612499818630307e-13
	6.429164229295472e-06,-1.572057309167389e-13
	5.998296192333361e-05,8.787154599898938e-13
	-5.280363179202011e-05,-8.564886689704555e-14
	-1.360849436060897e-05,-6.358608621761094e-13
	-6.429164229295467e-06,1.572057309167388e-13
	-5.998296192366581e-05,-8.787154599898938e-13
	-6.429164229295467e-06,1.572057309167388e-13
10		1.258925411794167e+00,0.000000000000000e+00
	-6.429164229295467e-02,1.608675227934727e-09
	1.000000000000000e+00,0.000000000000000e+00
	0.000000000000000e+00,0.000000000000000e+00
	9.900680911331309e-05,1.595230314647240e-13
	9.900680959548995e-05,1.650059764458380e-13
	6.429164229295472e-06,-1.608675227934727e-13
	5.998296192333361e-05,8.991833724164176e-13
	-5.280363179202011e-05,-8.764388529253375e-14
	-1.360849436060897e-05,-6.506719643304112e-13
	-6.429164229295467e-06,1.608675227934727e-13
	-5.998296192366581e-05,-8.991833724164176e-13
	-6.429164229295467e-06,1.608675227934727e-13
11		1.288249551693134e+00,0.000000000000000e+00
	-6.429164229295467e-02,1.646146087601251e-09
	1.000000000000000e+00,0.000000000000000e+00
	0.000000000000000e+00,0.000000000000000e+00
	9.900680911331309e-05,1.632388002052343e-13
	9.900680959548995e-05,1.688494593814692e-13
	6.429164229295472e-06,-1.646146087601252e-13
	5.998296192333361e-05,9.201280437690962e-13
	-5.280363179202011e-05,-8.968537363610806e-14
	-1.360849436060897e-05,-6.658280613728628e-13
	-6.429164229295467e-06,1.646146087601252e-13
	-5.998296192366581e-05,-9.201280437690958e-13
	-6.429164229295467e-06,1.646146087601252e-13
12		1.318256738556407e+00,0.000000000000000e+00
	-6.429164229295467e-02,1.684489755712741e-09
	1.000000000000000e+00,0.000000000000000e+00
	0.000000000000000e+00,0.000000000000000e+00
	9.900680911331309e-05,1.670411203183344e-13
	9.900680959548995e-05,1.727824685354513e-13
	6.429164229295472e-06,-1.684489755712741e-13
	5.998296192333361e-05,9.415605791899148e-13
	-5.280363179202011e-05,-9.177441435191047e-14
	-1.360849436060897e-05,-6.813371892667303e-13
	-6.429164229295467e-06,1.684489755712741e-13
	-5.998296192366581e-05,-9.415605791899146e-13
	-6.429164229295467e-06,1.684489755712741e-13
13		1.348962882591653e+00,0.000000000000000e+00
	-6.429164229295467e-02,1.723726562589567e-09
	1.000000000000000e+00,0.000000000000000e+00
	0.000000000000000e+00,0.000000000000000e+00
	9.900680911331309e-05,1.709320078444779e-13
	9.900680959548995e-05,1.768070892412973e-13
	6.429164229295472e-06,-1.723726562589567e-13
	5.998296192333361e-05,9.634923424928479e-13
	-5.280363179202011e-05,-9.391211507698028e-14
	-1.360849436060897e-05,-6.972075711569109e-13
	-6.429164229295467e-06,1.723726562589567e-13
	-5.998296192366581e-05,-9.634923424928477e-13
	-6.429164229295467e-06,1.723726562589567e-13
14		1.380384264602885e+00,0.000000000000000e+00
	-6.429164229295467e-02,1.763877312106097e-09
	1.000000000000000e+00,0.000000000000000e+00
	0.000000000000000e+00,0.000000000000000e+00
	9.900680911331309e-05,1.749135257837331e-13
	9.900680959548995e-05,1.809254554061774e-13
	6.429164229295472e-06,-1.763877312106098e-13
	5.998296192333361e-05,9.859349621890997e-13
	-5.280363179202011e-05,-9.609960924853766e-14
	-1.360849436060897e-05,-7.134476217299523e-13
	-6.429164229295467e-06,1.763877312106097e-13
	-5.998296192366581e-05,-9.859349621890991e-13
	-6.429164229295467e-06,1.763877312106097e-13
15		1.412537544622754e+00,0.000000000000000e+00
	-6.429164229295467e-02,1.804963292721181e-09
	1.000000000000000e+00,0.000000000000000e+00
	0.000000000000000e+00,0.000000000000000e+00
	9.900680911331309e-05,1.789877851896131e-13
	9.900680959548995e-05,1.851397506423454e-13
	6.429164229295472e-06,-1.804963292721182e-13
	5.998296192333361e-05,1.008900337652696e-12
	-5.280363179202011e-05,-9.833805670494734e-14
	-1.360849436060897e-05,-7.300659516756305e-13
	-6.429164229295467e-06,1.804963292721181e-13
	-5.998296192366581e-05,-1.008900337652696e-12
	-6.429164229295467e-06,1.804963292721181e-13
16		1.445439770745927e+00,0.000000000000000e+00
	-6.429164229295467e-02,1.847006288765580e-09
	1.000000000000000e+00,0.000000000000000e+00
	0.000000000000000e+00,0.000000000000000e+00
	9.900680911331309e-05,1.831569462883840e-13
	9.900680959548995e-05,1.894522094249183e-13
	6.429164229295472e-06,-1.847006288765580e-13
	5.998296192333361e-05,1.032400645429690e-12
	-5.280363179202011e-05,-1.006286443006800e-13
	-1.360849436060897e-05,-7.470713722524523e-13
	-6.429164229295467e-06,1.847006288765580e-13
	-5.998296192366581e-05,-1.032400645429690e-12
	-6.429164229295467e-06,1.847006288765580e-13
17		1.479108388168207e+00,0.000000000000000e+00
	-6.429164229295467e-02,1.890028591992301e-09
	1.000000000000000e+00,0.000000000000000e+00
	0.000000000000000e+00,0.000000000000000e+00
	9.900680911331309e-05,1.874232196244458e-13
	9.900680959548995e-05,1.938651182766247e-13
	6.429164229295472e-06,-1.890028591992302e-13
	5.998296192333361e-05,1.056448345694329e-12
	-5.280363179202011e-05,-1.029725865355985e-13
	-1.360849436060897e-05,-7.644728999595008e-13
	-6.429164229295467e-06,1.890028591992301e-13
	-5.998296192366581e-05,-1.056448345694329e-12
	-6.429164229295467e-06,1.890028591992301e-13
18		1.513561248436208e+00,0.000000000000000e+00
	-6.429164229295467e-02,1.934053013395982e-09
	1.000000000000000e+00,0.000000000000000e+00
	0.000000000000000e+00,0.000000000000000e+00
	9.900680911331309e-05,1.917888672323921e-13
	9.900680959548995e-05,1.983808169801496e-13
	6.429164229295472e-06,-1.934053013395983e-13
	5.998296192333361e-05,1.081056188855603e-12
	-5.280363179202011e-05,-1.053711261989015e-13
	-1.360849436060897e-05,-7.822797613171033e-13
	-6.429164229295467e-06,1.934053013395982e-13
	-5.998296192366581e-05,-1.081056188855603e-12
	-6.429164229295467e-06,1.934053013395982e-13
19		1.548816618912481e+00,0.000000000000000e+00
	-6.429164229295467e-02,1.979102895307584e-09
	1.000000000000000e+00,0.000000000000000e+00
	0.000000000000000e+00,0.000000000000000e+00
	9.900680911331309e-05,1.962562038363708e-13
	9.900680959548995e-05,2.030016998187179e-13
	6.429164229295472e-06,-1.979102895307585e-13
	5.998296192333361e-05,1.106237222317678e-12
	-5.280363179202011e-05,-1.078255350280669e-13
	-1.360849436060897e-05,-8.005013977588526e-13
	-6.429164229295467e-06,1.979102895307584e-13
	-5.998296192366581e-05,-1.106237222317678e-12
	-6.429164229295467e-06,1.979102895307584e-13
20		1.584893192461113e+00,0.000000000000000e+00
	-6.429164229295467e-02,2.025202123770802e-09
	1.000000000000000e+00,0.000000000000000e+00
	0.000000000000000e+00,0.000000000000000e+00
	9.900680911331309e-05,2.008275980773815e-13
	9.900680959548995e-05,2.077302168455752e-13
	6.429164229295472e-06,-2.025202123770802e-13
	5.998296192333361e-05,1.132004797397806e-12
	-5.280363179202011e-05,-1.103371143831438e-13
	-1.360849436060897e-05,-8.191474706375825e-13
	-6.429164229295467e-06,2.025202123770802e-13
	-5.998296192366581e-05,-1.132004797397807e-12
	-6.429164229295467e-06,2.025202123770802e-13
21		1.621810097358929e+00,0.000000000000000e+00
	-6.429164229295467e-02,2.072375141206762e-09
	1.000000000000000e+00,0.000000000000000e+00
	0.000000000000000e+00,0.000000000000000e+00
	9.900680911331309e-05,2.055054737691603e-13
	9.900680959548995e-05,2.125688751830386e-13
	6.429164229295472e-06,-2.072375141206762e-13
	5.998296192333361e-05,1.158372576405370e-12
	-5.280363179202011e-05,-1.129071959367511e-13
	-1.360849436060897e-05,-8.382278663479430e-13
	-6.429164229295467e-06,2.072375141206762e-13
	-5.998296192366581e-05,-1.158372576405370e-12
	-6.429164229295467e-06,2.072375141206762e-13
22		1.659586907437560e+00,0.000000000000000e+00
	-6.429164229295467e-02,2.120646959373717e-09
	1.000000000000000e+00,0.000000000000000e+00
	0.000000000000000e+00,0.000000000000000e+00
	9.900680911331309e-05,2.102923111833181e-13
	9.900680959548995e-05,2.175202403518058e-13
	6.429164229295472e-06,-2.120646959373719e-13
	5.998296192333361e-05,1.185354539885818e-12
	-5.280363179202011e-05,-1.155371423801474e-13
	-1.360849436060897e-05,-8.577527015682985e-13
	-6.429164229295467e-06,2.120646959373718e-13
	-5.998296192366581e-05,-1.185354539885817e-12
	-6.429164229295467e-06,2.120646959373718e-13
23		1.698243652461743e+00,0.000000000000000e+00
	-6.429164229295467e-02,2.170043172628614e-09
	1.000000000000000e+00,0.000000000000000e+00
	0.000000000000000e+00,0.000000000000000e+00
	9.900680911331309e-05,2.151906483644131e-13
	9.900680959548995e-05,2.225869376312282e-13
	6.429164229295472e-06,-2.170043172628615e-13
	5.998296192333361e-05,1.212964994033335e-12
	-5.280363179202011e-05,-1.182283481457486e-13
	-1.360849436060897e-05,-8.777323286247249e-13
	-6.429164229295467e-06,2.170043172628614e-13
	-5.998296192366581e-05,-1.212964994033335e-12
	-6.429164229295467e-06,2.170043172628614e-13
24		1.737800828749374e+00,0.000000000000000e+00
	-6.429164229295467e-02,2.220589971497556e-09
	1.000000000000000e+00,0.000000000000000e+00
	0.000000000000000e+00,0.000000000000000e+00
	9.900680911331309e-05,2.202030824756558e-13
	9.900680959548995e-05,2.277716534512690e-13
	6.429164229295472e-06,-2.220589971497557e-13
	5.998296192333361e-05,1.241218578276178e-12
	-5.280363179202011e-05,-1.209822401464738e-13
	-1.360849436060897e-05,-8.981773409799490e-13
	-6.429164229295467e-06,2.220589971497556e-13
	-5.998296192366581e-05,-1.241218578276178e-12
	-6.429164229295467e-06,2.220589971497556e-13
25		1.778279410038922e+00,0.000000000000000e+00
	-6.429164229295467e-02,2.272314156562368e-09
	1.000000000000000e+00,0.000000000000000e+00
	0.000000000000000e+00,0.000000000000000e+00
	9.900680911331309e-05,2.253322711759595e-13
	9.900680959548995e-05,2.330771368168840e-13
	6.429164229295472e-06,-2.272314156562368e-13
	5.998296192333361e-05,1.270130273038694e-12
	-5.280363179202011e-05,-1.238002785323139e-13
	-1.360849436060897e-05,-9.190985788501430e-13
	-6.429164229295467e-06,2.272314156562368e-13
	-5.998296192366581e-05,-1.270130273038694e-12
	-6.429164229295467e-06,2.272314156562368e-13
26		1.819700858609982e+00,0.000000000000000e+00
	-6.429164229295467e-02,2.325243152670624e-09
	1.000000000000000e+00,0.000000000000000e+00
	0.000000000000000e+00,0.000000000000000e+00
	9.900680911331309e-05,2.305809340290660e-13
	9.900680959548995e-05,2.385062007655800e-13
	6.429164229295472e-06,-2.325243152670624e-13
	5.998296192333361e-05,1.299715407684136e-12
	-5.280363179202011e-05,-1.266839574645224e-13
	-1.360849436060897e-05,-9.405071349525515e-13
	-6.429164229295467e-06,2.325243152670624e-13
	-5.998296192366581e-05,-1.299715407684136e-12
	-6.429164229295467e-06,2.325243152670624e-13
27		1.862087136662866e+00,0.000000000000000e+00
	-6.429164229295467e-02,2.379405023476656e-09
	1.000000000000000e+00,0.000000000000000e+00
	0.000000000000000e+00,0.000000000000000e+00
	9.900680911331309e-05,2.359518539454941e-13
	9.900680959548995e-05,2.440617238589246e-13
	6.429164229295472e-06,-2.379405023476658e-13
	5.998296192333361e-05,1.329989668642500e-12
	-5.280363179202011e-05,-1.296348059078388e-13
	-1.360849436060897e-05,-9.624143603869954e-13
	-6.429164229295467e-06,2.379405023476656e-13
	-5.998296192366581e-05,-1.329989668642500e-12
	-6.429164229295467e-06,2.379405023476656e-13
28		1.905460717963246e+00,0.000000000000000e+00
	-6.429164229295467e-02,2.434828486321286e-09
	1.000000000000000e+00,0.000000000000000e+00
	0.000000000000000e+00,0.000000000000000e+00
	9.900680911331309e-05,2.414478786580760e-13
	9.900680959548995e-05,2.497466517087980e-13
	6.429164229295472e-06,-2.434828486321287e-13
	5.998296192333361e-05,1.360969107727672e-12
	-5.280363179202011e-05,-1.326543884411672e-13
	-1.360849436060897e-05,-9.848318706543766e-13
	-6.429164229295467e-06,2.434828486321286e-13
	-5.998296192366581e-05,-1.360969107727672e-12
	-6.429164229295467e-06,2.434828486321286e-13
29		1.949844599758044e+00,0.000000000000000e+00
	-6.429164229295467e-02,2.491542927458128e-09
	1.000000000000000e+00,0.000000000000000e+00
	0.000000000000000e+00,0.000000000000000e+00
	9.900680911331309e-05,2.470719222318632e-13
	9.900680959548995e-05,2.555639985391954e-13
	6.429164229295472e-06,-2.491542927458129e-13
	5.998296192333361e-05,1.392670150648318e-12
	-5.280363179202011e-05,-1.357443060871355e-13
	-1.360849436060897e-05,-1.007771551815370e-12
	-6.429164229295467e-06,2.491542927458128e-13
	-5.998296192366581e-05,-1.392670150648318e-12
	-6.429164229295467e-06,2.491542927458128e-13
30		1.995262314968878e+00,0.000000000000000e+00
	-6.429164229295467e-02,2.549578417634578e-09
	1.000000000000000e+00,0.000000000000000e+00
	0.000000000000000e+00,0.000000000000000e+00
	9.900680911331309e-05,2.528269666092009e-13
	9.900680959548995e-05,2.615168487844074e-13
	6.429164229295472e-06,-2.549578417634578e-13
	5.998296192333361e-05,1.425109605717006e-12
	-5.280363179202011e-05,-1.389061971609794e-13
	-1.360849436060897e-05,-1.031245566792569e-12
	-6.429164229295467e-06,2.549578417634578e-13
	-5.998296192366581e-05,-1.425109605717006e-12
	-6.429164229295467e-06,2.549578417634578e-13
31		2.041737944669527e+00,0.000000000000000e+00
	-6.429164229295467e-02,2.608965728035717e-09
	1.000000000000000e+00,0.000000000000000e+00
	0.000000000000000e+00,0.000000000000000e+00
	9.900680911331309e-05,2.587160631907955e-13
	9.900680959548995e-05,2.676083587244297e-13
	6.429164229295470e-06,-2.608965728035718e-13
	5.998296192333361e-05,1.458304672762200e-12
	-5.280363179202011e-05,-1.421417381391990e-13
	-1.360849436060897e-05,-1.055266361819430e-12
	-6.429164229295467e-06,2.608965728035717e-13
	-5.998296192366581e-05,-1.458304672762200e-12
	-6.429164229295467e-06,2.608965728035717e-13
32		2.089296130854037e+00,0.000000000000000e+00
	-6.429164229295467e-02,2.669736346599605e-09
	1.000000000000000e+00,0.000000000000000e+00
	0.000000000000000e+00,0.000000000000000e+00
	9.900680911331309e-05,2.647423344536058e-13
