Title: * GA CMOS Amp | W=1e-06 L=6.83821333047579e-07 Vbias=1.1651802763120096
Date: Mon Sep  8 18:44:29 2025
Plotname: AC Analysis
Flags: complex forward log
No. Variables: 11
No. Points:          901
Offset:    0.0000000000000000e+00
Command: Linear Technology Corporation LTspice
Variables:
	0	frequency	frequency
	1	V(out)	voltage
	2	V(g)	voltage
	3	V(vdd)	voltage
	4	Id(M1)	device_current
	5	Ig(M1)	device_current
	6	Ib(M1)	device_current
	7	Is(M1)	device_current
	8	I(Rload)	device_current
	9	I(Vg)	device_current
	10	I(Vdd)	device_current
Values:
0		1.000000000000000e+00,0.000000000000000e+00
	-3.650363210128542e-01,1.689295637879196e-11
	1.000000000000000e+00,0.000000000000000e+00
	0.000000000000000e+00,0.000000000000000e+00
	3.650363210128542e-05,-1.689295637879197e-15
	2.122831506281027e-26,6.912561477836903e-15
	3.650363228379673e-13,-4.414535941420324e-16
	-3.650363246632175e-05,-4.781812245815673e-15
	-3.650363210128542e-05,1.689295637879197e-15
	-2.122831506281027e-26,-6.912561477836903e-15
	-3.650363210128542e-05,1.689295637879197e-15
1		1.023292992280754e+00,0.000000000000000e+00
	-3.650363210128542e-01,1.728644388132229e-11
	1.000000000000000e+00,0.000000000000000e+00
	0.000000000000000e+00,0.000000000000000e+00
	3.650363210128542e-05,-1.728644388132228e-15
	2.222877472928756e-26,7.073575718980396e-15
	3.650363228379673e-13,-4.517363693026933e-16
	-3.650363246632175e-05,-4.893194961545474e-15
	-3.650363210128542e-05,1.728644388132229e-15
	-2.222877472928756e-26,-7.073575718980396e-15
	-3.650363210128542e-05,1.728644388132229e-15
2		1.047128548050899e+00,0.000000000000000e+00
	-3.650363210128542e-01,1.768909688521161e-11
	1.000000000000000e+00,0.000000000000000e+00
	0.000000000000000e+00,0.000000000000000e+00
	3.650363210128542e-05,-1.768909688521162e-15
	2.327638460722940e-26,7.238340463599935e-15
	3.650363228379673e-13,-4.622586610657970e-16
	-3.650363246632175e-05,-5.007172114012977e-15
	-3.650363210128542e-05,1.768909688521161e-15
	-2.327638460722940e-26,-7.238340463599935e-15
	-3.650363210128542e-05,1.768909688521161e-15
3		1.071519305237606e+00,0.000000000000000e+00
	-3.650363210128542e-01,1.810112888241236e-11
	1.000000000000000e+00,0.000000000000000e+00
	0.000000000000000e+00,0.000000000000000e+00
	3.650363210128542e-05,-1.810112888241235e-15
	2.437336681764243e-26,7.406943072144037e-15
	3.650363228379673e-13,-4.730260484897136e-16
	-3.650363246632175e-05,-5.123804135413088e-15
	-3.650363210128542e-05,1.810112888241236e-15
	-2.437336681764243e-26,-7.406943072144037e-15
	-3.650363210128542e-05,1.810112888241236e-15
4		1.096478196143185e+00,0.000000000000000e+00
	-3.650363210128542e-01,1.852275833774332e-11
	1.000000000000000e+00,0.000000000000000e+00
	0.000000000000000e+00,0.000000000000000e+00
	3.650363210128542e-05,-1.852275833774332e-15
	2.552204820686988e-26,7.579472939947472e-15
	3.650363228379673e-13,-4.840442405857800e-16
	-3.650363246632175e-05,-5.243152865587360e-15
	-3.650363210128542e-05,1.852275833774332e-15
	-2.552204820686988e-26,-7.579472939947472e-15
	-3.650363210128542e-05,1.852275833774332e-15
5		1.122018454301963e+00,0.000000000000000e+00
	-3.650363210128542e-01,1.895420880472265e-11
	1.000000000000000e+00,0.000000000000000e+00
	0.000000000000000e+00,0.000000000000000e+00
	3.650363210128542e-05,-1.895420880472266e-15
	2.672486528214473e-26,7.756021544629856e-15
	3.650363228379673e-13,-4.953190793452889e-16
	-3.650363246632175e-05,-5.365281584812302e-15
	-3.650363210128542e-05,1.895420880472266e-15
	-2.672486528214473e-26,-7.756021544629856e-15
	-3.650363210128542e-05,1.895420880472266e-15
6		1.148153621496882e+00,0.000000000000000e+00
	-3.650363210128542e-01,1.939570904409886e-11
	1.000000000000000e+00,0.000000000000000e+00
	0.000000000000000e+00,0.000000000000000e+00
	3.650363210128542e-05,-1.939570904409886e-15
	2.798436937974810e-26,7.936682494598281e-15
	3.650363228379673e-13,-5.068565428369891e-16
	-3.650363246632175e-05,-5.490255047351406e-15
	-3.650363210128542e-05,1.939570904409886e-15
	-2.798436937974810e-26,-7.936682494598281e-15
	-3.650363210128542e-05,1.939570904409886e-15
7		1.174897554939529e+00,0.000000000000000e+00
	-3.650363210128542e-01,1.984749314514281e-11
	1.000000000000000e+00,0.000000000000000e+00
	0.000000000000000e+00,0.000000000000000e+00
	3.650363210128542e-05,-1.984749314514280e-15
	2.930323207673568e-26,8.121551578679755e-15
	3.650363228379673e-13,-5.186627483767415e-16
	-3.650363246632175e-05,-5.618139515788733e-15
	-3.650363210128542e-05,1.984749314514280e-15
	-2.930323207673568e-26,-8.121551578679755e-15
	-3.650363210128542e-05,1.984749314514280e-15
8		1.202264434617413e+00,0.000000000000000e+00
	-3.650363210128542e-01,2.030980064976494e-11
	1.000000000000000e+00,0.000000000000000e+00
	0.000000000000000e+00,0.000000000000000e+00
	3.650363210128542e-05,-2.030980064976494e-15
	3.068425085771078e-26,8.310726816909688e-15
	3.650363228379673e-13,-5.307439557709929e-16
	-3.650363246632175e-05,-5.749002796162201e-15
	-3.650363210128542e-05,2.030980064976494e-15
	-3.068425085771078e-26,-8.310726816909688e-15
	-3.650363210128542e-05,2.030980064976494e-15
9		1.230268770812381e+00,0.000000000000000e+00
	-3.650363210128542e-01,2.078287667952357e-11
	1.000000000000000e+00,0.000000000000000e+00
	0.000000000000000e+00,0.000000000000000e+00
	3.650363210128542e-05,-2.078287667952357e-15
	3.213035504866426e-26,8.504308512503422e-15
	3.650363228379673e-13,-5.431065706358247e-16
	-3.650363246632175e-05,-5.882914273915241e-15
	-3.650363210128542e-05,2.078287667952357e-15
	-3.213035504866426e-26,-8.504308512503422e-15
	-3.650363210128542e-05,2.078287667952357e-15
10		1.258925411794167e+00,0.000000000000000e+00
	-3.650363210128542e-01,2.126697206559158e-11
	1.000000000000000e+00,0.000000000000000e+00
	0.000000000000000e+00,0.000000000000000e+00
	3.650363210128542e-05,-2.126697206559158e-15
	3.364461203046769e-26,8.702399305038318e-15
	3.650363228379673e-13,-5.557571477932735e-16
	-3.650363246632175e-05,-6.019944950685887e-15
	-3.650363210128542e-05,2.126697206559158e-15
	-3.364461203046769e-26,-8.702399305038318e-15
	-3.650363210128542e-05,2.126697206559158e-15
11		1.288249551693134e+00,0.000000000000000e+00
	-3.650363210128542e-01,2.176234348175041e-11
	1.000000000000000e+00,0.000000000000000e+00
	0.000000000000000e+00,0.000000000000000e+00
	3.650363210128542e-05,-2.176234348175042e-15
	3.523023374519947e-26,8.905104224874616e-15
	3.650363228379673e-13,-5.687023947467957e-16
	-3.650363246632175e-05,-6.160167481952778e-15
	-3.650363210128542e-05,2.176234348175042e-15
	-3.523023374519947e-26,-8.905104224874616e-15
	-3.650363210128542e-05,2.176234348175042e-15
12		1.318256738556407e+00,0.000000000000000e+00
	-3.650363210128542e-01,2.226925358048195e-11
	1.000000000000000e+00,0.000000000000000e+00
	0.000000000000000e+00,0.000000000000000e+00
	3.650363210128542e-05,-2.226925358048195e-15
	3.689058350910452e-26,9.112530748843931e-15
	3.650363228379673e-13,-5.819491752376791e-16
	-3.650363246632175e-05,-6.303656215558057e-15
	-3.650363210128542e-05,2.226925358048195e-15
	-3.689058350910452e-26,-9.112530748843931e-15
	-3.650363210128542e-05,2.226925358048195e-15
13		1.348962882591653e+00,0.000000000000000e+00
	-3.650363210128542e-01,2.278797113223027e-11
	1.000000000000000e+00,0.000000000000000e+00
	0.000000000000000e+00,0.000000000000000e+00
	3.650363210128542e-05,-2.278797113223027e-15
	3.862918314663909e-26,9.324788857234886e-15
	3.650363228379673e-13,-5.955045128842797e-16
	-3.650363246632175e-05,-6.450487231127579e-15
	-3.650363210128542e-05,2.278797113223027e-15
	-3.862918314663909e-26,-9.324788857234886e-15
	-3.650363210128542e-05,2.278797113223027e-15
14		1.380384264602885e+00,0.000000000000000e+00
	-3.650363210128542e-01,2.331877116790736e-11
	1.000000000000000e+00,0.000000000000000e+00
	0.000000000000000e+00,0.000000000000000e+00
	3.650363210128542e-05,-2.331877116790736e-15
	4.044972046073247e-26,9.541991092106122e-15
	3.650363228379673e-13,-6.093755949060491e-16
	-3.650363246632175e-05,-6.600738380409337e-15
	-3.650363210128542e-05,2.331877116790736e-15
	-4.044972046073247e-26,-9.541991092106122e-15
	-3.650363210128542e-05,2.331877116790736e-15
15		1.412537544622754e+00,0.000000000000000e+00
	-3.650363210128542e-01,2.386193512471810e-11
	1.000000000000000e+00,0.000000000000000e+00
	0.000000000000000e+00,0.000000000000000e+00
	3.650363210128542e-05,-2.386193512471810e-15
	4.235605705511155e-26,9.764252616957575e-15
	3.650363228379673e-13,-6.235697759342764e-16
	-3.650363246632175e-05,-6.754489328551489e-15
	-3.650363210128542e-05,2.386193512471810e-15
	-4.235605705511155e-26,-9.764252616957575e-15
	-3.650363210128542e-05,2.386193512471810e-15
16		1.445439770745927e+00,0.000000000000000e+00
	-3.650363210128542e-01,2.441775099538200e-11
	1.000000000000000e+00,0.000000000000000e+00
	0.000000000000000e+00,0.000000000000000e+00
	3.650363210128542e-05,-2.441775099538201e-15
	4.435223652527998e-26,9.991691277791698e-15
	3.650363228379673e-13,-6.380945819116234e-16
	-3.650363246632175e-05,-6.911821596341874e-15
	-3.650363210128542e-05,2.441775099538200e-15
	-4.435223652527998e-26,-9.991691277791698e-15
	-3.650363210128542e-05,2.441775099538200e-15
17		1.479108388168207e+00,0.000000000000000e+00
	-3.650363210128542e-01,2.498651348083081e-11
	1.000000000000000e+00,0.000000000000000e+00
	0.000000000000000e+00,0.000000000000000e+00
	3.650363210128542e-05,-2.498651348083081e-15
	4.644249303552650e-26,1.022442766559698e-14
	3.650363228379673e-13,-6.529577140824840e-16
	-3.650363246632175e-05,-7.072818603431413e-15
	-3.650363210128542e-05,2.498651348083081e-15
	-4.644249303552650e-26,-1.022442766559698e-14
	-3.650363210128542e-05,2.498651348083081e-15
18		1.513561248436208e+00,0.000000000000000e+00
	-3.650363210128542e-01,2.556852414646277e-11
	1.000000000000000e+00,0.000000000000000e+00
	0.000000000000000e+00,0.000000000000000e+00
	3.650363210128542e-05,-2.556852414646277e-15
	4.863126030015489e-26,1.046258518028686e-14
	3.650363228379673e-13,-6.681670530762654e-16
	-3.650363246632175e-05,-7.237565712564316e-15
	-3.650363210128542e-05,2.556852414646277e-15
	-4.863126030015489e-26,-1.046258518028686e-14
	-3.650363210128542e-05,2.556852414646277e-15
19		1.548816618912481e+00,0.000000000000000e+00
	-3.650363210128542e-01,2.616409158203660e-11
	1.000000000000000e+00,0.000000000000000e+00
	0.000000000000000e+00,0.000000000000000e+00
	3.650363210128542e-05,-2.616409158203660e-15
	5.092318098798654e-26,1.070629009612801e-14
	3.650363228379673e-13,-6.837306630858239e-16
	-3.650363246632175e-05,-7.406150274838528e-15
	-3.650363210128542e-05,2.616409158203660e-15
	-5.092318098798654e-26,-1.070629009612801e-14
	-3.650363210128542e-05,2.616409158203660e-15
20		1.584893192461113e+00,0.000000000000000e+00
	-3.650363210128542e-01,2.677353156528992e-11
	1.000000000000000e+00,0.000000000000000e+00
	0.000000000000000e+00,0.000000000000000e+00
	3.650363210128542e-05,-2.677353156528993e-15
	5.332311657008352e-26,1.095567162869264e-14
	3.650363228379673e-13,-6.996567961431973e-16
	-3.650363246632175e-05,-7.578661676020446e-15
	-3.650363210128542e-05,2.677353156528993e-15
	-5.332311657008352e-26,-1.095567162869264e-14
	-3.650363210128542e-05,2.677353156528993e-15
21		1.621810097358929e+00,0.000000000000000e+00
	-3.650363210128542e-01,2.739716722936874e-11
	1.000000000000000e+00,0.000000000000000e+00
	0.000000000000000e+00,0.000000000000000e+00
	3.650363210128542e-05,-2.739716722936874e-15
	5.583615763158039e-26,1.121086200337025e-14
	3.650363228379673e-13,-7.159538964949366e-16
	-3.650363246632175e-05,-7.755191383938438e-15
	-3.650363210128542e-05,2.739716722936874e-15
	-5.583615763158039e-26,-1.121086200337025e-14
	-3.650363210128542e-05,2.739716722936874e-15
22		1.659586907437560e+00,0.000000000000000e+00
	-3.650363210128542e-01,2.803532923415696e-11
	1.000000000000000e+00,0.000000000000000e+00
	0.000000000000000e+00,0.000000000000000e+00
	3.650363210128542e-05,-2.803532923415696e-15
	5.846763466949794e-26,1.147199652547535e-14
	3.650363228379673e-13,-7.326306050793702e-16
	-3.650363246632175e-05,-7.935832996980287e-15
	-3.650363210128542e-05,2.803532923415696e-15
	-5.846763466949794e-26,-1.147199652547535e-14
	-3.650363210128542e-05,2.803532923415696e-15
23		1.698243652461743e+00,0.000000000000000e+00
	-3.650363210128542e-01,2.868835594159658e-11
	1.000000000000000e+00,0.000000000000000e+00
	0.000000000000000e+00,0.000000000000000e+00
	3.650363210128542e-05,-2.868835594159658e-15
	6.122312939944181e-26,1.173921365198809e-14
	3.650363228379673e-13,-7.496957641081284e-16
	-3.650363246632175e-05,-8.120682293720302e-15
	-3.650363210128542e-05,2.868835594159658e-15
	-6.122312939944181e-26,-1.173921365198809e-14
	-3.650363210128542e-05,2.868835594159658e-15
24		1.737800828749374e+00,0.000000000000000e+00
	-3.650363210128542e-01,2.935659359509171e-11
	1.000000000000000e+00,0.000000000000000e+00
	0.000000000000000e+00,0.000000000000000e+00
	3.650363210128542e-05,-2.935659359509171e-15
	6.410848659516984e-26,1.201265506496597e-14
	3.650363228379673e-13,-7.671584217544120e-16
	-3.650363246632175e-05,-8.309837283702385e-15
	-3.650363210128542e-05,2.935659359509171e-15
	-6.410848659516984e-26,-1.201265506496597e-14
	-3.650363210128542e-05,2.935659359509171e-15
25		1.778279410038922e+00,0.000000000000000e+00
	-3.650363210128542e-01,3.004039650309142e-11
	1.000000000000000e+00,0.000000000000000e+00
	0.000000000000000e+00,0.000000000000000e+00
	3.650363210128542e-05,-3.004039650309143e-15
	6.712982648614075e-26,1.229246574666558e-14
	3.650363228379673e-13,-7.850278369504519e-16
	-3.650363246632175e-05,-8.503398259405988e-15
	-3.650363210128542e-05,3.004039650309142e-15
	-6.712982648614075e-26,-1.229246574666558e-14
	-3.650363210128542e-05,3.004039650309142e-15
26		1.819700858609982e+00,0.000000000000000e+00
	-3.650363210128542e-01,3.074012722694871e-11
	1.000000000000000e+00,0.000000000000000e+00
	0.000000000000000e+00,0.000000000000000e+00
	3.650363210128542e-05,-3.074012722694872e-15
	7.029355773934135e-26,1.257879405641410e-14
	3.650363228379673e-13,-8.033134842967189e-16
	-3.650363246632175e-05,-8.701467849422507e-15
	-3.650363210128542e-05,3.074012722694871e-15
	-7.029355773934135e-26,-1.257879405641410e-14
	-3.650363210128542e-05,3.074012722694871e-15
27		1.862087136662866e+00,0.000000000000000e+00
	-3.650363210128542e-01,3.145615677315543e-11
	1.000000000000000e+00,0.000000000000000e+00
	0.000000000000000e+00,0.000000000000000e+00
	3.650363210128542e-05,-3.145615677315544e-15
	7.360639105292860e-26,1.287179180927135e-14
	3.650363228379673e-13,-8.220250590854658e-16
	-3.650363246632175e-05,-8.904151072870337e-15
	-3.650363210128542e-05,3.145615677315544e-15
	-7.360639105292860e-26,-1.287179180927135e-14
	-3.650363210128542e-05,3.145615677315544e-15
28		1.905460717963246e+00,0.000000000000000e+00
	-3.650363210128542e-01,3.218886479005473e-11
	1.000000000000000e+00,0.000000000000000e+00
	0.000000000000000e+00,0.000000000000000e+00
	3.650363210128542e-05,-3.218886479005473e-15
	7.707535339051981e-26,1.317161435652418e-14
	3.650363228379673e-13,-8.411724824413318e-16
	-3.650363246632175e-05,-9.111555395077373e-15
	-3.650363210128542e-05,3.218886479005473e-15
	-7.707535339051981e-26,-1.317161435652418e-14
	-3.650363210128542e-05,3.218886479005473e-15
29		1.949844599758044e+00,0.000000000000000e+00
	-3.650363210128542e-01,3.293863976913572e-11
	1.000000000000000e+00,0.000000000000000e+00
	0.000000000000000e+00,0.000000000000000e+00
	3.650363210128542e-05,-3.293863976913572e-15
	8.070780288632502e-26,1.347842066805577e-14
	3.650363228379673e-13,-8.607659065816191e-16
	-3.650363246632175e-05,-9.323790784560576e-15
	-3.650363210128542e-05,3.293863976913572e-15
	-8.070780288632502e-26,-1.347842066805577e-14
	-3.650363210128542e-05,3.293863976913572e-15
30		1.995262314968878e+00,0.000000000000000e+00
	-3.650363210128542e-01,3.370587925101673e-11
	1.000000000000000e+00,0.000000000000000e+00
	0.000000000000000e+00,0.000000000000000e+00
	3.650363210128542e-05,-3.370587925101674e-15
	8.451144445273568e-26,1.379237341663354e-14
	3.650363228379673e-13,-8.808157201991613e-16
	-3.650363246632175e-05,-9.540969771332710e-15
	-3.650363210128542e-05,3.370587925101673e-15
	-8.451144445273568e-26,-1.379237341663354e-14
	-3.650363210128542e-05,3.370587925101673e-15
31		2.041737944669527e+00,0.000000000000000e+00
	-3.650363210128542e-01,3.449099003622669e-11
	1.000000000000000e+00,0.000000000000000e+00
	0.000000000000000e+00,0.000000000000000e+00
	3.650363210128542e-05,-3.449099003622669e-15
	8.849434612347733e-26,1.411363906416047e-14
	3.650363228379673e-13,-9.013325539705286e-16
	-3.650363246632175e-05,-9.763207506567269e-15
	-3.650363210128542e-05,3.449099003622669e-15
	-8.849434612347733e-26,-1.411363906416047e-14
	-3.650363210128542e-05,3.449099003622669e-15
32		2.089296130854037e+00,0.000000000000000e+00
	-3.650363210128542e-01,3.529438840089610e-11
	1.000000000000000e+00,0.000000000000000e+00
	0.000000000000000e+00,0.000000000000000e+00
	3.650363210128542e-05,-3.529438840089610e-15
	9.266495616699061e-26,1.444238794993531e-14
	3.650363228379673e-13,-9.223272861925552e-16
	-3.650363246632175e-05,-9.990621823653143e-15
	-3.650363210128542e-05,3.529438840089610e-15
	-9.266495616699061e-26,-1.444238794993531e-14
	-3.650363210128542e-05,3.529438840089610e-15
33		2.137962089502230e+00,0.000000000000000e+00
	-3.650363210128542e-01,3.611650031747210e-11
	1.000000000000000e+00,0.000000000000000e+00
	0.000000000000000e+00,0.000000000000000e+00
	3.650363210128542e-05,-3.611650031747210e-15
	9.703212100634111e-26,1.477879438096881e-14
	3.650363228379673e-13,-9.438110485501680e-16
	-3.650363246632175e-05,-1.022333330067143e-14
	-3.650363210128542e-05,3.611650031747210e-15
	-9.703212100634111e-26,-1.477879438096881e-14
	-3.650363210128542e-05,3.611650031747210e-15
34		2.187761623949550e+00,0.000000000000000e+00
	-3.650363210128542e-01,3.695776168057483e-11
	1.000000000000000e+00,0.000000000000000e+00
	0.000000000000000e+00,0.000000000000000e+00
	3.650363210128542e-05,-3.695776168057483e-15
	1.016051039836691e-25,1.512303672440357e-14
	3.650363228379673e-13,-9.657952320185382e-16
	-3.650363246632175e-05,-1.046146532432754e-14
	-3.650363210128542e-05,3.695776168057483e-15
	-1.016051039836691e-25,-1.512303672440357e-14
	-3.650363210128542e-05,3.695776168057483e-15
35		2.238721138568337e+00,0.000000000000000e+00
	-3.650363210128542e-01,3.781861853811441e-11
	1.000000000000000e+00,0.000000000000000e+00
	0.000000000000000e+00,0.000000000000000e+00
	3.650363210128542e-05,-3.781861853811441e-15
	1.063936050089801e-25,1.547529750208666e-14
	3.650363228379673e-13,-9.882914929027311e-16
	-3.650363246632175e-05,-1.070514415537248e-14
	-3.650363210128542e-05,3.781861853811441e-15
	-1.063936050089801e-25,-1.547529750208666e-14
	-3.650363210128542e-05,3.781861853811441e-15
36		2.290867652767770e+00,0.000000000000000e+00
	-3.650363210128542e-01,3.869952732779149e-11
	1.000000000000000e+00,0.000000000000000e+00
	0.000000000000000e+00,0.000000000000000e+00
	3.650363210128542e-05,-3.869952732779149e-15
	1.114077811349543e-25,1.583576348734514e-14
	3.650363228379673e-13,-1.011311759018056e-15
	-3.650363246632175e-05,-1.095449899554793e-14
	-3.650363210128542e-05,3.869952732779149e-15
	-1.114077811349543e-25,-1.583576348734514e-14
	-3.650363210128542e-05,3.869952732779149e-15
37		2.344228815319919e+00,0.000000000000000e+00
	-3.650363210128542e-01,3.960095511910657e-11
	1.000000000000000e+00,0.000000000000000e+00
	0.000000000000000e+00,0.000000000000000e+00
	3.650363210128542e-05,-3.960095511910658e-15
	1.166582681014170e-25,1.620462580401571e-14
	3.650363228379673e-13,-1.034868236014294e-15
	-3.650363246632175e-05,-1.120966205609076e-14
	-3.650363210128542e-05,3.960095511910657e-15
	-1.166582681014170e-25,-1.620462580401571e-14
	-3.650363210128542e-05,3.960095511910657e-15
38		2.398832919019488e+00,0.000000000000000e+00
	-3.650363210128542e-01,4.052337986100641e-11
	1.000000000000000e+00,0.000000000000000e+00
	0.000000000000000e+00,0.000000000000000e+00
