LTspice 24.0.9 for Windows
Circuit: * GA CMOS Amp | W=3.12970075955448e-05 L=7.383393561944278e-07 Vbias=0.6605884221512063
Start Time: Sat Sep  6 22:35:14 2025
solver = Normal
Maximum thread count: 2
tnom = 27
temp = 27
method = modified trap
AsciiRawFile = 1
Direct Newton iteration for .op point succeeded.
Semiconductor Device Operating Points:
                        --- BSIM4 MOSFETS ---
Name:      m1
Model:      n
Id:      1.75e-04
Vgs:     6.61e-01
Vds:     5.04e-02
Vbs:     0.00e+00
Vth:     2.41e-01
Vdsat:   3.20e-01
Gm:      1.86e-04
Gds:     3.17e-03
Gmb      1.89e-04
Cbd:     1.54e-14
Cbs:     2.50e-14


.measure op idd find i(vdd)
  Error: FIND can not be evaluated over an interval.

gain_db: MAX(db(v(out)/v(g)))=(31.3553dB,132.418°) FROM 1 TO 1e+09
gain_lin: MAX(mag(v(out)/v(g)))=(-4.13012dB,0°) FROM 1 TO 1e+09

Measurement "fc" FAIL'ed

Total elapsed time: 0.478 seconds.

