Title: * GA CMOS Amp | W=2.0573221639193533e-06 L=9.245105028746168e-07 Vbias=1.4035856252029957
Date: Sat Sep  6 22:09:45 2025
Plotname: AC Analysis
Flags: complex forward log
No. Variables: 13
No. Points:          901
Offset:    0.0000000000000000e+00
Command: Linear Technology Corporation LTspice
Variables:
	0	frequency	frequency
	1	V(out)	voltage
	2	V(g)	voltage
	3	V(vdd)	voltage
	4	V(m1#dbody)	voltage
	5	V(m1#sbody)	voltage
	6	Id(M1)	device_current
	7	Ig(M1)	device_current
	8	Ib(M1)	device_current
	9	Is(M1)	device_current
	10	I(Rload)	device_current
	11	I(Vg)	device_current
	12	I(Vdd)	device_current
Values:
0		1.000000000000000e+00,0.000000000000000e+00
	-4.276795418550517e-01,1.364460192517669e-09
	1.000000000000000e+00,0.000000000000000e+00
	0.000000000000000e+00,0.000000000000000e+00
	3.516827213592320e-05,1.149452218922225e-13
	3.516827534351745e-05,1.317008281960119e-13
	4.276795418550517e-05,-1.364460192517669e-13
	2.164282510468301e-05,4.213281295291437e-13
	-1.875641331687676e-05,-6.912449238678588e-14
	-4.565436597331142e-05,-2.157576178905908e-13
	-4.276795418550518e-05,1.364460192517669e-13
	-2.164282510497273e-05,-4.213281295291436e-13
	-4.276795418550518e-05,1.364460192517669e-13
1		1.023292992280754e+00,0.000000000000000e+00
	-4.276795418550517e-01,1.396242553249380e-09
	1.000000000000000e+00,0.000000000000000e+00
	0.000000000000000e+00,0.000000000000000e+00
	3.516827213592320e-05,1.176226400584676e-13
	3.516827534351745e-05,1.347685345705505e-13
	4.276795418550517e-05,-1.396242553249380e-13
	2.164282510468301e-05,4.311421223979306e-13
	-1.875641331687676e-05,-7.073460865436235e-14
	-4.565436597331142e-05,-2.207832584186303e-13
	-4.276795418550518e-05,1.396242553249380e-13
	-2.164282510497273e-05,-4.311421223979305e-13
	-4.276795418550518e-05,1.396242553249380e-13
2		1.047128548050899e+00,0.000000000000000e+00
	-4.276795418550517e-01,1.428765220264278e-09
	1.000000000000000e+00,0.000000000000000e+00
	0.000000000000000e+00,0.000000000000000e+00
	3.516827213592320e-05,1.203624233053914e-13
	3.516827534351745e-05,1.379076970059909e-13
	4.276795418550517e-05,-1.428765220264278e-13
	2.164282510468301e-05,4.411847125268535e-13
	-1.875641331687676e-05,-7.238222934773056e-14
	-4.565436597331142e-05,-2.259259611526951e-13
	-4.276795418550518e-05,1.428765220264278e-13
	-2.164282510497273e-05,-4.411847125268535e-13
	-4.276795418550518e-05,1.428765220264278e-13
3		1.071519305237606e+00,0.000000000000000e+00
	-4.276795418550517e-01,1.462045437510904e-09
	1.000000000000000e+00,0.000000000000000e+00
	0.000000000000000e+00,0.000000000000000e+00
	3.516827213592320e-05,1.231660243023368e-13
	3.516827534351745e-05,1.411199799278081e-13
	4.276795418550517e-05,-1.462045437510903e-13
	2.164282510468301e-05,4.514612246301282e-13
	-1.875641331687676e-05,-7.406822805719104e-14
	-4.565436597331142e-05,-2.311884528218468e-13
	-4.276795418550518e-05,1.462045437510904e-13
	-2.164282510497273e-05,-4.514612246301282e-13
	-4.276795418550518e-05,1.462045437510904e-13
4		1.096478196143185e+00,0.000000000000000e+00
	-4.276795418550517e-01,1.496100850600957e-09
	1.000000000000000e+00,0.000000000000000e+00
	0.000000000000000e+00,0.000000000000000e+00
	3.516827213592320e-05,1.260349295556622e-13
	3.516827534351745e-05,1.444070865309266e-13
	4.276795418550517e-05,-1.496100850600957e-13
	2.164282510468301e-05,4.619771074504975e-13
	-1.875641331687676e-05,-7.579349872157631e-14
	-4.565436597331142e-05,-2.365735236688255e-13
	-4.276795418550518e-05,1.496100850600957e-13
	-2.164282510497273e-05,-4.619771074504974e-13
	-4.276795418550518e-05,1.496100850600957e-13
5		1.122018454301963e+00,0.000000000000000e+00
	-4.276795418550517e-01,1.530949516165235e-09
	1.000000000000000e+00,0.000000000000000e+00
	0.000000000000000e+00,0.000000000000000e+00
	3.516827213592320e-05,1.289706601969077e-13
	3.516827534351745e-05,1.477707596827777e-13
	4.276795418550517e-05,-1.530949516165235e-13
	2.164282510468301e-05,4.727379366482271e-13
	-1.875641331687676e-05,-7.755895610222934e-14
	-4.565436597331142e-05,-2.420840289294743e-13
	-4.276795418550518e-05,1.530949516165235e-13
	-2.164282510497273e-05,-4.727379366482271e-13
	-4.276795418550518e-05,1.530949516165235e-13
6		1.148153621496882e+00,0.000000000000000e+00
	-4.276795418550517e-01,1.566609911427495e-09
	1.000000000000000e+00,0.000000000000000e+00
	0.000000000000000e+00,0.000000000000000e+00
	3.516827213592320e-05,1.319747727893180e-13
	3.516827534351745e-05,1.512127828473898e-13
	4.276795418550517e-05,-1.566609911427496e-13
	2.164282510468301e-05,4.837494177573939e-13
	-1.875641331687676e-05,-7.936553626802192e-14
	-4.565436597331142e-05,-2.477228903466224e-13
	-4.276795418550518e-05,1.566609911427496e-13
	-2.164282510497273e-05,-4.837494177573940e-13
	-4.276795418550518e-05,1.566609911427496e-13
7		1.174897554939529e+00,0.000000000000000e+00
	-4.276795418550517e-01,1.603100944001329e-09
	1.000000000000000e+00,0.000000000000000e+00
	0.000000000000000e+00,0.000000000000000e+00
	3.516827213592320e-05,1.350488601531539e-13
	3.516827534351745e-05,1.547349810310054e-13
	4.276795418550517e-05,-1.603100944001329e-13
	2.164282510468301e-05,4.950173892110362e-13
	-1.875641331687676e-05,-8.121419709167086e-14
	-4.565436597331142e-05,-2.534930977192324e-13
	-4.276795418550518e-05,1.603100944001329e-13
	-2.164282510497273e-05,-4.950173892110361e-13
	-4.276795418550518e-05,1.603100944001329e-13
8		1.202264434617413e+00,0.000000000000000e+00
	-4.276795418550517e-01,1.640441961915222e-09
	1.000000000000000e+00,0.000000000000000e+00
	0.000000000000000e+00,0.000000000000000e+00
	3.516827213592320e-05,1.381945522102259e-13
	3.516827534351745e-05,1.583392217497233e-13
	4.276795418550517e-05,-1.640441961915222e-13
	2.164282510468301e-05,5.065478254367679e-13
	-1.875641331687676e-05,-8.310591875761480e-14
	-4.565436597331142e-05,-2.593977104876310e-13
	-4.276795418550518e-05,1.640441961915222e-13
	-2.164282510497273e-05,-5.065478254367679e-13
	-4.276795418550518e-05,1.640441961915222e-13
9		1.230268770812381e+00,0.000000000000000e+00
	-4.276795418550517e-01,1.678652763871138e-09
	1.000000000000000e+00,0.000000000000000e+00
	0.000000000000000e+00,0.000000000000000e+00
	3.516827213592320e-05,1.414135168481010e-13
	3.516827534351745e-05,1.620274160196802e-13
	4.276795418550517e-05,-1.678652763871138e-13
	2.164282510468301e-05,5.183468400244993e-13
	-1.875641331687676e-05,-8.504170428172088e-14
	-4.565436597331142e-05,-2.654398593556646e-13
	-4.276795418550518e-05,1.678652763871138e-13
	-2.164282510497273e-05,-5.183468400244992e-13
	-4.276795418550518e-05,1.678652763871138e-13
10		1.258925411794167e+00,0.000000000000000e+00
	-4.276795418550517e-01,1.717753609742055e-09
	1.000000000000000e+00,0.000000000000000e+00
	0.000000000000000e+00,0.000000000000000e+00
	3.516827213592320e-05,1.447074608044381e-13
	3.516827534351745e-05,1.658015193702971e-13
	4.276795418550517e-05,-1.717753609742055e-13
	2.164282510468301e-05,5.304206889679432e-13
	-1.875641331687676e-05,-8.702258004309718e-14
	-4.565436597331142e-05,-2.716227479506406e-13
	-4.276795418550518e-05,1.717753609742055e-13
	-2.164282510497273e-05,-5.304206889679432e-13
	-4.276795418550518e-05,1.717753609742055e-13
11		1.288249551693134e+00,0.000000000000000e+00
	-4.276795418550517e-01,1.757765231314015e-09
	1.000000000000000e+00,0.000000000000000e+00
	0.000000000000000e+00,0.000000000000000e+00
	3.516827213592320e-05,1.480781305719234e-13
	3.516827534351745e-05,1.696635328811268e-13
	4.276795418550517e-05,-1.757765231314014e-13
	2.164282510468301e-05,5.427757739816260e-13
	-1.875641331687676e-05,-8.904959632829239e-14
	-4.565436597331142e-05,-2.779496545219322e-13
	-4.276795418550518e-05,1.757765231314015e-13
	-2.164282510497273e-05,-5.427757739816259e-13
	-4.276795418550518e-05,1.757765231314015e-13
12		1.318256738556407e+00,0.000000000000000e+00
	-4.276795418550517e-01,1.798708843278390e-09
	1.000000000000000e+00,0.000000000000000e+00
	0.000000000000000e+00,0.000000000000000e+00
	3.516827213592320e-05,1.515273133242837e-13
	3.516827534351745e-05,1.736155042428524e-13
	4.276795418550517e-05,-1.798708843278390e-13
	2.164282510468301e-05,5.554186458951602e-13
	-1.875641331687676e-05,-9.112382788817156e-14
	-4.565436597331142e-05,-2.844239336791497e-13
	-4.276795418550518e-05,1.798708843278390e-13
	-2.164282510497273e-05,-5.554186458951602e-13
	-4.276795418550518e-05,1.798708843278390e-13
13		1.348962882591653e+00,0.000000000000000e+00
	-4.276795418550517e-01,1.840606154480198e-09
	1.000000000000000e+00,0.000000000000000e+00
	0.000000000000000e+00,0.000000000000000e+00
	3.516827213592320e-05,1.550568378638697e-13
	3.516827534351745e-05,1.776595288430003e-13
	4.276795418550517e-05,-1.840606154480198e-13
	2.164282510468301e-05,5.683560081265831e-13
	-1.875641331687676e-05,-9.324637450776351e-14
	-4.565436597331142e-05,-2.910490181707999e-13
	-4.276795418550518e-05,1.840606154480198e-13
	-2.164282510497273e-05,-5.683560081265831e-13
	-4.276795418550518e-05,1.840606154480198e-13
14		1.380384264602885e+00,0.000000000000000e+00
	-4.276795418550517e-01,1.883479379428414e-09
	1.000000000000000e+00,0.000000000000000e+00
	0.000000000000000e+00,0.000000000000000e+00
	3.516827213592320e-05,1.586685755913110e-13
	3.516827534351745e-05,1.817977508769428e-13
	4.276795418550517e-05,-1.883479379428413e-13
	2.164282510468301e-05,5.815947202365960e-13
	-1.875641331687676e-05,-9.541836158938115e-14
	-4.565436597331142e-05,-2.978284207043734e-13
	-4.276795418550518e-05,1.883479379428414e-13
	-2.164282510497273e-05,-5.815947202365959e-13
	-4.276795418550518e-05,1.883479379428414e-13
15		1.412537544622754e+00,0.000000000000000e+00
	-4.276795418550517e-01,1.927351250074399e-09
	1.000000000000000e+00,0.000000000000000e+00
	0.000000000000000e+00,0.000000000000000e+00
	3.516827213592320e-05,1.623644414977576e-13
	3.516827534351745e-05,1.860323644847779e-13
	4.276795418550517e-05,-1.927351250074399e-13
	2.164282510468301e-05,5.951418015655944e-13
	-1.875641331687676e-05,-9.764094074932482e-14
	-4.565436597331142e-05,-3.047657358088296e-13
	-4.276795418550518e-05,1.927351250074399e-13
	-2.164282510497273e-05,-5.951418015655943e-13
	-4.276795418550518e-05,1.927351250074399e-13
16		1.445439770745927e+00,0.000000000000000e+00
	-4.276795418550517e-01,1.972245027864683e-09
	1.000000000000000e+00,0.000000000000000e+00
	0.000000000000000e+00,0.000000000000000e+00
	3.516827213592320e-05,1.661463951802338e-13
	3.516827534351745e-05,1.903656149146922e-13
	4.276795418550517e-05,-1.972245027864683e-13
	2.164282510468301e-05,6.090044349554157e-13
	-1.875641331687676e-05,-9.991529042848437e-14
	-4.565436597331142e-05,-3.118646417404630e-13
	-4.276795418550518e-05,1.972245027864683e-13
	-2.164282510497273e-05,-6.090044349554156e-13
	-4.276795418550518e-05,1.972245027864683e-13
17		1.479108388168207e+00,0.000000000000000e+00
	-4.276795418550517e-01,2.018184516074491e-09
	1.000000000000000e+00,0.000000000000000e+00
	0.000000000000000e+00,0.000000000000000e+00
	3.516827213592320e-05,1.700164418806421e-13
	3.516827534351745e-05,1.947997997134211e-13
	4.276795418550517e-05,-2.018184516074491e-13
	2.164282510468301e-05,6.231899705577771e-13
	-1.875641331687676e-05,-1.022426165171644e-13
	-4.565436597331142e-05,-3.191289024331636e-13
	-4.276795418550518e-05,2.018184516074491e-13
	-2.164282510497273e-05,-6.231899705577772e-13
	-4.276795418550518e-05,2.018184516074491e-13
18		1.513561248436208e+00,0.000000000000000e+00
	-4.276795418550517e-01,2.065194072428552e-09
	1.000000000000000e+00,0.000000000000000e+00
	0.000000000000000e+00,0.000000000000000e+00
	3.516827213592320e-05,1.739766335489692e-13
	3.516827534351745e-05,1.993372699444383e-13
	4.276795418550517e-05,-2.065194072428552e-13
	2.164282510468301e-05,6.377059297314228e-13
	-1.875641331687676e-05,-1.046241529944628e-13
	-4.565436597331142e-05,-3.265623694941049e-13
	-4.276795418550518e-05,2.065194072428552e-13
	-2.164282510497273e-05,-6.377059297314228e-13
	-4.276795418550518e-05,2.065194072428552e-13
19		1.548816618912481e+00,0.000000000000000e+00
	-4.276795418550517e-01,2.113298622015889e-09
	1.000000000000000e+00,0.000000000000000e+00
	0.000000000000000e+00,0.000000000000000e+00
	3.516827213592320e-05,1.780290699312569e-13
	3.516827534351745e-05,2.039804314345207e-13
	4.276795418550517e-05,-2.113298622015889e-13
	2.164282510468301e-05,6.525600090300480e-13
	-1.875641331687676e-05,-1.070611625825433e-13
	-4.565436597331142e-05,-3.341689842459158e-13
	-4.276795418550518e-05,2.113298622015890e-13
	-2.164282510497273e-05,-6.525600090300479e-13
	-4.276795418550518e-05,2.113298622015890e-13
20		1.584893192461113e+00,0.000000000000000e+00
	-4.276795418550517e-01,2.162523670505434e-09
	1.000000000000000e+00,0.000000000000000e+00
	0.000000000000000e+00,0.000000000000000e+00
	3.516827213592320e-05,1.821758996829154e-13
	3.516827534351745e-05,2.087317460493498e-13
	4.276795418550517e-05,-2.162523670505433e-13
	2.164282510468301e-05,6.677600842831137e-13
	-1.875641331687676e-05,-1.095549374161469e-13
	-4.565436597331142e-05,-3.419527798164234e-13
	-4.276795418550518e-05,2.162523670505434e-13
	-2.164282510497273e-05,-6.677600842831137e-13
	-4.276795418550518e-05,2.162523670505434e-13
21		1.621810097358929e+00,0.000000000000000e+00
	-4.276795418550517e-01,2.212895317669464e-09
	1.000000000000000e+00,0.000000000000000e+00
	0.000000000000000e+00,0.000000000000000e+00
	3.516827213592320e-05,1.864193215079691e-13
	3.516827534351745e-05,2.135937329988257e-13
	4.276795418550517e-05,-2.212895317669464e-13
	2.164282510468301e-05,6.833142147717159e-13
	-1.875641331687676e-05,-1.121067997276998e-13
	-4.565436597331142e-05,-3.499178832770697e-13
	-4.276795418550518e-05,2.212895317669464e-13
	-2.164282510497273e-05,-6.833142147717161e-13
	-4.276795418550518e-05,2.212895317669464e-13
22		1.659586907437560e+00,0.000000000000000e+00
	-4.276795418550517e-01,2.264440271222057e-09
	1.000000000000000e+00,0.000000000000000e+00
	0.000000000000000e+00,0.000000000000000e+00
	3.516827213592320e-05,1.907615853248377e-13
	3.516827534351745e-05,2.185689701727848e-13
	4.276795418550517e-05,-2.264440271222056e-13
	2.164282510468301e-05,6.992306475017231e-13
	-1.875641331687676e-05,-1.147181025483772e-13
	-4.565436597331142e-05,-3.580685178311404e-13
	-4.276795418550518e-05,2.264440271222057e-13
	-2.164282510497273e-05,-6.992306475017231e-13
	-4.276795418550518e-05,2.264440271222057e-13
23		1.698243652461743e+00,0.000000000000000e+00
	-4.276795418550517e-01,2.317185860979860e-09
	1.000000000000000e+00,0.000000000000000e+00
	0.000000000000000e+00,0.000000000000000e+00
	3.516827213592320e-05,1.952049934592735e-13
	3.516827534351745e-05,2.236600955078319e-13
	4.276795418550517e-05,-2.317185860979861e-13
	2.164282510468301e-05,7.155178215764476e-13
	-1.875641331687676e-05,-1.173902304254993e-13
	-4.565436597331142e-05,-3.664090050529623e-13
	-4.276795418550518e-05,2.317185860979861e-13
	-2.164282510497273e-05,-7.155178215764475e-13
	-4.276795418550518e-05,2.317185860979861e-13
24		1.737800828749374e+00,0.000000000000000e+00
	-4.276795418550517e-01,2.371160053352737e-09
	1.000000000000000e+00,0.000000000000000e+00
	0.000000000000000e+00,0.000000000000000e+00
	3.516827213592320e-05,1.997519018650851e-13
	3.516827534351745e-05,2.288698083860085e-13
	4.276795418550517e-05,-2.371160053352736e-13
	2.164282510468301e-05,7.321843726711696e-13
	-1.875641331687676e-05,-1.201246001566364e-13
	-4.565436597331142e-05,-3.749437671792596e-13
	-4.276795418550518e-05,2.371160053352737e-13
	-2.164282510497273e-05,-7.321843726711696e-13
	-4.276795418550518e-05,2.371160053352737e-13
25		1.778279410038922e+00,0.000000000000000e+00
	-4.276795418550517e-01,2.426391466171915e-09
	1.000000000000000e+00,0.000000000000000e+00
	0.000000000000000e+00,0.000000000000000e+00
	3.516827213592320e-05,2.044047213732944e-13
	3.516827534351745e-05,2.342008710660415e-13
	4.276795418550517e-05,-2.426391466171915e-13
	2.164282510468301e-05,7.492391376118880e-13
	-1.875641331687676e-05,-1.229226615408136e-13
	-4.565436597331142e-05,-3.836773294538830e-13
	-4.276795418550518e-05,2.426391466171915e-13
	-2.164282510497273e-05,-7.492391376118878e-13
	-4.276795418550518e-05,2.426391466171915e-13
26		1.819700858609982e+00,0.000000000000000e+00
	-4.276795418550517e-01,2.482909383863545e-09
	1.000000000000000e+00,0.000000000000000e+00
	0.000000000000000e+00,0.000000000000000e+00
	3.516827213592320e-05,2.091659189703922e-13
	3.516827534351745e-05,2.396561101479286e-13
	4.276795418550517e-05,-2.482909383863545e-13
	2.164282510468301e-05,7.666911590607204e-13
	-1.875641331687676e-05,-1.257858981472135e-13
	-4.565436597331142e-05,-3.926143225271525e-13
	-4.276795418550518e-05,2.482909383863545e-13
	-2.164282510497273e-05,-7.666911590607206e-13
	-4.276795418550518e-05,2.482909383863545e-13
27		1.862087136662866e+00,0.000000000000000e+00
	-4.276795418550517e-01,2.540743772975690e-09
	1.000000000000000e+00,0.000000000000000e+00
	0.000000000000000e+00,0.000000000000000e+00
	3.516827213592320e-05,2.140380191063664e-13
	3.516827534351745e-05,2.452384180716400e-13
	4.276795418550517e-05,-2.540743772975690e-13
	2.164282510468301e-05,7.845496903104443e-13
	-1.875641331687676e-05,-1.287158281017843e-13
	-4.565436597331142e-05,-4.017594849110910e-13
	-4.276795418550518e-05,2.540743772975690e-13
	-2.164282510497273e-05,-7.845496903104443e-13
	-4.276795418550518e-05,2.540743772975690e-13
28		1.905460717963246e+00,0.000000000000000e+00
	-4.276795418550517e-01,2.599925298066987e-09
	1.000000000000000e+00,0.000000000000000e+00
	0.000000000000000e+00,0.000000000000000e+00
	3.516827213592320e-05,2.190236050331989e-13
	3.516827534351745e-05,2.509507546507270e-13
	4.276795418550517e-05,-2.599925298066987e-13
	2.164282510468301e-05,8.028242001907134e-13
	-1.875641331687676e-05,-1.317140048921700e-13
	-4.565436597331142e-05,-4.111176654918448e-13
	-4.276795418550518e-05,2.599925298066987e-13
	-2.164282510497273e-05,-8.028242001907135e-13
	-4.276795418550518e-05,2.599925298066987e-13
29		1.949844599758044e+00,0.000000000000000e+00
	-4.276795418550517e-01,2.660485337965399e-09
	1.000000000000000e+00,0.000000000000000e+00
	0.000000000000000e+00,0.000000000000000e+00
	3.516827213592320e-05,2.241253201745401e-13
	3.516827534351745e-05,2.567961486416558e-13
	4.276795418550517e-05,-2.660485337965399e-13
	2.164282510468301e-05,8.215243780885583e-13
	-1.875641331687676e-05,-1.347820181913905e-13
	-4.565436597331142e-05,-4.206938261006281e-13
	-4.276795418550518e-05,2.660485337965399e-13
	-2.164282510497273e-05,-8.215243780885584e-13
	-4.276795418550518e-05,2.660485337965399e-13
30		1.995262314968878e+00,0.000000000000000e+00
	-4.276795418550517e-01,2.722456002405686e-09
	1.000000000000000e+00,0.000000000000000e+00
	0.000000000000000e+00,0.000000000000000e+00
	3.516827213592320e-05,2.293458695272872e-13
	3.516827534351745e-05,2.627776993496932e-13
	4.276795418550517e-05,-2.722456002405686e-13
	2.164282510468301e-05,8.406601390858266e-13
	-1.875641331687676e-05,-1.379214947007070e-13
	-4.565436597331142e-05,-4.304930441445509e-13
	-4.276795418550518e-05,2.722456002405686e-13
	-2.164282510497273e-05,-8.406601390858265e-13
	-4.276795418550518e-05,2.722456002405686e-13
31		2.041737944669527e+00,0.000000000000000e+00
	-4.276795418550517e-01,2.785870149054414e-09
	1.000000000000000e+00,0.000000000000000e+00
	0.000000000000000e+00,0.000000000000000e+00
	3.516827213592320e-05,2.346880210958091e-13
	3.516827534351745e-05,2.688985782721999e-13
	4.276795418550517e-05,-2.785870149054414e-13
	2.164282510468301e-05,8.602416292162902e-13
	-1.875641331687676e-05,-1.411340990121206e-13
	-4.565436597331142e-05,-4.405205152987282e-13
	-4.276795418550518e-05,2.785870149054414e-13
	-2.164282510497273e-05,-8.602416292162903e-13
	-4.276795418550518e-05,2.785870149054414e-13
32		2.089296130854037e+00,0.000000000000000e+00
	-4.276795418550517e-01,2.850761400931522e-09
	1.000000000000000e+00,0.000000000000000e+00
	0.000000000000000e+00,0.000000000000000e+00
	3.516827213592320e-05,2.401546073595793e-13
