Title: * GA CMOS Amp | W=1.3445100940969487e-05 L=9.837601295677318e-07 Vbias=0.5931742159681479
Date: Sat Sep  6 22:41:42 2025
Plotname: AC Analysis
Flags: complex forward log
No. Variables: 13
No. Points:            0
Offset:    0.0000000000000000e+00
Command: Linear Technology Corporation LTspice
Variables:
	0	frequency	frequency
	1	V(out)	voltage
	2	V(g)	voltage
	3	V(vdd)	voltage
	4	V(m1#dbody)	voltage
	5	V(m1#sbody)	voltage
	6	Id(M1)	device_current
	7	Ig(M1)	device_current
	8	Ib(M1)	device_current
	9	Is(M1)	device_current
	10	I(Rload)	device_current
	11	I(Vg)	device_current
	12	I(Vdd)	device_current
Values:
0		1.000000000000000e+00,0.000000000000000e+00
	-1.415891148006436e+00,4.090603654032987e-09
	1.000000000000000e+00,0.000000000000000e+00
	0.000000000000000e+00,0.000000000000000e+00
	3.829957074818743e-09,1.239719295983322e-13
	3.840576745677915e-09,5.424720404183928e-13
	1.415891148006436e-04,-4.090603654032986e-13
	7.165559239862822e-07,2.923120279934324e-12
	-2.047599621184959e-09,-2.614184151239982e-13
	-1.423036231250087e-04,-2.252641499407027e-12
	-1.415891148006436e-04,4.090603654032987e-13
	-7.165559239297181e-07,-2.923120279934324e-12
	-1.415891148006436e-04,4.090603654032987e-13
1		1.023292992280754e+00,0.000000000000000e+00
	-1.415891148006436e+00,4.185886053370003e-09
	1.000000000000000e+00,0.000000000000000e+00
	0.000000000000000e+00,0.000000000000000e+00
	3.829957074818653e-09,1.268596067974961e-13
	3.840576745677882e-09,5.551078374683832e-13
	1.415891148006436e-04,-4.185886053370000e-13
	7.165559239862822e-07,2.991208498050549e-12
	-2.047599621184938e-09,-2.675076322495283e-13
	-1.423036231250087e-04,-2.305112260464021e-12
	-1.415891148006436e-04,4.185886053370003e-13
	-7.165559239297181e-07,-2.991208498050550e-12
	-1.415891148006436e-04,4.185886053370003e-13
2		1.047128548050899e+00,0.000000000000000e+00
	-1.415891148006436e+00,4.283387864899266e-09
	1.000000000000000e+00,0.000000000000000e+00
	0.000000000000000e+00,0.000000000000000e+00
	3.829957074818560e-09,1.298145466393698e-13
	3.840576745677848e-09,5.680379600415205e-13
	1.415891148006436e-04,-4.283387864899264e-13
	7.165559239862821e-07,3.060882694505767e-12
	-2.047599621184916e-09,-2.737386854625594e-13
	-1.423036231250087e-04,-2.358805222553281e-12
	-1.415891148006436e-04,4.283387864899267e-13
	-7.165559239297181e-07,-3.060882694505767e-12
	-1.415891148006436e-04,4.283387864899267e-13
3		1.071519305237606e+00,0.000000000000000e+00
	-1.415891148006436e+00,4.383160785371840e-09
	1.000000000000000e+00,0.000000000000000e+00
	0.000000000000000e+00,0.000000000000000e+00
	3.829957074818461e-09,1.328383158721702e-13
	3.840576745677812e-09,5.812692638599428e-13
	1.415891148006436e-04,-4.383160785371836e-13
	7.165559239862821e-07,3.132179811481183e-12
	-2.047599621184892e-09,-2.801148785499825e-13
	-1.423036231250087e-04,-2.413748854394017e-12
	-1.415891148006436e-04,4.383160785371840e-13
	-7.165559239297181e-07,-3.132179811481183e-12
	-1.415891148006436e-04,4.383160785371840e-13
4		1.096478196143185e+00,0.000000000000000e+00
	-1.415891148006436e+00,4.485257715710810e-09
	1.000000000000000e+00,0.000000000000000e+00
	0.000000000000000e+00,0.000000000000000e+00
	3.829957074818358e-09,1.359325177383691e-13
	3.840576745677774e-09,5.948087643360720e-13
	1.415891148006436e-04,-4.485257715710809e-13
	7.165559239862821e-07,3.205137651651948e-12
	-2.047599621184867e-09,-2.866395922537717e-13
	-1.423036231250087e-04,-2.469972287827095e-12
	-1.415891148006436e-04,4.485257715710810e-13
	-7.165559239297181e-07,-3.205137651651948e-12
	-1.415891148006436e-04,4.485257715710810e-13
5		1.122018454301963e+00,0.000000000000000e+00
	-1.415891148006436e+00,4.589732789060055e-09
	1.000000000000000e+00,0.000000000000000e+00
	0.000000000000000e+00,0.000000000000000e+00
	3.829957074818249e-09,1.390987928247524e-13
	3.840576745677733e-09,6.086636402922771e-13
	1.415891148006436e-04,-4.589732789060054e-13
	7.165559239862821e-07,3.279794898230632e-12
	-2.047599621184841e-09,-2.933162860634974e-13
	-1.423036231250087e-04,-2.527505333261129e-12
	-1.415891148006436e-04,4.589732789060055e-13
	-7.165559239297181e-07,-3.279794898230631e-12
	-1.415891148006436e-04,4.589732789060055e-13
6		1.148153621496882e+00,0.000000000000000e+00
	-1.415891148006436e+00,4.696641399486355e-09
	1.000000000000000e+00,0.000000000000000e+00
	0.000000000000000e+00,0.000000000000000e+00
	3.829957074818136e-09,1.423388199322816e-13
	3.840576745677693e-09,6.228412377671809e-13
	1.415891148006436e-04,-4.696641399486354e-13
	7.165559239862821e-07,3.356191135477575e-12
	-2.047599621184815e-09,-3.001485000505938e-13
	-1.423036231250087e-04,-2.586378495478346e-12
	-1.415891148006436e-04,4.696641399486356e-13
	-7.165559239297181e-07,-3.356191135477574e-12
	-1.415891148006436e-04,4.696641399486356e-13
7		1.174897554939529e+00,0.000000000000000e+00
	-1.415891148006436e+00,4.806040231350061e-09
	1.000000000000000e+00,0.000000000000000e+00
	0.000000000000000e+00,0.000000000000000e+00
	3.829957074818017e-09,1.456543169662160e-13
	3.840576745677649e-09,6.373490739106272e-13
	1.415891148006436e-04,-4.806040231350058e-13
	7.165559239862820e-07,3.434366869688989e-12
	-2.047599621184787e-09,-3.071398567453523e-13
	-1.423036231250087e-04,-2.646622989808631e-12
	-1.415891148006436e-04,4.806040231350061e-13
	-7.165559239297181e-07,-3.434366869688989e-12
	-1.415891148006436e-04,4.806040231350061e-13
8		1.202264434617413e+00,0.000000000000000e+00
	-1.415891148006436e+00,4.917987289359891e-09
	1.000000000000000e+00,0.000000000000000e+00
	0.000000000000000e+00,0.000000000000000e+00
	3.829957074817893e-09,1.490470418469687e-13
	3.840576745677603e-09,6.521948409693732e-13
	1.415891148006436e-04,-4.917987289359892e-13
	7.165559239862820e-07,3.514363550673932e-12
	-2.047599621184757e-09,-3.142940630576337e-13
	-1.423036231250087e-04,-2.708270758680310e-12
	-1.415891148006436e-04,4.917987289359892e-13
	-7.165559239297181e-07,-3.514363550673932e-12
	-1.415891148006436e-04,4.917987289359892e-13
9		1.230268770812381e+00,0.000000000000000e+00
	-1.415891148006436e+00,5.032541929327798e-09
	1.000000000000000e+00,0.000000000000000e+00
	0.000000000000000e+00,0.000000000000000e+00
	3.829957074817765e-09,1.525187934421791e-13
	3.840576745677558e-09,6.673864103656204e-13
	1.415891148006436e-04,-5.032541929327797e-13
	7.165559239862820e-07,3.596223593731544e-12
	-2.047599621184727e-09,-3.216149122423220e-13
	-1.423036231250087e-04,-2.771354488556442e-12
	-1.415891148006436e-04,5.032541929327799e-13
	-7.165559239297181e-07,-3.596223593731545e-12
	-1.415891148006436e-04,5.032541929327799e-13
10		1.258925411794167e+00,0.000000000000000e+00
	-1.415891148006436e+00,5.149764889640202e-09
	1.000000000000000e+00,0.000000000000000e+00
	0.000000000000000e+00,0.000000000000000e+00
	3.829957074817628e-09,1.560714125204980e-13
	3.840576745677508e-09,6.829318368705473e-13
	1.415891148006436e-04,-5.149764889640201e-13
	7.165559239862819e-07,3.679990402140199e-12
	-2.047599621184694e-09,-3.291062859105579e-13
	-1.423036231250087e-04,-2.835907627265621e-12
	-1.415891148006436e-04,5.149764889640203e-13
	-7.165559239297181e-07,-3.679990402140199e-12
	-1.415891148006436e-04,5.149764889640203e-13
11		1.288249551693134e+00,0.000000000000000e+00
	-1.415891148006436e+00,5.269718323462291e-09
	1.000000000000000e+00,0.000000000000000e+00
	0.000000000000000e+00,0.000000000000000e+00
	3.829957074817486e-09,1.597067827275841e-13
	3.840576745677456e-09,6.988393628750540e-13
	1.415891148006436e-04,-5.269718323462286e-13
	7.165559239862819e-07,3.765708390170499e-12
	-2.047599621184661e-09,-3.367721560878201e-13
	-1.423036231250087e-04,-2.901964401736451e-12
	-1.415891148006436e-04,5.269718323462292e-13
	-7.165559239297181e-07,-3.765708390170500e-12
	-1.415891148006436e-04,5.269718323462292e-13
12		1.318256738556407e+00,0.000000000000000e+00
	-1.415891148006436e+00,5.392465831692447e-09
	1.000000000000000e+00,0.000000000000000e+00
	0.000000000000000e+00,0.000000000000000e+00
	3.829957074817338e-09,1.634268315848421e-13
	3.840576745677402e-09,7.151174227599900e-13
	1.415891148006436e-04,-5.392465831692443e-13
	7.165559239862819e-07,3.853423006634313e-12
	-2.047599621184626e-09,-3.446165873199468e-13
	-1.423036231250087e-04,-2.969559836145121e-12
	-1.415891148006436e-04,5.392465831692447e-13
	-7.165559239297181e-07,-3.853423006634313e-12
	-1.415891148006436e-04,5.392465831692447e-13
13		1.348962882591653e+00,0.000000000000000e+00
	-1.415891148006436e+00,5.518072496684289e-09
	1.000000000000000e+00,0.000000000000000e+00
	0.000000000000000e+00,0.000000000000000e+00
	3.829957074817182e-09,1.672335315114155e-13
	3.840576745677345e-09,7.317746473681709e-13
	1.415891148006436e-04,-5.518072496684285e-13
	7.165559239862818e-07,3.943180758982326e-12
	-2.047599621184589e-09,-3.526437388282099e-13
	-1.423036231250087e-04,-3.038729770485687e-12
	-1.415891148006436e-04,5.518072496684289e-13
	-7.165559239297181e-07,-3.943180758982326e-12
	-1.415891148006436e-04,5.518072496684289e-13
14		1.380384264602885e+00,0.000000000000000e+00
	-1.415891148006436e+00,5.646604916754198e-09
	1.000000000000000e+00,0.000000000000000e+00
	0.000000000000000e+00,0.000000000000000e+00
	3.829957074817018e-09,1.711289008699942e-13
	3.840576745677285e-09,7.488198685805693e-13
	1.415891148006436e-04,-5.646604916754196e-13
	7.165559239862818e-07,4.035029237962920e-12
	-2.047599621184550e-09,-3.608578667145917e-13
	-1.423036231250087e-04,-3.109510879572908e-12
	-1.415891148006436e-04,5.646604916754198e-13
	-7.165559239297181e-07,-4.035029237962920e-12
	-1.415891148006436e-04,5.646604916754198e-13
15		1.412537544622754e+00,0.000000000000000e+00
	-1.415891148006436e+00,5.778131241492622e-09
	1.000000000000000e+00,0.000000000000000e+00
	0.000000000000000e+00,0.000000000000000e+00
	3.829957074816848e-09,1.751150050369733e-13
	3.840576745677223e-09,7.662621239990922e-13
	1.415891148006436e-04,-5.778131241492622e-13
	7.165559239862818e-07,4.129017142855408e-12
	-2.047599621184510e-09,-3.692633262184243e-13
	-1.423036231250087e-04,-3.181940692487721e-12
	-1.415891148006436e-04,5.778131241492622e-13
	-7.165559239297181e-07,-4.129017142855407e-12
	-1.415891148006436e-04,5.778131241492622e-13
16		1.445439770745927e+00,0.000000000000000e+00
	-1.415891148006436e+00,5.912721207897893e-09
	1.000000000000000e+00,0.000000000000000e+00
	0.000000000000000e+00,0.000000000000000e+00
	3.829957074816669e-09,1.791939574975432e-13
	3.840576745677158e-09,7.841106617384366e-13
	1.415891148006436e-04,-5.912721207897893e-13
	7.165559239862817e-07,4.225194307291038e-12
	-2.047599621184467e-09,-3.778645740255953e-13
	-1.423036231250087e-04,-3.256057612475654e-12
	-1.415891148006436e-04,5.912721207897893e-13
	-7.165559239297181e-07,-4.225194307291038e-12
	-1.415891148006436e-04,5.912721207897893e-13
17		1.479108388168207e+00,0.000000000000000e+00
	-1.415891148006436e+00,6.050446177351710e-09
	1.000000000000000e+00,0.000000000000000e+00
	0.000000000000000e+00,0.000000000000000e+00
	3.829957074816482e-09,1.833679209662916e-13
	3.840576745677091e-09,8.023749453295673e-13
	1.415891148006436e-04,-6.050446177351702e-13
	7.165559239862817e-07,4.323611725675455e-12
	-2.047599621184423e-09,-3.866661706315441e-13
	-1.423036231250087e-04,-3.331900937308740e-12
	-1.415891148006436e-04,6.050446177351710e-13
	-7.165559239297181e-07,-4.323611725675455e-12
	-1.415891148006436e-04,6.050446177351710e-13
18		1.513561248436208e+00,0.000000000000000e+00
	-1.415891148006436e+00,6.191379173455880e-09
	1.000000000000000e+00,0.000000000000000e+00
	0.000000000000000e+00,0.000000000000000e+00
	3.829957074816284e-09,1.876391085338971e-13
	3.840576745677018e-09,8.210646587373993e-13
	1.415891148006436e-04,-6.191379173455880e-13
	7.165559239862816e-07,4.424321580226590e-12
	-2.047599621184376e-09,-3.956727827592933e-13
	-1.423036231250087e-04,-3.409510880121709e-12
	-1.415891148006436e-04,6.191379173455880e-13
	-7.165559239297181e-07,-4.424321580226592e-12
	-1.415891148006436e-04,6.191379173455880e-13
19		1.548816618912481e+00,0.000000000000000e+00
	-1.415891148006436e+00,6.335594920750409e-09
	1.000000000000000e+00,0.000000000000000e+00
	0.000000000000000e+00,0.000000000000000e+00
	3.829957074816080e-09,1.920097848405449e-13
	3.840576745676943e-09,8.401897114953696e-13
	1.415891148006436e-04,-6.335594920750410e-13
	7.165559239862816e-07,4.527377268642384e-12
	-2.047599621184328e-09,-4.048891858338101e-13
	-1.423036231250087e-04,-3.488928590733532e-12
	-1.415891148006436e-04,6.335594920750409e-13
	-7.165559239297181e-07,-4.527377268642384e-12
	-1.415891148006436e-04,6.335594920750409e-13
20		1.584893192461113e+00,0.000000000000000e+00
	-1.415891148006436e+00,6.483169884333435e-09
	1.000000000000000e+00,0.000000000000000e+00
	0.000000000000000e+00,0.000000000000000e+00
	3.829957074815863e-09,1.964822672766652e-13
	3.840576745676864e-09,8.597602439596003e-13
	1.415891148006436e-04,-6.483169884333432e-13
	7.165559239862815e-07,4.632833432412932e-12
	-2.047599621184276e-09,-4.143202665139979e-13
	-1.423036231250087e-04,-3.570196177465591e-12
	-1.415891148006436e-04,6.483169884333436e-13
	-7.165559239297181e-07,-4.632833432412931e-12
	-1.415891148006436e-04,6.483169884333436e-13
21		1.621810097358929e+00,0.000000000000000e+00
	-1.415891148006436e+00,6.634182310404030e-09
	1.000000000000000e+00,0.000000000000000e+00
	0.000000000000000e+00,0.000000000000000e+00
	3.829957074815639e-09,2.010589272116452e-13
	3.840576745676782e-09,8.797866326854505e-13
	1.415891148006436e-04,-6.634182310404028e-13
	7.165559239862815e-07,4.740745985792145e-12
	-2.047599621184223e-09,-4.239710252836683e-13
	-1.423036231250087e-04,-3.653356729468074e-12
	-1.415891148006436e-04,6.634182310404030e-13
	-7.165559239297181e-07,-4.740745985792145e-12
	-1.415891148006436e-04,6.634182310404030e-13
22		1.659586907437560e+00,0.000000000000000e+00
	-1.415891148006436e+00,6.788712267749387e-09
	1.000000000000000e+00,0.000000000000000e+00
	0.000000000000000e+00,0.000000000000000e+00
	3.829957074815404e-09,2.057421912511628e-13
	3.840576745676697e-09,9.002794959293035e-13
	1.415891148006436e-04,-6.788712267749386e-13
	7.165559239862814e-07,4.851172145444219e-12
	-2.047599621184168e-09,-4.338465791028643e-13
	-1.423036231250087e-04,-3.738454339566416e-12
	-1.415891148006436e-04,6.788712267749388e-13
	-7.165559239297181e-07,-4.851172145444219e-12
	-1.415891148006436e-04,6.788712267749388e-13
23		1.698243652461743e+00,0.000000000000000e+00
	-1.415891148006436e+00,6.946841690198335e-09
	1.000000000000000e+00,0.000000000000000e+00
	0.000000000000000e+00,0.000000000000000e+00
	3.829957074815157e-09,2.105345425238016e-13
	3.840576745676607e-09,9.212496992785058e-13
	1.415891148006436e-04,-6.946841690198329e-13
	7.165559239862814e-07,4.964170460780660e-12
	-2.047599621184109e-09,-4.439521641209388e-13
	-1.423036231250087e-04,-3.825534127639888e-12
	-1.415891148006436e-04,6.946841690198336e-13
	-7.165559239297181e-07,-4.964170460780660e-12
	-1.415891148006436e-04,6.946841690198336e-13
24		1.737800828749374e+00,0.000000000000000e+00
	-1.415891148006436e+00,7.108654420063746e-09
	1.000000000000000e+00,0.000000000000000e+00
	0.000000000000000e+00,0.000000000000000e+00
	3.829957074814899e-09,2.154385219976407e-13
	3.840576745676512e-09,9.427083614124471e-13
	1.415891148006436e-04,-7.108654420063739e-13
	7.165559239862813e-07,5.079800845003971e-12
	-2.047599621184048e-09,-4.542931384528320e-13
	-1.423036231250087e-04,-3.914642264544765e-12
	-1.415891148006436e-04,7.108654420063746e-13
	-7.165559239297181e-07,-5.079800845003971e-12
	-1.415891148006436e-04,7.108654420063746e-13
25		1.778279410038922e+00,0.000000000000000e+00
	-1.415891148006436e+00,7.274236252596839e-09
	1.000000000000000e+00,0.000000000000000e+00
	0.000000000000000e+00,0.000000000000000e+00
	3.829957074814627e-09,2.204567298275090e-13
	3.840576745676413e-09,9.646668599978297e-13
	1.415891148006436e-04,-7.274236252596834e-13
	7.165559239862813e-07,5.198124606874416e-12
	-2.047599621183984e-09,-4.648749850200133e-13
	-1.423036231250087e-04,-4.005825996594720e-12
	-1.415891148006436e-04,7.274236252596839e-13
	-7.165559239297181e-07,-5.198124606874416e-12
	-1.415891148006436e-04,7.274236252596839e-13
26		1.819700858609982e+00,0.000000000000000e+00
	-1.415891148006436e+00,7.443674981476957e-09
	1.000000000000000e+00,0.000000000000000e+00
	0.000000000000000e+00,0.000000000000000e+00
	3.829957074814344e-09,2.255918267336210e-13
	3.840576745676310e-09,9.871368377212581e-13
	1.415891148006436e-04,-7.443674981476952e-13
	7.165559239862812e-07,5.319204483216739e-12
	-2.047599621183917e-09,-4.757033144575999e-13
	-1.423036231250087e-04,-4.099133670611444e-12
	-1.415891148006436e-04,7.443674981476958e-13
	-7.165559239297181e-07,-5.319204483216741e-12
	-1.415891148006436e-04,7.443674981476958e-13
27		1.862087136662866e+00,0.000000000000000e+00
	-1.415891148006436e+00,7.617060445360944e-09
	1.000000000000000e+00,0.000000000000000e+00
	0.000000000000000e+00,0.000000000000000e+00
	3.829957074814047e-09,2.308465354123284e-13
	3.840576745676201e-09,1.010130208462347e-12
	1.415891148006436e-04,-7.617060445360939e-13
	7.165559239862811e-07,5.443104672184061e-12
	-2.047599621183846e-09,-4.867838680891900e-13
	-1.423036231250087e-04,-4.194614759558777e-12
	-1.415891148006436e-04,7.617060445360944e-13
	-7.165559239297181e-07,-5.443104672184060e-12
	-1.415891148006436e-04,7.617060445360944e-13
28		1.905460717963246e+00,0.000000000000000e+00
	-1.415891148006436e+00,7.794484575516773e-09
	1.000000000000000e+00,0.000000000000000e+00
	0.000000000000000e+00,0.000000000000000e+00
	3.829957074813736e-09,2.362236419797272e-13
	3.840576745676088e-09,1.033659163610618e-12
	1.415891148006436e-04,-7.794484575516773e-13
	7.165559239862811e-07,5.569890867296580e-12
	-2.047599621183772e-09,-4.981225209709873e-13
	-1.423036231250087e-04,-4.292319888773915e-12
	-1.415891148006436e-04,7.794484575516773e-13
	-7.165559239297181e-07,-5.569890867296581e-12
	-1.415891148006436e-04,7.794484575516773e-13
29		1.949844599758044e+00,0.000000000000000e+00
	-1.415891148006436e+00,7.976041444566742e-09
	1.000000000000000e+00,0.000000000000000e+00
	0.000000000000000e+00,0.000000000000000e+00
	3.829957074813409e-09,2.417259974488920e-13
	3.840576745675969e-09,1.057736178529530e-12
	1.415891148006436e-04,-7.976041444566743e-13
	7.165559239862810e-07,5.699630292273162e-12
	-2.047599621183695e-09,-5.097252850068342e-13
	-1.423036231250087e-04,-4.392300862809654e-12
	-1.415891148006436e-04,7.976041444566743e-13
	-7.165559239297181e-07,-5.699630292273163e-12
	-1.415891148006436e-04,7.976041444566743e-13
30		1.995262314968878e+00,0.000000000000000e+00
	-1.415891148006436e+00,8.161827316366010e-09
	1.000000000000000e+00,0.000000000000000e+00
	0.000000000000000e+00,0.000000000000000e+00
	3.829957074813069e-09,2.473565192415266e-13
	3.840576745675846e-09,1.082374019171093e-12
	1.415891148006436e-04,-8.161827316366001e-13
	7.165559239862809e-07,5.832391736674232e-12
	-2.047599621183615e-09,-5.215983121358034e-13
	-1.423036231250087e-04,-4.494610692901829e-12
	-1.415891148006436e-04,8.161827316366010e-13
	-7.165559239297181e-07,-5.832391736674233e-12
	-1.415891148006436e-04,8.161827316366010e-13
31		2.041737944669527e+00,0.000000000000000e+00
	-1.415891148006436e+00,8.351940697042969e-09
	1.000000000000000e+00,0.000000000000000e+00
	0.000000000000000e+00,0.000000000000000e+00
	3.829957074812712e-09,2.531181927348142e-13
	3.840576745675715e-09,1.107585748844534e-12
	1.415891148006436e-04,-8.351940697042970e-13
	7.165559239862808e-07,5.968245592374920e-12
	-2.047599621183530e-09,-5.337478975940373e-13
	-1.423036231250087e-04,-4.599303625076585e-12
	-1.415891148006436e-04,8.351940697042969e-13
	-7.165559239297181e-07,-5.968245592374920e-12
	-1.415891148006436e-04,8.351940697042969e-13
32		2.089296130854037e+00,0.000000000000000e+00
	-1.415891148006436e+00,8.546482387228509e-09
	1.000000000000000e+00,0.000000000000000e+00
	0.000000000000000e+00,0.000000000000000e+00
	3.829957074812337e-09,2.590140728443046e-13
