Title: * GA CMOS Amp | W=2.469381263624912e-06 L=1e-06 Vbias=1.4895782416835688
Date: Sat Sep  6 22:16:13 2025
Plotname: AC Analysis
Flags: complex forward log
No. Variables: 13
No. Points:          901
Offset:    0.0000000000000000e+00
Command: Linear Technology Corporation LTspice
Variables:
	0	frequency	frequency
	1	V(out)	voltage
	2	V(g)	voltage
	3	V(vdd)	voltage
	4	V(m1#dbody)	voltage
	5	V(m1#sbody)	voltage
	6	Id(M1)	device_current
	7	Ig(M1)	device_current
	8	Ib(M1)	device_current
	9	Is(M1)	device_current
	10	I(Rload)	device_current
	11	I(Vg)	device_current
	12	I(Vdd)	device_current
Values:
0		1.000000000000000e+00,0.000000000000000e+00
	-2.851850278171622e-01,1.535916479033088e-09
	1.000000000000000e+00,0.000000000000000e+00
	0.000000000000000e+00,0.000000000000000e+00
	8.667343010013501e-05,1.486491155950330e-13
	8.667343223901586e-05,1.623437763955334e-13
	2.851850278171622e-05,-1.535916479033089e-13
	5.172778814454917e-05,5.477108401404857e-13
	-4.622583041981520e-05,-8.567359759270221e-14
	-3.402046050645020e-05,-3.084455946444746e-13
	-2.851850278171622e-05,1.535916479033088e-13
	-5.172778814488410e-05,-5.477108401404855e-13
	-2.851850278171622e-05,1.535916479033088e-13
1		1.023292992280754e+00,0.000000000000000e+00
	-2.851850278171622e-01,1.571692569723089e-09
	1.000000000000000e+00,0.000000000000000e+00
	0.000000000000000e+00,0.000000000000000e+00
	8.667343010013501e-05,1.521115982971291e-13
	8.667343223901586e-05,1.661252487259431e-13
	2.851850278171622e-05,-1.571692569723090e-13
	5.172778814454917e-05,5.604686645119634e-13
	-4.622583041981520e-05,-8.766919204009347e-14
	-3.402046050645020e-05,-3.156302154995609e-13
	-2.851850278171622e-05,1.571692569723089e-13
	-5.172778814488410e-05,-5.604686645119633e-13
	-2.851850278171622e-05,1.571692569723089e-13
2		1.047128548050899e+00,0.000000000000000e+00
	-2.851850278171622e-01,1.608301992617367e-09
	1.000000000000000e+00,0.000000000000000e+00
	0.000000000000000e+00,0.000000000000000e+00
	8.667343010013501e-05,1.556547325820772e-13
	8.667343223901586e-05,1.699948028621548e-13
	2.851850278171622e-05,-1.608301992617368e-13
	5.172778814454917e-05,5.735236567880450e-13
	-4.622583041981520e-05,-8.971126985354330e-14
	-3.402046050645020e-05,-3.229821876727649e-13
	-2.851850278171622e-05,1.608301992617367e-13
	-5.172778814488410e-05,-5.735236567880449e-13
	-2.851850278171622e-05,1.608301992617367e-13
3		1.071519305237606e+00,0.000000000000000e+00
	-2.851850278171622e-01,1.645764158516525e-09
	1.000000000000000e+00,0.000000000000000e+00
	0.000000000000000e+00,0.000000000000000e+00
	8.667343010013501e-05,1.592803970665744e-13
	8.667343223901586e-05,1.739544904929913e-13
	2.851850278171622e-05,-1.645764158516525e-13
	5.172778814454917e-05,5.868827388984388e-13
	-4.622583041981520e-05,-9.180091376973852e-14
	-3.402046050645020e-05,-3.305054092770477e-13
	-2.851850278171622e-05,1.645764158516525e-13
	-5.172778814488410e-05,-5.868827388984387e-13
	-2.851850278171622e-05,1.645764158516525e-13
4		1.096478196143185e+00,0.000000000000000e+00
	-2.851850278171622e-01,1.684098930356792e-09
	1.000000000000000e+00,0.000000000000000e+00
	0.000000000000000e+00,0.000000000000000e+00
	8.667343010013501e-05,1.629905141259215e-13
	8.667343223901586e-05,1.780064110972470e-13
	2.851850278171622e-05,-1.684098930356792e-13
	5.172778814454917e-05,6.005529940053078e-13
	-4.622583041981520e-05,-9.393923174554321e-14
	-3.402046050645020e-05,-3.382038692240854e-13
	-2.851850278171622e-05,1.684098930356792e-13
	-5.172778814488410e-05,-6.005529940053078e-13
	-2.851850278171622e-05,1.684098930356792e-13
5		1.122018454301963e+00,0.000000000000000e+00
	-2.851850278171622e-01,1.723326633741619e-09
	1.000000000000000e+00,0.000000000000000e+00
	0.000000000000000e+00,0.000000000000000e+00
	8.667343010013501e-05,1.667870509132928e-13
	8.667343223901586e-05,1.821527130568600e-13
	2.851850278171622e-05,-1.723326633741620e-13
	5.172778814454917e-05,6.145416702588573e-13
	-4.622583041981520e-05,-9.612735754545214e-14
	-3.402046050645020e-05,-3.460816493392433e-13
	-2.851850278171622e-05,1.723326633741619e-13
	-5.172778814488410e-05,-6.145416702588574e-13
	-2.851850278171622e-05,1.723326633741619e-13
6		1.148153621496882e+00,0.000000000000000e+00
	-2.851850278171622e-01,1.763468067718581e-09
	1.000000000000000e+00,0.000000000000000e+00
	0.000000000000000e+00,0.000000000000000e+00
	8.667343010013501e-05,1.706720204027459e-13
	8.667343223901586e-05,1.863955947960118e-13
	2.851850278171622e-05,-1.763468067718581e-13
	5.172778814454917e-05,6.288561846403987e-13
	-4.622583041981520e-05,-9.836645134272765e-14
	-3.402046050645020e-05,-3.541429265258129e-13
	-2.851850278171622e-05,1.763468067718581e-13
	-5.172778814488410e-05,-6.288561846403987e-13
	-2.851850278171622e-05,1.763468067718581e-13
7		1.174897554939529e+00,0.000000000000000e+00
	-2.851850278171622e-01,1.804544515807306e-09
	1.000000000000000e+00,0.000000000000000e+00
	0.000000000000000e+00,0.000000000000000e+00
	8.667343010013501e-05,1.746474824565277e-13
	8.667343223901586e-05,1.907373059467619e-13
	2.851850278171622e-05,-1.804544515807306e-13
	5.172778814454917e-05,6.435041268949318e-13
	-4.622583041981520e-05,-1.006577003345390e-13
	-3.402046050645020e-05,-3.623919749796623e-13
	-2.851850278171622e-05,1.804544515807306e-13
	-5.172778814488410e-05,-6.435041268949319e-13
	-2.851850278171622e-05,1.804544515807306e-13
8		1.202264434617413e+00,0.000000000000000e+00
	-2.851850278171622e-01,1.846577757284283e-09
	1.000000000000000e+00,0.000000000000000e+00
	0.000000000000000e+00,0.000000000000000e+00
	8.667343010013501e-05,1.787155449172407e-13
	8.667343223901586e-05,1.951801485418317e-13
	2.851850278171622e-05,-1.846577757284283e-13
	5.172778814454917e-05,6.584932635553290e-13
	-4.622583041981520e-05,-1.030023193714299e-13
	-3.402046050645020e-05,-3.708331684554708e-13
	-2.851850278171622e-05,1.846577757284283e-13
	-5.172778814488410e-05,-6.584932635553290e-13
	-2.851850278171622e-05,1.846577757284283e-13
9		1.230268770812381e+00,0.000000000000000e+00
	-2.851850278171622e-01,1.889590078730518e-09
	1.000000000000000e+00,0.000000000000000e+00
	0.000000000000000e+00,0.000000000000000e+00
	8.667343010013501e-05,1.828783647254488e-13
	8.667343223901586e-05,1.997264782351730e-13
	2.851850278171622e-05,-1.889590078730518e-13
	5.172778814454917e-05,6.738315420602518e-13
	-4.622583041981520e-05,-1.054015516014483e-13
	-3.402046050645020e-05,-3.794709825857517e-13
	-2.851850278171622e-05,1.889590078730518e-13
	-5.172778814488410e-05,-6.738315420602518e-13
	-2.851850278171622e-05,1.889590078730518e-13
10		1.258925411794167e+00,0.000000000000000e+00
	-2.851850278171622e-01,1.933604285848178e-09
	1.000000000000000e+00,0.000000000000000e+00
	0.000000000000000e+00,0.000000000000000e+00
	8.667343010013501e-05,1.871381490633156e-13
	8.667343223901586e-05,2.043787055509671e-13
	2.851850278171622e-05,-1.933604285848178e-13
	5.172778814454917e-05,6.895270949679901e-13
	-4.622583041981520e-05,-1.078566691292804e-13
	-3.402046050645020e-05,-3.883099972538918e-13
	-2.851850278171622e-05,1.933604285848178e-13
	-5.172778814488410e-05,-6.895270949679900e-13
	-2.851850278171622e-05,1.933604285848178e-13
11		1.288249551693134e+00,0.000000000000000e+00
	-2.851850278171622e-01,1.978643715552472e-09
	1.000000000000000e+00,0.000000000000000e+00
	0.000000000000000e+00,0.000000000000000e+00
	8.667343010013501e-05,1.914971565248820e-13
	8.667343223901586e-05,2.091392971617163e-13
	2.851850278171622e-05,-1.978643715552472e-13
	5.172778814454917e-05,7.055882442684502e-13
	-4.622583041981520e-05,-1.103689736907366e-13
	-3.402046050645020e-05,-3.973548990224664e-13
	-2.851850278171622e-05,1.978643715552473e-13
	-5.172778814488410e-05,-7.055882442684502e-13
	-2.851850278171622e-05,1.978643715552473e-13
12		1.318256738556407e+00,0.000000000000000e+00
	-2.851850278171622e-01,2.024732248345198e-09
	1.000000000000000e+00,0.000000000000000e+00
	0.000000000000000e+00,0.000000000000000e+00
	8.667343010013501e-05,1.959576983136025e-13
	8.667343223901586e-05,2.140107771961065e-13
	2.851850278171622e-05,-2.024732248345199e-13
	5.172778814454917e-05,7.220235057955861e-13
	-4.622583041981520e-05,-1.129397973429496e-13
	-3.402046050645020e-05,-4.066104836181166e-13
	-2.851850278171622e-05,2.024732248345199e-13
	-5.172778814488410e-05,-7.220235057955860e-13
	-2.851850278171622e-05,2.024732248345199e-13
13		1.348962882591653e+00,0.000000000000000e+00
	-2.851850278171622e-01,2.071894320976497e-09
	1.000000000000000e+00,0.000000000000000e+00
	0.000000000000000e+00,0.000000000000000e+00
	8.667343010013501e-05,2.005221394677756e-13
	8.667343223901586e-05,2.189957285773336e-13
	2.851850278171622e-05,-2.071894320976498e-13
	5.172778814454917e-05,7.388415937426057e-13
	-4.622583041981520e-05,-1.155705031706489e-13
	-3.402046050645020e-05,-4.160816584743071e-13
	-2.851850278171622e-05,2.071894320976497e-13
	-5.172778814488410e-05,-7.388415937426058e-13
	-2.851850278171622e-05,2.071894320976497e-13
14		1.380384264602885e+00,0.000000000000000e+00
	-2.851850278171622e-01,2.120154939401541e-09
	1.000000000000000e+00,0.000000000000000e+00
	0.000000000000000e+00,0.000000000000000e+00
	8.667343010013501e-05,2.051929001145189e-13
	8.667343223901586e-05,2.240967943926036e-13
	2.851850278171622e-05,-2.120154939401542e-13
	5.172778814454917e-05,7.560514252823524e-13
	-4.622583041981520e-05,-1.182624860088857e-13
	-3.402046050645020e-05,-4.257734453333125e-13
	-2.851850278171622e-05,2.120154939401542e-13
	-5.172778814488410e-05,-7.560514252823521e-13
	-2.851850278171622e-05,2.120154939401542e-13
15		1.412537544622754e+00,0.000000000000000e+00
	-2.851850278171622e-01,2.169539692039024e-09
	1.000000000000000e+00,0.000000000000000e+00
	0.000000000000000e+00,0.000000000000000e+00
	8.667343010013501e-05,2.099724567529519e-13
	8.667343223901586e-05,2.293166792945323e-13
	2.851850278171622e-05,-2.169539692039025e-13
	5.172778814454917e-05,7.736621252953075e-13
	-4.622583041981520e-05,-1.210171731825935e-13
	-3.402046050645020e-05,-4.356909829088114e-13
	-2.851850278171622e-05,2.169539692039024e-13
	-5.172778814488410e-05,-7.736621252953071e-13
	-2.851850278171622e-05,2.169539692039024e-13
16		1.445439770745927e+00,0.000000000000000e+00
	-2.851850278171622e-01,2.220074763338478e-09
	1.000000000000000e+00,0.000000000000000e+00
	0.000000000000000e+00,0.000000000000000e+00
	8.667343010013501e-05,2.148633435672694e-13
	8.667343223901586e-05,2.346581509351879e-13
	2.851850278171622e-05,-2.220074763338479e-13
	5.172778814454917e-05,7.916830312077227e-13
	-4.622583041981520e-05,-1.238360252633743e-13
	-3.402046050645020e-05,-4.458395296105004e-13
	-2.851850278171622e-05,2.220074763338479e-13
	-5.172778814488410e-05,-7.916830312077226e-13
	-2.851850278171622e-05,2.220074763338479e-13
17		1.479108388168207e+00,0.000000000000000e+00
	-2.851850278171622e-01,2.271786947663618e-09
	1.000000000000000e+00,0.000000000000000e+00
	0.000000000000000e+00,0.000000000000000e+00
	8.667343010013501e-05,2.198681537703988e-13
	8.667343223901586e-05,2.401240414335373e-13
	2.851850278171622e-05,-2.271786947663620e-13
	5.172778814454917e-05,8.101236979424482e-13
	-4.622583041981520e-05,-1.267205368439134e-13
	-3.402046050645020e-05,-4.562244663321729e-13
	-2.851850278171622e-05,2.271786947663619e-13
	-5.172778814488410e-05,-8.101236979424480e-13
	-2.851850278171622e-05,2.271786947663619e-13
18		1.513561248436208e+00,0.000000000000000e+00
	-2.851850278171622e-01,2.324703663499065e-09
	1.000000000000000e+00,0.000000000000000e+00
	0.000000000000000e+00,0.000000000000000e+00
	8.667343010013501e-05,2.249895409789563e-13
	8.667343223901586e-05,2.457172488770721e-13
	2.851850278171622e-05,-2.324703663499066e-13
	5.172778814454917e-05,8.289939029850776e-13
	-4.622583041981520e-05,-1.296722373304316e-13
	-3.402046050645020e-05,-4.668512993047394e-13
	-2.851850278171622e-05,2.324703663499066e-13
	-5.172778814488410e-05,-8.289939029850776e-13
	-2.851850278171622e-05,2.324703663499066e-13
19		1.548816618912481e+00,0.000000000000000e+00
	-2.851850278171622e-01,2.378852967987990e-09
	1.000000000000000e+00,0.000000000000000e+00
	0.000000000000000e+00,0.000000000000000e+00
	8.667343010013501e-05,2.302302206202295e-13
	8.667343223901586e-05,2.514407388584138e-13
	2.851850278171622e-05,-2.378852967987990e-13
	5.172778814454917e-05,8.483036515681010e-13
	-4.622583041981520e-05,-1.326926917535974e-13
	-3.402046050645020e-05,-4.777256630157046e-13
	-2.851850278171622e-05,2.378852967987990e-13
	-5.172778814488410e-05,-8.483036515681012e-13
	-2.851850278171622e-05,2.378852967987990e-13
20		1.584893192461113e+00,0.000000000000000e+00
	-2.851850278171622e-01,2.434263571808383e-09
	1.000000000000000e+00,0.000000000000000e+00
	0.000000000000000e+00,0.000000000000000e+00
	8.667343010013501e-05,2.355929713719329e-13
	8.667343223901586e-05,2.572975460477101e-13
	2.851850278171622e-05,-2.434263571808383e-13
	5.172778814454917e-05,8.680631819758125e-13
	-4.622583041981520e-05,-1.357835015983265e-13
	-3.402046050645020e-05,-4.888533231966476e-13
	-2.851850278171622e-05,2.434263571808383e-13
	-5.172778814488410e-05,-8.680631819758124e-13
	-2.851850278171622e-05,2.434263571808383e-13
21		1.621810097358929e+00,0.000000000000000e+00
	-2.851850278171622e-01,2.490964854395836e-09
	1.000000000000000e+00,0.000000000000000e+00
	0.000000000000000e+00,0.000000000000000e+00
	8.667343010013501e-05,2.410806366354992e-13
	8.667343223901586e-05,2.632907758016563e-13
	2.851850278171622e-05,-2.490964854395836e-13
	5.172778814454917e-05,8.882829709727818e-13
	-4.622583041981520e-05,-1.389463056529101e-13
	-3.402046050645020e-05,-5.002401798802881e-13
	-2.851850278171622e-05,2.490964854395836e-13
	-5.172778814488410e-05,-8.882829709727820e-13
	-2.851850278171622e-05,2.490964854395836e-13
22		1.659586907437560e+00,0.000000000000000e+00
	-2.851850278171622e-01,2.548986879520908e-09
	1.000000000000000e+00,0.000000000000000e+00
	0.000000000000000e+00,0.000000000000000e+00
	8.667343010013501e-05,2.466961260436892e-13
	8.667343223901586e-05,2.694236058099981e-13
	2.851850278171622e-05,-2.548986879520909e-13
	5.172778814454917e-05,9.089737393587763e-13
	-4.622583041981520e-05,-1.421827808779227e-13
	-3.402046050645020e-05,-5.118922705287627e-13
	-2.851850278171622e-05,2.548986879520908e-13
	-5.172778814488410e-05,-9.089737393587762e-13
	-2.851850278171622e-05,2.548986879520908e-13
23		1.698243652461743e+00,0.000000000000000e+00
	-2.851850278171622e-01,2.608360411229333e-09
	1.000000000000000e+00,0.000000000000000e+00
	0.000000000000000e+00,0.000000000000000e+00
	8.667343010013501e-05,2.524424170033169e-13
	8.667343223901586e-05,2.756992877803833e-13
	2.851850278171622e-05,-2.608360411229333e-13
	5.172778814454917e-05,9.301464576530686e-13
	-4.622583041981520e-05,-1.454946432953683e-13
	-3.402046050645020e-05,-5.238157732347669e-13
	-2.851850278171622e-05,2.608360411229333e-13
	-5.172778814488410e-05,-9.301464576530688e-13
	-2.851850278171622e-05,2.608360411229333e-13
24		1.737800828749374e+00,0.000000000000000e+00
	-2.851850278171622e-01,2.669116930153522e-09
	1.000000000000000e+00,0.000000000000000e+00
	0.000000000000000e+00,0.000000000000000e+00
	8.667343010013501e-05,2.583225562739098e-13
	8.667343223901586e-05,2.821211491624611e-13
	2.851850278171622e-05,-2.669116930153523e-13
	5.172778814454917e-05,9.518123519111520e-13
	-4.622583041981520e-05,-1.488836488985383e-13
	-3.402046050645020e-05,-5.360170099972614e-13
	-2.851850278171622e-05,2.669116930153522e-13
	-5.172778814488410e-05,-9.518123519111520e-13
	-2.851850278171622e-05,2.669116930153522e-13
25		1.778279410038922e+00,0.000000000000000e+00
	-2.851850278171622e-01,2.731288650204018e-09
	1.000000000000000e+00,0.000000000000000e+00
	0.000000000000000e+00,0.000000000000000e+00
	8.667343010013501e-05,2.643396615831428e-13
	8.667343223901586e-05,2.886925949121398e-13
	2.851850278171622e-05,-2.731288650204018e-13
	5.172778814454917e-05,9.739829096769450e-13
	-4.622583041981520e-05,-1.523515945830625e-13
	-3.402046050645020e-05,-5.485024500734806e-13
	-2.851850278171622e-05,2.731288650204018e-13
	-5.172778814488410e-05,-9.739829096769448e-13
	-2.851850278171622e-05,2.731288650204018e-13
26		1.819700858609982e+00,0.000000000000000e+00
	-2.851850278171622e-01,2.794908535649731e-09
	1.000000000000000e+00,0.000000000000000e+00
	0.000000000000000e+00,0.000000000000000e+00
	8.667343010013501e-05,2.704969232798960e-13
	8.667343223901586e-05,2.954171092969391e-13
	2.851850278171622e-05,-2.794908535649732e-13
	5.172778814454917e-05,9.966698860736365e-13
	-4.622583041981520e-05,-1.559003190996463e-13
	-3.402046050645020e-05,-5.612787134090168e-13
	-2.851850278171622e-05,2.794908535649731e-13
	-5.172778814488410e-05,-9.966698860736365e-13
	-2.851850278171622e-05,2.794908535649731e-13
27		1.862087136662866e+00,0.000000000000000e+00
	-2.851850278171622e-01,2.860010318596034e-09
	1.000000000000000e+00,0.000000000000000e+00
	0.000000000000000e+00,0.000000000000000e+00
	8.667343010013501e-05,2.767976060258225e-13
	8.667343223901586e-05,3.022982577433955e-13
	2.851850278171622e-05,-2.860010318596034e-13
	5.172778814454917e-05,1.019885310036410e-12
	-4.622583041981520e-05,-1.595317040290015e-13
	-3.402046050645020e-05,-5.743525741478047e-13
	-2.851850278171622e-05,2.860010318596034e-13
	-5.172778814488410e-05,-1.019885310036409e-12
	-2.851850278171622e-05,2.860010318596034e-13
28		1.905460717963246e+00,0.000000000000000e+00
	-2.851850278171622e-01,2.926628516869968e-09
	1.000000000000000e+00,0.000000000000000e+00
	0.000000000000000e+00,0.000000000000000e+00
	8.667343010013501e-05,2.832450505263132e-13
	8.667343223901586e-05,3.093396887274979e-13
	2.851850278171622e-05,-2.926628516869970e-13
	5.172778814454917e-05,1.043641490690342e-12
	-4.622583041981520e-05,-1.632476747794846e-13
	-3.402046050645020e-05,-5.877309642238607e-13
	-2.851850278171622e-05,2.926628516869969e-13
	-5.172778814488410e-05,-1.043641490690342e-12
	-2.851850278171622e-05,2.926628516869969e-13
29		1.949844599758044e+00,0.000000000000000e+00
	-2.851850278171622e-01,2.994798452322056e-09
	1.000000000000000e+00,0.000000000000000e+00
	0.000000000000000e+00,0.000000000000000e+00
	8.667343010013501e-05,2.898426753017844e-13
	8.667343223901586e-05,3.165451357091583e-13
	2.851850278171622e-05,-2.994798452322057e-13
	5.172778814454917e-05,1.067951023876867e-12
	-4.622583041981520e-05,-1.670502016079742e-13
	-3.402046050645020e-05,-6.014209770366873e-13
	-2.851850278171622e-05,2.994798452322056e-13
	-5.172778814488410e-05,-1.067951023876867e-12
	-2.851850278171622e-05,2.994798452322056e-13
30		1.995262314968878e+00,0.000000000000000e+00
	-2.851850278171622e-01,3.064556269554407e-09
	1.000000000000000e+00,0.000000000000000e+00
	0.000000000000000e+00,0.000000000000000e+00
	8.667343010013501e-05,2.965939785002219e-13
	8.667343223901586e-05,3.239184191117419e-13
	2.851850278171622e-05,-3.064556269554408e-13
	5.172778814454917e-05,1.092826798832254e-12
	-4.622583041981520e-05,-1.709413006645271e-13
	-3.402046050645020e-05,-6.154298712122863e-13
	-2.851850278171622e-05,3.064556269554407e-13
	-5.172778814488410e-05,-1.092826798832254e-12
	-2.851850278171622e-05,3.064556269554407e-13
31		2.041737944669527e+00,0.000000000000000e+00
	-2.851850278171622e-01,3.135938955085075e-09
	1.000000000000000e+00,0.000000000000000e+00
	0.000000000000000e+00,0.000000000000000e+00
	8.667343010013501e-05,3.035025397519457e-13
	8.667343223901586e-05,3.314634483477057e-13
	2.851850278171622e-05,-3.135938955085075e-13
	5.172778814454917e-05,1.118282005021655e-12
	-4.622583041981520e-05,-1.749230350613680e-13
	-3.402046050645020e-05,-6.297650744517796e-13
	-2.851850278171622e-05,3.135938955085075e-13
	-5.172778814488410e-05,-1.118282005021655e-12
	-2.851850278171622e-05,3.135938955085075e-13
32		2.089296130854037e+00,0.000000000000000e+00
	-2.851850278171622e-01,3.208984356958787e-09
	1.000000000000000e+00,0.000000000000000e+00
	0.000000000000000e+00,0.000000000000000e+00
	8.667343010013501e-05,3.105720220675771e-13
