LTspice 24.0.9 for Windows
Circuit: * GA CMOS Amp | W=3.41704154542382e-05 L=1.8070469337698853e-07 Vbias=0.5824021411798797
Start Time: Sat Sep  6 22:01:03 2025
solver = Normal
Maximum thread count: 2
tnom = 27
temp = 27
method = modified trap
AsciiRawFile = 1
Direct Newton iteration for .op point succeeded.
Semiconductor Device Operating Points:
                        --- BSIM4 MOSFETS ---
Name:      m1
Model:      n
Id:      1.78e-04
Vgs:     5.82e-01
Vds:     1.57e-02
Vbs:     0.00e+00
Vth:     3.02e-01
Vdsat:   2.31e-01
Gm:      3.98e-04
Gds:     1.10e-02
Gmb      2.36e-04
Cbd:     1.70e-14
Cbs:     2.73e-14


.measure op idd find i(vdd)
  Error: FIND can not be evaluated over an interval.

gain_db: MAX(db(v(out)/v(g)))=(31.984dB,136.631°) FROM 1 TO 1e+09
gain_lin: MAX(mag(v(out)/v(g)))=(-22.0344dB,0°) FROM 1 TO 1e+09

Measurement "fc" FAIL'ed

Total elapsed time: 0.535 seconds.

