LTspice 24.0.9 for Windows
Circuit: * GA CMOS Amp | W=2.4063790636460856e-05 L=7.770352203190817e-07 Vbias=0.7436665549799375
Start Time: Mon Sep  8 18:46:05 2025
solver = Normal
Maximum thread count: 2
tnom = 27
temp = 27
method = modified trap
AsciiRawFile = 1
Instance "m1": Length shorter than recommended for a level 3 MOSFET.
Direct Newton iteration for .op point succeeded.
Semiconductor Device Operating Points:
                        --- MOSFET Transistors ---
Name:          m1
Model:        n_1u
Id:          3.21e-06
Vgs:         7.44e-01
Vds:         1.77e+00
Vbs:         0.00e+00
Vth:         7.88e-01
Vdsat:       4.83e-02
Gm:          5.94e-05
Gds:         3.01e-07
Gmb:         1.29e-05
Cbd:         0.00e+00
Cbs:         0.00e+00
Cgsov:       4.81e-15
Cgdov:       4.81e-15
Cgbov:       5.77e-17
Cgs:         1.39e-14
Cgd:         0.00e+00
Cgb:         1.53e-15



gain_db: MAX(db(v(out)/v(g)))=(28.8387dB,99.4806°) FROM 1 TO 1e+09
gain_lin: MAX(mag(v(out)/v(g)))=(-3.93252dB,0°) FROM 1 TO 1e+09

Measurement "fc" FAIL'ed

Total elapsed time: 0.524 seconds.

