LTspice 24.0.9 for Windows
Circuit: * GA CMOS Amp | W=2.2351947509890582e-05 L=1e-06 Vbias=1.0308725954794844
Start Time: Mon Sep  8 18:45:22 2025
solver = Normal
Maximum thread count: 2
tnom = 27
temp = 27
method = modified trap
AsciiRawFile = 1
Direct Newton iteration for .op point succeeded.
Semiconductor Device Operating Points:
                        --- MOSFET Transistors ---
Name:          m1
Model:        n_1u
Id:          9.64e-05
Vgs:         1.03e+00
Vds:         8.36e-01
Vbs:         0.00e+00
Vth:         8.11e-01
Vdsat:       2.19e-01
Gm:          6.28e-04
Gds:         1.58e-05
Gmb:         1.50e-04
Cbd:         0.00e+00
Cbs:         0.00e+00
Cgsov:       4.47e-15
Cgdov:       4.47e-15
Cgbov:       8.00e-17
Cgs:         2.06e-14
Cgd:         0.00e+00
Cgb:         0.00e+00



gain_db: MAX(db(v(out)/v(g)))=(29.8243dB,61.7073°) FROM 1 TO 1e+09
gain_lin: MAX(mag(v(out)/v(g)))=(14.6883dB,0°) FROM 1 TO 1e+09

Measurement "fc" FAIL'ed

Total elapsed time: 0.454 seconds.

