Title: * GA CMOS Amp | W=3.116032623062628e-05 L=9.755366554411863e-07 Vbias=0.8305569172887791
Date: Sat Sep  6 22:01:13 2025
Plotname: AC Analysis
Flags: complex forward log
No. Variables: 13
No. Points:          901
Offset:    0.0000000000000000e+00
Command: Linear Technology Corporation LTspice
Variables:
	0	frequency	frequency
	1	V(out)	voltage
	2	V(g)	voltage
	3	V(vdd)	voltage
	4	V(m1#dbody)	voltage
	5	V(m1#sbody)	voltage
	6	Id(M1)	device_current
	7	Ig(M1)	device_current
	8	Ib(M1)	device_current
	9	Is(M1)	device_current
	10	I(Rload)	device_current
	11	I(Vg)	device_current
	12	I(Vdd)	device_current
Values:
0		1.000000000000000e+00,0.000000000000000e+00
	-2.316950657953392e-02,1.358124113286346e-09
	1.000000000000000e+00,0.000000000000000e+00
	0.000000000000000e+00,0.000000000000000e+00
	7.627209755593245e-07,5.945755823195218e-14
	7.627211561448870e-07,7.614845522768838e-14
	2.316950657953409e-06,-1.358124113286345e-13
	6.218347306620465e-06,7.721492443715877e-12
	-4.067846048792489e-07,-3.950014140992683e-14
	-8.128513359694626e-06,-7.546179890977317e-12
	-2.316950657953392e-06,1.358124113286346e-13
	-6.218347306657934e-06,-7.721492443715877e-12
	-2.316950657953392e-06,1.358124113286346e-13
1		1.023292992280754e+00,0.000000000000000e+00
	-2.316950657953392e-02,1.389758887773431e-09
	1.000000000000000e+00,0.000000000000000e+00
	0.000000000000000e+00,0.000000000000000e+00
	7.627209755593241e-07,6.084250267688157e-14
	7.627211561448867e-07,7.792218060749830e-14
	2.316950657953409e-06,-1.389758887773441e-13
	6.218347306620465e-06,7.901349107603255e-12
	-4.067846048792486e-07,-4.042021789887696e-14
	-8.128513359694626e-06,-7.721953000927034e-12
	-2.316950657953392e-06,1.389758887773431e-13
	-6.218347306657934e-06,-7.901349107603253e-12
	-2.316950657953392e-06,1.389758887773431e-13
2		1.047128548050899e+00,0.000000000000000e+00
	-2.316950657953392e-02,1.422130530818447e-09
	1.000000000000000e+00,0.000000000000000e+00
	0.000000000000000e+00,0.000000000000000e+00
	7.627209755593238e-07,6.225970662207593e-14
	7.627211561448864e-07,7.973722135888827e-14
	2.316950657953409e-06,-1.422130530818466e-13
	6.218347306620465e-06,8.085395171374199e-12
	-4.067846048792485e-07,-4.136172572238189e-14
	-8.128513359694626e-06,-7.901820392569970e-12
	-2.316950657953392e-06,1.422130530818447e-13
	-6.218347306657934e-06,-8.085395171374197e-12
	-2.316950657953392e-06,1.422130530818447e-13
3		1.071519305237606e+00,0.000000000000000e+00
	-2.316950657953392e-02,1.455256206295025e-09
	1.000000000000000e+00,0.000000000000000e+00
	0.000000000000000e+00,0.000000000000000e+00
	7.627209755593234e-07,6.370992148782594e-14
	7.627211561448860e-07,8.159453984048962e-14
	2.316950657953409e-06,-1.455256206295036e-13
	6.218347306620465e-06,8.273728218687866e-12
	-4.067846048792483e-07,-4.232516408035200e-14
	-8.128513359694626e-06,-8.085877433978009e-12
	-2.316950657953392e-06,1.455256206295025e-13
	-6.218347306657934e-06,-8.273728218687864e-12
	-2.316950657953392e-06,1.455256206295025e-13
4		1.096478196143185e+00,0.000000000000000e+00
	-2.316950657953392e-02,1.489153477874775e-09
	1.000000000000000e+00,0.000000000000000e+00
	0.000000000000000e+00,0.000000000000000e+00
	7.627209755593230e-07,6.519391619724928e-14
	7.627211561448857e-07,8.349512082714582e-14
	2.316950657953409e-06,-1.489153477874791e-13
	6.218347306620464e-06,8.466448106218817e-12
	-4.067846048792481e-07,-4.331104380055728e-14
	-8.128513359694626e-06,-8.274221714630781e-12
	-2.316950657953392e-06,1.489153477874775e-13
	-6.218347306657934e-06,-8.466448106218816e-12
	-2.316950657953392e-06,1.489153477874775e-13
5		1.122018454301963e+00,0.000000000000000e+00
	-2.316950657953392e-02,1.523840318339771e-09
	1.000000000000000e+00,0.000000000000000e+00
	0.000000000000000e+00,0.000000000000000e+00
	7.627209755593225e-07,6.671247758398391e-14
	7.627211561448853e-07,8.543997203205311e-14
	2.316950657953396e-06,-1.523840318339761e-13
	6.218347306620478e-06,8.663657016602376e-12
	-4.067846048792479e-07,-4.431988760947504e-14
	-8.128513359694626e-06,-8.466953097158925e-12
	-2.316950657953392e-06,1.523840318339770e-13
	-6.218347306657934e-06,-8.663657016602379e-12
	-2.316950657953392e-06,1.523840318339770e-13
6		1.148153621496882e+00,0.000000000000000e+00
	-2.316950657953392e-02,1.559335119111961e-09
	1.000000000000000e+00,0.000000000000000e+00
	0.000000000000000e+00,0.000000000000000e+00
	7.627209755593222e-07,6.826641080937766e-14
	7.627211561448850e-07,8.743012464106360e-14
	2.316950657953396e-06,-1.559335119111958e-13
	6.218347306620478e-06,8.865459512613198e-12
	-4.067846048792477e-07,-4.535223040944645e-14
	-8.128513359694626e-06,-8.664173770292556e-12
	-2.316950657953392e-06,1.559335119111961e-13
	-6.218347306657934e-06,-8.865459512613198e-12
	-2.316950657953392e-06,1.559335119111961e-13
7		1.174897554939529e+00,0.000000000000000e+00
	-2.316950657953392e-02,1.595656700004544e-09
	1.000000000000000e+00,0.000000000000000e+00
	0.000000000000000e+00,0.000000000000000e+00
	7.627209755593217e-07,6.985653978939530e-14
	7.627211561448846e-07,8.946663385943329e-14
	2.316950657953396e-06,-1.595656700004548e-13
	6.218347306620478e-06,9.071962592605832e-12
	-4.067846048792475e-07,-4.640861956228868e-14
	-8.128513359694626e-06,-8.865988303043089e-12
	-2.316950657953392e-06,1.595656700004544e-13
	-6.218347306657934e-06,-9.071962592605837e-12
	-2.316950657953392e-06,1.595656700004544e-13
8		1.202264434617413e+00,0.000000000000000e+00
	-2.316950657953392e-02,1.632824319200484e-09
	1.000000000000000e+00,0.000000000000000e+00
	0.000000000000000e+00,0.000000000000000e+00
	7.627209755593212e-07,7.148370763146984e-14
	7.627211561448841e-07,9.155057947130607e-14
	2.316950657953396e-06,-1.632824319200483e-13
	6.218347306620477e-06,9.283275747246691e-12
	-4.067846048792472e-07,-4.748961517951350e-14
	-8.128513359694626e-06,-9.072503700147130e-12
	-2.316950657953392e-06,1.632824319200484e-13
	-6.218347306657934e-06,-9.283275747246694e-12
	-2.316950657953392e-06,1.632824319200484e-13
9		1.230268770812381e+00,0.000000000000000e+00
	-2.316950657953392e-02,1.670857683463448e-09
	1.000000000000000e+00,0.000000000000000e+00
	0.000000000000000e+00,0.000000000000000e+00
	7.627209755593207e-07,7.314877708152934e-14
	7.627211561448837e-07,9.368306641222976e-14
	2.316950657953396e-06,-1.670857683463440e-13
	6.218347306620477e-06,9.499511017567421e-12
	-4.067846048792471e-07,-4.859579041930588e-14
	-8.128513359694626e-06,-9.283829458801772e-12
	-2.316950657953392e-06,1.670857683463449e-13
	-6.218347306657934e-06,-9.499511017567424e-12
	-2.316950657953392e-06,1.670857683463449e-13
10		1.258925411794167e+00,0.000000000000000e+00
	-2.316950657953392e-02,1.709776958586601e-09
	1.000000000000000e+00,0.000000000000000e+00
	0.000000000000000e+00,0.000000000000000e+00
	7.627209755593201e-07,7.485263098143610e-14
	7.627211561448832e-07,9.586522535500731e-14
	2.316950657953396e-06,-1.709776958586589e-13
	6.218347306620477e-06,9.720783054370560e-12
	-4.067846048792467e-07,-4.972773179041997e-14
	-8.128513359694626e-06,-9.500077626721481e-12
	-2.316950657953392e-06,1.709776958586601e-13
	-6.218347306657934e-06,-9.720783054370560e-12
	-2.316950657953392e-06,1.709776958586601e-13
11		1.288249551693134e+00,0.000000000000000e+00
	-2.316950657953392e-02,1.749602780084770e-09
	1.000000000000000e+00,0.000000000000000e+00
	0.000000000000000e+00,0.000000000000000e+00
	7.627209755593197e-07,7.659617273708081e-14
	7.627211561448828e-07,9.809821330919423e-14
	2.316950657953396e-06,-1.749602780084769e-13
	6.218347306620476e-06,9.947209179018901e-12
	-4.067846048792465e-07,-5.088603946315362e-14
	-8.128513359694626e-06,-9.721362861547270e-12
	-2.316950657953392e-06,1.749602780084770e-13
	-6.218347306657934e-06,-9.947209179018898e-12
	-2.316950657953392e-06,1.749602780084770e-13
12		1.318256738556407e+00,0.000000000000000e+00
	-2.316950657953392e-02,1.790356264135671e-09
	1.000000000000000e+00,0.000000000000000e+00
	0.000000000000000e+00,0.000000000000000e+00
	7.627209755593190e-07,7.838032679738093e-14
	7.627211561448822e-07,1.003832142345610e-13
	2.316950657953396e-06,-1.790356264135664e-13
	6.218347306620476e-06,1.017890944564083e-11
	-4.067846048792463e-07,-5.207132758756700e-14
	-8.128513359694626e-06,-9.947802491639698e-12
	-2.316950657953392e-06,1.790356264135671e-13
	-6.218347306657934e-06,-1.017890944564083e-11
	-2.316950657953392e-06,1.790356264135671e-13
13		1.348962882591653e+00,0.000000000000000e+00
	-2.316950657953392e-02,1.832059018775983e-09
	1.000000000000000e+00,0.000000000000000e+00
	0.000000000000000e+00,0.000000000000000e+00
	7.627209755593184e-07,8.020603914443523e-14
	7.627211561448817e-07,1.027214396688439e-13
	2.316950657953396e-06,-1.832059018775987e-13
	6.218347306620476e-06,1.041600670478464e-11
	-4.067846048792459e-07,-5.328422461911278e-14
	-8.128513359694626e-06,-1.017951657828793e-11
	-2.316950657953392e-06,1.832059018775983e-13
	-6.218347306657934e-06,-1.041600670478464e-11
	-2.316950657953392e-06,1.832059018775983e-13
14		1.380384264602885e+00,0.000000000000000e+00
	-2.316950657953392e-02,1.874733155358218e-09
	1.000000000000000e+00,0.000000000000000e+00
	0.000000000000000e+00,0.000000000000000e+00
	7.627209755593176e-07,8.207427779509644e-14
	7.627211561448811e-07,1.051141293701182e-13
	2.316950657953396e-06,-1.874733155358220e-13
	6.218347306620475e-06,1.065862666855548e-11
	-4.067846048792456e-07,-5.452537365185176e-14
	-8.128513359694626e-06,-1.041662797936780e-11
	-2.316950657953392e-06,1.874733155358218e-13
	-6.218347306657934e-06,-1.065862666855547e-11
	-2.316950657953392e-06,1.874733155358218e-13
15		1.412537544622754e+00,0.000000000000000e+00
	-2.316950657953392e-02,1.918401300274451e-09
	1.000000000000000e+00,0.000000000000000e+00
	0.000000000000000e+00,0.000000000000000e+00
	7.627209755593171e-07,8.398603331422614e-14
	7.627211561448805e-07,1.075625519741347e-13
	2.316950657953396e-06,-1.918401300274444e-13
	6.218347306620475e-06,1.090689797726958e-11
	-4.067846048792453e-07,-5.579543275942960e-14
	-8.128513359694626e-06,-1.065926241448270e-11
	-2.316950657953392e-06,1.918401300274451e-13
	-6.218347306657934e-06,-1.090689797726958e-11
	-2.316950657953392e-06,1.918401300274451e-13
16		1.445439770745927e+00,0.000000000000000e+00
	-2.316950657953392e-02,1.963086606953131e-09
	1.000000000000000e+00,0.000000000000000e+00
	0.000000000000000e+00,0.000000000000000e+00
	7.627209755593164e-07,8.594231933990559e-14
	7.627211561448799e-07,1.100680056669664e-13
	2.316950657953396e-06,-1.963086606953145e-13
	6.218347306620475e-06,1.116095226766109e-11
	-4.067846048792449e-07,-5.709507534399633e-14
	-8.128513359694626e-06,-1.090754853162178e-11
	-2.316950657953392e-06,1.963086606953131e-13
	-6.218347306657934e-06,-1.116095226766109e-11
	-2.316950657953392e-06,1.963086606953131e-13
17		1.479108388168207e+00,0.000000000000000e+00
	-2.316950657953392e-02,2.008812768135343e-09
	1.000000000000000e+00,0.000000000000000e+00
	0.000000000000000e+00,0.000000000000000e+00
	7.627209755593156e-07,8.794417312088012e-14
	7.627211561448793e-07,1.126318188733250e-13
	2.316950657953396e-06,-2.008812768135351e-13
	6.218347306620474e-06,1.142092424267758e-11
	-4.067846048792446e-07,-5.842499049325313e-14
	-8.128513359694626e-06,-1.116161797537079e-11
	-2.316950657953392e-06,2.008812768135343e-13
	-6.218347306657934e-06,-1.142092424267758e-11
	-2.316950657953392e-06,2.008812768135343e-13
18		1.513561248436208e+00,0.000000000000000e+00
	-2.316950657953392e-02,2.055604028437000e-09
	1.000000000000000e+00,0.000000000000000e+00
	0.000000000000000e+00,0.000000000000000e+00
	7.627209755593149e-07,8.999265606652198e-14
	7.627211561448786e-07,1.152553509609086e-13
	2.316950657953396e-06,-2.055604028436987e-13
	6.218347306620474e-06,1.168695174290135e-11
	-4.067846048792443e-07,-5.978588334581555e-14
	-8.128513359694626e-06,-1.142160545671183e-11
	-2.316950657953392e-06,2.055604028437000e-13
	-6.218347306657934e-06,-1.168695174290135e-11
	-2.316950657953392e-06,2.055604028437000e-13
19		1.548816618912481e+00,0.000000000000000e+00
	-2.316950657953392e-02,2.103485197203669e-09
	1.000000000000000e+00,0.000000000000000e+00
	0.000000000000000e+00,0.000000000000000e+00
	7.627209755593140e-07,9.208885430960404e-14
	7.627211561448779e-07,1.179399929611567e-13
	2.316950657953396e-06,-2.103485197203680e-13
	6.218347306620473e-06,1.195917581963429e-11
	-4.067846048792438e-07,-6.117847546508770e-14
	-8.128513359694626e-06,-1.168764882444884e-11
	-2.316950657953392e-06,2.103485197203670e-13
	-6.218347306657934e-06,-1.195917581963429e-11
	-2.316950657953392e-06,2.103485197203670e-13
20		1.584893192461113e+00,0.000000000000000e+00
	-2.316950657953392e-02,2.152481661664815e-09
	1.000000000000000e+00,0.000000000000000e+00
	0.000000000000000e+00,0.000000000000000e+00
	7.627209755593132e-07,9.423387928218122e-14
	7.627211561448772e-07,1.206871683067931e-13
	2.316950657953396e-06,-2.152481661664822e-13
	6.218347306620473e-06,1.223774080968521e-11
	-4.067846048792435e-07,-6.260350522184433e-14
	-8.128513359694626e-06,-1.195988913829689e-11
	-2.316950657953392e-06,2.152481661664815e-13
	-6.218347306657934e-06,-1.223774080968522e-11
	-2.316950657953392e-06,2.152481661664815e-13
21		1.621810097358929e+00,0.000000000000000e+00
	-2.316950657953392e-02,2.202619400394438e-09
	1.000000000000000e+00,0.000000000000000e+00
	0.000000000000000e+00,0.000000000000000e+00
	7.627209755593124e-07,9.642886830488652e-14
	7.627211561448764e-07,1.234983335865493e-13
	2.316950657953396e-06,-2.202619400394429e-13
	6.218347306620472e-06,1.252279441189908e-11
	-4.067846048792430e-07,-6.406172818572487e-14
	-8.128513359694626e-06,-1.223847074367392e-11
	-2.316950657953392e-06,2.202619400394438e-13
	-6.218347306657934e-06,-1.252279441189908e-11
	-2.316950657953392e-06,2.202619400394438e-13
22		1.659586907437560e+00,0.000000000000000e+00
	-2.316950657953391e-02,2.253924997085266e-09
	1.000000000000000e+00,0.000000000000000e+00
	0.000000000000000e+00,0.000000000000000e+00
	7.627209755593114e-07,9.867498518995415e-14
	7.627211561448756e-07,1.263749793174668e-13
	2.316950657953409e-06,-2.253924997085254e-13
	6.218347306620459e-06,1.281448776546892e-11
	-4.067846048792426e-07,-6.555391752584674e-14
	-8.128513359694626e-06,-1.252354134823455e-11
	-2.316950657953392e-06,2.253924997085266e-13
	-6.218347306657934e-06,-1.281448776546892e-11
	-2.316950657953392e-06,2.253924997085266e-13
23		1.698243652461743e+00,0.000000000000000e+00
	-2.316950657953391e-02,2.306425654643771e-09
	1.000000000000000e+00,0.000000000000000e+00
	0.000000000000000e+00,0.000000000000000e+00
	7.627209755593103e-07,1.009734208582873e-13
	7.627211561448747e-07,1.293186307351891e-13
	2.316950657953409e-06,-2.306425654643780e-13
	6.218347306620472e-06,1.311297553007181e-11
	-4.067846048792421e-07,-6.708086442074950e-14
	-8.128513359694639e-06,-1.281525210018668e-11
	-2.316950657953392e-06,2.306425654643771e-13
	-6.218347306657934e-06,-1.311297553007181e-11
	-2.316950657953392e-06,2.306425654643771e-13
24		1.737800828749374e+00,0.000000000000000e+00
	-2.316950657953391e-02,2.360149209613522e-09
	1.000000000000000e+00,0.000000000000000e+00
	0.000000000000000e+00,0.000000000000000e+00
	7.627209755593094e-07,1.033253939709006e-13
	7.627211561448739e-07,1.323308486026614e-13
	2.316950657953409e-06,-2.360149209613520e-13
	6.218347306620472e-06,1.341841596787149e-11
	-4.067846048792417e-07,-6.864337847788830e-14
	-8.128513359694639e-06,-1.311375766843225e-11
	-2.316950657953392e-06,2.360149209613522e-13
	-6.218347306657934e-06,-1.341841596787149e-11
	-2.316950657953392e-06,2.360149209613522e-13
25		1.778279410038922e+00,0.000000000000000e+00
	-2.316950657953391e-02,2.415124146934477e-09
	1.000000000000000e+00,0.000000000000000e+00
	0.000000000000000e+00,0.000000000000000e+00
	7.627209755593083e-07,1.057321515750707e-13
	7.627211561448729e-07,1.354132300376689e-13
	2.316950657953409e-06,-2.415124146934479e-13
	6.218347306620471e-06,1.373097102743107e-11
	-4.067846048792412e-07,-7.024228816289864e-14
	-8.128513359694639e-06,-1.341921632457472e-11
	-2.316950657953392e-06,2.415124146934477e-13
	-6.218347306657934e-06,-1.373097102743106e-11
	-2.316950657953392e-06,2.415124146934477e-13
26		1.819700858609982e+00,0.000000000000000e+00
	-2.316950657953391e-02,2.471379615046085e-09
	1.000000000000000e+00,0.000000000000000e+00
	0.000000000000000e+00,0.000000000000000e+00
	7.627209755593072e-07,1.081949697655363e-13
	7.627211561448720e-07,1.385674093596482e-13
	2.316950657953409e-06,-2.471379615046078e-13
	6.218347306620470e-06,1.405080642958027e-11
	-4.067846048792407e-07,-7.187844123885952e-14
	-8.128513359694639e-06,-1.373179002683681e-11
	-2.316950657953392e-06,2.471379615046085e-13
	-6.218347306657934e-06,-1.405080642958027e-11
	-2.316950657953392e-06,2.471379615046085e-13
27		1.862087136662866e+00,0.000000000000000e+00
	-2.316950657953391e-02,2.528945441342166e-09
	1.000000000000000e+00,0.000000000000000e+00
	0.000000000000000e+00,0.000000000000000e+00
	7.627209755593060e-07,1.107151543611015e-13
	7.627211561448709e-07,1.417950589562267e-13
	2.316950657953409e-06,-2.528945441342171e-13
	6.218347306620470e-06,1.437809175528286e-11
	-4.067846048792400e-07,-7.355270521578896e-14
	-8.128513359694639e-06,-1.405164450593285e-11
	-2.316950657953392e-06,2.528945441342167e-13
	-6.218347306657934e-06,-1.437809175528286e-11
	-2.316950657953392e-06,2.528945441342167e-13
28		1.905460717963246e+00,0.000000000000000e+00
	-2.316950657953391e-02,2.587852147985798e-09
	1.000000000000000e+00,0.000000000000000e+00
	0.000000000000000e+00,0.000000000000000e+00
	7.627209755593047e-07,1.132940415969971e-13
	7.627211561448698e-07,1.450978901699432e-13
	2.316950657953409e-06,-2.587852147985794e-13
	6.218347306620469e-06,1.471300053555063e-11
	-4.067846048792395e-07,-7.526596781060892e-14
	-8.128513359694639e-06,-1.437894935294145e-11
	-2.316950657953392e-06,2.587852147985798e-13
	-6.218347306657934e-06,-1.471300053555064e-11
	-2.316950657953392e-06,2.587852147985798e-13
29		1.949844599758044e+00,0.000000000000000e+00
	-2.316950657953391e-02,2.648130968092565e-09
	1.000000000000000e+00,0.000000000000000e+00
	0.000000000000000e+00,0.000000000000000e+00
	7.627209755593035e-07,1.159329988333714e-13
	7.627211561448687e-07,1.484776542056253e-13
	2.316950657953396e-06,-2.648130968092563e-13
	6.218347306620482e-06,1.505571034345195e-11
	-4.067846048792389e-07,-7.701913741782489e-14
	-8.128513359694639e-06,-1.471387810922487e-11
	-2.316950657953392e-06,2.648130968092565e-13
	-6.218347306657934e-06,-1.505571034345195e-11
	-2.316950657953392e-06,2.648130968092565e-13
30		1.995262314968878e+00,0.000000000000000e+00
	-2.316950657953391e-02,2.709813862290770e-09
	1.000000000000000e+00,0.000000000000000e+00
	0.000000000000000e+00,0.000000000000000e+00
	7.627209755593021e-07,1.186334252802818e-13
	7.627211561448675e-07,1.519361430589015e-13
	2.316950657953396e-06,-2.709813862290767e-13
	6.218347306620482e-06,1.540640288826325e-11
	-4.067846048792382e-07,-7.881314359116863e-14
	-8.128513359694639e-06,-1.505660835844300e-11
	-2.316950657953392e-06,2.709813862290770e-13
	-6.218347306657934e-06,-1.540640288826324e-11
	-2.316950657953392e-06,2.709813862290770e-13
31		2.041737944669527e+00,0.000000000000000e+00
	-2.316950657953391e-02,2.772933535667388e-09
	1.000000000000000e+00,0.000000000000000e+00
	0.000000000000000e+00,0.000000000000000e+00
	7.627209755593007e-07,1.213967527395748e-13
	7.627211561448664e-07,1.554751904663400e-13
	2.316950657953396e-06,-2.772933535667392e-13
	6.218347306620481e-06,1.576526411181374e-11
	-4.067846048792376e-07,-8.064893753645971e-14
	-8.128513359694639e-06,-1.540732182071054e-11
	-2.316950657953392e-06,2.772933535667388e-13
	-6.218347306657934e-06,-1.576526411181374e-11
	-2.316950657953392e-06,2.772933535667388e-13
32		2.089296130854037e+00,0.000000000000000e+00
	-2.316950657953391e-02,2.837523455108734e-09
	1.000000000000000e+00,0.000000000000000e+00
	0.000000000000000e+00,0.000000000000000e+00
	7.627209755592993e-07,1.242244463640463e-13
