Title: * GA CMOS Amp | W=1.544990670290672e-05 L=1e-06 Vbias=1.4734496039917877
Date: Sat Sep  6 22:09:49 2025
Plotname: AC Analysis
Flags: complex forward log
No. Variables: 13
No. Points:          901
Offset:    0.0000000000000000e+00
Command: Linear Technology Corporation LTspice
Variables:
	0	frequency	frequency
	1	V(out)	voltage
	2	V(g)	voltage
	3	V(vdd)	voltage
	4	V(m1#dbody)	voltage
	5	V(m1#sbody)	voltage
	6	Id(M1)	device_current
	7	Ig(M1)	device_current
	8	Ib(M1)	device_current
	9	Is(M1)	device_current
	10	I(Rload)	device_current
	11	I(Vg)	device_current
	12	I(Vdd)	device_current
Values:
0		1.000000000000000e+00,0.000000000000000e+00
	3.171824934637655e-02,1.398394076498573e-09
	1.000000000000000e+00,0.000000000000000e+00
	0.000000000000000e+00,0.000000000000000e+00
	4.836354498955171e-04,1.596410232395687e-13
	4.836354496566754e-04,1.484230673116394e-13
	-3.171824934637650e-06,-1.398394076498568e-13
	3.009018017643289e-04,3.967780055396796e-12
	-2.579389066944836e-04,-8.001951225269547e-14
	-3.979107013520759e-05,-3.747921135494244e-12
	3.171824934637655e-06,1.398394076498573e-13
	-3.009018017643972e-04,-3.967780055396796e-12
	3.171824934637655e-06,1.398394076498573e-13
1		1.023292992280754e+00,0.000000000000000e+00
	3.171824934637655e-02,1.430966858927906e-09
	1.000000000000000e+00,0.000000000000000e+00
	0.000000000000000e+00,0.000000000000000e+00
	4.836354498955171e-04,1.633595403615796e-13
	4.836354496566754e-04,1.518802846728153e-13
	-3.171824934637650e-06,-1.430966858927899e-13
	3.009018017643289e-04,4.060201525598884e-12
	-2.579389066944836e-04,-8.188340613390724e-14
	-3.979107013520759e-05,-3.835221433572186e-12
	3.171824934637655e-06,1.430966858927906e-13
	-3.009018017643972e-04,-4.060201525598883e-12
	3.171824934637655e-06,1.430966858927906e-13
2		1.047128548050899e+00,0.000000000000000e+00
	3.171824934637655e-02,1.464298358926929e-09
	1.000000000000000e+00,0.000000000000000e+00
	0.000000000000000e+00,0.000000000000000e+00
	4.836354498955171e-04,1.671646728742094e-13
	4.836354496566754e-04,1.554180309712979e-13
	-3.171824934637656e-06,-1.464298358926929e-13
	3.009018017643289e-04,4.154775768392963e-12
	-2.579389066944836e-04,-8.379071568090615e-14
	-3.979107013520759e-05,-3.924555216819364e-12
	3.171824934637655e-06,1.464298358926928e-13
	-3.009018017643972e-04,-4.154775768392963e-12
	3.171824934637655e-06,1.464298358926928e-13
3		1.071519305237606e+00,0.000000000000000e+00
	3.171824934637655e-02,1.498406249298135e-09
	1.000000000000000e+00,0.000000000000000e+00
	0.000000000000000e+00,0.000000000000000e+00
	4.836354498955171e-04,1.710584383090832e-13
	4.836354496566754e-04,1.590381819670023e-13
	-3.171824934637656e-06,-1.498406249298129e-13
	3.009018017643289e-04,4.251552928294404e-12
	-2.579389066944836e-04,-8.574245217446037e-14
	-3.979107013520759e-05,-4.015969851190131e-12
	3.171824934637655e-06,1.498406249298135e-13
	-3.009018017643972e-04,-4.251552928294405e-12
	3.171824934637655e-06,1.498406249298135e-13
4		1.096478196143185e+00,0.000000000000000e+00
	3.171824934637655e-02,1.533308614496469e-09
	1.000000000000000e+00,0.000000000000000e+00
	0.000000000000000e+00,0.000000000000000e+00
	4.836354498955171e-04,1.750429011921745e-13
	4.836354496566754e-04,1.627426571119048e-13
	-3.171824934637656e-06,-1.533308614496464e-13
	3.009018017643289e-04,4.350584317834383e-12
	-2.579389066944836e-04,-8.773965045109298e-14
	-3.979107013520759e-05,-4.109513805933644e-12
	3.171824934637655e-06,1.533308614496470e-13
	-3.009018017643972e-04,-4.350584317834383e-12
	3.171824934637655e-06,1.533308614496470e-13
5		1.122018454301963e+00,0.000000000000000e+00
	3.171824934637655e-02,1.569023960217950e-09
	1.000000000000000e+00,0.000000000000000e+00
	0.000000000000000e+00,0.000000000000000e+00
	4.836354498955171e-04,1.791201741384446e-13
	4.836354496566754e-04,1.665334205677619e-13
	-3.171824934637656e-06,-1.569023960217944e-13
	3.009018017643289e-04,4.451922444766471e-12
	-2.579389066944836e-04,-8.978336945176636e-14
	-3.979107013520759e-05,-4.205236679292910e-12
	3.171824934637655e-06,1.569023960217950e-13
	-3.009018017643972e-04,-4.451922444766471e-12
	3.171824934637655e-06,1.569023960217950e-13
6		1.148153621496882e+00,0.000000000000000e+00
	3.171824934637655e-02,1.605571223211625e-09
	1.000000000000000e+00,0.000000000000000e+00
	0.000000000000000e+00,0.000000000000000e+00
	4.836354498955171e-04,1.832924189719787e-13
	4.836354496566754e-04,1.704124822475343e-13
	-3.171824934637656e-06,-1.605571223211621e-13
	3.009018017643289e-04,4.555621039906933e-12
	-2.579389066944836e-04,-9.187469278334646e-14
	-3.979107013520759e-05,-4.303189224802424e-12
	3.171824934637655e-06,1.605571223211625e-13
	-3.009018017643972e-04,-4.555621039906931e-12
	3.171824934637655e-06,1.605571223211625e-13
7		1.174897554939529e+00,0.000000000000000e+00
	3.171824934637655e-02,1.642969781320094e-09
	1.000000000000000e+00,0.000000000000000e+00
	0.000000000000000e+00,0.000000000000000e+00
	4.836354498955171e-04,1.875618478722138e-13
	4.836354496566754e-04,1.743818988810702e-13
	-3.171824934637656e-06,-1.642969781320094e-13
	3.009018017643289e-04,4.661735085623525e-12
	-2.579389066944836e-04,-9.401472929314559e-14
	-3.979107013520759e-05,-4.403423378198370e-12
	3.171824934637655e-06,1.642969781320094e-13
	-3.009018017643972e-04,-4.661735085623523e-12
	3.171824934637655e-06,1.642969781320094e-13
8		1.202264434617413e+00,0.000000000000000e+00
	3.171824934637656e-02,1.681239463753895e-09
	1.000000000000000e+00,0.000000000000000e+00
	0.000000000000000e+00,0.000000000000000e+00
	4.836354498955171e-04,1.919307245468653e-13
	4.836354496566754e-04,1.784437751056104e-13
	-3.171824934637643e-06,-1.681239463753892e-13
	3.009018017643289e-04,4.770320844987874e-12
	-2.579389066944836e-04,-9.620461365684805e-14
	-3.979107013520760e-05,-4.505992284955636e-12
	3.171824934637656e-06,1.681239463753895e-13
	-3.009018017643972e-04,-4.770320844987875e-12
	3.171824934637656e-06,1.681239463753895e-13
9		1.230268770812381e+00,0.000000000000000e+00
	3.171824934637656e-02,1.720400561605214e-09
	1.000000000000000e+00,0.000000000000000e+00
	0.000000000000000e+00,0.000000000000000e+00
	4.836354498955171e-04,1.964013654321750e-13
	4.836354496566754e-04,1.826002645816939e-13
	-3.171824934637643e-06,-1.720400561605207e-13
	3.009018017643289e-04,4.881435891606897e-12
	-2.579389066944836e-04,-9.844550698012993e-14
	-3.979107013520760e-05,-4.610950328466246e-12
	3.171824934637656e-06,1.720400561605214e-13
	-3.009018017643972e-04,-4.881435891606897e-12
	3.171824934637656e-06,1.720400561605214e-13
10		1.258925411794167e+00,0.000000000000000e+00
	3.171824934637656e-02,1.760473838606489e-09
	1.000000000000000e+00,0.000000000000000e+00
	0.000000000000000e+00,0.000000000000000e+00
	4.836354498955171e-04,2.009761409211162e-13
	4.836354496566754e-04,1.868535711350590e-13
	-3.171824934637643e-06,-1.760473838606484e-13
	3.009018017643289e-04,4.995139140149094e-12
	-2.579389066944836e-04,-1.007385974142930e-13
	-3.979107013520760e-05,-4.718353158874152e-12
	3.171824934637656e-06,1.760473838606489e-13
	-3.009018017643972e-04,-4.995139140149092e-12
	3.171824934637656e-06,1.760473838606489e-13
11		1.288249551693134e+00,0.000000000000000e+00
	3.171824934637656e-02,1.801480542139620e-09
	1.000000000000000e+00,0.000000000000000e+00
	0.000000000000000e+00,0.000000000000000e+00
	4.836354498955171e-04,2.056574766202075e-13
	4.836354496566754e-04,1.912059499251393e-13
	-3.171824934637643e-06,-1.801480542139616e-13
	3.009018017643289e-04,5.111490877581880e-12
	-2.579389066944836e-04,-1.030851007862382e-13
	-3.979107013520760e-05,-4.828257722581680e-12
	3.171824934637656e-06,1.801480542139620e-13
	-3.009018017643972e-04,-5.111490877581879e-12
	3.171824934637656e-06,1.801480542139620e-13
12		1.318256738556407e+00,0.000000000000000e+00
	3.171824934637656e-02,1.843442414501607e-09
	1.000000000000000e+00,0.000000000000000e+00
	0.000000000000000e+00,0.000000000000000e+00
	4.836354498955171e-04,2.104478546356014e-13
	4.836354496566754e-04,1.956597086407798e-13
	-3.171824934637643e-06,-1.843442414501602e-13
	3.009018017643289e-04,5.230552795136538e-12
	-2.579389066944836e-04,-1.054862612431128e-13
	-3.979107013520760e-05,-4.940722292443265e-12
	3.171824934637656e-06,1.843442414501607e-13
	-3.009018017643972e-04,-5.230552795136538e-12
	3.171824934637656e-06,1.843442414501607e-13
13		1.348962882591653e+00,0.000000000000000e+00
	3.171824934637656e-02,1.886381704432608e-09
	1.000000000000000e+00,0.000000000000000e+00
	0.000000000000000e+00,0.000000000000000e+00
	4.836354498955171e-04,2.153498148891297e-13
	4.836354496566754e-04,2.002172087238041e-13
	-3.171824934637643e-06,-1.886381704432604e-13
	3.009018017643289e-04,5.352388021017731e-12
	-2.579389066944836e-04,-1.079433519119742e-13
	-3.979107013520760e-05,-5.055806498662497e-12
	3.171824934637656e-06,1.886381704432608e-13
	-3.009018017643972e-04,-5.352388021017732e-12
	3.171824934637656e-06,1.886381704432608e-13
14		1.380384264602885e+00,0.000000000000000e+00
	3.171824934637656e-02,1.930321178912512e-09
	1.000000000000000e+00,0.000000000000000e+00
	0.000000000000000e+00,0.000000000000000e+00
	4.836354498955171e-04,2.203659564650040e-13
	4.836354496566754e-04,2.048808666210818e-13
	-3.171824934637643e-06,-1.930321178912515e-13
	3.009018017643289e-04,5.477061153874899e-12
	-2.579389066944836e-04,-1.104576755748186e-13
	-3.979107013520760e-05,-5.173571360408829e-12
	3.171824934637656e-06,1.930321178912512e-13
	-3.009018017643972e-04,-5.477061153874898e-12
	3.171824934637656e-06,1.930321178912512e-13
15		1.412537544622754e+00,0.000000000000000e+00
	3.171824934637656e-02,1.975284135232297e-09
	1.000000000000000e+00,0.000000000000000e+00
	0.000000000000000e+00,0.000000000000000e+00
	4.836354498955171e-04,2.254989389878844e-13
	4.836354496566754e-04,2.096531550657609e-13
	-3.171824934637643e-06,-1.975284135232290e-13
	3.009018017643289e-04,5.604638297053323e-12
	-2.579389066944836e-04,-1.130305653593328e-13
	-3.979107013520760e-05,-5.294079318170762e-12
	3.171824934637656e-06,1.975284135232297e-13
	-3.009018017643972e-04,-5.604638297053326e-12
	3.171824934637656e-06,1.975284135232297e-13
16		1.445439770745927e+00,0.000000000000000e+00
	3.171824934637656e-02,2.021294413346559e-09
	1.000000000000000e+00,0.000000000000000e+00
	0.000000000000000e+00,0.000000000000000e+00
	4.836354498955171e-04,2.307514840330474e-13
	4.836354496566754e-04,2.145366043883434e-13
	-3.171824934637643e-06,-2.021294413346560e-13
	3.009018017643289e-04,5.735187093643006e-12
	-2.579389066944836e-04,-1.156633854457371e-13
	-3.979107013520760e-05,-5.417394266862613e-12
	3.171824934637656e-06,2.021294413346559e-13
	-3.009018017643972e-04,-5.735187093643005e-12
	3.171824934637656e-06,2.021294413346559e-13
17		1.479108388168207e+00,0.000000000000000e+00
	3.171824934637656e-02,2.068376408513772e-09
	1.000000000000000e+00,0.000000000000000e+00
	0.000000000000000e+00,0.000000000000000e+00
	4.836354498955171e-04,2.361263765694017e-13
	4.836354496566754e-04,2.195338038583003e-13
	-3.171824934637643e-06,-2.068376408513770e-13
	3.009018017643289e-04,5.868776762343913e-12
	-2.579389066944836e-04,-1.183575317900905e-13
	-3.979107013520760e-05,-5.543581589702445e-12
	3.171824934637656e-06,2.068376408513772e-13
	-3.009018017643972e-04,-5.868776762343912e-12
	3.171824934637656e-06,2.068376408513772e-13
18		1.513561248436208e+00,0.000000000000000e+00
	3.171824934637656e-02,2.116555084230977e-09
	1.000000000000000e+00,0.000000000000000e+00
	0.000000000000000e+00,0.000000000000000e+00
	4.836354498955171e-04,2.416264664361152e-13
	4.836354496566754e-04,2.246474030569362e-13
	-3.171824934637643e-06,-2.116555084230979e-13
	3.009018017643289e-04,6.005478134166659e-12
	-2.579389066944836e-04,-1.211144328644462e-13
	-3.979107013520760e-05,-5.672708192879115e-12
	3.171824934637656e-06,2.116555084230977e-13
	-3.009018017643972e-04,-6.005478134166658e-12
	3.171824934637656e-06,2.116555084230977e-13
19		1.548816618912481e+00,0.000000000000000e+00
	3.171824934637656e-02,2.165855985469760e-09
	1.000000000000000e+00,0.000000000000000e+00
	0.000000000000000e+00,0.000000000000000e+00
	4.836354498955171e-04,2.472546698536375e-13
	4.836354496566754e-04,2.298801132822329e-13
	-3.171824934637643e-06,-2.165855985469755e-13
	3.009018017643289e-04,6.145363689988040e-12
	-2.579389066944836e-04,-1.239355504142456e-13
	-3.979107013520761e-05,-5.804842541026819e-12
	3.171824934637656e-06,2.165855985469760e-13
	-3.009018017643972e-04,-6.145363689988039e-12
	3.171824934637656e-06,2.165855985469760e-13
20		1.584893192461113e+00,0.000000000000000e+00
	3.171824934637656e-02,2.216305252220533e-09
	1.000000000000000e+00,0.000000000000000e+00
	0.000000000000000e+00,0.000000000000000e+00
	4.836354498955171e-04,2.530139709699188e-13
	4.836354496566754e-04,2.352347089864149e-13
	-3.171824934637643e-06,-2.216305252220520e-13
	3.009018017643289e-04,6.288507598981357e-12
	-2.579389066944836e-04,-1.268223802333557e-13
	-3.979107013520761e-05,-5.940054693525950e-12
	3.171824934637656e-06,2.216305252220533e-13
	-3.009018017643972e-04,-6.288507598981357e-12
	3.171824934637656e-06,2.216305252220533e-13
21		1.621810097358929e+00,0.000000000000000e+00
	3.171824934637656e-02,2.267929633352300e-09
	1.000000000000000e+00,0.000000000000000e+00
	0.000000000000000e+00,0.000000000000000e+00
	4.836354498955171e-04,2.589074234426440e-13
	4.836354496566754e-04,2.407140292470008e-13
	-3.171824934637643e-06,-2.267929633352296e-13
	3.009018017643289e-04,6.434985757941895e-12
	-2.579389066944836e-04,-1.297764529571581e-13
	-3.979107013520761e-05,-6.078416341649507e-12
	3.171824934637656e-06,2.267929633352300e-13
	-3.009018017643972e-04,-6.434985757941893e-12
	3.171824934637656e-06,2.267929633352300e-13
22		1.659586907437560e+00,0.000000000000000e+00
	3.171824934637656e-02,2.320756500795269e-09
	1.000000000000000e+00,0.000000000000000e+00
	0.000000000000000e+00,0.000000000000000e+00
	4.836354498955171e-04,2.649381520583235e-13
	4.836354496566754e-04,2.463209792721204e-13
	-3.171824934637643e-06,-2.320756500795263e-13
	3.009018017643289e-04,6.584875831528398e-12
	-2.579389066944836e-04,-1.327993348741128e-13
	-3.979107013520761e-05,-6.220000846574758e-12
	3.171824934637656e-06,2.320756500795269e-13
	-3.009018017643972e-04,-6.584875831528397e-12
	3.171824934637656e-06,2.320756500795269e-13
23		1.698243652461743e+00,0.000000000000000e+00
	3.171824934637656e-02,2.374813864053803e-09
	1.000000000000000e+00,0.000000000000000e+00
	0.000000000000000e+00,0.000000000000000e+00
	4.836354498955171e-04,2.711093543890953e-13
	4.836354496566754e-04,2.520585319408938e-13
	-3.171824934637643e-06,-2.374813864053794e-13
	3.009018017643289e-04,6.738257293441914e-12
	-2.579389066944836e-04,-1.358926287562248e-13
	-3.979107013520761e-05,-6.364883278280309e-12
	3.171824934637656e-06,2.374813864053803e-13
	-3.009018017643972e-04,-6.738257293441912e-12
	3.171824934637656e-06,2.374813864053803e-13
24		1.737800828749374e+00,0.000000000000000e+00
	3.171824934637656e-02,2.430130385057435e-09
	1.000000000000000e+00,0.000000000000000e+00
	0.000000000000000e+00,0.000000000000000e+00
	4.836354498955171e-04,2.774243024881206e-13
	4.836354496566754e-04,2.579297293796911e-13
	-3.171824934637643e-06,-2.430130385057429e-13
	3.009018017643289e-04,6.895211468563789e-12
	-2.579389066944836e-04,-1.390579747088549e-13
	-3.979107013520761e-05,-6.513140455349192e-12
	3.171824934637656e-06,2.430130385057436e-13
	-3.009018017643972e-04,-6.895211468563789e-12
	3.171824934637656e-06,2.430130385057436e-13
25		1.778279410038922e+00,0.000000000000000e+00
	3.171824934637656e-02,2.486735393357804e-09
	1.000000000000000e+00,0.000000000000000e+00
	0.000000000000000e+00,0.000000000000000e+00
	4.836354498955171e-04,2.838863446244700e-13
	4.836354496566754e-04,2.639376845751093e-13
	-3.171824934637650e-06,-2.486735393357800e-13
	3.009018017643289e-04,7.055821576075213e-12
	-2.579389066944836e-04,-1.422970510403256e-13
	-3.979107013520761e-05,-6.664850985699108e-12
	3.171824934637656e-06,2.486735393357805e-13
	-3.009018017643972e-04,-7.055821576075212e-12
	3.171824934637656e-06,2.486735393357805e-13
26		1.819700858609982e+00,0.000000000000000e+00
	3.171824934637656e-02,2.544658901679565e-09
	1.000000000000000e+00,0.000000000000000e+00
	0.000000000000000e+00,0.000000000000000e+00
	4.836354498955171e-04,2.904989070584193e-13
	4.836354496566754e-04,2.700855830245174e-13
	-3.171824934637650e-06,-2.544658901679562e-13
	3.009018017643289e-04,7.220172773581111e-12
	-2.579389066944836e-04,-1.456115751517819e-13
	-3.979107013520761e-05,-6.820095308261373e-12
	3.171824934637656e-06,2.544658901679565e-13
	-3.009018017643972e-04,-7.220172773581112e-12
	3.171824934637656e-06,2.544658901679565e-13
27		1.862087136662866e+00,0.000000000000000e+00
	3.171824934637656e-02,2.603931621833540e-09
	1.000000000000000e+00,0.000000000000000e+00
	0.000000000000000e+00,0.000000000000000e+00
	4.836354498955171e-04,2.972654958580985e-13
	4.836354496566754e-04,2.763766844250505e-13
	-3.171824934637650e-06,-2.603931621833531e-13
	3.009018017643289e-04,7.388352202261848e-12
	-2.579389066944836e-04,-1.490033044477809e-13
	-3.979107013520761e-05,-6.978955735630713e-12
	3.171824934637656e-06,2.603931621833540e-13
	-3.009018017643972e-04,-7.388352202261845e-12
	3.171824934637656e-06,2.603931621833540e-13
28		1.905460717963246e+00,0.000000000000000e+00
	3.171824934637656e-02,2.664584981000520e-09
	1.000000000000000e+00,0.000000000000000e+00
	0.000000000000000e+00,0.000000000000000e+00
	4.836354498955171e-04,3.041896987584557e-13
	4.836354496566754e-04,2.828143244019436e-13
	-3.171824934637650e-06,-2.664584981000518e-13
	3.009018017643289e-04,7.560449033076625e-12
	-2.579389066944836e-04,-1.524740372680899e-13
	-3.979107013520761e-05,-7.141516497708483e-12
	3.171824934637656e-06,2.664584981000520e-13
	-3.009018017643972e-04,-7.560449033076625e-12
	3.171824934637656e-06,2.664584981000520e-13
29		1.949844599758044e+00,0.000000000000000e+00
	3.171824934637656e-02,2.726651138394379e-09
	1.000000000000000e+00,0.000000000000000e+00
	0.000000000000000e+00,0.000000000000000e+00
	4.836354498955171e-04,3.112751870635214e-13
	4.836354496566754e-04,2.894019162771248e-13
	-3.171824934637650e-06,-2.726651138394375e-13
	3.009018017643289e-04,7.736554514043115e-12
	-2.579389066944836e-04,-1.560256138411909e-13
	-3.979107013520761e-05,-7.307863786362486e-12
	3.171824934637656e-06,2.726651138394379e-13
	-3.009018017643972e-04,-7.736554514043112e-12
	3.171824934637656e-06,2.726651138394379e-13
30		1.995262314968878e+00,0.000000000000000e+00
	3.171824934637656e-02,2.790163002313309e-09
	1.000000000000000e+00,0.000000000000000e+00
	0.000000000000000e+00,0.000000000000000e+00
	4.836354498955171e-04,3.185257175929823e-13
	4.836354496566754e-04,2.961429528790033e-13
	-3.171824934637650e-06,-2.790163002313291e-13
	3.009018017643289e-04,7.916762018618353e-12
	-2.579389066944836e-04,-1.596599172599937e-13
	-3.979107013520761e-05,-7.478085801127030e-12
	3.171824934637656e-06,2.790163002313309e-13
	-3.009018017643972e-04,-7.916762018618356e-12
	3.171824934637656e-06,2.790163002313309e-13
31		2.041737944669527e+00,0.000000000000000e+00
	3.171824934637656e-02,2.855154247588238e-09
	1.000000000000000e+00,0.000000000000000e+00
	0.000000000000000e+00,0.000000000000000e+00
	4.836354498955171e-04,3.259451346740973e-13
	4.836354496566754e-04,3.030410083944136e-13
	-3.171824934637650e-06,-2.855154247588227e-13
	3.009018017643289e-04,8.101167095206598e-12
	-2.579389066944836e-04,-1.633788744802765e-13
	-3.979107013520761e-05,-7.652272795967499e-12
	3.171824934637656e-06,2.855154247588238e-13
	-3.009018017643972e-04,-8.101167095206595e-12
	3.171824934637656e-06,2.855154247588238e-13
32		2.089296130854037e+00,0.000000000000000e+00
	3.171824934637656e-02,2.921659333437673e-09
	1.000000000000000e+00,0.000000000000000e+00
	0.000000000000000e+00,0.000000000000000e+00
	4.836354498955171e-04,3.335373721800103e-13
	4.836354496566754e-04,3.100997402636966e-13
	-3.171824934637643e-06,-2.921659333437664e-13
