LTspice 24.0.9 for Windows
Circuit: * GA CMOS Amp | W=1.3017048885464049e-05 L=7.914642209638561e-07 Vbias=1.3657997664250299
Start Time: Mon Sep  8 18:44:45 2025
solver = Normal
Maximum thread count: 2
tnom = 27
temp = 27
method = modified trap
AsciiRawFile = 1
Instance "m1": Length shorter than recommended for a level 3 MOSFET.
Direct Newton iteration for .op point succeeded.
Semiconductor Device Operating Points:
                        --- MOSFET Transistors ---
Name:          m1
Model:        n_1u
Id:          1.66e-04
Vgs:         1.37e+00
Vds:         1.40e-01
Vbs:         0.00e+00
Vth:         7.97e-01
Vdsat:       4.02e-01
Gm:          2.91e-04
Gds:         8.57e-04
Gmb:         6.90e-05
Cbd:         0.00e+00
Cbs:         0.00e+00
Cgsov:       2.60e-15
Cgdov:       2.60e-15
Cgbov:       5.91e-17
Cgs:         7.48e-15
Cgd:         5.61e-15
Cgb:         0.00e+00



gain_db: MAX(db(v(out)/v(g)))=(29.3017dB,110.749°) FROM 1 TO 1e+09
gain_lin: MAX(mag(v(out)/v(g)))=(-10.2004dB,0°) FROM 1 TO 1e+09

Measurement "fc" FAIL'ed

Total elapsed time: 0.448 seconds.

