Title: * GA CMOS Amp | W=4.403198925628785e-05 L=8.522805113816782e-07 Vbias=0.8485467912192227
Date: Mon Sep  8 18:43:57 2025
Plotname: AC Analysis
Flags: complex forward log
No. Variables: 11
No. Points:          901
Offset:    0.0000000000000000e+00
Command: Linear Technology Corporation LTspice
Variables:
	0	frequency	frequency
	1	V(out)	voltage
	2	V(g)	voltage
	3	V(vdd)	voltage
	4	Id(M1)	device_current
	5	Ig(M1)	device_current
	6	Ib(M1)	device_current
	7	Is(M1)	device_current
	8	I(Rload)	device_current
	9	I(Vg)	device_current
	10	I(Vdd)	device_current
Values:
0		1.000000000000000e+00,0.000000000000000e+00
	-7.033574195753692e+00,4.220999325341346e-09
	1.000000000000000e+00,0.000000000000000e+00
	0.000000000000000e+00,0.000000000000000e+00
	7.033574195753692e-04,-4.220999325341346e-13
	2.335573037614223e-22,7.161365815226238e-13
	7.033574135444087e-12,-8.569897286888663e-15
	-7.033574266089433e-04,-2.854667517016006e-13
	-7.033574195753693e-04,4.220999325341346e-13
	-2.335573037614223e-22,-7.161365815226238e-13
	-7.033574195753693e-04,4.220999325341346e-13
1		1.023292992280754e+00,0.000000000000000e+00
	-7.033574195753692e+00,4.319319030043590e-09
	1.000000000000000e+00,0.000000000000000e+00
	0.000000000000000e+00,0.000000000000000e+00
	7.033574195753692e-04,-4.319319030043590e-13
	2.445645203743810e-22,7.328175453879960e-13
	7.033574135444087e-12,-8.769515838239119e-15
	-7.033574266089433e-04,-2.921161265453979e-13
	-7.033574195753693e-04,4.319319030043590e-13
	-2.445645203743810e-22,-7.328175453879960e-13
	-7.033574195753693e-04,4.319319030043590e-13
2		1.047128548050899e+00,0.000000000000000e+00
	-7.033574195753692e+00,4.419928894868509e-09
	1.000000000000000e+00,0.000000000000000e+00
	0.000000000000000e+00,0.000000000000000e+00
	7.033574195753692e-04,-4.419928894868509e-13
	2.560904911243901e-22,7.498870588159196e-13
	7.033574135444087e-12,-8.973784102965040e-15
	-7.033574266089433e-04,-2.989203852261036e-13
	-7.033574195753693e-04,4.419928894868509e-13
	-2.560904911243901e-22,-7.498870588159196e-13
	-7.033574195753693e-04,4.419928894868509e-13
3		1.071519305237606e+00,0.000000000000000e+00
	-7.033574195753692e+00,4.522882264498164e-09
	1.000000000000000e+00,0.000000000000000e+00
	0.000000000000000e+00,0.000000000000000e+00
	7.033574195753692e-04,-4.522882264498164e-13
	2.681596641407245e-22,7.673541722883563e-13
	7.033574135444087e-12,-9.182810386804633e-15
	-7.033574266089433e-04,-3.058831354517353e-13
	-7.033574195753693e-04,4.522882264498164e-13
	-2.681596641407245e-22,-7.673541722883563e-13
	-7.033574195753693e-04,4.522882264498164e-13
4		1.096478196143185e+00,0.000000000000000e+00
	-7.033574195753692e+00,4.628233726171877e-09
	1.000000000000000e+00,0.000000000000000e+00
	0.000000000000000e+00,0.000000000000000e+00
	7.033574195753692e-04,-4.628233726171877e-13
	2.807976397574934e-22,7.852281471000732e-13
	7.033574135444087e-12,-9.396705518260255e-15
	-7.033574266089433e-04,-3.130080689646253e-13
	-7.033574195753693e-04,4.628233726171878e-13
	-2.807976397574934e-22,-7.852281471000732e-13
	-7.033574195753693e-04,4.628233726171878e-13
5		1.122018454301963e+00,0.000000000000000e+00
	-7.033574195753692e+00,4.736039138629126e-09
	1.000000000000000e+00,0.000000000000000e+00
	0.000000000000000e+00,0.000000000000000e+00
	7.033574195753692e-04,-4.736039138629126e-13
	2.940312248153838e-22,8.035184602691062e-13
	7.033574135444087e-12,-9.615582907361458e-15
	-7.033574266089433e-04,-3.202989634988322e-13
	-7.033574195753693e-04,4.736039138629127e-13
	-2.940312248153838e-22,-8.035184602691062e-13
	-7.033574195753693e-04,4.736039138629127e-13
6		1.148153621496882e+00,0.000000000000000e+00
	-7.033574195753692e+00,4.846355661726563e-09
	1.000000000000000e+00,0.000000000000000e+00
	0.000000000000000e+00,0.000000000000000e+00
	7.033574195753692e-04,-4.846355661726564e-13
	3.078884895225604e-22,8.222348095615980e-13
	7.033574135444087e-12,-9.839558605797493e-15
	-7.033574266089433e-04,-3.277596847831440e-13
	-7.033574195753693e-04,4.846355661726564e-13
	-3.078884895225604e-22,-8.222348095615980e-13
	-7.033574195753693e-04,4.846355661726564e-13
7		1.174897554939529e+00,0.000000000000000e+00
	-7.033574195753692e+00,4.959241786744948e-09
	1.000000000000000e+00,0.000000000000000e+00
	0.000000000000000e+00,0.000000000000000e+00
	7.033574195753692e-04,-4.959241786744950e-13
	3.223988269953432e-22,8.413871186336834e-13
	7.033574135444087e-12,-1.006875136844831e-14
	-7.033574266089433e-04,-3.353941885907402e-13
	-7.033574195753693e-04,4.959241786744948e-13
	-3.223988269953432e-22,-8.413871186336834e-13
	-7.033574195753693e-04,4.959241786744948e-13
8		1.202264434617413e+00,0.000000000000000e+00
	-7.033574195753692e+00,5.074757367401993e-09
	1.000000000000000e+00,0.000000000000000e+00
	0.000000000000000e+00,0.000000000000000e+00
	7.033574195753692e-04,-5.074757367401992e-13
	3.375930156049470e-22,8.609855422931439e-13
	7.033574135444087e-12,-1.030328271635065e-14
	-7.033574266089433e-04,-3.432065228365941e-13
	-7.033574195753693e-04,5.074757367401993e-13
	-3.375930156049470e-22,-8.609855422931439e-13
	-7.033574195753693e-04,5.074757367401993e-13
9		1.230268770812381e+00,0.000000000000000e+00
	-7.033574195753692e+00,5.192963651587587e-09
	1.000000000000000e+00,0.000000000000000e+00
	0.000000000000000e+00,0.000000000000000e+00
	7.033574195753692e-04,-5.192963651587588e-13
	3.535032842625327e-22,8.810404718836190e-13
	7.033574135444087e-12,-1.054327700112887e-14
	-7.033574266089433e-04,-3.512008297237313e-13
	-7.033574195753693e-04,5.192963651587587e-13
	-3.535032842625327e-22,-8.810404718836190e-13
	-7.033574195753693e-04,5.192963651587587e-13
10		1.258925411794167e+00,0.000000000000000e+00
	-7.033574195753692e+00,5.313923313838254e-09
	1.000000000000000e+00,0.000000000000000e+00
	0.000000000000000e+00,0.000000000000000e+00
	7.033574195753692e-04,-5.313923313838254e-13
	3.701633807810503e-22,9.015625407942362e-13
	7.033574135444087e-12,-1.078886147093011e-14
	-7.033574266089433e-04,-3.593813479394807e-13
	-7.033574195753693e-04,5.313923313838254e-13
	-3.701633807810503e-22,-9.015625407942362e-13
	-7.033574195753693e-04,5.313923313838254e-13
11		1.288249551693134e+00,0.000000000000000e+00
	-7.033574195753692e+00,5.437700488568008e-09
	1.000000000000000e+00,0.000000000000000e+00
	0.000000000000000e+00,0.000000000000000e+00
	7.033574195753692e-04,-5.437700488568009e-13
	3.876086434588735e-22,9.225626300975734e-13
	7.033574135444087e-12,-1.104016633789046e-14
	-7.033574266089433e-04,-3.677524149028821e-13
	-7.033574195753693e-04,5.437700488568008e-13
	-3.876086434588735e-22,-9.225626300975734e-13
	-7.033574195753693e-04,5.437700488568008e-13
12		1.318256738556407e+00,0.000000000000000e+00
	-7.033574195753692e+00,5.564360804073276e-09
	1.000000000000000e+00,0.000000000000000e+00
	0.000000000000000e+00,0.000000000000000e+00
	7.033574195753692e-04,-5.564360804073276e-13
	4.058760760370691e-22,9.440518743189485e-13
	7.033574135444087e-12,-1.129732484717730e-14
	-7.033574266089433e-04,-3.763184690644436e-13
	-7.033574195753693e-04,5.564360804073276e-13
	-4.058760760370691e-22,-9.440518743189485e-13
	-7.033574195753693e-04,5.564360804073276e-13
13		1.348962882591653e+00,0.000000000000000e+00
	-7.033574195753692e+00,5.693971417329886e-09
	1.000000000000000e+00,0.000000000000000e+00
	0.000000000000000e+00,0.000000000000000e+00
	7.033574195753692e-04,-5.693971417329885e-13
	4.250044261892927e-22,9.660416673400912e-13
	7.033574135444087e-12,-1.156047334763582e-14
	-7.033574266089433e-04,-3.850840522594669e-13
	-7.033574195753693e-04,5.693971417329886e-13
	-4.250044261892927e-22,-9.660416673400912e-13
	-7.033574195753693e-04,5.693971417329886e-13
14		1.380384264602885e+00,0.000000000000000e+00
	-7.033574195753692e+00,5.826601049600585e-09
	1.000000000000000e+00,0.000000000000000e+00
	0.000000000000000e+00,0.000000000000000e+00
	7.033574195753692e-04,-5.826601049600585e-13
	4.450342677107997e-22,9.885436684403308e-13
	7.033574135444087e-12,-1.182975136408406e-14
	-7.033574266089433e-04,-3.940538121161882e-13
	-7.033574195753693e-04,5.826601049600585e-13
	-4.450342677107997e-22,-9.885436684403308e-13
	-7.033574195753693e-04,5.826601049600585e-13
15		1.412537544622754e+00,0.000000000000000e+00
	-7.033574195753692e+00,5.962320022871966e-09
	1.000000000000000e+00,0.000000000000000e+00
	0.000000000000000e+00,0.000000000000000e+00
	7.033574195753692e-04,-5.962320022871965e-13
	4.660080865809052e-22,1.011569808478500e-12
	7.033574135444087e-12,-1.210530167129091e-14
	-7.033574266089433e-04,-4.032325045200123e-13
	-7.033574195753693e-04,5.962320022871966e-13
	-4.660080865809052e-22,-1.011569808478500e-12
	-7.033574195753693e-04,5.962320022871966e-13
16		1.445439770745927e+00,0.000000000000000e+00
	-7.033574195753692e+00,6.101200297140107e-09
	1.000000000000000e+00,0.000000000000000e+00
	0.000000000000000e+00,0.000000000000000e+00
	7.033574195753692e-04,-6.101200297140108e-13
	4.879703710814408e-22,1.035132296218833e-12
	7.033574135444087e-12,-1.238727036967664e-14
	-7.033574266089433e-04,-4.126249961351460e-13
	-7.033574195753693e-04,6.101200297140108e-13
	-4.879703710814408e-22,-1.035132296218833e-12
	-7.033574195753693e-04,6.101200297140108e-13
17		1.479108388168207e+00,0.000000000000000e+00
	-7.033574195753692e+00,6.243315508564725e-09
	1.000000000000000e+00,0.000000000000000e+00
	0.000000000000000e+00,0.000000000000000e+00
	7.033574195753692e-04,-6.243315508564725e-13
	5.109677061623676e-22,1.059243624804218e-12
	7.033574135444087e-12,-1.267580696277716e-14
	-7.033574266089433e-04,-4.222362669849681e-13
	-7.033574195753693e-04,6.243315508564725e-13
	-5.109677061623676e-22,-1.059243624804218e-12
	-7.033574195753693e-04,6.243315508564725e-13
18		1.513561248436208e+00,0.000000000000000e+00
	-7.033574195753692e+00,6.388741008512036e-09
	1.000000000000000e+00,0.000000000000000e+00
	0.000000000000000e+00,0.000000000000000e+00
	7.033574195753692e-04,-6.388741008512037e-13
	5.350488722546987e-22,1.083916578380220e-12
	7.033574135444087e-12,-1.297106443651322e-14
	-7.033574266089433e-04,-4.320714130925035e-13
	-7.033574195753693e-04,6.388741008512036e-13
	-5.350488722546987e-22,-1.083916578380220e-12
	-7.033574195753693e-04,6.388741008512036e-13
19		1.548816618912481e+00,0.000000000000000e+00
	-7.033574195753692e+00,6.537553903507044e-09
	1.000000000000000e+00,0.000000000000000e+00
	0.000000000000000e+00,0.000000000000000e+00
	7.033574195753692e-04,-6.537553903507044e-13
	5.602649487403339e-22,1.109164238873412e-12
	7.033574135444087e-12,-1.327319934030623e-14
	-7.033574266089433e-04,-4.421356491824017e-13
	-7.033574195753693e-04,6.537553903507045e-13
	-5.602649487403339e-22,-1.109164238873412e-12
	-7.033574195753693e-04,6.537553903507045e-13
20		1.584893192461113e+00,0.000000000000000e+00
	-7.033574195753692e+00,6.689833096116449e-09
	1.000000000000000e+00,0.000000000000000e+00
	0.000000000000000e+00,0.000000000000000e+00
	7.033574195753692e-04,-6.689833096116450e-13
	5.866694222982775e-22,1.134999992927579e-12
	7.033574135444087e-12,-1.358237187008082e-14
	-7.033574266089433e-04,-4.524343114458536e-13
	-7.033574195753693e-04,6.689833096116449e-13
	-5.866694222982775e-22,-1.134999992927579e-12
	-7.033574195753693e-04,6.689833096116449e-13
21		1.621810097358929e+00,0.000000000000000e+00
	-7.033574195753692e+00,6.845659326783821e-09
	1.000000000000000e+00,0.000000000000000e+00
	0.000000000000000e+00,0.000000000000000e+00
	7.033574195753692e-04,-6.845659326783821e-13
	6.143183003570551e-22,1.161437539001497e-12
	7.033574135444087e-12,-1.389874595320511e-14
	-7.033574266089433e-04,-4.629728603699101e-13
	-7.033574195753693e-04,6.845659326783821e-13
	-6.143183003570551e-22,-1.161437539001497e-12
	-7.033574195753693e-04,6.845659326783821e-13
22		1.659586907437560e+00,0.000000000000000e+00
	-7.033574195753692e+00,7.005115216639271e-09
	1.000000000000000e+00,0.000000000000000e+00
	0.000000000000000e+00,0.000000000000000e+00
	7.033574195753692e-04,-7.005115216639272e-13
	6.432702298939798e-22,1.188490894632037e-12
	7.033574135444087e-12,-1.422248933540507e-14
	-7.033574266089433e-04,-4.737568836327051e-13
	-7.033574195753693e-04,7.005115216639272e-13
	-6.432702298939798e-22,-1.188490894632037e-12
	-7.033574195753693e-04,7.005115216639272e-13
23		1.698243652461743e+00,0.000000000000000e+00
	-7.033574195753692e+00,7.168285311306242e-09
	1.000000000000000e+00,0.000000000000000e+00
	0.000000000000000e+00,0.000000000000000e+00
	7.033574195753692e-04,-7.168285311306243e-13
	6.735866218332514e-22,1.216174403866448e-12
	7.033574135444087e-12,-1.455377366970781e-14
	-7.033574266089433e-04,-4.847920990661158e-13
	-7.033574195753693e-04,7.168285311306242e-13
	-6.735866218332514e-22,-1.216174403866448e-12
	-7.033574195753693e-04,7.168285311306242e-13
24		1.737800828749374e+00,0.000000000000000e+00
	-7.033574195753692e+00,7.335256125728740e-09
	1.000000000000000e+00,0.000000000000000e+00
	0.000000000000000e+00,0.000000000000000e+00
	7.033574195753692e-04,-7.335256125728740e-13
	7.053317813067625e-22,1.244502744867760e-12
	7.033574135444087e-12,-1.489277460745225e-14
	-7.033574266089433e-04,-4.960843576874334e-13
	-7.033574195753693e-04,7.335256125728740e-13
	-7.053317813067625e-22,-1.244502744867760e-12
	-7.033574195753693e-04,7.335256125728740e-13
25		1.778279410038922e+00,0.000000000000000e+00
	-7.033574195753692e+00,7.506116190042694e-09
	1.000000000000000e+00,0.000000000000000e+00
	0.000000000000000e+00,0.000000000000000e+00
	7.033574195753692e-04,-7.506116190042695e-13
	7.385730440539050e-22,1.273490937697342e-12
	7.033574135444087e-12,-1.523967189142260e-14
	-7.033574266089433e-04,-5.076396468016497e-13
	-7.033574195753693e-04,7.506116190042695e-13
	-7.385730440539050e-22,-1.273490937697342e-12
	-7.033574195753693e-04,7.506116190042695e-13
26		1.819700858609982e+00,0.000000000000000e+00
	-7.033574195753692e+00,7.680956096515801e-09
	1.000000000000000e+00,0.000000000000000e+00
	0.000000000000000e+00,0.000000000000000e+00
	7.033574195753692e-04,-7.680956096515802e-13
	7.733809192496983e-22,1.303154352278736e-12
	7.033574135444087e-12,-1.559464945115071e-14
	-7.033574266089433e-04,-5.194640931760051e-13
	-7.033574195753693e-04,7.680956096515802e-13
	-7.733809192496983e-22,-1.303154352278736e-12
	-7.033574195753693e-04,7.680956096515802e-13
27		1.862087136662866e+00,0.000000000000000e+00
	-7.033574195753692e+00,7.859868547580757e-09
	1.000000000000000e+00,0.000000000000000e+00
	0.000000000000000e+00,0.000000000000000e+00
	7.033574195753692e-04,-7.859868547580756e-13
	8.098292390642067e-22,1.333508716546996e-12
	7.033574135444087e-12,-1.595789550043743e-14
	-7.033574266089433e-04,-5.315639662884827e-13
	-7.033574195753693e-04,7.859868547580757e-13
	-8.098292390642067e-22,-1.333508716546996e-12
	-7.033574195753693e-04,7.859868547580757e-13
28		1.905460717963246e+00,0.000000000000000e+00
	-7.033574195753692e+00,8.042948404987295e-09
	1.000000000000000e+00,0.000000000000000e+00
	0.000000000000000e+00,0.000000000000000e+00
	7.033574195753692e-04,-8.042948404987296e-13
	8.479953152704672e-22,1.364570124787843e-12
	7.033574135444087e-12,-1.632960263714627e-14
	-7.033574266089433e-04,-5.439456816519674e-13
	-7.033574195753693e-04,8.042948404987295e-13
	-8.479953152704672e-22,-1.364570124787843e-12
	-7.033574195753693e-04,8.042948404987295e-13
29		1.949844599758044e+00,0.000000000000000e+00
	-7.033574195753692e+00,8.230292740099169e-09
	1.000000000000000e+00,0.000000000000000e+00
	0.000000000000000e+00,0.000000000000000e+00
	7.033574195753692e-04,-8.230292740099171e-13
	8.879601032331293e-22,1.396355046171074e-12
	7.033574135444087e-12,-1.670996794532080e-14
	-7.033574266089433e-04,-5.566158042158363e-13
	-7.033574195753693e-04,8.230292740099170e-13
	-8.879601032331293e-22,-1.396355046171074e-12
	-7.033574195753693e-04,8.230292740099170e-13
30		1.995262314968878e+00,0.000000000000000e+00
	-7.033574195753692e+00,8.422000885362645e-09
	1.000000000000000e+00,0.000000000000000e+00
	0.000000000000000e+00,0.000000000000000e+00
	7.033574195753692e-04,-8.422000885362645e-13
	9.298083736256335e-22,1.428880333482729e-12
	7.033574135444087e-12,-1.709919309968300e-14
	-7.033574266089433e-04,-5.695810518467815e-13
	-7.033574195753693e-04,8.422000885362645e-13
	-9.298083736256335e-22,-1.428880333482729e-12
	-7.033574195753693e-04,8.422000885362645e-13
31		2.041737944669527e+00,0.000000000000000e+00
	-7.033574195753692e+00,8.618174486973900e-09
	1.000000000000000e+00,0.000000000000000e+00
	0.000000000000000e+00,0.000000000000000e+00
	7.033574195753692e-04,-8.618174486973901e-13
	9.736288922401775e-22,1.462163232060663e-12
	7.033574135444087e-12,-1.749748447256090e-14
	-7.033574266089433e-04,-5.828482988907122e-13
	-7.033574195753693e-04,8.618174486973901e-13
	-9.736288922401775e-22,-1.462163232060663e-12
	-7.033574195753693e-04,8.618174486973901e-13
32		2.089296130854037e+00,0.000000000000000e+00
	-7.033574195753692e+00,8.818917558773177e-09
	1.000000000000000e+00,0.000000000000000e+00
	0.000000000000000e+00,0.000000000000000e+00
	7.033574195753692e-04,-8.818917558773177e-13
	1.019514608271863e-21,1.496221388938255e-12
	7.033574135444087e-12,-1.790505324331312e-14
	-7.033574266089433e-04,-5.964245798176243e-13
	-7.033574195753693e-04,8.818917558773178e-13
	-1.019514608271863e-21,-1.496221388938255e-12
	-7.033574195753693e-04,8.818917558773178e-13
33		2.137962089502230e+00,0.000000000000000e+00
	-7.033574195753692e+00,9.024336537394284e-09
	1.000000000000000e+00,0.000000000000000e+00
	0.000000000000000e+00,0.000000000000000e+00
	7.033574195753692e-04,-9.024336537394287e-13
	1.067562851476397e-21,1.531072862201093e-12
	7.033574135444087e-12,-1.832211551029581e-14
	-7.033574266089433e-04,-6.103170929513682e-13
	-7.033574195753693e-04,9.024336537394285e-13
	-1.067562851476397e-21,-1.531072862201093e-12
	-7.033574195753693e-04,9.024336537394285e-13
34		2.187761623949550e+00,0.000000000000000e+00
	-7.033574195753692e+00,9.234540338698739e-09
	1.000000000000000e+00,0.000000000000000e+00
	0.000000000000000e+00,0.000000000000000e+00
	7.033574195753692e-04,-9.234540338698738e-13
	1.117875538619558e-21,1.566736130561615e-12
	7.033574135444087e-12,-1.874889240544423e-14
	-7.033574266089433e-04,-6.245332042862968e-13
	-7.033574195753693e-04,9.234540338698738e-13
	-1.117875538619558e-21,-1.566736130561615e-12
	-7.033574195753693e-04,9.234540338698738e-13
35		2.238721138568337e+00,0.000000000000000e+00
	-7.033574195753692e+00,9.449640415524362e-09
	1.000000000000000e+00,0.000000000000000e+00
	0.000000000000000e+00,0.000000000000000e+00
	7.033574195753692e-04,-9.449640415524361e-13
	1.170559389656315e-21,1.603230103156765e-12
	7.033574135444087e-12,-1.918561021151732e-14
	-7.033574266089433e-04,-6.390804513928120e-13
	-7.033574195753693e-04,9.449640415524361e-13
	-1.170559389656315e-21,-1.603230103156765e-12
	-7.033574195753693e-04,9.449640415524361e-13
36		2.290867652767770e+00,0.000000000000000e+00
	-7.033574195753692e+00,9.669750816779071e-09
	1.000000000000000e+00,0.000000000000000e+00
	0.000000000000000e+00,0.000000000000000e+00
	7.033574195753692e-04,-9.669750816779070e-13
	1.225726154098164e-21,1.640574129573868e-12
	7.033574135444087e-12,-1.963250048207567e-14
	-7.033574266089433e-04,-6.539665474138857e-13
	-7.033574195753693e-04,9.669750816779072e-13
	-1.225726154098164e-21,-1.640574129573868e-12
	-7.033574195753693e-04,9.669750816779072e-13
37		2.344228815319919e+00,0.000000000000000e+00
	-7.033574195753692e+00,9.894988247911123e-09
	1.000000000000000e+00,0.000000000000000e+00
	0.000000000000000e+00,0.000000000000000e+00
	7.033574195753692e-04,-9.894988247911124e-13
	1.283492848048824e-21,1.678788010110038e-12
	7.033574135444087e-12,-2.008980016425660e-14
	-7.033574266089433e-04,-6.691993851546687e-13
	-7.033574195753693e-04,9.894988247911124e-13
	-1.283492848048824e-21,-1.678788010110038e-12
	-7.033574195753693e-04,9.894988247911124e-13
38		2.398832919019488e+00,0.000000000000000e+00
	-7.033574195753692e+00,1.012547213278787e-08
	1.000000000000000e+00,0.000000000000000e+00
