LTspice 24.0.9 for Windows
Circuit: * GA CMOS Amp | W=5e-05 L=6.924844846856651e-07 Vbias=1.2297938829553403
Start Time: Mon Sep  8 18:45:07 2025
solver = Normal
Maximum thread count: 2
tnom = 27
temp = 27
method = modified trap
AsciiRawFile = 1
Instance "m1": Length shorter than recommended for a level 3 MOSFET.
Direct Newton iteration for .op point succeeded.
Semiconductor Device Operating Points:
                        --- MOSFET Transistors ---
Name:          m1
Model:        n_1u
Id:          1.77e-04
Vgs:         1.23e+00
Vds:         3.19e-02
Vbs:         0.00e+00
Vth:         7.71e-01
Vdsat:       3.36e-01
Gm:          3.40e-04
Gds:         5.12e-03
Gmb:         7.00e-05
Cbd:         0.00e+00
Cbs:         0.00e+00
Cgsov:       1.00e-14
Cgdov:       1.00e-14
Cgbov:       4.92e-17
Cgs:         2.19e-14
Cgd:         2.05e-14
Cgb:         0.00e+00



gain_db: MAX(db(v(out)/v(g)))=(31.167dB,131.025°) FROM 1 TO 1e+09
gain_lin: MAX(mag(v(out)/v(g)))=(-22.5009dB,0°) FROM 1 TO 1e+09

Measurement "fc" FAIL'ed

Total elapsed time: 0.506 seconds.

