LTspice 24.0.9 for Windows
Circuit: * GA CMOS Amp | W=1.5164262517833681e-05 L=1e-06 Vbias=1.3859071327171781
Start Time: Mon Sep  8 18:45:55 2025
solver = Normal
Maximum thread count: 2
tnom = 27
temp = 27
method = modified trap
AsciiRawFile = 1
Direct Newton iteration for .op point succeeded.
Semiconductor Device Operating Points:
                        --- MOSFET Transistors ---
Name:          m1
Model:        n_1u
Id:          1.64e-04
Vgs:         1.39e+00
Vds:         1.61e-01
Vbs:         0.00e+00
Vth:         8.15e-01
Vdsat:       4.37e-01
Gm:          2.92e-04
Gds:         7.33e-04
Gmb:         7.51e-05
Cbd:         0.00e+00
Cbs:         0.00e+00
Cgsov:       3.03e-15
Cgdov:       3.03e-15
Cgbov:       8.00e-17
Cgs:         1.19e-14
Cgd:         8.72e-15
Cgb:         0.00e+00



gain_db: MAX(db(v(out)/v(g)))=(29.177dB,108.438°) FROM 1 TO 1e+09
gain_lin: MAX(mag(v(out)/v(g)))=(-8.8397dB,0°) FROM 1 TO 1e+09

Measurement "fc" FAIL'ed

Total elapsed time: 0.559 seconds.

