Title: * GA CMOS Amp | W=1e-06 L=1e-06 Vbias=1.0736854465695584
Date: Sat Sep  6 22:05:45 2025
Plotname: AC Analysis
Flags: complex forward log
No. Variables: 13
No. Points:          901
Offset:    0.0000000000000000e+00
Command: Linear Technology Corporation LTspice
Variables:
	0	frequency	frequency
	1	V(out)	voltage
	2	V(g)	voltage
	3	V(vdd)	voltage
	4	V(m1#dbody)	voltage
	5	V(m1#sbody)	voltage
	6	Id(M1)	device_current
	7	Ig(M1)	device_current
	8	Ib(M1)	device_current
	9	Is(M1)	device_current
	10	I(Rload)	device_current
	11	I(Vg)	device_current
	12	I(Vdd)	device_current
Values:
0		1.000000000000000e+00,0.000000000000000e+00
	-3.007165169472273e-01,7.062503315188942e-10
	1.000000000000000e+00,0.000000000000000e+00
	0.000000000000000e+00,0.000000000000000e+00
	9.921983493977771e-07,6.476515106437443e-14
	9.922006047716194e-07,7.002384922505030e-14
	3.007165169472274e-05,-7.062503315188943e-14
	9.441896507284906e-07,2.135836565188121e-13
	-5.291735059198101e-07,-3.699548803237605e-14
	-3.048666783953142e-05,-1.059631353345466e-13
	-3.007165169472274e-05,7.062503315188943e-14
	-9.441896509088110e-07,-2.135836565188121e-13
	-3.007165169472274e-05,7.062503315188943e-14
1		1.023292992280754e+00,0.000000000000000e+00
	-3.007165169472273e-01,7.227010150392438e-10
	1.000000000000000e+00,0.000000000000000e+00
	0.000000000000000e+00,0.000000000000000e+00
	9.921983493977771e-07,6.627372522817878e-14
	9.922006047716194e-07,7.165491420451811e-14
	3.007165169472274e-05,-7.227010150392438e-14
	9.441896507284906e-07,2.185586589814000e-13
	-5.291735059198101e-07,-3.785722364953693e-14
	-3.048666783953142e-05,-1.084313338279387e-13
	-3.007165169472274e-05,7.227010150392439e-14
	-9.441896509088110e-07,-2.185586589814000e-13
	-3.007165169472274e-05,7.227010150392439e-14
2		1.047128548050899e+00,0.000000000000000e+00
	-3.007165169472273e-01,7.395348842038460e-10
	1.000000000000000e+00,0.000000000000000e+00
	0.000000000000000e+00,0.000000000000000e+00
	9.921983493977771e-07,6.781743859833556e-14
	9.922006047716194e-07,7.332397156796204e-14
	3.007165169472274e-05,-7.395348842038459e-14
	9.441896507284906e-07,2.236495441379457e-13
	-5.291735059198101e-07,-3.873903166777636e-14
	-3.048666783953142e-05,-1.109570240497848e-13
	-3.007165169472274e-05,7.395348842038460e-14
	-9.441896509088110e-07,-2.236495441379457e-13
	-3.007165169472274e-05,7.395348842038460e-14
3		1.071519305237606e+00,0.000000000000000e+00
	-3.007165169472273e-01,7.567608645529546e-10
	1.000000000000000e+00,0.000000000000000e+00
	0.000000000000000e+00,0.000000000000000e+00
	9.921983493977771e-07,6.939710967210708e-14
	9.922006047716194e-07,7.503190627168879e-14
	3.007165169472274e-05,-7.567608645529545e-14
	9.441896507284906e-07,2.288590112431450e-13
	-5.291735059198101e-07,-3.964137963337776e-14
	-3.048666783953142e-05,-1.135415451544718e-13
	-3.007165169472274e-05,7.567608645529546e-14
	-9.441896509088110e-07,-2.288590112431450e-13
	-3.007165169472274e-05,7.567608645529546e-14
4		1.096478196143185e+00,0.000000000000000e+00
	-3.007165169472273e-01,7.743880895293632e-10
	1.000000000000000e+00,0.000000000000000e+00
	0.000000000000000e+00,0.000000000000000e+00
	9.921983493977771e-07,7.101357601200614e-14
	9.922006047716194e-07,7.677962388528552e-14
	3.007165169472274e-05,-7.743880895293631e-14
	9.441896507284906e-07,2.341898224254126e-13
	-5.291735059198101e-07,-4.056474598317647e-14
	-3.048666783953142e-05,-1.161862674892998e-13
	-3.007165169472274e-05,7.743880895293632e-14
	-9.441896509088110e-07,-2.341898224254125e-13
	-3.007165169472274e-05,7.743880895293632e-14
5		1.122018454301963e+00,0.000000000000000e+00
	-3.007165169472273e-01,7.924259053210787e-10
	1.000000000000000e+00,0.000000000000000e+00
	0.000000000000000e+00,0.000000000000000e+00
	9.921983493977771e-07,7.266769468988256e-14
	9.922006047716194e-07,7.856805107176470e-14
	3.007165169472274e-05,-7.924259053210786e-14
	9.441896507284906e-07,2.396448041513990e-13
	-5.291735059198101e-07,-4.150962029823336e-14
	-3.048666783953142e-05,-1.188925933210577e-13
	-3.007165169472274e-05,7.924259053210787e-14
	-9.441896509088110e-07,-2.396448041513989e-13
	-3.007165169472274e-05,7.924259053210787e-14
6		1.148153621496882e+00,0.000000000000000e+00
	-3.007165169472273e-01,8.108838758167922e-10
	1.000000000000000e+00,0.000000000000000e+00
	0.000000000000000e+00,0.000000000000000e+00
	9.921983493977771e-07,7.436034274135416e-14
	9.922006047716194e-07,8.039813607889318e-14
	3.007165169472274e-05,-8.108838758167920e-14
	9.441896507284906e-07,2.452268487246203e-13
	-5.291735059198101e-07,-4.247650356341713e-14
	-3.048666783953142e-05,-1.216619575795240e-13
	-3.007165169472274e-05,8.108838758167923e-14
	-9.441896509088110e-07,-2.452268487246203e-13
	-3.007165169472274e-05,8.108838758167923e-14
7		1.174897554939529e+00,0.000000000000000e+00
	-3.007165169472273e-01,8.297717876767805e-10
	1.000000000000000e+00,0.000000000000000e+00
	0.000000000000000e+00,0.000000000000000e+00
	9.921983493977771e-07,7.609241763082274e-14
	9.922006047716194e-07,8.227084924196585e-14
	3.007165169472274e-05,-8.297717876767805e-14
	9.441896507284906e-07,2.509389158189965e-13
	-5.291735059198101e-07,-4.346590843303322e-14
	-3.048666783953142e-05,-1.244958286182852e-13
	-3.007165169472274e-05,8.297717876767805e-14
	-9.441896509088110e-07,-2.509389158189965e-13
	-3.007165169472274e-05,8.297717876767805e-14
8		1.202264434617413e+00,0.000000000000000e+00
	-3.007165169472273e-01,8.490996555219234e-10
	1.000000000000000e+00,0.000000000000000e+00
	0.000000000000000e+00,0.000000000000000e+00
	9.921983493977771e-07,7.786483772732144e-14
	9.922006047716194e-07,8.418718349829005e-14
	3.007165169472274e-05,-8.490996555219235e-14
	9.441896507284906e-07,2.567840340481093e-13
	-5.291735059198101e-07,-4.447835950263985e-14
	-3.048666783953142e-05,-1.273957089932771e-13
	-3.007165169472274e-05,8.490996555219234e-14
	-9.441896509088110e-07,-2.567840340481093e-13
	-3.007165169472274e-05,8.490996555219234e-14
9		1.230268770812381e+00,0.000000000000000e+00
	-3.007165169472273e-01,8.688777272435867e-10
	1.000000000000000e+00,0.000000000000000e+00
	0.000000000000000e+00,0.000000000000000e+00
	9.921983493977771e-07,7.967854279144611e-14
	9.922006047716194e-07,8.614815491365415e-14
	3.007165169472274e-05,-8.688777272435867e-14
	9.441896507284906e-07,2.627653025710128e-13
	-5.291735059198101e-07,-4.551439358719544e-14
	-3.048666783953142e-05,-1.303631362594586e-13
	-3.007165169472274e-05,8.688777272435867e-14
	-9.441896509088110e-07,-2.627653025710127e-13
	-3.007165169472274e-05,8.688777272435867e-14
10		1.258925411794167e+00,0.000000000000000e+00
	-3.007165169472273e-01,8.891164894371907e-10
	1.000000000000000e+00,0.000000000000000e+00
	0.000000000000000e+00,0.000000000000000e+00
	9.921983493977771e-07,8.153449447362901e-14
	9.922006047716194e-07,8.815480322105914e-14
	3.007165169472274e-05,-8.891164894371906e-14
	9.441896507284906e-07,2.688858927354494e-13
	-5.291735059198101e-07,-4.657456000568520e-14
	-3.048666783953142e-05,-1.333996837860451e-13
	-3.007165169472274e-05,8.891164894371907e-14
	-9.441896509088110e-07,-2.688858927354494e-13
	-3.007165169472274e-05,8.891164894371907e-14
11		1.288249551693134e+00,0.000000000000000e+00
	-3.007165169472273e-01,9.098266729623425e-10
	1.000000000000000e+00,0.000000000000000e+00
	0.000000000000000e+00,0.000000000000000e+00
	9.921983493977771e-07,8.343367682401843e-14
	9.922006047716194e-07,9.020819237199866e-14
	3.007165169472274e-05,-9.098266729623423e-14
	9.441896507284906e-07,2.751490497593399e-13
	-5.291735059198101e-07,-4.765942087237714e-14
	-3.048666783953142e-05,-1.365069615907285e-13
	-3.007165169472274e-05,9.098266729623426e-14
	-9.441896509088110e-07,-2.751490497593400e-13
	-3.007165169472274e-05,9.098266729623426e-14
12		1.318256738556407e+00,0.000000000000000e+00
	-3.007165169472273e-01,9.310192586324784e-10
	1.000000000000000e+00,0.000000000000000e+00
	0.000000000000000e+00,0.000000000000000e+00
	9.921983493977771e-07,8.537709681423526e-14
	9.922006047716194e-07,9.230941110058042e-14
	3.007165169472274e-05,-9.310192586324785e-14
	9.441896507284906e-07,2.815580944514411e-13
	-5.291735059198101e-07,-4.876955139486264e-14
	-3.048666783953142e-05,-1.396866171933306e-13
	-3.007165169472274e-05,9.310192586324784e-14
	-9.441896509088110e-07,-2.815580944514410e-13
	-3.007165169472274e-05,9.310192586324784e-14
13		1.348962882591653e+00,0.000000000000000e+00
	-3.007165169472273e-01,9.527054830370381e-10
	1.000000000000000e+00,0.000000000000000e+00
	0.000000000000000e+00,0.000000000000000e+00
	9.921983493977771e-07,8.736578487128243e-14
	9.922006047716194e-07,9.445957350078719e-14
	3.007165169472274e-05,-9.527054830370382e-14
	9.441896507284906e-07,2.881164249720823e-13
	-5.291735059198101e-07,-4.990554017903902e-14
	-3.048666783953142e-05,-1.429403364893395e-13
	-3.007165169472274e-05,9.527054830370382e-14
	-9.441896509088110e-07,-2.881164249720823e-13
	-3.007165169472274e-05,9.527054830370382e-14
14		1.380384264602885e+00,0.000000000000000e+00
	-3.007165169472273e-01,9.748968444992521e-10
	1.000000000000000e+00,0.000000000000000e+00
	0.000000000000000e+00,0.000000000000000e+00
	9.921983493977771e-07,8.940079542389123e-14
	9.922006047716194e-07,9.665981961718437e-14
	3.007165169472274e-05,-9.748968444992522e-14
	9.441896507284906e-07,2.948275186349155e-13
	-5.291735059198101e-07,-5.106798954119624e-14
	-3.048666783953142e-05,-1.462698446437941e-13
	-3.007165169472274e-05,9.748968444992522e-14
	-9.441896509088110e-07,-2.948275186349155e-13
	-3.007165169472274e-05,9.748968444992522e-14
15		1.412537544622754e+00,0.000000000000000e+00
	-3.007165169472273e-01,9.976051091727046e-10
	1.000000000000000e+00,0.000000000000000e+00
	0.000000000000000e+00,0.000000000000000e+00
	9.921983493977771e-07,9.148320746159320e-14
	9.922006047716194e-07,9.891131604938651e-14
	3.007165169472274e-05,-9.976051091727046e-14
	9.441896507284906e-07,3.016949337506325e-13
	-5.291735059198101e-07,-5.225751582737295e-14
	-3.048666783953142e-05,-1.496769070059891e-13
	-3.007165169472274e-05,9.976051091727046e-14
	-9.441896509088110e-07,-3.016949337506324e-13
	-3.007165169472274e-05,9.976051091727046e-14
16		1.445439770745927e+00,0.000000000000000e+00
	-3.007165169472273e-01,1.020842317279905e-09
	1.000000000000000e+00,0.000000000000000e+00
	0.000000000000000e+00,0.000000000000000e+00
	9.921983493977771e-07,9.361412510681472e-14
	9.922006047716194e-07,1.012152565706041e-13
	3.007165169472274e-05,-1.020842317279905e-13
	9.441896507284906e-07,3.087223115136286e-13
	-5.291735059198101e-07,-5.347474974015133e-14
	-3.048666783953142e-05,-1.531633300454867e-13
	-3.007165169472274e-05,1.020842317279905e-13
	-9.441896509088110e-07,-3.087223115136286e-13
	-3.007165169472274e-05,1.020842317279905e-13
17		1.479108388168207e+00,0.000000000000000e+00
	-3.007165169472273e-01,1.044620789496173e-09
	1.000000000000000e+00,0.000000000000000e+00
	0.000000000000000e+00,0.000000000000000e+00
	9.921983493977771e-07,9.579467820029727e-14
	9.922006047716194e-07,1.035728627605977e-13
	3.007165169472274e-05,-1.044620789496173e-13
	9.441896507284906e-07,3.159133779326120e-13
	-5.291735059198101e-07,-5.472033667306391e-14
	-3.048666783953142e-05,-1.567309623099308e-13
	-3.007165169472274e-05,1.044620789496173e-13
	-9.441896509088110e-07,-3.159133779326120e-13
	-3.007165169472274e-05,1.044620789496173e-13
18		1.513561248436208e+00,0.000000000000000e+00
	-3.007165169472273e-01,1.068953133482223e-09
	1.000000000000000e+00,0.000000000000000e+00
	0.000000000000000e+00,0.000000000000000e+00
	9.921983493977771e-07,9.802602290015414e-14
	9.922006047716194e-07,1.059853846533759e-13
	3.007165169472274e-05,-1.068953133482223e-13
	9.441896507284906e-07,3.232719458061833e-13
	-5.291735059198101e-07,-5.599493705278988e-14
	-3.048666783953142e-05,-1.603816954051712e-13
	-3.007165169472274e-05,1.068953133482223e-13
	-9.441896509088110e-07,-3.232719458061833e-13
	-3.007165169472274e-05,1.068953133482223e-13
19		1.548816618912481e+00,0.000000000000000e+00
	-3.007165169472273e-01,1.093852250568912e-09
	1.000000000000000e+00,0.000000000000000e+00
	0.000000000000000e+00,0.000000000000000e+00
	9.921983493977771e-07,1.003093422948805e-13
	9.922006047716194e-07,1.084541013999798e-13
	3.007165169472274e-05,-1.093852250568912e-13
	9.441896507284906e-07,3.308019167444311e-13
	-5.291735059198101e-07,-5.729922668932184e-14
	-3.048666783953142e-05,-1.641174649982181e-13
	-3.007165169472274e-05,1.093852250568912e-13
	-9.441896509088110e-07,-3.308019167444311e-13
	-3.007165169472274e-05,1.093852250568912e-13
20		1.584893192461113e+00,0.000000000000000e+00
	-3.007165169472273e-01,1.119331342597699e-09
	1.000000000000000e+00,0.000000000000000e+00
	0.000000000000000e+00,0.000000000000000e+00
	9.921983493977771e-07,1.026458470306426e-13
	9.922006047716194e-07,1.109803219467056e-13
	3.007165169472274e-05,-1.119331342597699e-13
	9.441896507284906e-07,3.385072832376179e-13
	-5.291735059198101e-07,-5.863389713428939e-14
	-3.048666783953142e-05,-1.679402518435585e-13
	-3.007165169472274e-05,1.119331342597699e-13
	-9.441896509088110e-07,-3.385072832376179e-13
	-3.007165169472274e-05,1.119331342597699e-13
21		1.621810097358929e+00,0.000000000000000e+00
	-3.007165169472273e-01,1.145403918920434e-09
	1.000000000000000e+00,0.000000000000000e+00
	0.000000000000000e+00,0.000000000000000e+00
	9.921983493977771e-07,1.050367759531789e-13
	9.922006047716194e-07,1.135653857291258e-13
	3.007165169472274e-05,-1.145403918920434e-13
	9.441896507284906e-07,3.463921307730506e-13
	-5.291735059198101e-07,-5.999965604762891e-14
	-3.048666783953142e-05,-1.718520828333784e-13
	-3.007165169472274e-05,1.145403918920434e-13
	-9.441896509088110e-07,-3.463921307730507e-13
	-3.007165169472274e-05,1.145403918920434e-13
22		1.659586907437560e+00,0.000000000000000e+00
	-3.007165169472273e-01,1.172083803562193e-09
	1.000000000000000e+00,0.000000000000000e+00
	0.000000000000000e+00,0.000000000000000e+00
	9.921983493977771e-07,1.074833967646516e-13
	9.922006047716194e-07,1.162106633822752e-13
	3.007165169472274e-05,-1.172083803562193e-13
	9.441896507284906e-07,3.544606400012613e-13
	-5.291735059198101e-07,-6.139722757279422e-14
	-3.048666783953142e-05,-1.758550320722478e-13
	-3.007165169472274e-05,1.172083803562193e-13
	-9.441896509088110e-07,-3.544606400012613e-13
	-3.007165169472274e-05,1.172083803562193e-13
23		1.698243652461743e+00,0.000000000000000e+00
	-3.007165169472273e-01,1.199385142550964e-09
	1.000000000000000e+00,0.000000000000000e+00
	0.000000000000000e+00,0.000000000000000e+00
	9.921983493977771e-07,1.099870066957998e-13
	9.922006047716194e-07,1.189175574673799e-13
	3.007165169472274e-05,-1.199385142550964e-13
	9.441896507284906e-07,3.627170889526419e-13
	-5.291735059198101e-07,-6.282735272070703e-14
	-3.048666783953142e-05,-1.799512219768385e-13
	-3.007165169472274e-05,1.199385142550964e-13
	-9.441896509088110e-07,-3.627170889526420e-13
	-3.007165169472274e-05,1.199385142550964e-13
24		1.737800828749374e+00,0.000000000000000e+00
	-3.007165169472273e-01,1.227322411418055e-09
	1.000000000000000e+00,0.000000000000000e+00
	0.000000000000000e+00,0.000000000000000e+00
	9.921983493977771e-07,1.125489331937483e-13
	9.922006047716194e-07,1.216875032155137e-13
	3.007165169472274e-05,-1.227322411418055e-13
	9.441896507284906e-07,3.711658553057133e-13
	-5.291735059198101e-07,-6.429078976265067e-14
	-3.048666783953142e-05,-1.841428244012572e-13
	-3.007165169472274e-05,1.227322411418055e-13
	-9.441896509088110e-07,-3.711658553057134e-13
	-3.007165169472274e-05,1.227322411418055e-13
25		1.778279410038922e+00,0.000000000000000e+00
	-3.007165169472273e-01,1.255910422873212e-09
	1.000000000000000e+00,0.000000000000000e+00
	0.000000000000000e+00,0.000000000000000e+00
	9.921983493977771e-07,1.151705346258374e-13
	9.922006047716194e-07,1.245219692885769e-13
	3.007165169472274e-05,-1.255910422873212e-13
	9.441896507284906e-07,3.798114187082288e-13
	-5.291735059198101e-07,-6.578831463231567e-14
	-3.048666783953142e-05,-1.884320617885920e-13
	-3.007165169472274e-05,1.255910422873212e-13
	-9.441896509088110e-07,-3.798114187082289e-13
	-3.007165169472274e-05,1.255910422873212e-13
26		1.819700858609982e+00,0.000000000000000e+00
	-3.007165169472273e-01,1.285164334658516e-09
	1.000000000000000e+00,0.000000000000000e+00
	0.000000000000000e+00,0.000000000000000e+00
	9.921983493977771e-07,1.178532009998474e-13
	9.922006047716194e-07,1.274224585580000e-13
	3.007165169472274e-05,-1.285164334658516e-13
	9.441896507284906e-07,3.886583631523419e-13
	-5.291735059198101e-07,-6.732072133721004e-14
	-3.048666783953142e-05,-1.928212083492802e-13
	-3.007165169472274e-05,1.285164334658516e-13
	-9.441896509088110e-07,-3.886583631523419e-13
	-3.007165169472274e-05,1.285164334658516e-13
27		1.862087136662866e+00,0.000000000000000e+00
	-3.007165169472273e-01,1.315099657585217e-09
	1.000000000000000e+00,0.000000000000000e+00
	0.000000000000000e+00,0.000000000000000e+00
	9.921983493977771e-07,1.205983547009989e-13
	9.922006047716194e-07,1.303905089015862e-13
	3.007165169472274e-05,-1.315099657585217e-13
	9.441896507284906e-07,3.977113794050998e-13
	-5.291735059198101e-07,-6.888882237965244e-14
	-3.048666783953142e-05,-1.973125912669257e-13
	-3.007165169472274e-05,1.315099657585217e-13
	-9.441896509088110e-07,-3.977113794050998e-13
	-3.007165169472274e-05,1.315099657585217e-13
28		1.905460717963246e+00,0.000000000000000e+00
	-3.007165169472273e-01,1.345732263757772e-09
	1.000000000000000e+00,0.000000000000000e+00
	0.000000000000000e+00,0.000000000000000e+00
	9.921983493977771e-07,1.234074512461209e-13
	9.922006047716194e-07,1.334276940189144e-13
	3.007165169472274e-05,-1.345732263757772e-13
	9.441896507284906e-07,4.069752674955509e-13
	-5.291735059198101e-07,-7.049344918757193e-14
	-3.048666783953142e-05,-2.019085919322017e-13
	-3.007165169472274e-05,1.345732263757772e-13
	-9.441896509088110e-07,-4.069752674955510e-13
	-3.007165169472274e-05,1.345732263757772e-13
29		1.949844599758044e+00,0.000000000000000e+00
	-3.007165169472273e-01,1.377078394989444e-09
	1.000000000000000e+00,0.000000000000000e+00
	0.000000000000000e+00,0.000000000000000e+00
	9.921983493977771e-07,1.262819800553844e-13
	9.922006047716194e-07,1.365356242657358e-13
	3.007165169472274e-05,-1.377078394989444e-13
	9.441896507284906e-07,4.164549392597827e-13
	-5.291735059198101e-07,-7.213545255534178e-14
	-3.048666783953142e-05,-2.066116472054965e-13
	-3.007165169472274e-05,1.377078394989444e-13
	-9.441896509088110e-07,-4.164549392597827e-13
	-3.007165169472274e-05,1.377078394989444e-13
30		1.995262314968878e+00,0.000000000000000e+00
	-3.007165169472273e-01,1.409154671413926e-09
	1.000000000000000e+00,0.000000000000000e+00
	0.000000000000000e+00,0.000000000000000e+00
	9.921983493977771e-07,1.292234652420128e-13
	9.922006047716194e-07,1.397159475078056e-13
	3.007165169472274e-05,-1.409154671413926e-13
	9.441896507284906e-07,4.261554209452426e-13
	-5.291735059198101e-07,-7.381570309488206e-14
	-3.048666783953142e-05,-2.114242507089680e-13
	-3.007165169472274e-05,1.409154671413926e-13
	-9.441896509088110e-07,-4.261554209452427e-13
	-3.007165169472274e-05,1.409154671413926e-13
31		2.041737944669527e+00,0.000000000000000e+00
	-3.007165169472273e-01,1.441978100297559e-09
	1.000000000000000e+00,0.000000000000000e+00
	0.000000000000000e+00,0.000000000000000e+00
	9.921983493977771e-07,1.322334664203873e-13
	9.922006047716194e-07,1.429703499946031e-13
	3.007165169472274e-05,-1.441978100297559e-13
	9.441896507284906e-07,4.360818558757217e-13
	-5.291735059198101e-07,-7.553509169726957e-14
	-3.048666783953142e-05,-2.163489541486962e-13
	-3.007165169472274e-05,1.441978100297559e-13
	-9.441896509088110e-07,-4.360818558757215e-13
	-3.007165169472274e-05,1.441978100297559e-13
32		2.089296130854037e+00,0.000000000000000e+00
	-3.007165169472273e-01,1.475566085056807e-09
	1.000000000000000e+00,0.000000000000000e+00
	0.000000000000000e+00,0.000000000000000e+00
	9.921983493977771e-07,1.353135795329747e-13
	9.922006047716194e-07,1.463005572534041e-13
