Title: * GA CMOS Amp | W=4.509652117385018e-05 L=1.5672803128278902e-07 Vbias=1.4705963832894813
Date: Sat Sep  6 22:07:29 2025
Plotname: AC Analysis
Flags: complex forward log
No. Variables: 13
No. Points:          901
Offset:    0.0000000000000000e+00
Command: Linear Technology Corporation LTspice
Variables:
	0	frequency	frequency
	1	V(out)	voltage
	2	V(g)	voltage
	3	V(vdd)	voltage
	4	V(m1#dbody)	voltage
	5	V(m1#sbody)	voltage
	6	Id(M1)	device_current
	7	Ig(M1)	device_current
	8	Ib(M1)	device_current
	9	Is(M1)	device_current
	10	I(Rload)	device_current
	11	I(Vg)	device_current
	12	I(Vdd)	device_current
Values:
0		1.000000000000000e+00,0.000000000000000e+00
	8.925056841113529e-04,4.132575941252400e-11
	1.000000000000000e+00,0.000000000000000e+00
	0.000000000000000e+00,0.000000000000000e+00
	1.077854192056308e-04,2.326018629967972e-15
	1.077854191970595e-04,1.310930140340631e-15
	-8.925056841113834e-08,-4.132575941252349e-15
	7.458006690444510e-05,2.081280697750090e-12
	-5.748555694916939e-05,-8.401339652523846e-16
	-1.700525938686457e-05,-2.076307987843586e-12
	8.925056841113529e-08,4.132575941252400e-15
	-7.458006690444149e-05,-2.081280697750090e-12
	8.925056841113529e-08,4.132575941252400e-15
1		1.023292992280754e+00,0.000000000000000e+00
	8.925056841113529e-04,4.228836000751623e-11
	1.000000000000000e+00,0.000000000000000e+00
	0.000000000000000e+00,0.000000000000000e+00
	1.077854192056308e-04,2.380198563960706e-15
	1.077854191970595e-04,1.341465625980192e-15
	-8.925056841113834e-08,-4.228836000751910e-15
	7.458006690444510e-05,2.129759952976866e-12
	-5.748555694916939e-05,-8.597031992198075e-16
	-1.700525938686457e-05,-2.124671413776894e-12
	8.925056841113529e-08,4.228836000751623e-15
	-7.458006690444149e-05,-2.129759952976866e-12
	8.925056841113529e-08,4.228836000751623e-15
2		1.047128548050899e+00,0.000000000000000e+00
	8.925056841113529e-04,4.327338245073705e-11
	1.000000000000000e+00,0.000000000000000e+00
	0.000000000000000e+00,0.000000000000000e+00
	1.077854192056308e-04,2.435640510737706e-15
	1.077854191970595e-04,1.372712374451048e-15
	-8.925056841113834e-08,-4.327338245073769e-15
	7.458006690444510e-05,2.179368435121416e-12
	-5.748555694916939e-05,-8.797282592029749e-16
	-1.700525938686457e-05,-2.174161368617139e-12
	8.925056841113529e-08,4.327338245073706e-15
	-7.458006690444149e-05,-2.179368435121415e-12
	8.925056841113529e-08,4.327338245073706e-15
3		1.071519305237606e+00,0.000000000000000e+00
	8.925056841113529e-04,4.428134901412418e-11
	1.000000000000000e+00,0.000000000000000e+00
	0.000000000000000e+00,0.000000000000000e+00
	1.077854192056308e-04,2.492373866353014e-15
	1.077854191970595e-04,1.404686953192834e-15
	-8.925056841113834e-08,-4.428134901412659e-15
	7.458006690444510e-05,2.230132447257618e-12
	-5.748555694916939e-05,-9.002197627537524e-16
	-1.700525938686457e-05,-2.224804092593451e-12
	8.925056841113529e-08,4.428134901412419e-15
	-7.458006690444149e-05,-2.230132447257617e-12
	8.925056841113529e-08,4.428134901412419e-15
4		1.096478196143185e+00,0.000000000000000e+00
	8.925056841113529e-04,4.531279413489156e-11
	1.000000000000000e+00,0.000000000000000e+00
	0.000000000000000e+00,0.000000000000000e+00
	1.077854192056308e-04,2.550428711582727e-15
	1.077854191970595e-04,1.437406315550430e-15
	-8.925056841113834e-08,-4.531279413488913e-15
	7.458006690444510e-05,2.282078905136648e-12
	-5.748555694916939e-05,-9.211885747385576e-16
	-1.700525938686457e-05,-2.276626437148420e-12
	8.925056841113529e-08,4.531279413489156e-15
	-7.458006690444149e-05,-2.282078905136647e-12
	8.925056841113529e-08,4.531279413489156e-15
5		1.122018454301963e+00,0.000000000000000e+00
	8.925056841113529e-04,4.636826469889500e-11
	1.000000000000000e+00,0.000000000000000e+00
	0.000000000000000e+00,0.000000000000000e+00
	1.077854192056308e-04,2.609835827874236e-15
	1.077854191970595e-04,1.470887809762852e-15
	-8.925056841113834e-08,-4.636826469889501e-15
	7.458006690444510e-05,2.335235351458068e-12
	-5.748555694916939e-05,-9.426458130990608e-16
	-1.700525938686457e-05,-2.329655879175079e-12
	8.925056841113529e-08,4.636826469889500e-15
	-7.458006690444149e-05,-2.335235351458068e-12
	8.925056841113529e-08,4.636826469889500e-15
6		1.148153621496882e+00,0.000000000000000e+00
	8.925056841113529e-04,4.744832033059831e-11
	1.000000000000000e+00,0.000000000000000e+00
	0.000000000000000e+00,0.000000000000000e+00
	1.077854192056308e-04,2.670626713666945e-15
	1.077854191970595e-04,1.505149188161512e-15
	-8.925056841113834e-08,-4.744832033059938e-15
	7.458006690444510e-05,2.389629970473325e-12
	-5.748555694916939e-05,-9.646028547470618e-16
	-1.700525938686457e-05,-2.383920535585518e-12
	8.925056841113529e-08,4.744832033059832e-15
	-7.458006690444149e-05,-2.389629970473325e-12
	8.925056841113529e-08,4.744832033059832e-15
7		1.174897554939529e+00,0.000000000000000e+00
	8.925056841113529e-04,4.855353368979368e-11
	1.000000000000000e+00,0.000000000000000e+00
	0.000000000000000e+00,0.000000000000000e+00
	1.077854192056308e-04,2.732833601093165e-15
	1.077854191970595e-04,1.540208616582742e-15
	-8.925056841113834e-08,-4.855353368979592e-15
	7.458006690444510e-05,2.445291602929419e-12
	-5.748555694916939e-05,-9.870713415966786e-16
	-1.700525938686457e-05,-2.439449178218842e-12
	8.925056841113529e-08,4.855353368979368e-15
	-7.458006690444149e-05,-2.445291602929418e-12
	8.925056841113529e-08,4.855353368979368e-15
8		1.202264434617413e+00,0.000000000000000e+00
	8.925056841113529e-04,4.968449077523338e-11
	1.000000000000000e+00,0.000000000000000e+00
	0.000000000000000e+00,0.000000000000000e+00
	1.077854192056308e-04,2.796489473068014e-15
	1.077854191970595e-04,1.576084683999555e-15
	-8.925056841113834e-08,-4.968449077523619e-15
	7.458006690444510e-05,2.502249761360646e-12
	-5.748555694916939e-05,-1.010063186737044e-15
	-1.700525938686457e-05,-2.496271249096386e-12
	8.925056841113529e-08,4.968449077523338e-15
	-7.458006690444149e-05,-2.502249761360646e-12
	8.925056841113529e-08,4.968449077523338e-15
9		1.230268770812381e+00,0.000000000000000e+00
	8.925056841113529e-04,5.084179123533411e-11
	1.000000000000000e+00,0.000000000000000e+00
	0.000000000000000e+00,0.000000000000000e+00
	1.077854192056308e-04,2.861628080777396e-15
	1.077854191970595e-04,1.612796412377770e-15
	-8.925056841113834e-08,-5.084179123533321e-15
	7.458006690444510e-05,2.560534645736539e-12
	-5.748555694916939e-05,-1.033590580748783e-15
	-1.700525938686457e-05,-2.554416876032257e-12
	8.925056841113529e-08,5.084179123533411e-15
	-7.458006690444149e-05,-2.560534645736539e-12
	8.925056841113529e-08,5.084179123533411e-15
10		1.258925411794167e+00,0.000000000000000e+00
	8.925056841113529e-04,5.202604868611845e-11
	1.000000000000000e+00,0.000000000000000e+00
	0.000000000000000e+00,0.000000000000000e+00
	1.077854192056308e-04,2.928283961573335e-15
	1.077854191970595e-04,1.650363266761717e-15
	-8.925056841113834e-08,-5.202604868611717e-15
	7.458006690444510e-05,2.620177159474284e-12
	-5.748555694916939e-05,-1.057665998167626e-15
	-1.700525938686457e-05,-2.613916888607504e-12
	8.925056841113529e-08,5.202604868611846e-15
	-7.458006690444149e-05,-2.620177159474283e-12
	8.925056841113529e-08,5.202604868611846e-15
11		1.288249551693134e+00,0.000000000000000e+00
	8.925056841113529e-04,5.323789103656235e-11
	1.000000000000000e+00,0.000000000000000e+00
	0.000000000000000e+00,0.000000000000000e+00
	1.077854192056308e-04,2.996492457286120e-15
	1.077854191970595e-04,1.688805165594837e-15
	-8.925056841113834e-08,-5.323789103656414e-15
	7.458006690444510e-05,2.681208925824127e-12
	-5.748555694916939e-05,-1.082302204098561e-15
	-1.700525938686457e-05,-2.674802834516372e-12
	8.925056841113529e-08,5.323789103656235e-15
	-7.458006690444149e-05,-2.681208925824126e-12
	8.925056841113529e-08,5.323789103656235e-15
12		1.318256738556407e+00,0.000000000000000e+00
	8.925056841113529e-04,5.447796082152063e-11
	1.000000000000000e+00,0.000000000000000e+00
	0.000000000000000e+00,0.000000000000000e+00
	1.077854192056308e-04,3.066289732963024e-15
	1.077854191970595e-04,1.728142491280736e-15
	-8.925056841113834e-08,-5.447796082152010e-15
	7.458006690444510e-05,2.743662304636437e-12
	-5.748555694916939e-05,-1.107512260984072e-15
	-1.700525938686457e-05,-2.737106996293301e-12
	8.925056841113529e-08,5.447796082152064e-15
	-7.458006690444149e-05,-2.743662304636436e-12
	8.925056841113529e-08,5.447796082152064e-15
13		1.348962882591653e+00,0.000000000000000e+00
	8.925056841113529e-04,5.574691554240754e-11
	1.000000000000000e+00,0.000000000000000e+00
	0.000000000000000e+00,0.000000000000000e+00
	1.077854192056308e-04,3.137712796043485e-15
	1.077854191970595e-04,1.768396100990180e-15
	-8.925056841113834e-08,-5.574691554240611e-15
	7.458006690444510e-05,2.807570409519330e-12
	-5.748555694916939e-05,-1.133309535530014e-15
	-1.700525938686457e-05,-2.800862408429559e-12
	8.925056841113529e-08,5.574691554240754e-15
	-7.458006690444149e-05,-2.807570409519330e-12
	8.925056841113529e-08,5.574691554240754e-15
14		1.380384264602885e+00,0.000000000000000e+00
	8.925056841113529e-04,5.704542801581269e-11
	1.000000000000000e+00,0.000000000000000e+00
	0.000000000000000e+00,0.000000000000000e+00
	1.077854192056308e-04,3.210799515980951e-15
	1.077854191970595e-04,1.809587337719861e-15
	-8.925056841113834e-08,-5.704542801581148e-15
	7.458006690444510e-05,2.872967125395937e-12
	-5.748555694916939e-05,-1.159707705792820e-15
	-1.700525938686457e-05,-2.866102874888563e-12
	8.925056841113529e-08,5.704542801581270e-15
	-7.458006690444149e-05,-2.872967125395937e-12
	8.925056841113529e-08,5.704542801581270e-15
15		1.412537544622754e+00,0.000000000000000e+00
	8.925056841113529e-04,5.837418673023732e-11
	1.000000000000000e+00,0.000000000000000e+00
	0.000000000000000e+00,0.000000000000000e+00
	1.077854192056308e-04,3.285588644321743e-15
	1.077854191970595e-04,1.851738041608718e-15
	-8.925056841113834e-08,-5.837418673023965e-15
	7.458006690444510e-05,2.939887126470645e-12
	-5.748555694916939e-05,-1.186720768431782e-15
	-1.700525938686457e-05,-2.932862987029189e-12
	8.925056841113529e-08,5.837418673023733e-15
	-7.458006690444149e-05,-2.939887126470645e-12
	8.925056841113529e-08,5.837418673023733e-15
16		1.445439770745927e+00,0.000000000000000e+00
	8.925056841113529e-04,5.973389621114003e-11
	1.000000000000000e+00,0.000000000000000e+00
	0.000000000000000e+00,0.000000000000000e+00
	1.077854192056308e-04,3.362119835251663e-15
	1.077854191970595e-04,1.894870561517889e-15
	-8.925056841113834e-08,-5.973389621113800e-15
	7.458006690444510e-05,3.008365894613814e-12
	-5.748555694916939e-05,-1.214363046130275e-15
	-1.700525938686457e-05,-3.001178141946570e-12
	8.925056841113529e-08,5.973389621114003e-15
	-7.458006690444149e-05,-3.008365894613813e-12
	8.925056841113529e-08,5.973389621114003e-15
17		1.479108388168207e+00,0.000000000000000e+00
	8.925056841113529e-04,6.112527739448548e-11
	1.000000000000000e+00,0.000000000000000e+00
	0.000000000000000e+00,0.000000000000000e+00
	1.077854192056308e-04,3.440433666621150e-15
	1.077854191970595e-04,1.939007766880354e-15
	-8.925056841113834e-08,-6.112527739448619e-15
	7.458006690444510e-05,3.078439738174737e-12
	-5.748555694916939e-05,-1.242649195189820e-15
	-1.700525938686457e-05,-3.071084561240099e-12
	8.925056841113529e-08,6.112527739448548e-15
	-7.458006690444149e-05,-3.078439738174736e-12
	8.925056841113529e-08,6.112527739448548e-15
18		1.513561248436208e+00,0.000000000000000e+00
	8.925056841113529e-04,6.254906800899419e-11
	1.000000000000000e+00,0.000000000000000e+00
	0.000000000000000e+00,0.000000000000000e+00
	1.077854192056308e-04,3.520571661460205e-15
	1.077854191970595e-04,1.984173059826622e-15
	-8.925056841113834e-08,-6.254906800899565e-15
	7.458006690444510e-05,3.150145811232808e-12
	-5.748555694916939e-05,-1.271594213301063e-15
	-1.700525938686457e-05,-3.142619310218608e-12
	8.925056841113529e-08,6.254906800899419e-15
	-7.458006690444149e-05,-3.150145811232807e-12
	8.925056841113529e-08,6.254906800899419e-15
19		1.548816618912481e+00,0.000000000000000e+00
	8.925056841113529e-04,6.400602296729605e-11
	1.000000000000000e+00,0.000000000000000e+00
	0.000000000000000e+00,0.000000000000000e+00
	1.077854192056308e-04,3.602576309994434e-15
	1.077854191970595e-04,2.030390387592840e-15
	-8.925056841113834e-08,-6.400602296729571e-15
	7.458006690444510e-05,3.223522133297104e-12
	-5.748555694916939e-05,-1.301213447495734e-15
	-1.700525938686457e-05,-3.215820317552879e-12
	8.925056841113529e-08,6.400602296729605e-15
	-7.458006690444149e-05,-3.223522133297104e-12
	8.925056841113529e-08,6.400602296729605e-15
20		1.584893192461113e+00,0.000000000000000e+00
	8.925056841113529e-04,6.549691476619506e-11
	1.000000000000000e+00,0.000000000000000e+00
	0.000000000000000e+00,0.000000000000000e+00
	1.077854192056308e-04,3.686491092173968e-15
	1.077854191970595e-04,2.077684255217962e-15
	-8.925056841113834e-08,-6.549691476619327e-15
	7.458006690444510e-05,3.298607609464833e-12
	-5.748555694916939e-05,-1.331522602283868e-15
	-1.700525938686457e-05,-3.290726395385930e-12
	8.925056841113529e-08,6.549691476619507e-15
	-7.458006690444149e-05,-3.298607609464832e-12
	8.925056841113529e-08,6.549691476619507e-15
21		1.621810097358929e+00,0.000000000000000e+00
	8.925056841113529e-04,6.702253389625724e-11
	1.000000000000000e+00,0.000000000000000e+00
	0.000000000000000e+00,0.000000000000000e+00
	1.077854192056308e-04,3.772360500727041e-15
	1.077854191970595e-04,2.126079738536596e-15
	-8.925056841113834e-08,-6.702253389626054e-15
	7.458006690444510e-05,3.375442051049335e-12
	-5.748555694916939e-05,-1.362537747980514e-15
	-1.700525938686457e-05,-3.367377259911728e-12
	8.925056841113529e-08,6.702253389625724e-15
	-7.458006690444149e-05,-3.375442051049334e-12
	8.925056841113529e-08,6.702253389625724e-15
22		1.659586907437560e+00,0.000000000000000e+00
	8.925056841113529e-04,6.858368926093935e-11
	1.000000000000000e+00,0.000000000000000e+00
	0.000000000000000e+00,0.000000000000000e+00
	1.077854192056308e-04,3.860230064750702e-15
	1.077854191970595e-04,2.175602497474600e-15
	-8.925056841113834e-08,-6.858368926094050e-15
	7.458006690444510e-05,3.454066196688560e-12
	-5.748555694916939e-05,-1.394275329226462e-15
	-1.700525938686457e-05,-3.445813552433239e-12
	8.925056841113529e-08,6.858368926093935e-15
	-7.458006690444149e-05,-3.454066196688558e-12
	8.925056841113529e-08,6.858368926093935e-15
23		1.698243652461743e+00,0.000000000000000e+00
	8.925056841113529e-04,7.018120860548005e-11
	1.000000000000000e+00,0.000000000000000e+00
	0.000000000000000e+00,0.000000000000000e+00
	1.077854192056308e-04,3.950146373850875e-15
	1.077854191970595e-04,2.226278789654265e-15
	-8.925056841113834e-08,-7.018120860547929e-15
	7.458006690444510e-05,3.534521733945240e-12
	-5.748555694916939e-05,-1.426752173707380e-15
	-1.700525938686457e-05,-3.526076860910985e-12
	8.925056841113529e-08,7.018120860548005e-15
	-7.458006690444149e-05,-3.534521733945239e-12
	8.925056841113529e-08,7.018120860548005e-15
24		1.737800828749374e+00,0.000000000000000e+00
	8.925056841113529e-04,7.181593895578149e-11
	1.000000000000000e+00,0.000000000000000e+00
	0.000000000000000e+00,0.000000000000000e+00
	1.077854192056308e-04,4.042157102844832e-15
	1.077854191970595e-04,2.278135484316487e-15
	-8.925056841113834e-08,-7.181593895578019e-15
	7.458006690444510e-05,3.616851321410183e-12
	-5.748555694916939e-05,-1.459985501076095e-15
	-1.700525938686457e-05,-3.608209742013529e-12
	8.925056841113529e-08,7.181593895578150e-15
	-7.458006690444149e-05,-3.616851321410183e-12
	8.925056841113529e-08,7.181593895578150e-15
25		1.778279410038922e+00,0.000000000000000e+00
	8.925056841113529e-04,7.348874706751361e-11
	1.000000000000000e+00,0.000000000000000e+00
	0.000000000000000e+00,0.000000000000000e+00
	1.077854192056308e-04,4.136311037038989e-15
	1.077854191970595e-04,2.331200076567181e-15
	-8.925056841113834e-08,-7.348874706751670e-15
	7.458006690444510e-05,3.701098611320428e-12
	-5.748555694916939e-05,-1.493992932082672e-15
	-1.700525938686457e-05,-3.692255743681593e-12
	8.925056841113529e-08,7.348874706751361e-15
	-7.458006690444149e-05,-3.701098611320426e-12
	8.925056841113529e-08,7.348874706751361e-15
26		1.819700858609982e+00,0.000000000000000e+00
	8.925056841113529e-04,7.520051988567949e-11
	1.000000000000000e+00,0.000000000000000e+00
	0.000000000000000e+00,0.000000000000000e+00
	1.077854192056308e-04,4.232658098095536e-15
	1.077854191970595e-04,2.385500701955554e-15
	-8.925056841113834e-08,-7.520051988568023e-15
	7.458006690444510e-05,3.787308272704223e-12
	-5.748555694916939e-05,-1.528792497917175e-15
	-1.700525938686457e-05,-3.778259428217737e-12
	8.925056841113529e-08,7.520051988567950e-15
	-7.458006690444149e-05,-3.787308272704223e-12
	8.925056841113529e-08,7.520051988567950e-15
27		1.862087136662866e+00,0.000000000000000e+00
	8.925056841113529e-04,7.695216501488531e-11
	1.000000000000000e+00,0.000000000000000e+00
	0.000000000000000e+00,0.000000000000000e+00
	1.077854192056308e-04,4.331249370501549e-15
	1.077854191970595e-04,2.441066151391939e-15
	-8.925056841113834e-08,-7.695216501488758e-15
	7.458006690444510e-05,3.875526015065157e-12
	-5.748555694916939e-05,-1.564402649770035e-15
	-1.700525938686457e-05,-3.866266395913899e-12
	8.925056841113529e-08,7.695216501488531e-15
	-7.458006690444149e-05,-3.875526015065157e-12
	8.925056841113529e-08,7.695216501488531e-15
28		1.905460717963246e+00,0.000000000000000e+00
	8.925056841113529e-04,7.874461120056435e-11
	1.000000000000000e+00,0.000000000000000e+00
	0.000000000000000e+00,0.000000000000000e+00
	1.077854192056308e-04,4.432137128654661e-15
	1.077854191970595e-04,2.497925886413121e-15
	-8.925056841113834e-08,-7.874461120056142e-15
	7.458006690444510e-05,3.965798612617932e-12
	-5.748555694916939e-05,-1.600842268615119e-15
	-1.700525938686457e-05,-3.956323309229260e-12
	8.925056841113529e-08,7.874461120056435e-15
	-7.458006690444149e-05,-3.965798612617931e-12
	8.925056841113529e-08,7.874461120056435e-15
29		1.949844599758044e+00,0.000000000000000e+00
	8.925056841113529e-04,8.057880882141008e-11
	1.000000000000000e+00,0.000000000000000e+00
	0.000000000000000e+00,0.000000000000000e+00
	1.077854192056308e-04,4.535374864579657e-15
	1.077854191970595e-04,2.556110054803237e-15
	-8.925056841113834e-08,-8.057880882141368e-15
	7.458006690444510e-05,4.058173929088668e-12
	-5.748555694916939e-05,-1.638130675220676e-15
	-1.700525938686457e-05,-4.048477917531306e-12
	8.925056841113529e-08,8.057880882141008e-15
	-7.458006690444149e-05,-4.058173929088667e-12
	8.925056841113529e-08,8.057880882141008e-15
30		1.995262314968878e+00,0.000000000000000e+00
	8.925056841113529e-04,8.245573039327954e-11
	1.000000000000000e+00,0.000000000000000e+00
	0.000000000000000e+00,0.000000000000000e+00
	1.077854192056308e-04,4.641017316290636e-15
	1.077854191970595e-04,2.615649506578526e-15
	-8.925056841113834e-08,-8.245573039327857e-15
	7.458006690444510e-05,4.152700943092887e-12
	-5.748555694916939e-05,-1.676287640393457e-15
	-1.700525938686457e-05,-4.142779082413166e-12
	8.925056841113529e-08,8.245573039327955e-15
	-7.458006690444149e-05,-4.152700943092887e-12
	8.925056841113529e-08,8.245573039327955e-15
31		2.041737944669527e+00,0.000000000000000e+00
	8.925056841113529e-04,8.437637108483413e-11
	1.000000000000000e+00,0.000000000000000e+00
	0.000000000000000e+00,0.000000000000000e+00
	1.077854192056308e-04,4.749120496813837e-15
	1.077854191970595e-04,2.676575810344415e-15
	-8.925056841113834e-08,-8.437637108483220e-15
	7.458006690444510e-05,4.249429774104629e-12
	-5.748555694916939e-05,-1.715333395461464e-15
	-1.700525938686457e-05,-4.239276803600685e-12
	8.925056841113529e-08,8.437637108483414e-15
	-7.458006690444149e-05,-4.249429774104629e-12
	8.925056841113529e-08,8.437637108483414e-15
32		2.089296130854037e+00,0.000000000000000e+00
	8.925056841113529e-04,8.634174924519124e-11
	1.000000000000000e+00,0.000000000000000e+00
	0.000000000000000e+00,0.000000000000000e+00
	1.077854192056308e-04,4.859741723886498e-15
	1.077854191970595e-04,2.738921270033625e-15
