LTspice 24.0.9 for Windows
Circuit: * GA CMOS Amp | W=5e-05 L=7.706941773431628e-07 Vbias=1.5
Start Time: Sat Sep  6 22:08:58 2025
solver = Normal
Maximum thread count: 2
tnom = 27
temp = 27
method = modified trap
AsciiRawFile = 1
Direct Newton iteration for .op point succeeded.
Semiconductor Device Operating Points:
                        --- BSIM4 MOSFETS ---
Name:      m1
Model:      n
Id:      1.77e-04
Vgs:     1.50e+00
Vds:     3.16e-02
Vbs:     0.00e+00
Vth:     2.40e-01
Vdsat:   8.68e-01
Gm:     -3.35e-05
Gds:     5.96e-03
Gmb      8.87e-05
Cbd:     2.47e-14
Cbs:     4.00e-14


.measure op idd find i(vdd)
  Error: FIND can not be evaluated over an interval.

gain_db: MAX(db(v(out)/v(g)))=(31.1793dB,180°) FROM 1 TO 1e+09
gain_lin: MAX(mag(v(out)/v(g)))=(-5.00201dB,0°) FROM 1 TO 1e+09

Measurement "fc" FAIL'ed

Total elapsed time: 1.128 seconds.

