LTspice 24.0.9 for Windows
Circuit: * GA CMOS Amp | W=6.4162334048817386e-06 L=6.930204542436001e-07 Vbias=1.0954858375560952
Start Time: Mon Sep  8 18:43:58 2025
solver = Normal
Maximum thread count: 2
tnom = 27
temp = 27
method = modified trap
AsciiRawFile = 1
Instance "m1": Length shorter than recommended for a level 3 MOSFET.
Direct Newton iteration for .op point succeeded.
Semiconductor Device Operating Points:
                        --- MOSFET Transistors ---
Name:          m1
Model:        n_1u
Id:          6.59e-05
Vgs:         1.10e+00
Vds:         1.14e+00
Vbs:         0.00e+00
Vth:         7.98e-01
Vdsat:       2.48e-01
Gm:          3.09e-04
Gds:         2.49e-05
Gmb:         7.07e-05
Cbd:         0.00e+00
Cbs:         0.00e+00
Cgsov:       1.28e-15
Cgdov:       1.28e-15
Cgbov:       4.93e-17
Cgs:         3.64e-15
Cgd:         0.00e+00
Cgb:         0.00e+00



gain_db: MAX(db(v(out)/v(g)))=(29.0659dB,73.9216°) FROM 1 TO 1e+09
gain_lin: MAX(mag(v(out)/v(g)))=(7.86501dB,0°) FROM 1 TO 1e+09

Measurement "fc" FAIL'ed

Total elapsed time: 0.463 seconds.

