LTspice 24.0.9 for Windows
Circuit: * GA CMOS Amp | W=3.520599165509512e-05 L=4.7086590140854706e-07 Vbias=1.0777114220573085
Start Time: Mon Sep  8 18:44:49 2025
solver = Normal
Maximum thread count: 2
tnom = 27
temp = 27
method = modified trap
AsciiRawFile = 1
Instance "m1": Length shorter than recommended for a level 3 MOSFET.
Direct Newton iteration for .op point succeeded.
Semiconductor Device Operating Points:
                        --- MOSFET Transistors ---
Name:          m1
Model:        n_1u
Id:          1.77e-04
Vgs:         1.08e+00
Vds:         3.03e-02
Vbs:         0.00e+00
Vth:         6.98e-01
Vdsat:       2.42e-01
Gm:          4.08e-04
Gds:         5.22e-03
Gmb:         4.76e-05
Cbd:         0.00e+00
Cbs:         0.00e+00
Cgsov:       7.04e-15
Cgdov:       7.04e-15
Cgbov:       2.71e-17
Cgs:         8.59e-15
Cgd:         7.85e-15
Cgb:         0.00e+00



gain_db: MAX(db(v(out)/v(g)))=(30.9415dB,129.262°) FROM 1 TO 1e+09
gain_lin: MAX(mag(v(out)/v(g)))=(-22.0731dB,0°) FROM 1 TO 1e+09

Measurement "fc" FAIL'ed

Total elapsed time: 0.446 seconds.

