LTspice 24.0.9 for Windows
Circuit: * GA CMOS Amp | W=1.0013222134337229e-06 L=1.3839786240106986e-07 Vbias=1.3775633518203887
Start Time: Sat Sep  6 22:08:40 2025
solver = Normal
Maximum thread count: 2
tnom = 27
temp = 27
method = modified trap
AsciiRawFile = 1
Direct Newton iteration for .op point succeeded.
Semiconductor Device Operating Points:
                        --- BSIM4 MOSFETS ---
Name:      m1
Model:      n
Id:      1.50e-04
Vgs:     1.38e+00
Vds:     2.97e-01
Vbs:     0.00e+00
Vth:     3.26e-01
Vdsat:   7.49e-01
Gm:      2.68e-05
Gds:     3.87e-04
Gmb      7.35e-05
Cbd:     4.59e-16
Cbs:     8.01e-16


.measure op idd find i(vdd)
  Error: FIND can not be evaluated over an interval.

gain_db: MAX(db(v(out)/v(g)))=(31.3994dB,132.735°) FROM 1 TO 1e+09
gain_lin: MAX(mag(v(out)/v(g)))=(-23.7363dB,0°) FROM 1 TO 1e+09

Measurement "fc" FAIL'ed

Total elapsed time: 1.590 seconds.

