LTspice 24.0.9 for Windows
Circuit: * GA CMOS Amp | W=2.432440372390563e-05 L=6.3582844387151e-07 Vbias=1.185214742425363
Start Time: Sat Sep  6 22:06:50 2025
solver = Normal
Maximum thread count: 2
tnom = 27
temp = 27
method = modified trap
AsciiRawFile = 1
Direct Newton iteration for .op point succeeded.
Semiconductor Device Operating Points:
                        --- BSIM4 MOSFETS ---
Name:      m1
Model:      n
Id:      1.75e-04
Vgs:     1.19e+00
Vds:     4.84e-02
Vbs:     0.00e+00
Vth:     2.44e-01
Vdsat:   6.64e-01
Gm:     -8.82e-06
Gds:     3.51e-03
Gmb      1.02e-04
Cbd:     1.20e-14
Cbs:     1.95e-14


.measure op idd find i(vdd)
  Error: FIND can not be evaluated over an interval.

gain_db: MAX(db(v(out)/v(g)))=(33.485dB,180°) FROM 1 TO 1e+09
gain_lin: MAX(mag(v(out)/v(g)))=(-6.76365dB,0°) FROM 1 TO 1e+09

Measurement "fc" FAIL'ed

Total elapsed time: 0.609 seconds.

