LTspice 24.0.9 for Windows
Circuit: * GA CMOS Amp | W=2.528129838715429e-06 L=8.570906335927002e-07 Vbias=1.5
Start Time: Sat Sep  6 22:15:32 2025
solver = Normal
Maximum thread count: 2
tnom = 27
temp = 27
method = modified trap
AsciiRawFile = 1
Direct Newton iteration for .op point succeeded.
Semiconductor Device Operating Points:
                        --- BSIM4 MOSFETS ---
Name:      m1
Model:      n
Id:      1.14e-04
Vgs:     1.50e+00
Vds:     6.57e-01
Vbs:     0.00e+00
Vth:     2.38e-01
Vdsat:   8.69e-01
Gm:      2.84e-05
Gds:     7.09e-05
Gmb      5.89e-05
Cbd:     1.07e-15
Cbs:     2.02e-15


.measure op idd find i(vdd)
  Error: FIND can not be evaluated over an interval.

gain_db: MAX(db(v(out)/v(g)))=(30.0498dB,120.911°) FROM 1 TO 1e+09
gain_lin: MAX(mag(v(out)/v(g)))=(-0.0254613dB,0°) FROM 1 TO 1e+09

Measurement "fc" FAIL'ed

Total elapsed time: 0.743 seconds.

