Title: * GA CMOS Amp | W=2.6793565976647214e-05 L=9.711384618241942e-07 Vbias=0.5
Date: Mon Sep  8 18:47:10 2025
Plotname: AC Analysis
Flags: complex forward log
No. Variables: 11
No. Points:          901
Offset:    0.0000000000000000e+00
Command: Linear Technology Corporation LTspice
Variables:
	0	frequency	frequency
	1	V(out)	voltage
	2	V(g)	voltage
	3	V(vdd)	voltage
	4	Id(M1)	device_current
	5	Ig(M1)	device_current
	6	Ib(M1)	device_current
	7	Is(M1)	device_current
	8	I(Rload)	device_current
	9	I(Vg)	device_current
	10	I(Vdd)	device_current
Values:
0		1.000000000000000e+00,0.000000000000000e+00
	-4.742307252044287e-03,3.382896246834581e-10
	1.000000000000000e+00,0.000000000000000e+00
	0.000000000000000e+00,0.000000000000000e+00
	4.742307252044287e-07,-3.382896246834581e-14
	1.139013995052350e-23,2.232834097891838e-13
	4.742307237533852e-15,-6.354724467123841e-15
	-4.742307299467359e-07,-1.830997228537142e-13
	-4.742307252044287e-07,3.382896246834581e-14
	-1.139013995052350e-23,-2.232834097891838e-13
	-4.742307252044287e-07,3.382896246834581e-14
1		1.023292992280754e+00,0.000000000000000e+00
	-4.742307252044287e-03,3.461694022998691e-10
	1.000000000000000e+00,0.000000000000000e+00
	0.000000000000000e+00,0.000000000000000e+00
	4.742307252044287e-07,-3.461694022998691e-14
	1.192694070848822e-23,2.284843485298238e-13
	4.742307237533852e-15,-6.502745015082896e-15
	-4.742307299467359e-07,-1.873646632847540e-13
	-4.742307252044287e-07,3.461694022998691e-14
	-1.192694070848822e-23,-2.284843485298238e-13
	-4.742307252044287e-07,3.461694022998691e-14
2		1.047128548050899e+00,0.000000000000000e+00
	-4.742307252044287e-03,3.542327235154731e-10
	1.000000000000000e+00,0.000000000000000e+00
	0.000000000000000e+00,0.000000000000000e+00
	4.742307252044287e-07,-3.542327235154731e-14
	1.248904010676843e-23,2.338064326964021e-13
	4.742307237533852e-15,-6.654213404522957e-15
	-4.742307299467359e-07,-1.917289469403318e-13
	-4.742307252044287e-07,3.542327235154731e-14
	-1.248904010676843e-23,-2.338064326964021e-13
	-4.742307252044287e-07,3.542327235154731e-14
3		1.071519305237606e+00,0.000000000000000e+00
	-4.742307252044287e-03,3.624838636099095e-10
	1.000000000000000e+00,0.000000000000000e+00
	0.000000000000000e+00,0.000000000000000e+00
	4.742307252044287e-07,-3.624838636099096e-14
	1.307763043354988e-23,2.392524841283900e-13
	4.742307237533852e-15,-6.809209945988974e-15
	-4.742307299467359e-07,-1.961948878214101e-13
	-4.742307252044287e-07,3.624838636099095e-14
	-1.307763043354988e-23,-2.392524841283900e-13
	-4.742307252044287e-07,3.624838636099095e-14
4		1.096478196143185e+00,0.000000000000000e+00
	-4.742307252044287e-03,3.709271974468730e-10
	1.000000000000000e+00,0.000000000000000e+00
	0.000000000000000e+00,0.000000000000000e+00
	4.742307252044287e-07,-3.709271974468729e-14
	1.369396016782933e-23,2.448253903943438e-13
	4.742307237533852e-15,-6.967816820698930e-15
	-4.742307299467359e-07,-2.007648538289576e-13
	-4.742307252044287e-07,3.709271974468730e-14
	-1.369396016782933e-23,-2.448253903943438e-13
	-4.742307252044287e-07,3.709271974468730e-14
5		1.122018454301963e+00,0.000000000000000e+00
	-4.742307252044287e-03,3.795672017937249e-10
	1.000000000000000e+00,0.000000000000000e+00
	0.000000000000000e+00,0.000000000000000e+00
	4.742307252044287e-07,-3.795672017937249e-14
	1.433933662760599e-23,2.505281063229319e-13
	4.742307237533852e-15,-7.130118124117161e-15
	-4.742307299467359e-07,-2.054412680194423e-13
	-4.742307252044287e-07,3.795672017937249e-14
	-1.433933662760599e-23,-2.505281063229319e-13
	-4.742307252044287e-07,3.795672017937249e-14
6		1.148153621496882e+00,0.000000000000000e+00
	-4.742307252044287e-03,3.884084576951335e-10
	1.000000000000000e+00,0.000000000000000e+00
	0.000000000000000e+00,0.000000000000000e+00
	4.742307252044287e-07,-3.884084576951335e-14
	1.501512874287814e-23,2.563636555696239e-13
	4.742307237533852e-15,-7.296199910543079e-15
	-4.742307299467359e-07,-2.102266098895674e-13
	-4.742307252044287e-07,3.884084576951335e-14
	-1.501512874287814e-23,-2.563636555696239e-13
	-4.742307252044287e-07,3.884084576951335e-14
7		1.174897554939529e+00,0.000000000000000e+00
	-4.742307252044287e-03,3.974556529020059e-10
	1.000000000000000e+00,0.000000000000000e+00
	0.000000000000000e+00,0.000000000000000e+00
	4.742307252044287e-07,-3.974556529020059e-14
	1.572276995932731e-23,2.623351322198730e-13
	4.742307237533852e-15,-7.466150238738180e-15
	-4.742307299467359e-07,-2.151234166909342e-13
	-4.742307252044287e-07,3.974556529020059e-14
	-1.572276995932731e-23,-2.623351322198730e-13
	-4.742307252044287e-07,3.974556529020059e-14
8		1.202264434617413e+00,0.000000000000000e+00
	-4.742307252044287e-03,4.067135843569944e-10
	1.000000000000000e+00,0.000000000000000e+00
	0.000000000000000e+00,0.000000000000000e+00
	4.742307252044287e-07,-4.067135843569944e-14
	1.646376127884871e-23,2.684457024296412e-13
	4.742307237533852e-15,-7.640059218616115e-15
	-4.742307299467359e-07,-2.201342847753256e-13
	-4.742307252044287e-07,4.067135843569944e-14
	-1.646376127884871e-23,-2.684457024296412e-13
	-4.742307252044287e-07,4.067135843569944e-14
9		1.230268770812381e+00,0.000000000000000e+00
	-4.742307252044287e-03,4.161871607378997e-10
	1.000000000000000e+00,0.000000000000000e+00
	0.000000000000000e+00,0.000000000000000e+00
	4.742307252044287e-07,-4.161871607378997e-14
	1.723967444337747e-23,2.746986061041364e-13
	4.742307237533852e-15,-7.818019059019829e-15
	-4.742307299467359e-07,-2.252618709713266e-13
	-4.742307252044287e-07,4.161871607378997e-14
	-1.723967444337747e-23,-2.746986061041364e-13
	-4.742307252044287e-07,4.161871607378997e-14
10		1.258925411794167e+00,0.000000000000000e+00
	-4.742307252044287e-03,4.258814050603166e-10
	1.000000000000000e+00,0.000000000000000e+00
	0.000000000000000e+00,0.000000000000000e+00
	4.742307252044287e-07,-4.258814050603166e-14
	1.805215526876405e-23,2.810971586156540e-13
	4.742307237533852e-15,-8.000124116612341e-15
	-4.742307299467359e-07,-2.305088939930100e-13
	-4.742307252044287e-07,4.258814050603166e-14
	-1.805215526876405e-23,-2.810971586156540e-13
	-4.742307252044287e-07,4.258814050603166e-14
11		1.288249551693134e+00,0.000000000000000e+00
	-4.742307252044287e-03,4.358014573409033e-10
	1.000000000000000e+00,0.000000000000000e+00
	0.000000000000000e+00,0.000000000000000e+00
	4.742307252044287e-07,-4.358014573409033e-14
	1.890292713577030e-23,2.876447525614303e-13
	4.742307237533852e-15,-8.186470945905642e-15
	-4.742307299467359e-07,-2.358781358814344e-13
	-4.742307252044287e-07,4.358014573409033e-14
	-1.890292713577030e-23,-2.876447525614303e-13
	-4.742307252044287e-07,4.358014573409033e-14
12		1.318256738556407e+00,0.000000000000000e+00
	-4.742307252044287e-03,4.459525773226863e-10
	1.000000000000000e+00,0.000000000000000e+00
	0.000000000000000e+00,0.000000000000000e+00
	4.742307252044287e-07,-4.459525773226863e-14
	1.979379464559110e-23,2.943448595624432e-13
	4.742307237533852e-15,-8.377158350455280e-15
	-4.742307299467359e-07,-2.413724434797192e-13
	-4.742307252044287e-07,4.459525773226863e-14
	-1.979379464559110e-23,-2.943448595624432e-13
	-4.742307252044287e-07,4.459525773226863e-14
13		1.348962882591653e+00,0.000000000000000e+00
	-4.742307252044287e-03,4.563401472638461e-10
	1.000000000000000e+00,0.000000000000000e+00
	0.000000000000000e+00,0.000000000000000e+00
	4.742307252044287e-07,-4.563401472638461e-14
	2.072664744765548e-23,3.012010321041108e-13
	4.742307237533852e-15,-8.572287435247107e-15
	-4.742307299467359e-07,-2.469947299424791e-13
	-4.742307252044287e-07,4.563401472638461e-14
	-2.072664744765548e-23,-3.012010321041108e-13
	-4.742307252044287e-07,4.563401472638461e-14
14		1.380384264602885e+00,0.000000000000000e+00
	-4.742307252044287e-03,4.669696747914611e-10
	1.000000000000000e+00,0.000000000000000e+00
	0.000000000000000e+00,0.000000000000000e+00
	4.742307252044287e-07,-4.669696747914611e-14
	2.170346424782637e-23,3.082169054198671e-13
	4.742307237533852e-15,-8.771961660304734e-15
	-4.742307299467359e-07,-2.527479762804163e-13
	-4.742307252044287e-07,4.669696747914611e-14
	-2.170346424782637e-23,-3.082169054198671e-13
	-4.742307252044287e-07,4.669696747914611e-14
15		1.412537544622754e+00,0.000000000000000e+00
	-4.742307252044287e-03,4.778467958217249e-10
	1.000000000000000e+00,0.000000000000000e+00
	0.000000000000000e+00,0.000000000000000e+00
	4.742307252044287e-07,-4.778467958217248e-14
	2.272631700550103e-23,3.153961994186099e-13
	4.742307237533852e-15,-8.976286895545214e-15
	-4.742307299467359e-07,-2.586352329408922e-13
	-4.742307252044287e-07,4.778467958217249e-14
	-2.272631700550103e-23,-3.153961994186099e-13
	-4.742307252044287e-07,4.778467958217249e-14
16		1.445439770745927e+00,0.000000000000000e+00
	-4.742307252044287e-03,4.889772775481832e-10
	1.000000000000000e+00,0.000000000000000e+00
	0.000000000000000e+00,0.000000000000000e+00
	4.742307252044287e-07,-4.889772775481832e-14
	2.379737532851475e-23,3.227427206570467e-13
	4.742307237533852e-15,-9.185371476913008e-15
	-4.742307299467359e-07,-2.646596214253154e-13
	-4.742307252044287e-07,4.889772775481832e-14
	-2.379737532851475e-23,-3.227427206570467e-13
	-4.742307252044287e-07,4.889772775481832e-14
17		1.479108388168207e+00,0.000000000000000e+00
	-4.742307252044287e-03,5.003670214995772e-10
	1.000000000000000e+00,0.000000000000000e+00
	0.000000000000000e+00,0.000000000000000e+00
	4.742307252044287e-07,-5.003670214995773e-14
	2.491891107516994e-23,3.302603643579809e-13
	4.742307237533852e-15,-9.399326263820574e-15
	-4.742307299467359e-07,-2.708243359442026e-13
	-4.742307252044287e-07,5.003670214995772e-14
	-2.491891107516994e-23,-3.302603643579809e-13
	-4.742307252044287e-07,5.003670214995772e-14
18		1.513561248436208e+00,0.000000000000000e+00
	-4.742307252044287e-03,5.120220666689109e-10
	1.000000000000000e+00,0.000000000000000e+00
	0.000000000000000e+00,0.000000000000000e+00
	4.742307252044287e-07,-5.120220666689109e-14
	2.609330317315219e-23,3.379531164756104e-13
	4.742307237533852e-15,-9.618264697928111e-15
	-4.742307299467359e-07,-2.771326451107912e-13
	-4.742307252044287e-07,5.120220666689109e-14
	-2.609330317315219e-23,-3.379531164756104e-13
	-4.742307252044287e-07,5.120220666689109e-14
19		1.548816618912481e+00,0.000000000000000e+00
	-4.742307252044287e-03,5.239485927154056e-10
	1.000000000000000e+00,0.000000000000000e+00
	0.000000000000000e+00,0.000000000000000e+00
	4.742307252044286e-07,-5.239485927154056e-14
	2.732304266555479e-23,3.458250558089336e-13
	4.742307237533852e-15,-9.842302863291182e-15
	-4.742307299467359e-07,-2.835878936741019e-13
	-4.742307252044287e-07,5.239485927154057e-14
	-2.732304266555479e-23,-3.458250558089336e-13
	-4.742307252044287e-07,5.239485927154057e-14
20		1.584893192461113e+00,0.000000000000000e+00
	-4.742307252044287e-03,5.361529232410375e-10
	1.000000000000000e+00,0.000000000000000e+00
	0.000000000000000e+00,0.000000000000000e+00
	4.742307252044286e-07,-5.361529232410375e-14
	2.861073799471516e-23,3.538803561643825e-13
	4.742307237533852e-15,-1.007155954791064e-14
	-4.742307299467359e-07,-2.901935042923681e-13
	-4.742307252044287e-07,5.361529232410375e-14
	-2.861073799471516e-23,-3.538803561643825e-13
	-4.742307252044287e-07,5.361529232410375e-14
21		1.621810097358929e+00,0.000000000000000e+00
	-4.742307252044287e-03,5.486415291433947e-10
	1.000000000000000e+00,0.000000000000000e+00
	0.000000000000000e+00,0.000000000000000e+00
	4.742307252044286e-07,-5.486415291433947e-14
	2.995912053507078e-23,3.621232885688299e-13
	4.742307237533852e-15,-1.030615630671531e-14
	-4.742307299467359e-07,-2.969529793477752e-13
	-4.742307252044287e-07,5.486415291433947e-14
	-2.995912053507078e-23,-3.621232885688299e-13
	-4.742307252044287e-07,5.486415291433947e-14
22		1.659586907437560e+00,0.000000000000000e+00
	-4.742307252044287e-03,5.614210320466329e-10
	1.000000000000000e+00,0.000000000000000e+00
	0.000000000000000e+00,0.000000000000000e+00
	4.742307252044286e-07,-5.614210320466329e-14
	3.137105038677055e-23,3.705582235341450e-13
	4.742307237533852e-15,-1.054621752601183e-14
	-4.742307299467359e-07,-3.038699028034698e-13
	-4.742307252044287e-07,5.614210320466329e-14
	-3.137105038677055e-23,-3.705582235341450e-13
	-4.742307252044287e-07,5.614210320466329e-14
23		1.698243652461743e+00,0.000000000000000e+00
	-4.742307252044287e-03,5.744982078123482e-10
	1.000000000000000e+00,0.000000000000000e+00
	0.000000000000000e+00,0.000000000000000e+00
	4.742307252044286e-07,-5.744982078123482e-14
	3.284952244233067e-23,3.791896333744958e-13
	4.742307237533852e-15,-1.079187048943643e-14
	-4.742307299467359e-07,-3.109479421038245e-13
	-4.742307252044287e-07,5.744982078123482e-14
	-3.284952244233067e-23,-3.791896333744958e-13
	-4.742307252044287e-07,5.744982078123482e-14
24		1.737800828749374e+00,0.000000000000000e+00
	-4.742307252044287e-03,5.878799901322282e-10
	1.000000000000000e+00,0.000000000000000e+00
	0.000000000000000e+00,0.000000000000000e+00
	4.742307252044286e-07,-5.878799901322283e-14
	3.439767273920314e-23,3.880220945776298e-13
	4.742307237533852e-15,-1.104324544544172e-14
	-4.742307299467359e-07,-3.181908501189653e-13
	-4.742307252044287e-07,5.878799901322283e-14
	-3.439767273920314e-23,-3.880220945776298e-13
	-4.742307252044287e-07,5.878799901322283e-14
25		1.778279410038922e+00,0.000000000000000e+00
	-4.742307252044287e-03,6.015734742043880e-10
	1.000000000000000e+00,0.000000000000000e+00
	0.000000000000000e+00,0.000000000000000e+00
	4.742307252044286e-07,-6.015734742043880e-14
	3.601878511173179e-23,3.970602902313886e-13
	4.742307237533852e-15,-1.130047567635693e-14
	-4.742307299467359e-07,-3.256024671345929e-13
	-4.742307252044287e-07,6.015734742043880e-14
	-3.601878511173179e-23,-3.970602902313886e-13
	-4.742307252044287e-07,6.015734742043880e-14
26		1.819700858609982e+00,0.000000000000000e+00
	-4.742307252044287e-03,6.155859204953373e-10
	1.000000000000000e+00,0.000000000000000e+00
	0.000000000000000e+00,0.000000000000000e+00
	4.742307252044286e-07,-6.155859204953373e-14
	3.771629815660507e-23,4.063090125067423e-13
	4.742307237533852e-15,-1.156369756905515e-14
	-4.742307299467359e-07,-3.331867228881535e-13
	-4.742307252044287e-07,6.155859204953373e-14
	-3.771629815660507e-23,-4.063090125067423e-13
	-4.742307252044287e-07,6.155859204953373e-14
27		1.862087136662866e+00,0.000000000000000e+00
	-4.742307252044287e-03,6.299247585895759e-10
	1.000000000000000e+00,0.000000000000000e+00
	0.000000000000000e+00,0.000000000000000e+00
	4.742307252044286e-07,-6.299247585895760e-14
	3.949381252658066e-23,4.157731651986627e-13
	4.742307237533852e-15,-1.183305068726807e-14
	-4.742307299467359e-07,-3.409476386524370e-13
	-4.742307252044287e-07,6.299247585895759e-14
	-3.949381252658066e-23,-4.157731651986627e-13
	-4.742307252044287e-07,6.299247585895759e-14
28		1.905460717963246e+00,0.000000000000000e+00
	-4.742307252044287e-03,6.445975911288588e-10
	1.000000000000000e+00,0.000000000000000e+00
	0.000000000000000e+00,0.000000000000000e+00
	4.742307252044286e-07,-6.445975911288588e-14
	4.135509856795283e-23,4.254577663261798e-13
	4.742307237533852e-15,-1.210867784558436e-14
	-4.742307299467359e-07,-3.488893293677096e-13
	-4.742307252044287e-07,6.445975911288588e-14
	-4.135509856795283e-23,-4.254577663261798e-13
	-4.742307252044287e-07,6.445975911288588e-14
29		1.949844599758044e+00,0.000000000000000e+00
	-4.742307252044287e-03,6.596121978432161e-10
	1.000000000000000e+00,0.000000000000000e+00
	0.000000000000000e+00,0.000000000000000e+00
	4.742307252044286e-07,-6.596121978432160e-14
	4.330410431796230e-23,4.353679507930025e-13
	4.742307237533852e-15,-1.239072518517176e-14
	-4.742307299467359e-07,-3.570160058235091e-13
	-4.742307252044287e-07,6.596121978432162e-14
	-4.330410431796230e-23,-4.353679507930025e-13
	-4.742307252044287e-07,6.596121978432162e-14
30		1.995262314968878e+00,0.000000000000000e+00
	-4.742307252044286e-03,6.749765396758694e-10
	1.000000000000000e+00,0.000000000000000e+00
	0.000000000000000e+00,0.000000000000000e+00
	4.742307252044286e-07,-6.749765396758693e-14
	4.534496387911254e-23,4.455089731101116e-13
	4.742307237533852e-15,-1.267934225126291e-14
	-4.742307299467359e-07,-3.653319768912617e-13
	-4.742307252044286e-07,6.749765396758694e-14
	-4.534496387911254e-23,-4.455089731101116e-13
	-4.742307252044286e-07,6.749765396758694e-14
31		2.041737944669527e+00,0.000000000000000e+00
	-4.742307252044286e-03,6.906987630042294e-10
	1.000000000000000e+00,0.000000000000000e+00
	0.000000000000000e+00,0.000000000000000e+00
	4.742307252044286e-07,-6.906987630042293e-14
	4.748200618815558e-23,4.558862101817720e-13
	4.742307237533852e-15,-1.297468207244662e-14
	-4.742307299467359e-07,-3.738416518089025e-13
	-4.742307252044286e-07,6.906987630042295e-14
	-4.748200618815558e-23,-4.558862101817720e-13
	-4.742307252044286e-07,6.906987630042295e-14
32		2.089296130854037e+00,0.000000000000000e+00
	-4.742307252044286e-03,7.067872039592134e-10
	1.000000000000000e+00,0.000000000000000e+00
	0.000000000000000e+00,0.000000000000000e+00
	4.742307252044286e-07,-7.067872039592134e-14
	4.971976419834719e-23,4.665051641564383e-13
	4.742307237533852e-15,-1.327690124180528e-14
	-4.742307299467359e-07,-3.825495425187117e-13
	-4.742307252044286e-07,7.067872039592135e-14
	-4.971976419834719e-23,-4.665051641564383e-13
	-4.742307252044286e-07,7.067872039592135e-14
33		2.137962089502230e+00,0.000000000000000e+00
	-4.742307252044286e-03,7.232503928451711e-10
	1.000000000000000e+00,0.000000000000000e+00
	0.000000000000000e+00,0.000000000000000e+00
	4.742307252044286e-07,-7.232503928451711e-14
	5.206298449444838e-23,4.773714653440662e-13
	4.742307237533852e-15,-1.358615999994311e-14
	-4.742307299467359e-07,-3.914602660596060e-13
	-4.742307252044286e-07,7.232503928451711e-14
	-5.206298449444838e-23,-4.773714653440662e-13
	-4.742307252044286e-07,7.232503928451711e-14
34		2.187761623949550e+00,0.000000000000000e+00
	-4.742307252044286e-03,7.400970586627661e-10
	1.000000000000000e+00,0.000000000000000e+00
	0.000000000000000e+00,0.000000000000000e+00
	4.742307252044286e-07,-7.400970586627661e-14
	5.451663736086824e-23,4.884908752013778e-13
	4.742307237533852e-15,-1.390262231994683e-14
	-4.742307299467359e-07,-4.005785470151543e-13
	-4.742307252044286e-07,7.400970586627661e-14
	-5.451663736086824e-23,-4.884908752013778e-13
	-4.742307252044286e-07,7.400970586627661e-14
35		2.238721138568337e+00,0.000000000000000e+00
	-4.742307252044286e-03,7.573361337372067e-10
	1.000000000000000e+00,0.000000000000000e+00
	0.000000000000000e+00,0.000000000000000e+00
	4.742307252044286e-07,-7.573361337372067e-14
	5.708592732430338e-23,4.998692893866622e-13
	4.742307237533852e-15,-1.422645599432754e-14
	-4.742307299467359e-07,-4.099092200186140e-13
	-4.742307252044286e-07,7.573361337372067e-14
	-5.708592732430338e-23,-4.998692893866622e-13
	-4.742307252044286e-07,7.573361337372067e-14
36		2.290867652767770e+00,0.000000000000000e+00
	-4.742307252044286e-03,7.749767584542836e-10
	1.000000000000000e+00,0.000000000000000e+00
	0.000000000000000e+00,0.000000000000000e+00
	4.742307252044286e-07,-7.749767584542836e-14
	5.977630419323695e-23,5.115127408857318e-13
	4.742307237533852e-15,-1.455783272398587e-14
	-4.742307299467359e-07,-4.194572323163176e-13
	-4.742307252044286e-07,7.749767584542836e-14
	-5.977630419323695e-23,-5.115127408857318e-13
	-4.742307252044286e-07,7.749767584542836e-14
37		2.344228815319919e+00,0.000000000000000e+00
	-4.742307252044286e-03,7.930282861067230e-10
	1.000000000000000e+00,0.000000000000000e+00
	0.000000000000000e+00,0.000000000000000e+00
	4.742307252044286e-07,-7.930282861067231e-14
	6.259347461771311e-23,5.234274032106906e-13
	4.742307237533852e-15,-1.489692820925029e-14
	-4.742307299467359e-07,-4.292276463907680e-13
	-4.742307252044286e-07,7.930282861067231e-14
	-6.259347461771311e-23,-5.234274032106906e-13
	-4.742307252044286e-07,7.930282861067231e-14
38		2.398832919019488e+00,0.000000000000000e+00
	-4.742307252044286e-03,8.115002878534267e-10
	1.000000000000000e+00,0.000000000000000e+00
	0.000000000000000e+00,0.000000000000000e+00
