Title: * GA CMOS Amp | W=2.007912066893796e-06 L=7.896833765981299e-07 Vbias=1.5
Date: Sat Sep  6 22:07:11 2025
Plotname: AC Analysis
Flags: complex forward log
No. Variables: 13
No. Points:          901
Offset:    0.0000000000000000e+00
Command: Linear Technology Corporation LTspice
Variables:
	0	frequency	frequency
	1	V(out)	voltage
	2	V(g)	voltage
	3	V(vdd)	voltage
	4	V(m1#dbody)	voltage
	5	V(m1#sbody)	voltage
	6	Id(M1)	device_current
	7	Ig(M1)	device_current
	8	Ib(M1)	device_current
	9	Is(M1)	device_current
	10	I(Rload)	device_current
	11	I(Vg)	device_current
	12	I(Vdd)	device_current
Values:
0		1.000000000000000e+00,0.000000000000000e+00
	-2.627473631110090e-01,9.586560336895423e-10
	1.000000000000000e+00,0.000000000000000e+00
	0.000000000000000e+00,0.000000000000000e+00
	5.791360486217100e-05,9.600969187670645e-14
	5.791360683277251e-05,1.063132839808391e-13
	2.627473631110089e-05,-9.586560336895420e-14
	3.454915955344574e-05,3.570907022215267e-13
	-3.088725686944590e-05,-5.601526557193158e-14
	-2.993663899510072e-05,-2.052098332806409e-13
	-2.627473631110090e-05,9.586560336895424e-14
	-3.454915955369842e-05,-3.570907022215268e-13
	-2.627473631110090e-05,9.586560336895424e-14
1		1.023292992280754e+00,0.000000000000000e+00
	-2.627473631110090e-01,9.809860012821714e-10
	1.000000000000000e+00,0.000000000000000e+00
	0.000000000000000e+00,0.000000000000000e+00
	5.791360486217100e-05,9.824604488846812e-14
	5.791360683277251e-05,1.087896384839464e-13
	2.627473631110089e-05,-9.809860012821709e-14
	3.454915955344574e-05,3.654084131919018e-13
	-3.088725686944590e-05,-5.732002872050295e-14
	-2.993663899510072e-05,-2.099897843431817e-13
	-2.627473631110090e-05,9.809860012821714e-14
	-3.454915955369842e-05,-3.654084131919017e-13
	-2.627473631110090e-05,9.809860012821714e-14
2		1.047128548050899e+00,0.000000000000000e+00
	-2.627473631110090e-01,1.003836100637564e-09
	1.000000000000000e+00,0.000000000000000e+00
	0.000000000000000e+00,0.000000000000000e+00
	5.791360486217100e-05,1.005344892536698e-13
	5.791360683277251e-05,1.113236746933790e-13
	2.627473631110089e-05,-1.003836100637565e-13
	3.454915955344574e-05,3.739198685397034e-13
	-3.088725686944590e-05,-5.865518370702224e-14
	-2.993663899510072e-05,-2.148810747689247e-13
	-2.627473631110090e-05,1.003836100637564e-13
	-3.454915955369842e-05,-3.739198685397033e-13
	-2.627473631110090e-05,1.003836100637564e-13
3		1.071519305237606e+00,0.000000000000000e+00
	-2.627473631110090e-01,1.027218447180857e-09
	1.000000000000000e+00,0.000000000000000e+00
	0.000000000000000e+00,0.000000000000000e+00
	5.791360486217100e-05,1.028762383358051e-13
	5.791360683277251e-05,1.139167361886771e-13
	2.627473631110089e-05,-1.027218447180857e-13
	3.454915955344574e-05,3.826295811512192e-13
	-3.088725686944590e-05,-6.002143844833612e-14
	-2.993663899510072e-05,-2.198862979847974e-13
	-2.627473631110090e-05,1.027218447180857e-13
	-3.454915955369842e-05,-3.826295811512193e-13
	-2.627473631110090e-05,1.027218447180857e-13
4		1.096478196143185e+00,0.000000000000000e+00
	-2.627473631110090e-01,1.051145438541689e-09
	1.000000000000000e+00,0.000000000000000e+00
	0.000000000000000e+00,0.000000000000000e+00
	5.791360486217100e-05,1.052725337612340e-13
	5.791360683277251e-05,1.165701978453687e-13
	2.627473631110089e-05,-1.051145438541689e-13
	3.454915955344574e-05,3.915421690313627e-13
	-3.088725686944590e-05,-6.141951735079296e-14
	-2.993663899510072e-05,-2.250081078264008e-13
	-2.627473631110090e-05,1.051145438541689e-13
	-3.454915955369842e-05,-3.915421690313627e-13
	-2.627473631110090e-05,1.051145438541689e-13
5		1.122018454301963e+00,0.000000000000000e+00
	-2.627473631110090e-01,1.075629761127591e-09
	1.000000000000000e+00,0.000000000000000e+00
	0.000000000000000e+00,0.000000000000000e+00
	5.791360486217100e-05,1.077246460775099e-13
	5.791360683277251e-05,1.192854665639469e-13
	2.627473631110089e-05,-1.075629761127591e-13
	3.454915955344574e-05,4.006623577522001e-13
	-3.088725686944590e-05,-6.285016169433266e-14
	-2.993663899510072e-05,-2.302492199451083e-13
	-2.627473631110090e-05,1.075629761127591e-13
	-3.454915955369842e-05,-4.006623577522001e-13
	-2.627473631110090e-05,1.075629761127591e-13
6		1.148153621496882e+00,0.000000000000000e+00
	-2.627473631110090e-01,1.100684396850485e-09
	1.000000000000000e+00,0.000000000000000e+00
	0.000000000000000e+00,0.000000000000000e+00
	5.791360486217100e-05,1.102338754270403e-13
	5.791360683277251e-05,1.220639820158270e-13
	2.627473631110089e-05,-1.100684396850485e-13
	3.454915955344574e-05,4.099949829585107e-13
	-3.088725686944590e-05,-6.431413002552286e-14
	-2.993663899510072e-05,-2.356124132479394e-13
	-2.627473631110090e-05,1.100684396850485e-13
	-3.454915955369842e-05,-4.099949829585107e-13
	-2.627473631110090e-05,1.100684396850485e-13
7		1.174897554939529e+00,0.000000000000000e+00
	-2.627473631110090e-01,1.126322630009870e-09
	1.000000000000000e+00,0.000000000000000e+00
	0.000000000000000e+00,0.000000000000000e+00
	5.791360486217100e-05,1.128015522364399e-13
	5.791360683277251e-05,1.249072174066797e-13
	2.627473631110089e-05,-1.126322630009870e-13
	3.454915955344574e-05,4.195449929317112e-13
	-3.088725686944590e-05,-6.581219855975077e-14
	-2.993663899510072e-05,-2.411005313709735e-13
	-2.627473631110090e-05,1.126322630009870e-13
	-3.454915955369842e-05,-4.195449929317113e-13
	-2.627473631110090e-05,1.126322630009870e-13
8		1.202264434617413e+00,0.000000000000000e+00
	-2.627473631110090e-01,1.152558054336329e-09
	1.000000000000000e+00,0.000000000000000e+00
	0.000000000000000e+00,0.000000000000000e+00
	5.791360486217100e-05,1.154290379219405e-13
	5.791360683277251e-05,1.278166802575440e-13
	2.627473631110089e-05,-1.152558054336329e-13
	3.454915955344574e-05,4.293174512134987e-13
	-3.088725686944590e-05,-6.734516159278254e-14
	-2.993663899510072e-05,-2.467164841870833e-13
	-2.627473631110090e-05,1.152558054336328e-13
	-3.454915955369842e-05,-4.293174512134987e-13
	-2.627473631110090e-05,1.152558054336328e-13
9		1.230268770812381e+00,0.000000000000000e+00
	-2.627473631110090e-01,1.179404580199106e-09
	1.000000000000000e+00,0.000000000000000e+00
	0.000000000000000e+00,0.000000000000000e+00
	5.791360486217100e-05,1.181177256112311e-13
	5.791360683277251e-05,1.307939132041346e-13
	2.627473631110089e-05,-1.179404580199106e-13
	3.454915955344574e-05,4.393175392906077e-13
	-3.088725686944590e-05,-6.891383192190934e-14
	-2.993663899510072e-05,-2.524632493487878e-13
	-2.627473631110090e-05,1.179404580199106e-13
	-3.454915955369842e-05,-4.393175392906078e-13
	-2.627473631110090e-05,1.179404580199106e-13
10		1.258925411794167e+00,0.000000000000000e+00
	-2.627473631110090e-01,1.206876441981570e-09
	1.000000000000000e+00,0.000000000000000e+00
	0.000000000000000e+00,0.000000000000000e+00
	5.791360486217100e-05,1.208690408821137e-13
	5.791360683277251e-05,1.338404948147681e-13
	2.627473631110089e-05,-1.206876441981569e-13
	3.454915955344574e-05,4.495505593421038e-13
	-3.088725686944590e-05,-7.051904127690358e-14
	-2.993663899510072e-05,-2.583438738670432e-13
	-2.627473631110090e-05,1.206876441981570e-13
	-3.454915955369842e-05,-4.495505593421038e-13
	-2.627473631110090e-05,1.206876441981570e-13
11		1.288249551693134e+00,0.000000000000000e+00
	-2.627473631110090e-01,1.234988205628470e-09
	1.000000000000000e+00,0.000000000000000e+00
	0.000000000000000e+00,0.000000000000000e+00
	5.791360486217100e-05,1.236844425183630e-13
	5.791360683277251e-05,1.369580404273408e-13
	2.627473631110089e-05,-1.234988205628470e-13
	3.454915955344574e-05,4.600219370506682e-13
	-3.088725686944590e-05,-7.216164076101268e-14
	-2.993663899510072e-05,-2.643614757268084e-13
	-2.627473631110090e-05,1.234988205628470e-13
	-3.454915955369842e-05,-4.600219370506682e-13
	-2.627473631110090e-05,1.234988205628470e-13
12		1.318256738556407e+00,0.000000000000000e+00
	-2.627473631110090e-01,1.263754776368997e-09
	1.000000000000000e+00,0.000000000000000e+00
	0.000000000000000e+00,0.000000000000000e+00
	5.791360486217100e-05,1.265654232831926e-13
	5.791360683277251e-05,1.401482030058021e-13
	2.627473631110089e-05,-1.263754776368997e-13
	3.454915955344574e-05,4.707372244793668e-13
	-3.088725686944590e-05,-7.384250130222550e-14
	-2.993663899510072e-05,-2.705192455402417e-13
	-2.627473631110090e-05,1.263754776368997e-13
	-3.454915955369842e-05,-4.707372244793669e-13
	-2.627473631110090e-05,1.263754776368997e-13
13		1.348962882591653e+00,0.000000000000000e+00
	-2.627473631110090e-01,1.293191406619726e-09
	1.000000000000000e+00,0.000000000000000e+00
	0.000000000000000e+00,0.000000000000000e+00
	5.791360486217100e-05,1.295135107107384e-13
	5.791360683277251e-05,1.434126740165778e-13
	2.627473631110089e-05,-1.293191406619726e-13
	3.454915955344574e-05,4.817021030154284e-13
	-3.088725686944590e-05,-7.556251411504979e-14
	-2.993663899510072e-05,-2.768204482384060e-13
	-2.627473631110090e-05,1.293191406619726e-13
	-3.454915955369842e-05,-4.817021030154284e-13
	-2.627473631110090e-05,1.293191406619726e-13
14		1.380384264602885e+00,0.000000000000000e+00
	-2.627473631110090e-01,1.323313704071657e-09
	1.000000000000000e+00,0.000000000000000e+00
	0.000000000000000e+00,0.000000000000000e+00
	5.791360486217100e-05,1.325302679159769e-13
	5.791360683277251e-05,1.467531843254083e-13
	2.627473631110089e-05,-1.323313704071657e-13
	3.454915955344574e-05,4.929223863825898e-13
	-3.088725686944590e-05,-7.732259117304604e-14
	-2.993663899510072e-05,-2.832684248023781e-13
	-2.627473631110090e-05,1.323313704071657e-13
	-3.454915955369842e-05,-4.929223863825898e-13
	-2.627473631110090e-05,1.323313704071657e-13
15		1.412537544622754e+00,0.000000000000000e+00
	-2.627473631110090e-01,1.354137639965614e-09
	1.000000000000000e+00,0.000000000000000e+00
	0.000000000000000e+00,0.000000000000000e+00
	5.791360486217100e-05,1.356172944235101e-13
	5.791360683277251e-05,1.501715051150761e-13
	2.627473631110089e-05,-1.354137639965614e-13
	3.454915955344574e-05,5.044040237236104e-13
	-3.088725686944590e-05,-7.912366569236773e-14
	-2.993663899510072e-05,-2.898665940346813e-13
	-2.627473631110090e-05,1.354137639965614e-13
	-3.454915955369842e-05,-5.044040237236105e-13
	-2.627473631110090e-05,1.354137639965614e-13
16		1.445439770745927e+00,0.000000000000000e+00
	-2.627473631110090e-01,1.385679557560412e-09
	1.000000000000000e+00,0.000000000000000e+00
	0.000000000000000e+00,0.000000000000000e+00
	5.791360486217100e-05,1.387762270156536e-13
	5.791360683277251e-05,1.536694488245108e-13
	2.627473631110089e-05,-1.385679557560411e-13
	3.454915955344574e-05,5.161531027545857e-13
	-3.088725686944590e-05,-8.096669262656500e-14
	-2.993663899510072e-05,-2.966184543719795e-13
	-2.627473631110090e-05,1.385679557560412e-13
	-3.454915955369842e-05,-5.161531027545857e-13
	-2.627473631110090e-05,1.385679557560412e-13
17		1.479108388168207e+00,0.000000000000000e+00
	-2.627473631110090e-01,1.417956180798265e-09
	1.000000000000000e+00,0.000000000000000e+00
	0.000000000000000e+00,0.000000000000000e+00
	5.791360486217100e-05,1.420087406002815e-13
	5.791360683277251e-05,1.572488701097678e-13
	2.627473631110089e-05,-1.417956180798265e-13
	3.454915955344574e-05,5.281758529927355e-13
	-3.088725686944590e-05,-8.285264917291377e-14
	-2.993663899510072e-05,-3.035275857399953e-13
	-2.627473631110090e-05,1.417956180798265e-13
	-3.454915955369842e-05,-5.281758529927354e-13
	-2.627473631110090e-05,1.417956180798265e-13
18		1.513561248436208e+00,0.000000000000000e+00
	-2.627473631110090e-01,1.450984623172046e-09
	1.000000000000000e+00,0.000000000000000e+00
	0.000000000000000e+00,0.000000000000000e+00
	5.791360486217100e-05,1.453165490988834e-13
	5.791360683277251e-05,1.609116668273920e-13
	2.627473631110089e-05,-1.450984623172046e-13
	3.454915955344574e-05,5.404786490593759e-13
	-3.088725686944590e-05,-8.478253529053845e-14
	-2.993663899510072e-05,-3.105976514516329e-13
	-2.627473631110090e-05,1.450984623172046e-13
	-3.454915955369842e-05,-5.404786490593761e-13
	-2.627473631110090e-05,1.450984623172046e-13
19		1.548816618912481e+00,0.000000000000000e+00
	-2.627473631110090e-01,1.484782396799086e-09
	1.000000000000000e+00,0.000000000000000e+00
	0.000000000000000e+00,0.000000000000000e+00
	5.791360486217100e-05,1.487014063553095e-13
	5.791360683277251e-05,1.646597810406856e-13
	2.627473631110089e-05,-1.484782396799086e-13
	3.454915955344574e-05,5.530680140598284e-13
	-3.088725686944590e-05,-8.675737423060373e-14
	-2.993663899510072e-05,-3.178324001493161e-13
	-2.627473631110090e-05,1.484782396799086e-13
	-3.454915955369842e-05,-5.530680140598284e-13
	-2.627473631110090e-05,1.484782396799086e-13
20		1.584893192461113e+00,0.000000000000000e+00
	-2.627473631110090e-01,1.519367421706327e-09
	1.000000000000000e+00,0.000000000000000e+00
	0.000000000000000e+00,0.000000000000000e+00
	5.791360486217100e-05,1.521651070656810e-13
	5.791360683277251e-05,1.684952000494170e-13
	2.627473631110089e-05,-1.519367421706326e-13
	3.454915955344574e-05,5.659506230420561e-13
	-3.088725686944590e-05,-8.877821307885570e-14
	-2.993663899510072e-05,-3.252356677925678e-13
	-2.627473631110090e-05,1.519367421706327e-13
	-3.454915955369842e-05,-5.659506230420561e-13
	-2.627473631110090e-05,1.519367421706327e-13
21		1.621810097358929e+00,0.000000000000000e+00
	-2.627473631110090e-01,1.554758035331761e-09
	1.000000000000000e+00,0.000000000000000e+00
	0.000000000000000e+00,0.000000000000000e+00
	5.791360486217100e-05,1.557094877299620e-13
	5.791360683277251e-05,1.724199574435122e-13
	2.627473631110089e-05,-1.554758035331761e-13
	3.454915955344574e-05,5.791333065358627e-13
	-3.088725686944590e-05,-9.084612331080060e-14
	-2.993663899510072e-05,-3.328113796918859e-13
	-2.627473631110090e-05,1.554758035331761e-13
	-3.454915955369842e-05,-5.791333065358626e-13
	-2.627473631110090e-05,1.554758035331761e-13
22		1.659586907437560e+00,0.000000000000000e+00
	-2.627473631110090e-01,1.590973002247185e-09
	1.000000000000000e+00,0.000000000000000e+00
	0.000000000000000e+00,0.000000000000000e+00
	5.791360486217100e-05,1.593364276256963e-13
	5.791360683277251e-05,1.764361341812920e-13
	2.627473631110089e-05,-1.590973002247184e-13
	3.454915955344574e-05,5.926230541745301e-13
	-3.088725686944590e-05,-9.296220135981556e-14
	-2.993663899510072e-05,-3.405635525899961e-13
	-2.627473631110090e-05,1.590973002247185e-13
	-3.454915955369842e-05,-5.926230541745301e-13
	-2.627473631110090e-05,1.590973002247185e-13
23		1.698243652461743e+00,0.000000000000000e+00
	-2.627473631110090e-01,1.628031524107416e-09
	1.000000000000000e+00,0.000000000000000e+00
	0.000000000000000e+00,0.000000000000000e+00
	5.791360486217100e-05,1.630478498044245e-13
	5.791360683277251e-05,1.805458596928228e-13
	2.627473631110089e-05,-1.628031524107416e-13
	3.454915955344574e-05,6.064270184008144e-13
	-3.088725686944590e-05,-9.512756919849163e-14
	-2.993663899510072e-05,-3.484962967915812e-13
	-2.627473631110090e-05,1.628031524107416e-13
	-3.454915955369842e-05,-6.064270184008144e-13
	-2.627473631110090e-05,1.628031524107416e-13
24		1.737800828749374e+00,0.000000000000000e+00
	-2.627473631110090e-01,1.665953249831275e-09
	1.000000000000000e+00,0.000000000000000e+00
	0.000000000000000e+00,0.000000000000000e+00
	5.791360486217100e-05,1.668457221113125e-13
	5.791360683277251e-05,1.847513130089698e-13
	2.627473631110089e-05,-1.665953249831275e-13
	3.454915955344574e-05,6.205525182592653e-13
	-3.088725686944590e-05,-9.734337493351899e-14
	-2.993663899510072e-05,-3.566138183426188e-13
	-2.627473631110090e-05,1.665953249831275e-13
	-3.454915955369842e-05,-6.205525182592653e-13
	-2.627473631110090e-05,1.665953249831275e-13
25		1.778279410038922e+00,0.000000000000000e+00
	-2.627473631110090e-01,1.704758286019692e-09
	1.000000000000000e+00,0.000000000000000e+00
	0.000000000000000e+00,0.000000000000000e+00
	5.791360486217100e-05,1.707320582285281e-13
	5.791360683277251e-05,1.890547239167470e-13
	2.627473631110089e-05,-1.704758286019691e-13
	3.454915955344574e-05,6.350070432768807e-13
	-3.088725686944590e-05,-9.961079341442799e-14
	-2.993663899510072e-05,-3.649204212604836e-13
	-2.627473631110090e-05,1.704758286019692e-13
	-3.454915955369842e-05,-6.350070432768808e-13
	-2.627473631110090e-05,1.704758286019692e-13
26		1.819700858609982e+00,0.000000000000000e+00
	-2.627473631110090e-01,1.744467207616500e-09
	1.000000000000000e+00,0.000000000000000e+00
	0.000000000000000e+00,0.000000000000000e+00
	5.791360486217100e-05,1.747089187429225e-13
	5.791360683277251e-05,1.934583741415799e-13
	2.627473631110089e-05,-1.744467207616500e-13
	3.454915955344574e-05,6.497982574341537e-13
	-3.088725686944590e-05,-1.019310268565101e-13
	-2.993663899510072e-05,-3.734205098159936e-13
	-2.627473631110090e-05,1.744467207616500e-13
	-3.454915955369842e-05,-6.497982574341536e-13
	-2.627473631110090e-05,1.744467207616500e-13
27		1.862087136662866e+00,0.000000000000000e+00
	-2.627473631110090e-01,1.785101068817539e-09
	1.000000000000000e+00,0.000000000000000e+00
	0.000000000000000e+00,0.000000000000000e+00
	5.791360486217100e-05,1.787784122385803e-13
	5.791360683277251e-05,1.979645985571069e-13
	2.627473631110089e-05,-1.785101068817539e-13
	3.454915955344574e-05,6.649340032286147e-13
	-3.088725686944590e-05,-1.043053054782481e-13
	-2.993663899510072e-05,-3.821185908686128e-13
	-2.627473631110090e-05,1.785101068817539e-13
	-3.454915955369842e-05,-6.649340032286149e-13
	-2.627473631110090e-05,1.785101068817539e-13
28		1.905460717963246e+00,0.000000000000000e+00
	-2.627473631110090e-01,1.826681414233872e-09
	1.000000000000000e+00,0.000000000000000e+00
	0.000000000000000e+00,0.000000000000000e+00
	5.791360486217100e-05,1.829426964148191e-13
	5.791360683277251e-05,2.025757864231602e-13
	2.627473631110089e-05,-1.826681414233873e-13
	3.454915955344574e-05,6.804223058330299e-13
	-3.088725686944590e-05,-1.067348881535946e-13
	-2.993663899510072e-05,-3.910192762560480e-13
	-2.627473631110090e-05,1.826681414233872e-13
	-3.454915955369842e-05,-6.804223058330300e-13
	-2.627473631110090e-05,1.826681414233872e-13
29		1.949844599758044e+00,0.000000000000000e+00
	-2.627473631110090e-01,1.869230290315019e-09
	1.000000000000000e+00,0.000000000000000e+00
	0.000000000000000e+00,0.000000000000000e+00
	5.791360486217100e-05,1.872039792302298e-13
	5.791360683277251e-05,2.072943826525826e-13
	2.627473631110089e-05,-1.869230290315020e-13
	3.454915955344574e-05,6.962713773504517e-13
	-3.088725686944590e-05,-1.092210630794435e-13
	-2.993663899510072e-05,-4.001272852395063e-13
	-2.627473631110090e-05,1.869230290315019e-13
	-3.454915955369842e-05,-6.962713773504518e-13
	-2.627473631110090e-05,1.869230290315019e-13
30		1.995262314968878e+00,0.000000000000000e+00
	-2.627473631110090e-01,1.912770257038279e-09
	1.000000000000000e+00,0.000000000000000e+00
	0.000000000000000e+00,0.000000000000000e+00
	5.791360486217100e-05,1.915645200733660e-13
	5.791360683277251e-05,2.121228891075529e-13
	2.627473631110089e-05,-1.912770257038278e-13
	3.454915955344574e-05,7.124896211683856e-13
	-3.088725686944590e-05,-1.117651484586487e-13
	-2.993663899510072e-05,-4.094474470059092e-13
	-2.627473631110090e-05,1.912770257038279e-13
	-3.454915955369842e-05,-7.124896211683855e-13
	-2.627473631110090e-05,1.912770257038279e-13
31		2.041737944669527e+00,0.000000000000000e+00
	-2.627473631110090e-01,1.957324399870327e-09
	1.000000000000000e+00,0.000000000000000e+00
	0.000000000000000e+00,0.000000000000000e+00
	5.791360486217100e-05,1.960266309607012e-13
	5.791360683277251e-05,2.170638659261063e-13
	2.627473631110089e-05,-1.957324399870327e-13
	3.454915955344574e-05,7.290856364143781e-13
	-3.088725686944590e-05,-1.143684931989533e-13
	-2.993663899510072e-05,-4.189847032283921e-13
	-2.627473631110090e-05,1.957324399870327e-13
	-3.454915955369842e-05,-7.290856364143782e-13
	-2.627473631110090e-05,1.957324399870327e-13
32		2.089296130854037e+00,0.000000000000000e+00
	-2.627473631110090e-01,2.002916342007439e-09
	1.000000000000000e+00,0.000000000000000e+00
	0.000000000000000e+00,0.000000000000000e+00
	5.791360486217100e-05,2.005926777624911e-13
