LTspice 24.0.9 for Windows
Circuit: * GA CMOS Amp | W=2.1063259091931684e-05 L=8.961425454849741e-07 Vbias=1.0086290219448013
Start Time: Mon Sep  8 18:46:07 2025
solver = Normal
Maximum thread count: 2
tnom = 27
temp = 27
method = modified trap
AsciiRawFile = 1
Instance "m1": Length shorter than recommended for a level 3 MOSFET.
Direct Newton iteration for .op point succeeded.
Semiconductor Device Operating Points:
                        --- MOSFET Transistors ---
Name:          m1
Model:        n_1u
Id:          9.36e-05
Vgs:         1.01e+00
Vds:         8.64e-01
Vbs:         0.00e+00
Vth:         8.03e-01
Vdsat:       2.06e-01
Gm:          6.40e-04
Gds:         1.85e-05
Gmb:         1.47e-04
Cbd:         0.00e+00
Cbs:         0.00e+00
Cgsov:       4.21e-15
Cgdov:       4.21e-15
Cgbov:       6.96e-17
Cgs:         1.69e-14
Cgd:         0.00e+00
Cgb:         0.00e+00



gain_db: MAX(db(v(out)/v(g)))=(29.819dB,61.7725°) FROM 1 TO 1e+09
gain_lin: MAX(mag(v(out)/v(g)))=(14.6483dB,0°) FROM 1 TO 1e+09

Measurement "fc" FAIL'ed

Total elapsed time: 0.489 seconds.

