LTspice 24.0.9 for Windows
Circuit: * GA CMOS Amp | W=1e-06 L=8.91830098703086e-07 Vbias=0.9641993608364058
Start Time: Mon Sep  8 18:44:21 2025
solver = Normal
Maximum thread count: 2
tnom = 27
temp = 27
method = modified trap
AsciiRawFile = 1
Instance "m1": Length shorter than recommended for a level 3 MOSFET.
Instance "m1": Width narrower than recommended for a level 3 MOSFET.
Direct Newton iteration for .op point succeeded.
Semiconductor Device Operating Points:
                        --- MOSFET Transistors ---
Name:          m1
Model:        n_1u
Id:          1.35e-07
Vgs:         9.64e-01
Vds:         1.80e+00
Vbs:         0.00e+00
Vth:         9.95e-01
Vdsat:       4.18e-02
Gm:          2.32e-06
Gds:         8.21e-09
Gmb:         1.15e-06
Cbd:         0.00e+00
Cbs:         0.00e+00
Cgsov:       2.00e-16
Cgdov:       2.00e-16
Cgbov:       6.92e-17
Cgs:         7.27e-16
Cgd:         0.00e+00
Cgb:         5.18e-17



gain_db: MAX(db(v(out)/v(g)))=(32.5828dB,140.137°) FROM 1 TO 1e+09
gain_lin: MAX(mag(v(out)/v(g)))=(-31.5648dB,0°) FROM 1 TO 1e+09

Measurement "fc" FAIL'ed

Total elapsed time: 0.529 seconds.

