LTspice 24.0.9 for Windows
Circuit: * GA CMOS Amp | W=3.7107716489025766e-05 L=8.317019536781344e-07 Vbias=0.8130850546471771
Start Time: Mon Sep  8 18:42:59 2025
solver = Normal
Maximum thread count: 2
tnom = 27
temp = 27
method = modified trap
AsciiRawFile = 1
Instance "m1": Length shorter than recommended for a level 3 MOSFET.
Direct Newton iteration for .op point succeeded.
Semiconductor Device Operating Points:
                        --- MOSFET Transistors ---
Name:          m1
Model:        n_1u
Id:          1.85e-05
Vgs:         8.13e-01
Vds:         1.61e+00
Vbs:         0.00e+00
Vth:         7.92e-01
Vdsat:       6.59e-02
Gm:          4.69e-04
Gds:         1.87e-06
Gmb:         1.04e-04
Cbd:         0.00e+00
Cbs:         0.00e+00
Cgsov:       7.42e-15
Cgdov:       7.42e-15
Cgbov:       6.32e-17
Cgs:         2.70e-14
Cgd:         0.00e+00
Cgb:         0.00e+00



gain_db: MAX(db(v(out)/v(g)))=(29.6412dB,64.0665°) FROM 1 TO 1e+09
gain_lin: MAX(mag(v(out)/v(g)))=(13.2698dB,0°) FROM 1 TO 1e+09

Measurement "fc" FAIL'ed

Total elapsed time: 0.506 seconds.

