LTspice 24.0.9 for Windows
Circuit: * GA CMOS Amp | W=5e-05 L=4.73321232025375e-07 Vbias=1.29079163493584
Start Time: Mon Sep  8 18:45:04 2025
solver = Normal
Maximum thread count: 2
tnom = 27
temp = 27
method = modified trap
AsciiRawFile = 1
Instance "m1": Length shorter than recommended for a level 3 MOSFET.
Direct Newton iteration for .op point succeeded.
Semiconductor Device Operating Points:
                        --- MOSFET Transistors ---
Name:          m1
Model:        n_1u
Id:          1.79e-04
Vgs:         1.29e+00
Vds:         1.40e-02
Vbs:         0.00e+00
Vth:         6.98e-01
Vdsat:       2.97e-01
Gm:          2.63e-04
Gds:         1.23e-02
Gmb:         3.14e-05
Cbd:         0.00e+00
Cbs:         0.00e+00
Cgsov:       1.00e-14
Cgdov:       1.00e-14
Cgbov:       2.73e-17
Cgs:         1.20e-14
Cgd:         1.16e-14
Cgb:         0.00e+00



gain_db: MAX(db(v(out)/v(g)))=(32.7016dB,140.784°) FROM 1 TO 1e+09
gain_lin: MAX(mag(v(out)/v(g)))=(-32.3969dB,0°) FROM 1 TO 1e+09

Measurement "fc" FAIL'ed

Total elapsed time: 0.525 seconds.

