Title: * GA CMOS Amp | W=1.8603395470297766e-05 L=7.04485477906462e-07 Vbias=0.9851250448203792
Date: Mon Sep  8 18:45:28 2025
Plotname: AC Analysis
Flags: complex forward log
No. Variables: 11
No. Points:          901
Offset:    0.0000000000000000e+00
Command: Linear Technology Corporation LTspice
Variables:
	0	frequency	frequency
	1	V(out)	voltage
	2	V(g)	voltage
	3	V(vdd)	voltage
	4	Id(M1)	device_current
	5	Ig(M1)	device_current
	6	Ib(M1)	device_current
	7	Is(M1)	device_current
	8	I(Rload)	device_current
	9	I(Vg)	device_current
	10	I(Vdd)	device_current
Values:
0		1.000000000000000e+00,0.000000000000000e+00
	-5.272771794718523e+00,3.003245767000696e-09
	1.000000000000000e+00,0.000000000000000e+00
	0.000000000000000e+00,0.000000000000000e+00
	5.272771794718524e-04,-3.003245767000696e-13
	1.503069991203198e-22,4.030315833478064e-13
	5.272771802511400e-12,1.084286250397542e-14
	-5.272771847446242e-04,-1.135498691517123e-13
	-5.272771794718522e-04,3.003245767000696e-13
	-1.503069991203198e-22,-4.030315833478064e-13
	-5.272771794718522e-04,3.003245767000696e-13
1		1.023292992280754e+00,0.000000000000000e+00
	-5.272771794718523e+00,3.073200347468650e-09
	1.000000000000000e+00,0.000000000000000e+00
	0.000000000000000e+00,0.000000000000000e+00
	5.272771794718524e-04,-3.073200347468650e-13
	1.573907497507483e-22,4.124193949076270e-13
	5.272771802511400e-12,1.109542521658173e-14
	-5.272771847446242e-04,-1.161947853773437e-13
	-5.272771794718522e-04,3.073200347468650e-13
	-1.573907497507483e-22,-4.124193949076270e-13
	-5.272771794718522e-04,3.073200347468650e-13
2		1.047128548050899e+00,0.000000000000000e+00
	-5.272771794718523e+00,3.144784379439447e-09
	1.000000000000000e+00,0.000000000000000e+00
	0.000000000000000e+00,0.000000000000000e+00
	5.272771794718524e-04,-3.144784379439449e-13
	1.648083472631435e-22,4.220258766896436e-13
	5.272771802511400e-12,1.135387087050331e-14
	-5.272771847446242e-04,-1.189013096162021e-13
	-5.272771794718522e-04,3.144784379439448e-13
	-1.648083472631435e-22,-4.220258766896436e-13
	-5.272771794718522e-04,3.144784379439448e-13
3		1.071519305237606e+00,0.000000000000000e+00
	-5.272771794718523e+00,3.218035817714367e-09
	1.000000000000000e+00,0.000000000000000e+00
	0.000000000000000e+00,0.000000000000000e+00
	5.272771794718524e-04,-3.218035817714368e-13
	1.725755253763239e-22,4.318561221776539e-13
	5.272771802511400e-12,1.161833649704669e-14
	-5.272771847446242e-04,-1.216708769032638e-13
	-5.272771794718522e-04,3.218035817714368e-13
	-1.725755253763239e-22,-4.318561221776539e-13
	-5.272771794718522e-04,3.218035817714368e-13
4		1.096478196143185e+00,0.000000000000000e+00
	-5.272771794718523e+00,3.292993501175577e-09
	1.000000000000000e+00,0.000000000000000e+00
	0.000000000000000e+00,0.000000000000000e+00
	5.272771794718524e-04,-3.292993501175577e-13
	1.807087593164311e-22,4.419153434979344e-13
	5.272771802511400e-12,1.188896231938743e-14
	-5.272771847446242e-04,-1.245049556997641e-13
	-5.272771794718522e-04,3.292993501175577e-13
	-1.807087593164311e-22,-4.419153434979344e-13
	-5.272771794718522e-04,3.292993501175577e-13
5		1.122018454301963e+00,0.000000000000000e+00
	-5.272771794718523e+00,3.369697173379035e-09
	1.000000000000000e+00,0.000000000000000e+00
	0.000000000000000e+00,0.000000000000000e+00
	5.272771794718524e-04,-3.369697173379035e-13
	1.892253007630940e-22,4.522088741827787e-13
	5.272771802511400e-12,1.216589182691922e-14
	-5.272771847446242e-04,-1.274050486717944e-13
	-5.272771794718522e-04,3.369697173379035e-13
	-1.892253007630940e-22,-4.522088741827787e-13
	-5.272771794718522e-04,3.369697173379035e-13
6		1.148153621496882e+00,0.000000000000000e+00
	-5.272771794718523e+00,3.448187503627031e-09
	1.000000000000000e+00,0.000000000000000e+00
	0.000000000000000e+00,0.000000000000000e+00
	5.272771794718524e-04,-3.448187503627031e-13
	1.981432144425533e-22,4.627421719984066e-13
	5.272771802511400e-12,1.244927185133205e-14
	-5.272771847446242e-04,-1.303726934870356e-13
	-5.272771794718522e-04,3.448187503627031e-13
	-1.981432144425533e-22,-4.627421719984066e-13
	-5.272771794718522e-04,3.448187503627031e-13
7		1.174897554939529e+00,0.000000000000000e+00
	-5.272771794718523e+00,3.528506108531608e-09
	1.000000000000000e+00,0.000000000000000e+00
	0.000000000000000e+00,0.000000000000000e+00
	5.272771794718524e-04,-3.528506108531608e-13
	2.074814164453689e-22,4.735208218387449e-13
	5.272771802511400e-12,1.273925264446615e-14
	-5.272771847446242e-04,-1.334094636300502e-13
	-5.272771794718522e-04,3.528506108531608e-13
	-2.074814164453689e-22,-4.735208218387449e-13
	-5.272771794718522e-04,3.528506108531608e-13
8		1.202264434617413e+00,0.000000000000000e+00
	-5.272771794718523e+00,3.610695574080228e-09
	1.000000000000000e+00,0.000000000000000e+00
	0.000000000000000e+00,0.000000000000000e+00
	5.272771794718524e-04,-3.610695574080230e-13
	2.172597143499832e-22,4.845505386866111e-13
	5.272771802511400e-12,1.303598795797646e-14
	-5.272771847446242e-04,-1.365169692365645e-13
	-5.272771794718522e-04,3.610695574080229e-13
	-2.172597143499832e-22,-4.845505386866111e-13
	-5.272771794718522e-04,3.610695574080229e-13
9		1.230268770812381e+00,0.000000000000000e+00
	-5.272771794718523e+00,3.694799478215433e-09
	1.000000000000000e+00,0.000000000000000e+00
	0.000000000000000e+00,0.000000000000000e+00
	5.272771794718524e-04,-3.694799478215432e-13
	2.274988492372511e-22,4.958371706438737e-13
	5.272771802511400e-12,1.333963512485337e-14
	-5.272771847446242e-04,-1.396968579471838e-13
	-5.272771794718522e-04,3.694799478215433e-13
	-2.274988492372511e-22,-4.958371706438737e-13
	-5.272771794718522e-04,3.694799478215433e-13
10		1.258925411794167e+00,0.000000000000000e+00
	-5.272771794718523e+00,3.780862413940439e-09
	1.000000000000000e+00,0.000000000000000e+00
	0.000000000000000e+00,0.000000000000000e+00
	5.272771794718524e-04,-3.780862413940439e-13
	2.382205396850533e-22,5.073867020321924e-13
	5.272771802511400e-12,1.365035514284470e-14
	-5.272771847446242e-04,-1.429508157809931e-13
	-5.272771794718522e-04,3.780862413940440e-13
	-2.382205396850533e-22,-5.073867020321924e-13
	-5.272771794718522e-04,3.780862413940440e-13
11		1.288249551693134e+00,0.000000000000000e+00
	-5.272771794718523e+00,3.868930012962947e-09
	1.000000000000000e+00,0.000000000000000e+00
	0.000000000000000e+00,0.000000000000000e+00
	5.272771794718524e-04,-3.868930012962948e-13
	2.494475278363116e-22,5.192052565659856e-13
	5.272771802511400e-12,1.396831275981653e-14
	-5.272771847446242e-04,-1.462805680295073e-13
	-5.272771794718522e-04,3.868930012962948e-13
	-2.494475278363116e-22,-5.192052565659856e-13
	-5.272771794718522e-04,3.868930012962948e-13
12		1.318256738556407e+00,0.000000000000000e+00
	-5.272771794718523e+00,3.959048969889671e-09
	1.000000000000000e+00,0.000000000000000e+00
	0.000000000000000e+00,0.000000000000000e+00
	5.272771794718524e-04,-3.959048969889671e-13
	2.612036276381232e-22,5.312991005993039e-13
	5.272771802511400e-12,1.429367656110619e-14
	-5.272771847446242e-04,-1.496878801714430e-13
	-5.272771794718522e-04,3.959048969889671e-13
	-2.612036276381232e-22,-5.312991005993039e-13
	-5.272771794718522e-04,3.959048969889671e-13
13		1.348962882591653e+00,0.000000000000000e+00
	-5.272771794718523e+00,4.051267066984439e-09
	1.000000000000000e+00,0.000000000000000e+00
	0.000000000000000e+00,0.000000000000000e+00
	5.272771794718524e-04,-4.051267066984440e-13
	2.735137753543358e-22,5.436746464483352e-13
	5.272771802511400e-12,1.462661905890771e-14
	-5.272771847446242e-04,-1.531745588087989e-13
	-5.272771794718522e-04,4.051267066984440e-13
	-2.735137753543358e-22,-5.436746464483352e-13
	-5.272771794718522e-04,4.051267066984440e-13
14		1.380384264602885e+00,0.000000000000000e+00
	-5.272771794718523e+00,4.145633199502982e-09
	1.000000000000000e+00,0.000000000000000e+00
	0.000000000000000e+00,0.000000000000000e+00
	5.272771794718524e-04,-4.145633199502982e-13
	2.864040824587057e-22,5.563384557912981e-13
	5.272771802511400e-12,1.496731678374029e-14
	-5.272771847446242e-04,-1.567424526247402e-13
	-5.272771794718522e-04,4.145633199502982e-13
	-2.864040824587057e-22,-5.563384557912981e-13
	-5.272771794718522e-04,4.145633199502982e-13
15		1.412537544622754e+00,0.000000000000000e+00
	-5.272771794718523e+00,4.242197401617843e-09
	1.000000000000000e+00,0.000000000000000e+00
	0.000000000000000e+00,0.000000000000000e+00
	5.272771794718524e-04,-4.242197401617842e-13
	2.999018910208345e-22,5.692972431475314e-13
	5.272771802511400e-12,1.531595037804745e-14
	-5.272771847446242e-04,-1.603934533637947e-13
	-5.272771794718522e-04,4.242197401617843e-13
	-2.999018910208345e-22,-5.692972431475314e-13
	-5.272771794718522e-04,4.242197401617843e-13
16		1.445439770745927e+00,0.000000000000000e+00
	-5.272771794718523e+00,4.341010872947160e-09
	1.000000000000000e+00,0.000000000000000e+00
	0.000000000000000e+00,0.000000000000000e+00
	5.272771794718524e-04,-4.341010872947162e-13
	3.140358317023653e-22,5.825578794376213e-13
	5.272771802511400e-12,1.567270469197585e-14
	-5.272771847446242e-04,-1.641294968348810e-13
	-5.272771794718522e-04,4.341010872947160e-13
	-3.140358317023653e-22,-5.825578794376213e-13
	-5.272771794718522e-04,4.341010872947160e-13
17		1.479108388168207e+00,0.000000000000000e+00
	-5.272771794718523e+00,4.442126005701388e-09
	1.000000000000000e+00,0.000000000000000e+00
	0.000000000000000e+00,0.000000000000000e+00
	5.272771794718524e-04,-4.442126005701389e-13
	3.288358844864544e-22,5.961273956264543e-13
	5.272771802511400e-12,1.603776888138457e-14
	-5.272771847446242e-04,-1.679525639377000e-13
	-5.272771794718522e-04,4.442126005701389e-13
	-3.288358844864544e-22,-5.961273956264543e-13
	-5.272771794718522e-04,4.442126005701389e-13
18		1.513561248436208e+00,0.000000000000000e+00
	-5.272771794718523e+00,4.545596412462328e-09
	1.000000000000000e+00,0.000000000000000e+00
	0.000000000000000e+00,0.000000000000000e+00
	5.272771794718524e-04,-4.545596412462329e-13
	3.443334422693344e-22,6.100129864511274e-13
	5.272771802511400e-12,1.641133650813915e-14
	-5.272771847446242e-04,-1.718646817130336e-13
	-5.272771794718522e-04,4.545596412462328e-13
	-3.443334422693344e-22,-6.100129864511274e-13
	-5.272771794718522e-04,4.545596412462328e-13
19		1.548816618912481e+00,0.000000000000000e+00
	-5.272771794718523e+00,4.651476954609236e-09
	1.000000000000000e+00,0.000000000000000e+00
	0.000000000000000e+00,0.000000000000000e+00
	5.272771794718524e-04,-4.651476954609237e-13
	3.605613774488563e-22,6.242220142356932e-13
	5.272771802511400e-12,1.679360564274006e-14
	-5.272771847446242e-04,-1.758679244175096e-13
	-5.272771794718522e-04,4.651476954609236e-13
	-3.605613774488563e-22,-6.242220142356932e-13
	-5.272771794718522e-04,4.651476954609236e-13
20		1.584893192461113e+00,0.000000000000000e+00
	-5.272771794718523e+00,4.759823771407056e-09
	1.000000000000000e+00,0.000000000000000e+00
	0.000000000000000e+00,0.000000000000000e+00
	5.272771794718524e-04,-4.759823771407057e-13
	3.775541116512533e-22,6.387620127947620e-13
	5.272771802511400e-12,1.718477896934256e-14
	-5.272771847446242e-04,-1.799644146233989e-13
	-5.272771794718522e-04,4.759823771407056e-13
	-3.775541116512533e-22,-6.387620127947620e-13
	-5.272771794718522e-04,4.759823771407056e-13
21		1.621810097358929e+00,0.000000000000000e+00
	-5.272771794718523e+00,4.870694309772189e-09
	1.000000000000000e+00,0.000000000000000e+00
	0.000000000000000e+00,0.000000000000000e+00
	5.272771794718524e-04,-4.870694309772191e-13
	3.953476887440239e-22,6.536406914280293e-13
	5.272771802511400e-12,1.758506389322187e-14
	-5.272771847446242e-04,-1.841563243440321e-13
	-5.272771794718522e-04,4.870694309772190e-13
	-3.953476887440239e-22,-6.536406914280293e-13
	-5.272771794718522e-04,4.870694309772190e-13
22		1.659586907437560e+00,0.000000000000000e+00
	-5.272771794718523e+00,4.984147354731627e-09
	1.000000000000000e+00,0.000000000000000e+00
	0.000000000000000e+00,0.000000000000000e+00
	5.272771794718524e-04,-4.984147354731626e-13
	4.139798512898089e-22,6.688659390078493e-13
	5.272771802511400e-12,1.799467265074312e-14
	-5.272771847446242e-04,-1.884458761854298e-13
	-5.272771794718522e-04,4.984147354731627e-13
	-4.139798512898089e-22,-6.688659390078493e-13
	-5.272771794718522e-04,4.984147354731627e-13
23		1.698243652461743e+00,0.000000000000000e+00
	-5.272771794718523e+00,5.100243060591531e-09
	1.000000000000000e+00,0.000000000000000e+00
	0.000000000000000e+00,0.000000000000000e+00
	5.272771794718524e-04,-5.100243060591533e-13
	4.334901206034248e-22,6.844458281620184e-13
	5.272771802511400e-12,1.841382242189180e-14
	-5.272771847446242e-04,-1.928353445247569e-13
	-5.272771794718522e-04,5.100243060591532e-13
	-4.334901206034248e-22,-6.844458281620184e-13
	-5.272771794718522e-04,5.100243060591532e-13
24		1.737800828749374e+00,0.000000000000000e+00
	-5.272771794718523e+00,5.219042982831860e-09
	1.000000000000000e+00,0.000000000000000e+00
	0.000000000000000e+00,0.000000000000000e+00
	5.272771794718524e-04,-5.219042982831859e-13
	4.539198805818735e-22,7.003886195539907e-13
	5.272771802511400e-12,1.884273544542383e-14
	-5.272771847446242e-04,-1.973270567162287e-13
	-5.272771794718522e-04,5.219042982831860e-13
	-4.539198805818735e-22,-7.003886195539907e-13
	-5.272771794718522e-04,5.219042982831860e-13
25		1.778279410038922e+00,0.000000000000000e+00
	-5.272771794718523e+00,5.340610110743887e-09
	1.000000000000000e+00,0.000000000000000e+00
	0.000000000000000e+00,0.000000000000000e+00
	5.272771794718524e-04,-5.340610110743886e-13
	4.753124654851350e-22,7.167027662627898e-13
	5.272771802511400e-12,1.928163913670248e-14
	-5.272771847446242e-04,-2.019233943251037e-13
	-5.272771794718522e-04,5.340610110743887e-13
	-4.753124654851350e-22,-7.167027662627898e-13
	-5.272771794718522e-04,5.340610110743887e-13
26		1.819700858609982e+00,0.000000000000000e+00
	-5.272771794718523e+00,5.465008900827960e-09
	1.000000000000000e+00,0.000000000000000e+00
	0.000000000000000e+00,0.000000000000000e+00
	5.272771794718524e-04,-5.465008900827961e-13
	4.977132518539425e-22,7.333969182649440e-13
	5.272771802511400e-12,1.973076620827400e-14
	-5.272771847446242e-04,-2.066267943904220e-13
	-5.272771794718522e-04,5.465008900827960e-13
	-4.977132518539425e-22,-7.333969182649440e-13
	-5.272771794718522e-04,5.465008900827960e-13
27		1.862087136662866e+00,0.000000000000000e+00
	-5.272771794718523e+00,5.592305310969199e-09
	1.000000000000000e+00,0.000000000000000e+00
	0.000000000000000e+00,0.000000000000000e+00
	5.272771794718524e-04,-5.592305310969198e-13
	5.211697547595105e-22,7.504799270208182e-13
	5.272771802511400e-12,2.019035479325663e-14
	-5.272771847446242e-04,-2.114397507171550e-13
	-5.272771794718522e-04,5.592305310969199e-13
	-5.211697547595105e-22,-7.504799270208182e-13
	-5.272771794718522e-04,5.592305310969199e-13
28		1.905460717963246e+00,0.000000000000000e+00
	-5.272771794718523e+00,5.722566835409223e-09
	1.000000000000000e+00,0.000000000000000e+00
	0.000000000000000e+00,0.000000000000000e+00
	5.272771794718524e-04,-5.722566835409224e-13
	5.457317285893695e-22,7.679608501677750e-13
	5.272771802511400e-12,2.066064857160166e-14
	-5.272771847446242e-04,-2.163648151984543e-13
	-5.272771794718522e-04,5.722566835409224e-13
	-5.457317285893695e-22,-7.679608501677750e-13
	-5.272771794718522e-04,5.722566835409224e-13
29		1.949844599758044e+00,0.000000000000000e+00
	-5.272771794718523e+00,5.855862540532511e-09
	1.000000000000000e+00,0.000000000000000e+00
	0.000000000000000e+00,0.000000000000000e+00
	5.272771794718524e-04,-5.855862540532510e-13
	5.714512725830941e-22,7.858489563226545e-13
	5.272771802511400e-12,2.114189689929523e-14
	-5.272771847446242e-04,-2.214045991686987e-13
	-5.272771794718522e-04,5.855862540532511e-13
	-5.714512725830941e-22,-7.858489563226545e-13
	-5.272771794718522e-04,5.855862540532511e-13
30		1.995262314968878e+00,0.000000000000000e+00
	-5.272771794718523e+00,5.992263101486291e-09
	1.000000000000000e+00,0.000000000000000e+00
	0.000000000000000e+00,0.000000000000000e+00
	5.272771794718524e-04,-5.992263101486292e-13
	5.983829413417740e-22,8.041537299961167e-13
	5.272771802511400e-12,2.163435494057114e-14
	-5.272771847446242e-04,-2.265617747880586e-13
	-5.272771794718522e-04,5.992263101486291e-13
	-5.983829413417740e-22,-8.041537299961167e-13
	-5.272771794718522e-04,5.992263101486291e-13
31		2.041737944669527e+00,0.000000000000000e+00
	-5.272771794718523e+00,6.131840839653457e-09
	1.000000000000000e+00,0.000000000000000e+00
	0.000000000000000e+00,0.000000000000000e+00
	5.272771794718524e-04,-6.131840839653459e-13
	6.265838605456382e-22,8.228848766214557e-13
	5.272771802511400e-12,2.213828380320107e-14
	-5.272771847446242e-04,-2.318390764593108e-13
	-5.272771794718522e-04,6.131840839653458e-13
	-6.265838605456382e-22,-8.228848766214557e-13
	-5.272771794718522e-04,6.131840839653458e-13
32		2.089296130854037e+00,0.000000000000000e+00
	-5.272771794718523e+00,6.274669760998320e-09
	1.000000000000000e+00,0.000000000000000e+00
	0.000000000000000e+00,0.000000000000000e+00
	5.272771794718524e-04,-6.274669760998320e-13
	6.561138481252816e-22,8.420523277005486e-13
	5.272771802511400e-12,2.265395067693815e-14
	-5.272771847446242e-04,-2.372393022776547e-13
	-5.272771794718522e-04,6.274669760998320e-13
	-6.561138481252816e-22,-8.420523277005486e-13
	-5.272771794718522e-04,6.274669760998320e-13
33		2.137962089502230e+00,0.000000000000000e+00
	-5.272771794718523e+00,6.420825595305534e-09
	1.000000000000000e+00,0.000000000000000e+00
	0.000000000000000e+00,0.000000000000000e+00
	5.272771794718524e-04,-6.420825595305536e-13
	6.870355411435144e-22,8.616662460696685e-13
	5.272771802511400e-12,2.318162897518459e-14
	-5.272771847446242e-04,-2.427653155142996e-13
	-5.272771794718522e-04,6.420825595305535e-13
	-6.870355411435144e-22,-8.616662460696685e-13
	-5.272771794718522e-04,6.420825595305535e-13
34		2.187761623949550e+00,0.000000000000000e+00
	-5.272771794718523e+00,6.570385836333055e-09
	1.000000000000000e+00,0.000000000000000e+00
	0.000000000000000e+00,0.000000000000000e+00
	5.272771794718524e-04,-6.570385836333054e-13
	7.194145286569723e-22,8.817370312879556e-13
	5.272771802511400e-12,2.372159847995883e-14
	-5.272771847446242e-04,-2.484200461346090e-13
	-5.272771794718522e-04,6.570385836333055e-13
	-7.194145286569723e-22,-8.817370312879556e-13
	-5.272771794718522e-04,6.570385836333055e-13
35		2.238721138568337e+00,0.000000000000000e+00
	-5.272771794718523e+00,6.723429782900337e-09
	1.000000000000000e+00,0.000000000000000e+00
	0.000000000000000e+00,0.000000000000000e+00
	5.272771794718524e-04,-6.723429782900338e-13
	7.533194908392976e-22,9.022753251514009e-13
	5.272771802511400e-12,2.427414549023991e-14
	-5.272771847446242e-04,-2.542064923516070e-13
	-5.272771794718522e-04,6.723429782900337e-13
	-7.533194908392976e-22,-9.022753251514009e-13
	-5.272771794718522e-04,6.723429782900337e-13
36		2.290867652767770e+00,0.000000000000000e+00
	-5.272771794718523e+00,6.880038580933626e-09
	1.000000000000000e+00,0.000000000000000e+00
	0.000000000000000e+00,0.000000000000000e+00
	5.272771794718524e-04,-6.880038580933627e-13
	7.888223446609965e-22,9.232920173352675e-13
	5.272771802511400e-12,2.483956297376585e-14
	-5.272771847446242e-04,-2.601277222156706e-13
	-5.272771794718522e-04,6.880038580933626e-13
	-7.888223446609965e-22,-9.232920173352675e-13
	-5.272771794718522e-04,6.880038580933626e-13
37		2.344228815319919e+00,0.000000000000000e+00
	-5.272771794718523e+00,7.040295266490604e-09
	1.000000000000000e+00,0.000000000000000e+00
	0.000000000000000e+00,0.000000000000000e+00
	5.272771794718524e-04,-7.040295266490603e-13
	8.259983964349754e-22,9.447982511679398e-13
	5.272771802511400e-12,2.541815072237076e-14
	-5.272771847446242e-04,-2.661868752412503e-13
	-5.272771794718522e-04,7.040295266490604e-13
	-8.259983964349754e-22,-9.447982511679398e-13
	-5.272771794718522e-04,7.040295266490604e-13
38		2.398832919019488e+00,0.000000000000000e+00
	-5.272771794718523e+00,7.204284809787200e-09
	1.000000000000000e+00,0.000000000000000e+00
	0.000000000000000e+00,0.000000000000000e+00
