Title: * GA CMOS Amp | W=1e-06 L=9.277186456505545e-07 Vbias=1.331913128795346
Date: Sat Sep  6 22:11:50 2025
Plotname: AC Analysis
Flags: complex forward log
No. Variables: 13
No. Points:          901
Offset:    0.0000000000000000e+00
Command: Linear Technology Corporation LTspice
Variables:
	0	frequency	frequency
	1	V(out)	voltage
	2	V(g)	voltage
	3	V(vdd)	voltage
	4	V(m1#dbody)	voltage
	5	V(m1#sbody)	voltage
	6	Id(M1)	device_current
	7	Ig(M1)	device_current
	8	Ib(M1)	device_current
	9	Is(M1)	device_current
	10	I(Rload)	device_current
	11	I(Vg)	device_current
	12	I(Vdd)	device_current
Values:
0		1.000000000000000e+00,0.000000000000000e+00
	-2.470349095145017e-01,6.660374718082743e-10
	1.000000000000000e+00,0.000000000000000e+00
	0.000000000000000e+00,0.000000000000000e+00
	9.862819855046035e-06,6.153606849003677e-14
	9.862821707807540e-06,6.591404457947562e-14
	2.470349095145017e-05,-6.660374718082742e-14
	6.292411582303631e-06,2.014846485073056e-13
	-5.260171457954763e-06,-3.486244079045229e-14
	-2.573573107579903e-05,-1.000184605360258e-13
	-2.470349095145017e-05,6.660374718082743e-14
	-6.292411582897728e-06,-2.014846485073056e-13
	-2.470349095145017e-05,6.660374718082743e-14
1		1.023292992280754e+00,0.000000000000000e+00
	-2.470349095145017e-01,6.815514774977972e-10
	1.000000000000000e+00,0.000000000000000e+00
	0.000000000000000e+00,0.000000000000000e+00
	9.862819855046035e-06,6.296942765836312e-14
	9.862821707807540e-06,6.744937991105860e-14
	2.470349095145017e-05,-6.815514774977972e-14
	6.292411582303631e-06,2.061778288696767e-13
	-5.260171457954763e-06,-3.567449135467253e-14
	-2.573573107579903e-05,-1.023481897652244e-13
	-2.470349095145017e-05,6.815514774977972e-14
	-6.292411582897728e-06,-2.061778288696767e-13
	-2.470349095145017e-05,6.815514774977972e-14
2		1.047128548050899e+00,0.000000000000000e+00
	-2.470349095145017e-01,6.974268508020899e-10
	1.000000000000000e+00,0.000000000000000e+00
	0.000000000000000e+00,0.000000000000000e+00
	9.862819855046035e-06,6.443617405073289e-14
	9.862821707807540e-06,6.902047779666855e-14
	2.470349095145017e-05,-6.974268508020900e-14
	6.292411582303631e-06,2.109803274460007e-13
	-5.260171457954763e-06,-3.650545700641676e-14
	-2.573573107579903e-05,-1.047321853593749e-13
	-2.470349095145017e-05,6.974268508020900e-14
	-6.292411582897728e-06,-2.109803274460007e-13
	-2.470349095145017e-05,6.974268508020900e-14
3		1.071519305237606e+00,0.000000000000000e+00
	-2.470349095145017e-01,7.136720090542134e-10
	1.000000000000000e+00,0.000000000000000e+00
	0.000000000000000e+00,0.000000000000000e+00
	9.862819855046035e-06,6.593708535549793e-14
	9.862821707807540e-06,7.062817125320030e-14
	2.470349095145017e-05,-7.136720090542135e-14
	6.292411582303631e-06,2.158946905845913e-13
	-5.260171457954763e-06,-3.735577833467261e-14
	-2.573573107579903e-05,-1.071717113444974e-13
	-2.470349095145017e-05,7.136720090542134e-14
	-6.292411582897728e-06,-2.158946905845913e-13
	-2.470349095145017e-05,7.136720090542134e-14
4		1.096478196143185e+00,0.000000000000000e+00
	-2.470349095145017e-01,7.302955656521035e-10
	1.000000000000000e+00,0.000000000000000e+00
	0.000000000000000e+00,0.000000000000000e+00
	9.862819855046035e-06,6.747295737569896e-14
	9.862821707807540e-06,7.227331270100487e-14
	2.470349095145017e-05,-7.302955656521037e-14
	6.292411582303631e-06,2.209235239458340e-13
	-5.260171457954763e-06,-3.822590619106371e-14
	-2.573573107579903e-05,-1.096680611895599e-13
	-2.470349095145017e-05,7.302955656521035e-14
	-6.292411582897728e-06,-2.209235239458340e-13
	-2.470349095145017e-05,7.302955656521035e-14
5		1.122018454301963e+00,0.000000000000000e+00
	-2.470349095145017e-01,7.473063346255071e-10
	1.000000000000000e+00,0.000000000000000e+00
	0.000000000000000e+00,0.000000000000000e+00
	9.862819855046035e-06,6.904460445101077e-14
	9.862821707807540e-06,7.395677441585389e-14
	2.470349095145017e-05,-7.473063346255072e-14
	6.292411582303631e-06,2.260694938837413e-13
	-5.260171457954763e-06,-3.911630192889698e-14
	-2.573573107579903e-05,-1.122225584922936e-13
	-2.470349095145017e-05,7.473063346255072e-14
	-6.292411582897728e-06,-2.260694938837414e-13
	-2.470349095145017e-05,7.473063346255072e-14
6		1.148153621496882e+00,0.000000000000000e+00
	-2.470349095145017e-01,7.647133353092975e-10
	1.000000000000000e+00,0.000000000000000e+00
	0.000000000000000e+00,0.000000000000000e+00
	9.862819855046035e-06,7.065285988951587e-14
	9.862821707807540e-06,7.567944899143186e-14
	2.470349095145017e-05,-7.647133353092978e-14
	6.292411582303631e-06,2.313353288596893e-13
	-5.260171457954763e-06,-4.002743764777843e-14
	-2.573573107579903e-05,-1.148365576809811e-13
	-2.470349095145017e-05,7.647133353092975e-14
	-6.292411582897728e-06,-2.313353288596893e-13
	-2.470349095145017e-05,7.647133353092975e-14
7		1.174897554939529e+00,0.000000000000000e+00
	-2.470349095145017e-01,7.825257971256467e-10
	1.000000000000000e+00,0.000000000000000e+00
	0.000000000000000e+00,0.000000000000000e+00
	9.862819855046035e-06,7.229857640953558e-14
	9.862821707807540e-06,7.744224981260101e-14
	2.470349095145017e-05,-7.825257971256468e-14
	6.292411582303631e-06,2.367238208890838e-13
	-5.260171457954763e-06,-4.095979644392650e-14
	-2.573573107579903e-05,-1.175114447325926e-13
	-2.470349095145017e-05,7.825257971256468e-14
	-6.292411582897728e-06,-2.367238208890838e-13
	-2.470349095145017e-05,7.825257971256468e-14
8		1.202264434617413e+00,0.000000000000000e+00
	-2.470349095145017e-01,8.007531644775855e-10
	1.000000000000000e+00,0.000000000000000e+00
	0.000000000000000e+00,0.000000000000000e+00
	9.862819855046035e-06,7.398262659175242e-14
	9.862821707807540e-06,7.924611153969018e-14
	2.470349095145017e-05,-8.007531644775857e-14
	6.292411582303631e-06,2.422378270217238e-13
	-5.260171457954763e-06,-4.191387266631615e-14
	-2.573573107579903e-05,-1.202486379076491e-13
	-2.470349095145017e-05,8.007531644775856e-14
	-6.292411582897728e-06,-2.422378270217238e-13
	-2.470349095145017e-05,8.007531644775856e-14
9		1.230268770812381e+00,0.000000000000000e+00
	-2.470349095145017e-01,8.194051017565515e-10
	1.000000000000000e+00,0.000000000000000e+00
	0.000000000000000e+00,0.000000000000000e+00
	9.862819855046035e-06,7.570590334186400e-14
	9.862821707807540e-06,8.109199060406395e-14
	2.470349095145017e-05,-8.194051017565515e-14
	6.292411582303631e-06,2.478802708566475e-13
	-5.260171457954763e-06,-4.289017217878915e-14
	-2.573573107579903e-05,-1.230495885022032e-13
	-2.470349095145017e-05,8.194051017565515e-14
	-6.292411582897728e-06,-2.478802708566474e-13
	-2.470349095145017e-05,8.194051017565515e-14
10		1.258925411794167e+00,0.000000000000000e+00
	-2.470349095145017e-01,8.384914984665773e-10
	1.000000000000000e+00,0.000000000000000e+00
	0.000000000000000e+00,0.000000000000000e+00
	9.862819855046035e-06,7.746932036401355e-14
	9.862821707807540e-06,8.298086571523537e-14
	2.470349095145017e-05,-8.384914984665774e-14
	6.292411582303631e-06,2.536541440922626e-13
	-5.260171457954763e-06,-4.388921262826990e-14
	-2.573573107579903e-05,-1.259157816173350e-13
	-2.470349095145017e-05,8.384914984665773e-14
	-6.292411582897728e-06,-2.536541440922626e-13
	-2.470349095145017e-05,8.384914984665773e-14
11		1.288249551693134e+00,0.000000000000000e+00
	-2.470349095145017e-01,8.580224744678372e-10
	1.000000000000000e+00,0.000000000000000e+00
	0.000000000000000e+00,0.000000000000000e+00
	9.862819855046035e-06,7.927381264524780e-14
	9.862821707807540e-06,8.491373837979067e-14
	2.470349095145017e-05,-8.580224744678375e-14
	6.292411582303631e-06,2.595625081125851e-13
	-5.260171457954763e-06,-4.491152371922857e-14
	-2.573573107579903e-05,-1.288487369465727e-13
	-2.470349095145017e-05,8.580224744678373e-14
	-6.292411582897728e-06,-2.595625081125851e-13
	-2.470349095145017e-05,8.580224744678373e-14
12		1.318256738556407e+00,0.000000000000000e+00
	-2.470349095145017e-01,8.780083853423300e-10
	1.000000000000000e+00,0.000000000000000e+00
	0.000000000000000e+00,0.000000000000000e+00
	9.862819855046035e-06,8.112033695125951e-14
	9.862821707807540e-06,8.689163343240109e-14
	2.470349095145017e-05,-8.780083853423302e-14
	6.292411582303631e-06,2.656084956104246e-13
	-5.260171457954763e-06,-4.595764749453746e-14
	-2.573573107579903e-05,-1.318500095816541e-13
	-2.470349095145017e-05,8.780083853423300e-14
	-6.292411582897728e-06,-2.656084956104246e-13
	-2.470349095145017e-05,8.780083853423300e-14
13		1.348962882591653e+00,0.000000000000000e+00
	-2.470349095145017e-01,8.984598278845464e-10
	1.000000000000000e+00,0.000000000000000e+00
	0.000000000000000e+00,0.000000000000000e+00
	9.862819855046035e-06,8.300987233367737e-14
	9.862821707807540e-06,8.891559957920415e-14
	2.470349095145017e-05,-8.984598278845467e-14
	6.292411582303631e-06,2.717953122483810e-13
	-5.260171457954763e-06,-4.702813862286935e-14
	-2.573573107579903e-05,-1.349211908370570e-13
	-2.470349095145017e-05,8.984598278845464e-14
	-6.292411582897728e-06,-2.717953122483810e-13
	-2.470349095145017e-05,8.984598278845464e-14
14		1.380384264602885e+00,0.000000000000000e+00
	-2.470349095145017e-01,9.193876457200290e-10
	1.000000000000000e+00,0.000000000000000e+00
	0.000000000000000e+00,0.000000000000000e+00
	9.862819855046035e-06,8.494342064917211e-14
	9.862821707807540e-06,9.098670995384118e-14
	2.470349095145017e-05,-9.193876457200291e-14
	6.292411582303631e-06,2.781262383585276e-13
	-5.260171457954763e-06,-4.812356469279008e-14
	-2.573573107579903e-05,-1.380639090937347e-13
	-2.470349095145017e-05,9.193876457200291e-14
	-6.292411582897728e-06,-2.781262383585277e-13
	-2.470349095145017e-05,9.193876457200291e-14
15		1.412537544622754e+00,0.000000000000000e+00
	-2.470349095145017e-01,9.408029350548063e-10
	1.000000000000000e+00,0.000000000000000e+00
	0.000000000000000e+00,0.000000000000000e+00
	9.862819855046035e-06,8.692200709065412e-14
	9.862821707807540e-06,9.310606268644722e-14
	2.470349095145017e-05,-9.408029350548064e-14
	6.292411582303631e-06,2.846046306816881e-13
	-5.260171457954763e-06,-4.924450651370162e-14
	-2.573573107579903e-05,-1.412798306625058e-13
	-2.470349095145017e-05,9.408029350548064e-14
	-6.292411582897728e-06,-2.846046306816881e-13
	-2.470349095145017e-05,9.408029350548064e-14
16		1.445439770745927e+00,0.000000000000000e+00
	-2.470349095145017e-01,9.627170505587486e-10
	1.000000000000000e+00,0.000000000000000e+00
	0.000000000000000e+00,0.000000000000000e+00
	9.862819855046035e-06,8.894668073084437e-14
	9.862821707807540e-06,9.527478148589403e-14
	2.470349095145017e-05,-9.627170505587486e-14
	6.292411582303631e-06,2.912339241472234e-13
	-5.260171457954763e-06,-5.039155842379481e-14
	-2.573573107579903e-05,-1.445706606675538e-13
	-2.470349095145017e-05,9.627170505587486e-14
	-6.292411582897728e-06,-2.912339241472234e-13
	-2.470349095145017e-05,9.627170505587486e-14
17		1.479108388168207e+00,0.000000000000000e+00
	-2.470349095145017e-01,9.851416113859638e-10
	1.000000000000000e+00,0.000000000000000e+00
	0.000000000000000e+00,0.000000000000000e+00
	9.862819855046035e-06,9.101851507850663e-14
	9.862821707807540e-06,9.749401623559549e-14
	2.470349095145017e-05,-9.851416113859638e-14
	6.292411582303631e-06,2.980176336942784e-13
	-5.260171457954763e-06,-5.156532860517543e-14
	-2.573573107579903e-05,-1.479381439505066e-13
	-2.470349095145017e-05,9.851416113859638e-14
	-6.292411582897728e-06,-2.980176336942784e-13
	-2.470349095145017e-05,9.851416113859638e-14
18		1.513561248436208e+00,0.000000000000000e+00
	-2.470349095145017e-01,1.008088507335427e-09
	1.000000000000000e+00,0.000000000000000e+00
	0.000000000000000e+00,0.000000000000000e+00
	9.862819855046035e-06,9.313860864763598e-14
	9.862821707807540e-06,9.976494360319093e-14
	2.470349095145017e-05,-1.008088507335427e-13
	6.292411582303631e-06,3.049593561354478e-13
	-5.260171457954763e-06,-5.276643940633033e-14
	-2.573573107579903e-05,-1.513840659955749e-13
	-2.470349095145017e-05,1.008088507335427e-13
	-6.292411582897728e-06,-3.049593561354479e-13
	-2.470349095145017e-05,1.008088507335427e-13
19		1.548816618912481e+00,0.000000000000000e+00
	-2.470349095145017e-01,1.031569905155108e-09
	1.000000000000000e+00,0.000000000000000e+00
	0.000000000000000e+00,0.000000000000000e+00
	9.862819855046035e-06,9.530808553990554e-14
	9.862821707807540e-06,1.020887676644299e-13
	2.470349095145017e-05,-1.031569905155108e-13
	6.292411582303631e-06,3.120627720638545e-13
	-5.260171457954763e-06,-5.399552767210486e-14
	-2.573573107579903e-05,-1.549102538762389e-13
	-2.470349095145017e-05,1.031569905155108e-13
	-6.292411582897728e-06,-3.120627720638546e-13
	-2.470349095145017e-05,1.031569905155108e-13
20		1.584893192461113e+00,0.000000000000000e+00
	-2.470349095145017e-01,1.055598254992944e-09
	1.000000000000000e+00,0.000000000000000e+00
	0.000000000000000e+00,0.000000000000000e+00
	9.862819855046035e-06,9.752809604068002e-14
	9.862821707807540e-06,1.044667205415892e-13
	2.470349095145017e-05,-1.055598254992944e-13
	6.292411582303631e-06,3.193316478046487e-13
	-5.260171457954763e-06,-5.525324508136645e-14
	-2.573573107579903e-05,-1.585185772239878e-13
	-2.470349095145017e-05,1.055598254992944e-13
	-6.292411582897728e-06,-3.193316478046487e-13
	-2.470349095145017e-05,1.055598254992944e-13
21		1.621810097358929e+00,0.000000000000000e+00
	-2.470349095145017e-01,1.080186296998072e-09
	1.000000000000000e+00,0.000000000000000e+00
	0.000000000000000e+00,0.000000000000000e+00
	9.862819855046035e-06,9.979981722891223e-14
	9.862821707807540e-06,1.069000630567601e-13
	2.470349095145017e-05,-1.080186296998072e-13
	6.292411582303631e-06,3.267698374119628e-13
	-5.260171457954763e-06,-5.654025849253332e-14
	-2.573573107579903e-05,-1.622109492196223e-13
	-2.470349095145017e-05,1.080186296998072e-13
	-6.292411582897728e-06,-3.267698374119629e-13
	-2.470349095145017e-05,1.080186296998072e-13
22		1.659586907437560e+00,0.000000000000000e+00
	-2.470349095145017e-01,1.105347068075825e-09
	1.000000000000000e+00,0.000000000000000e+00
	0.000000000000000e+00,0.000000000000000e+00
	9.862819855046035e-06,1.021244536012459e-13
	9.862821707807540e-06,1.093900854003533e-13
	2.470349095145017e-05,-1.105347068075825e-13
	6.292411582303631e-06,3.343812847123830e-13
	-5.260171457954763e-06,-5.785725029715173e-14
	-2.573573107579903e-05,-1.659893276076488e-13
	-2.470349095145017e-05,1.105347068075825e-13
	-6.292411582897728e-06,-3.343812847123830e-13
	-2.470349095145017e-05,1.105347068075825e-13
23		1.698243652461743e+00,0.000000000000000e+00
	-2.470349095145017e-01,1.131093908800069e-09
	1.000000000000000e+00,0.000000000000000e+00
	0.000000000000000e+00,0.000000000000000e+00
	9.862819855046035e-06,1.045032377106560e-13
	9.862821707807540e-06,1.119381078151748e-13
	2.470349095145017e-05,-1.131093908800069e-13
	6.292411582303631e-06,3.421700253960171e-13
	-5.260171457954763e-06,-5.920491878170895e-14
	-2.573573107579903e-05,-1.698557157343013e-13
	-2.470349095145017e-05,1.131093908800069e-13
	-6.292411582897728e-06,-3.421700253960172e-13
	-2.470349095145017e-05,1.131093908800069e-13
24		1.737800828749374e+00,0.000000000000000e+00
	-2.470349095145017e-01,1.157440470486557e-09
	1.000000000000000e+00,0.000000000000000e+00
	0.000000000000000e+00,0.000000000000000e+00
	9.862819855046035e-06,1.069374308199642e-13
	9.862821707807540e-06,1.145454812964359e-13
	2.470349095145017e-05,-1.157440470486557e-13
	6.292411582303631e-06,3.501401891562720e-13
	-5.260171457954763e-06,-6.058397849787398e-14
	-2.573573107579903e-05,-1.738121636097423e-13
	-2.470349095145017e-05,1.157440470486557e-13
	-6.292411582897728e-06,-3.501401891562720e-13
	-2.470349095145017e-05,1.157440470486557e-13
25		1.778279410038922e+00,0.000000000000000e+00
	-2.470349095145017e-01,1.184400722431033e-09
	1.000000000000000e+00,0.000000000000000e+00
	0.000000000000000e+00,0.000000000000000e+00
	9.862819855046035e-06,1.094283235705772e-13
	9.862821707807540e-06,1.172135883080691e-13
	2.470349095145017e-05,-1.184400722431033e-13
	6.292411582303631e-06,3.582960018794708e-13
	-5.260171457954763e-06,-6.199516064136235e-14
	-2.573573107579903e-05,-1.778607689950052e-13
	-2.470349095145017e-05,1.184400722431033e-13
	-6.292411582897728e-06,-3.582960018794708e-13
	-2.470349095145017e-05,1.184400722431033e-13
26		1.819700858609982e+00,0.000000000000000e+00
	-2.470349095145017e-01,1.211988959315938e-09
	1.000000000000000e+00,0.000000000000000e+00
	0.000000000000000e+00,0.000000000000000e+00
	9.862819855046035e-06,1.119772366668026e-13
	9.862821707807540e-06,1.199438435157284e-13
	2.470349095145017e-05,-1.211988959315938e-13
	6.292411582303631e-06,3.666417878854744e-13
	-5.260171457954763e-06,-6.343921343962570e-14
	-2.573573107579903e-05,-1.820036785142549e-13
	-2.470349095145017e-05,1.211988959315938e-13
	-6.292411582897728e-06,-3.666417878854744e-13
	-2.470349095145017e-05,1.211988959315938e-13
27		1.862087136662866e+00,0.000000000000000e+00
	-2.470349095145017e-01,1.240219808789644e-09
	1.000000000000000e+00,0.000000000000000e+00
	0.000000000000000e+00,0.000000000000000e+00
	9.862819855046035e-06,1.145855215761025e-13
	9.862821707807540e-06,1.227376945368642e-13
	2.470349095145017e-05,-1.240219808789644e-13
	6.292411582303631e-06,3.751819722204927e-13
	-5.260171457954763e-06,-6.491690254857199e-14
	-2.573573107579903e-05,-1.862430887929563e-13
	-2.470349095145017e-05,1.240219808789644e-13
	-6.292411582897728e-06,-3.751819722204926e-13
	-2.470349095145017e-05,1.240219808789644e-13
28		1.905460717963246e+00,0.000000000000000e+00
	-2.470349095145017e-01,1.269108239222219e-09
	1.000000000000000e+00,0.000000000000000e+00
	0.000000000000000e+00,0.000000000000000e+00
	9.862819855046035e-06,1.172545612456609e-13
	9.862821707807540e-06,1.255966227082690e-13
	2.470349095145017e-05,-1.269108239222219e-13
	6.292411582303631e-06,3.839210830033026e-13
	-5.260171457954763e-06,-6.642901145852634e-14
	-2.573573107579903e-05,-1.905812476225544e-13
	-2.470349095145017e-05,1.269108239222219e-13
	-6.292411582897728e-06,-3.839210830033027e-13
	-2.470349095145017e-05,1.269108239222219e-13
29		1.949844599758044e+00,0.000000000000000e+00
	-2.470349095145017e-01,1.298669567641864e-09
	1.000000000000000e+00,0.000000000000000e+00
	0.000000000000000e+00,0.000000000000000e+00
	9.862819855046035e-06,1.199857708356392e-13
	9.862821707807540e-06,1.285221438715015e-13
	2.470349095145017e-05,-1.298669567641864e-13
	6.292411582303631e-06,3.928637538261174e-13
	-5.260171457954763e-06,-6.797634190964793e-14
	-2.573573107579903e-05,-1.950204551522830e-13
	-2.470349095145017e-05,1.298669567641864e-13
	-6.292411582897728e-06,-3.928637538261174e-13
	-2.470349095145017e-05,1.298669567641864e-13
30		1.995262314968878e+00,0.000000000000000e+00
	-2.470349095145017e-01,1.328919467856196e-09
	1.000000000000000e+00,0.000000000000000e+00
	0.000000000000000e+00,0.000000000000000e+00
	9.862819855046035e-06,1.227805984695141e-13
	9.862821707807540e-06,1.315158091766063e-13
	2.470349095145017e-05,-1.328919467856196e-13
	6.292411582303631e-06,4.020147262113772e-13
	-5.260171457954763e-06,-6.955971431702326e-14
	-2.573573107579903e-05,-1.995630651087343e-13
	-2.470349095145017e-05,1.328919467856196e-13
	-6.292411582897728e-06,-4.020147262113772e-13
	-2.470349095145017e-05,1.328919467856196e-13
31		2.041737944669527e+00,0.000000000000000e+00
	-2.470349095145017e-01,1.359873978762714e-09
	1.000000000000000e+00,0.000000000000000e+00
	0.000000000000000e+00,0.000000000000000e+00
	9.862819855046035e-06,1.256405260018909e-13
	9.862821707807540e-06,1.345792059045541e-13
	2.470349095145017e-05,-1.359873978762714e-13
	6.292411582303631e-06,4.113788521257681e-13
	-5.260171457954763e-06,-7.117996820566114e-14
	-2.573573107579903e-05,-2.042114860438356e-13
	-2.470349095145017e-05,1.359873978762714e-13
	-6.292411582897728e-06,-4.113788521257682e-13
	-2.470349095145017e-05,1.359873978762714e-13
32		2.089296130854037e+00,0.000000000000000e+00
	-2.470349095145017e-01,1.391549512852832e-09
	1.000000000000000e+00,0.000000000000000e+00
	0.000000000000000e+00,0.000000000000000e+00
	9.862819855046035e-06,1.285670698042028e-13
