Title: * GA CMOS Amp | W=5.334817009072923e-06 L=6.277224603873007e-07 Vbias=1.2744619824891512
Date: Sat Sep  6 22:07:24 2025
Plotname: AC Analysis
Flags: complex forward log
No. Variables: 13
No. Points:          901
Offset:    0.0000000000000000e+00
Command: Linear Technology Corporation LTspice
Variables:
	0	frequency	frequency
	1	V(out)	voltage
	2	V(g)	voltage
	3	V(vdd)	voltage
	4	V(m1#dbody)	voltage
	5	V(m1#sbody)	voltage
	6	Id(M1)	device_current
	7	Ig(M1)	device_current
	8	Ib(M1)	device_current
	9	Is(M1)	device_current
	10	I(Rload)	device_current
	11	I(Vg)	device_current
	12	I(Vdd)	device_current
Values:
0		1.000000000000000e+00,0.000000000000000e+00
	-6.746662785871242e-03,6.147299561641714e-10
	1.000000000000000e+00,0.000000000000000e+00
	0.000000000000000e+00,0.000000000000000e+00
	2.100445355241860e-05,4.618141282194694e-14
	2.100445360301831e-05,4.697283565650542e-14
	6.746662785871238e-07,-6.147299561641708e-14
	1.517008139279177e-05,8.656855078613293e-13
	-1.120237526003601e-05,-2.500110726289259e-14
	-4.642372411342887e-06,-7.792114049820196e-13
	-6.746662785871242e-07,6.147299561641715e-14
	-1.517008139295672e-05,-8.656855078613293e-13
	-6.746662785871242e-07,6.147299561641715e-14
1		1.023292992280754e+00,0.000000000000000e+00
	-6.746662785871242e-03,6.290488562878518e-10
	1.000000000000000e+00,0.000000000000000e+00
	0.000000000000000e+00,0.000000000000000e+00
	2.100445355241860e-05,4.725711611432287e-14
	2.100445360301831e-05,4.806697355485753e-14
	6.746662785871238e-07,-6.290488562878514e-14
	1.517008139279177e-05,8.858499137135040e-13
	-1.120237526003601e-05,-2.558345786137745e-14
	-4.642372411342887e-06,-7.973615702233414e-13
	-6.746662785871242e-07,6.290488562878519e-14
	-1.517008139295672e-05,-8.858499137135041e-13
	-6.746662785871242e-07,6.290488562878519e-14
2		1.047128548050899e+00,0.000000000000000e+00
	-6.746662785871242e-03,6.437012864415817e-10
	1.000000000000000e+00,0.000000000000000e+00
	0.000000000000000e+00,0.000000000000000e+00
	2.100445355241860e-05,4.835787575518449e-14
	2.100445360301831e-05,4.918659719883004e-14
	6.746662785871238e-07,-6.437012864415815e-14
	1.517008139279177e-05,9.064840089155393e-13
	-1.120237526003601e-05,-2.617937314785751e-14
	-4.642372411342887e-06,-8.159345071235236e-13
	-6.746662785871242e-07,6.437012864415818e-14
	-1.517008139295672e-05,-9.064840089155391e-13
	-6.746662785871242e-07,6.437012864415818e-14
3		1.071519305237606e+00,0.000000000000000e+00
	-6.746662785871241e-03,6.586950155377770e-10
	1.000000000000000e+00,0.000000000000000e+00
	0.000000000000000e+00,0.000000000000000e+00
	2.100445355241860e-05,4.948427538186368e-14
	2.100445360301831e-05,5.033230022769896e-14
	6.746662785871246e-07,-6.586950155377771e-14
	1.517008139279177e-05,9.275987339378358e-13
	-1.120237526003601e-05,-2.678916908450554e-14
	-4.642372411342888e-06,-8.349400632995527e-13
	-6.746662785871241e-07,6.586950155377770e-14
	-1.517008139295672e-05,-9.275987339378358e-13
	-6.746662785871241e-07,6.586950155377770e-14
4		1.096478196143185e+00,0.000000000000000e+00
	-6.746662785871241e-03,6.740379934500696e-10
	1.000000000000000e+00,0.000000000000000e+00
	0.000000000000000e+00,0.000000000000000e+00
	2.100445355241860e-05,5.063691222635213e-14
	2.100445360301831e-05,5.150469010837533e-14
	6.746662785871246e-07,-6.740379934500681e-14
	1.517008139279177e-05,9.492052840870872e-13
	-1.120237526003601e-05,-2.741316899319874e-14
	-4.642372411342888e-06,-8.543883157488815e-13
	-6.746662785871241e-07,6.740379934500697e-14
	-1.517008139295672e-05,-9.492052840870870e-13
	-6.746662785871241e-07,6.740379934500697e-14
5		1.122018454301963e+00,0.000000000000000e+00
	-6.746662785871241e-03,6.897383552284370e-10
	1.000000000000000e+00,0.000000000000000e+00
	0.000000000000000e+00,0.000000000000000e+00
	2.100445355241860e-05,5.181639743196177e-14
	2.100445360301831e-05,5.270438845749235e-14
	6.746662785871246e-07,-6.897383552284371e-14
	1.517008139279177e-05,9.713151154421786e-13
	-1.120237526003601e-05,-2.805170372694833e-14
	-4.642372411342888e-06,-8.742895761923867e-13
	-6.746662785871241e-07,6.897383552284371e-14
	-1.517008139295672e-05,-9.713151154421788e-13
	-6.746662785871241e-07,6.897383552284371e-14
6		1.148153621496882e+00,0.000000000000000e+00
	-6.746662785871241e-03,7.058044254125132e-10
	1.000000000000000e+00,0.000000000000000e+00
	0.000000000000000e+00,0.000000000000000e+00
	2.100445355241860e-05,5.302335637736094e-14
	2.100445360301831e-05,5.393203137099460e-14
	6.746662785871246e-07,-7.058044254125122e-14
	1.517008139279177e-05,9.939399509283530e-13
	-1.120237526003601e-05,-2.870511184532214e-14
	-4.642372411342888e-06,-8.946543965417797e-13
	-6.746662785871241e-07,7.058044254125132e-14
	-1.517008139295672e-05,-9.939399509283534e-13
	-6.746662785871241e-07,7.058044254125132e-14
7		1.174897554939529e+00,0.000000000000000e+00
	-6.746662785871241e-03,7.222447224453688e-10
	1.000000000000000e+00,0.000000000000000e+00
	0.000000000000000e+00,0.000000000000000e+00
	2.100445355241860e-05,5.425842900815849e-14
	2.100445360301831e-05,5.518826976140457e-14
	6.746662785871246e-07,-7.222447224453701e-14
	1.517008139279177e-05,1.017091786532861e-12
	-1.120237526003601e-05,-2.937373979395341e-14
	-4.642372411342888e-06,-9.154935744943701e-13
	-6.746662785871241e-07,7.222447224453688e-14
	-1.517008139295672e-05,-1.017091786532861e-12
	-6.746662785871241e-07,7.222447224453688e-14
8		1.202264434617413e+00,0.000000000000000e+00
	-6.746662785871241e-03,7.390679631901042e-10
	1.000000000000000e+00,0.000000000000000e+00
	0.000000000000000e+00,0.000000000000000e+00
	2.100445355241860e-05,5.552227017621138e-14
	2.100445360301831e-05,5.647376970294514e-14
	6.746662785871246e-07,-7.390679631901048e-14
	1.517008139279177e-05,1.040782897665389e-12
	-1.120237526003601e-05,-3.005794208823085e-14
	-4.642372411342888e-06,-9.368181592581475e-13
	-6.746662785871241e-07,7.390679631901042e-14
	-1.517008139295672e-05,-1.040782897665389e-12
	-6.746662785871241e-07,7.390679631901042e-14
9		1.230268770812381e+00,0.000000000000000e+00
	-6.746662785871241e-03,7.562830675516441e-10
	1.000000000000000e+00,0.000000000000000e+00
	0.000000000000000e+00,0.000000000000000e+00
	2.100445355241860e-05,5.681554998683580e-14
	2.100445360301831e-05,5.778921278470091e-14
	6.746662785871246e-07,-7.562830675516439e-14
	1.517008139279177e-05,1.065025845666650e-12
	-1.120237526003601e-05,-3.075808150126736e-14
	-4.642372411342888e-06,-9.586394574102179e-13
	-6.746662785871241e-07,7.562830675516441e-14
	-1.517008139295672e-05,-1.065025845666650e-12
	-6.746662785871241e-07,7.562830675516441e-14
10		1.258925411794167e+00,0.000000000000000e+00
	-6.746662785871241e-03,7.738991632061896e-10
	1.000000000000000e+00,0.000000000000000e+00
	0.000000000000000e+00,0.000000000000000e+00
	2.100445355241860e-05,5.813895415410595e-14
	2.100445360301831e-05,5.913529647200580e-14
	6.746662785871238e-07,-7.738991632061895e-14
	1.517008139279177e-05,1.089833484468566e-12
	-1.120237526003601e-05,-3.147452925624718e-14
	-4.642372411342888e-06,-9.809690388917003e-13
	-6.746662785871241e-07,7.738991632061896e-14
	-1.517008139295672e-05,-1.089833484468566e-12
	-6.746662785871241e-07,7.738991632061896e-14
11		1.288249551693134e+00,0.000000000000000e+00
	-6.746662785871241e-03,7.919255904408336e-10
	1.000000000000000e+00,0.000000000000000e+00
	0.000000000000000e+00,0.000000000000000e+00
	2.100445355241860e-05,5.949318436442867e-14
	2.100445360301831e-05,6.051273447624835e-14
	6.746662785871238e-07,-7.919255904408328e-14
	1.517008139279177e-05,1.115218967409600e-12
	-1.120237526003601e-05,-3.220766522325332e-14
	-4.642372411342888e-06,-1.003818743142264e-12
	-6.746662785871241e-07,7.919255904408337e-14
	-1.517008139295672e-05,-1.115218967409600e-12
	-6.746662785871241e-07,7.919255904408337e-14
12		1.318256738556407e+00,0.000000000000000e+00
	-6.746662785871241e-03,8.103719071059034e-10
	1.000000000000000e+00,0.000000000000000e+00
	0.000000000000000e+00,0.000000000000000e+00
	2.100445355241860e-05,6.087895864858682e-14
	2.100445360301831e-05,6.192225713329094e-14
	6.746662785871238e-07,-8.103719071059039e-14
	1.517008139279177e-05,1.141195754208823e-12
	-1.120237526003601e-05,-3.295787812067968e-14
	-4.642372411342888e-06,-1.027200685377553e-12
	-6.746662785871241e-07,8.103719071059034e-14
	-1.517008139295672e-05,-1.141195754208823e-12
	-6.746662785871241e-07,8.103719071059034e-14
13		1.348962882591653e+00,0.000000000000000e+00
	-6.746662785871241e-03,8.292478936826615e-10
	1.000000000000000e+00,0.000000000000000e+00
	0.000000000000000e+00,0.000000000000000e+00
	2.100445355241860e-05,6.229701176244868e-14
	2.100445360301831e-05,6.336461179070355e-14
	6.746662785871238e-07,-8.292478936826602e-14
	1.517008139279177e-05,1.167777618102438e-12
	-1.120237526003601e-05,-3.372556572133470e-14
	-4.642372411342888e-06,-1.051127263012837e-12
	-6.746662785871241e-07,8.292478936826615e-14
	-1.517008139295672e-05,-1.167777618102438e-12
	-6.746662785871241e-07,8.292478936826615e-14
14		1.380384264602885e+00,0.000000000000000e+00
	-6.746662785871241e-03,8.485635584690430e-10
	1.000000000000000e+00,0.000000000000000e+00
	0.000000000000000e+00,0.000000000000000e+00
	2.100445355241860e-05,6.374809557654546e-14
	2.100445360301831e-05,6.484056320401740e-14
	6.746662785871238e-07,-8.485635584690437e-14
	1.517008139279177e-05,1.194978653146536e-12
	-1.120237526003601e-05,-3.451113506334582e-14
	-4.642372411342888e-06,-1.075611162236286e-12
	-6.746662785871241e-07,8.485635584690430e-14
	-1.517008139295672e-05,-1.194978653146536e-12
	-6.746662785871241e-07,8.485635584690430e-14
15		1.412537544622754e+00,0.000000000000000e+00
	-6.746662785871241e-03,8.683291428861919e-10
	1.000000000000000e+00,0.000000000000000e+00
	0.000000000000000e+00,0.000000000000000e+00
	2.100445355241860e-05,6.523297947472271e-14
	2.100445360301831e-05,6.635089394220833e-14
	6.746662785871238e-07,-8.683291428861915e-14
	1.517008139279177e-05,1.222813281689944e-12
	-1.120237526003601e-05,-3.531500266597641e-14
	-4.642372411342888e-06,-1.100665364735349e-12
	-6.746662785871241e-07,8.683291428861919e-14
	-1.517008139295672e-05,-1.222813281689944e-12
	-6.746662785871241e-07,8.683291428861919e-14
16		1.445439770745927e+00,0.000000000000000e+00
	-6.746662785871241e-03,8.885551269085935e-10
	1.000000000000000e+00,0.000000000000000e+00
	0.000000000000000e+00,0.000000000000000e+00
	2.100445355241860e-05,6.675245076207801e-14
	2.100445360301831e-05,6.789640480262531e-14
	6.746662785871238e-07,-8.885551269085943e-14
	1.517008139279177e-05,1.251296262021151e-12
	-1.120237526003601e-05,-3.613759475046979e-14
	-4.642372411342888e-06,-1.126303154579822e-12
	-6.746662785871241e-07,8.885551269085935e-14
	-1.517008139295672e-05,-1.251296262021151e-12
	-6.746662785871241e-07,8.885551269085935e-14
17		1.479108388168207e+00,0.000000000000000e+00
	-6.746662785871241e-03,9.092522346206997e-10
	1.000000000000000e+00,0.000000000000000e+00
	0.000000000000000e+00,0.000000000000000e+00
	2.100445355241860e-05,6.830731508240051e-14
	2.100445360301831e-05,6.947791523558382e-14
	6.746662785871238e-07,-9.092522346206997e-14
	1.517008139279177e-05,1.280442696193346e-12
	-1.120237526003601e-05,-3.697934746603752e-14
	-4.642372411342888e-06,-1.152538125265239e-12
	-6.746662785871241e-07,9.092522346206998e-14
	-1.517008139295672e-05,-1.280442696193346e-12
	-6.746662785871241e-07,9.092522346206998e-14
18		1.513561248436208e+00,0.000000000000000e+00
	-6.746662785871241e-03,9.304314399029782e-10
	1.000000000000000e+00,0.000000000000000e+00
	0.000000000000000e+00,0.000000000000000e+00
	2.100445355241860e-05,6.989839684533390e-14
	2.100445360301831e-05,7.109626377884915e-14
	6.746662785871238e-07,-9.304314399029776e-14
	1.517008139279177e-05,1.310268038031726e-12
	-1.120237526003601e-05,-3.784070712111124e-14
	-4.642372411342888e-06,-1.179384186920317e-12
	-6.746662785871241e-07,9.304314399029782e-14
	-1.517008139295672e-05,-1.310268038031726e-12
	-6.746662785871241e-07,9.304314399029782e-14
19		1.548816618912481e+00,0.000000000000000e+00
	-6.746662785871241e-03,9.521039722504093e-10
	1.000000000000000e+00,0.000000000000000e+00
	0.000000000000000e+00,0.000000000000000e+00
	2.100445355241860e-05,7.152653966348935e-14
	2.100445360301831e-05,7.275230850224034e-14
	6.746662785871238e-07,-9.521039722504097e-14
	1.517008139279177e-05,1.340788101327318e-12
	-1.120237526003601e-05,-3.872213041998156e-14
	-4.642372411342888e-06,-1.206855573682295e-12
	-6.746662785871241e-07,9.521039722504094e-14
	-1.517008139295672e-05,-1.340788101327318e-12
	-6.746662785871241e-07,9.521039722504094e-14
20		1.584893192461113e+00,0.000000000000000e+00
	-6.746662785871241e-03,9.742813227265136e-10
	1.000000000000000e+00,0.000000000000000e+00
	0.000000000000000e+00,0.000000000000000e+00
	2.100445355241860e-05,7.319260679974004e-14
	2.100445360301831e-05,7.444692746259007e-14
	6.746662785871238e-07,-9.742813227265116e-14
	1.517008139279177e-05,1.372019068221662e-12
	-1.120237526003601e-05,-3.962408470494854e-14
	-4.642372411342888e-06,-1.234966851244062e-12
	-6.746662785871241e-07,9.742813227265136e-14
	-1.517008139295672e-05,-1.372019068221662e-12
	-6.746662785871241e-07,9.742813227265136e-14
21		1.621810097358929e+00,0.000000000000000e+00
	-6.746662785871241e-03,9.969752500560648e-10
	1.000000000000000e+00,0.000000000000000e+00
	0.000000000000000e+00,0.000000000000000e+00
	2.100445355241860e-05,7.489748162493466e-14
	2.100445360301831e-05,7.618101916930203e-14
	6.746662785871238e-07,-9.969752500560634e-14
	1.517008139279177e-05,1.403977497786796e-12
	-1.120237526003601e-05,-4.054704820411285e-14
	-4.642372411342888e-06,-1.263732924577077e-12
	-6.746662785871241e-07,9.969752500560648e-14
	-1.517008139295672e-05,-1.403977497786797e-12
	-6.746662785871241e-07,9.969752500560648e-14
22		1.659586907437560e+00,0.000000000000000e+00
	-6.746662785871241e-03,1.020197786859724e-09
	1.000000000000000e+00,0.000000000000000e+00
	0.000000000000000e+00,0.000000000000000e+00
	2.100445355241860e-05,7.664206808627220e-14
	2.100445360301831e-05,7.795550306075256e-14
	6.746662785871238e-07,-1.020197786859725e-13
	1.517008139279177e-05,1.436680334805097e-12
	-1.120237526003601e-05,-4.149151028493862e-14
	-4.642372411342888e-06,-1.293169045834186e-12
	-6.746662785871241e-07,1.020197786859724e-13
	-1.517008139295672e-05,-1.436680334805097e-12
	-6.746662785871241e-07,1.020197786859724e-13
23		1.698243652461743e+00,0.000000000000000e+00
	-6.746662785871241e-03,1.043961246033890e-09
	1.000000000000000e+00,0.000000000000000e+00
	0.000000000000000e+00,0.000000000000000e+00
	2.100445355241860e-05,7.842729118658676e-14
	2.100445360301831e-05,7.977131999178898e-14
	6.746662785871238e-07,-1.043961246033889e-13
	1.517008139279177e-05,1.470144918753623e-12
	-1.120237526003601e-05,-4.245797171372253e-14
	-4.642372411342888e-06,-1.323290822436512e-12
	-6.746662785871241e-07,1.043961246033890e-13
	-1.517008139295672e-05,-1.470144918753623e-12
	-6.746662785871241e-07,1.043961246033890e-13
24		1.737800828749374e+00,0.000000000000000e+00
	-6.746662785871241e-03,1.068278227279164e-09
	1.000000000000000e+00,0.000000000000000e+00
	0.000000000000000e+00,0.000000000000000e+00
	2.100445355241860e-05,8.025409747479638e-14
	2.100445360301831e-05,8.162943273258327e-14
	6.746662785871238e-07,-1.068278227279162e-13
	1.517008139279177e-05,1.504388992997741e-12
	-1.120237526003601e-05,-4.344694492110674e-14
	-4.642372411342888e-06,-1.354114225348718e-12
	-6.746662785871241e-07,1.068278227279164e-13
	-1.517008139295672e-05,-1.504388992997741e-12
	-6.746662785871241e-07,1.068278227279164e-13
25		1.778279410038922e+00,0.000000000000000e+00
	-6.746662785871241e-03,1.093161623780875e-09
	1.000000000000000e+00,0.000000000000000e+00
	0.000000000000000e+00,0.000000000000000e+00
	2.100445355241860e-05,8.212345554777571e-14
	2.100445360301831e-05,8.353082647910570e-14
	6.746662785871238e-07,-1.093161623780874e-13
	1.517008139279177e-05,1.539430714198889e-12
	-1.120237526003601e-05,-4.445895427377644e-14
	-4.642372411342888e-06,-1.385655597547025e-12
	-6.746662785871241e-07,1.093161623780875e-13
	-1.517008139295672e-05,-1.539430714198889e-12
	-6.746662785871241e-07,1.093161623780875e-13
26		1.819700858609982e+00,0.000000000000000e+00
	-6.746662785871240e-03,1.118624629045219e-09
	1.000000000000000e+00,0.000000000000000e+00
	0.000000000000000e+00,0.000000000000000e+00
	2.100445355241860e-05,8.403635656391887e-14
	2.100445360301831e-05,8.547650937548849e-14
	6.746662785871246e-07,-1.118624629045220e-13
	1.517008139279177e-05,1.575288661941480e-12
	-1.120237526003601e-05,-4.549453635248589e-14
	-4.642372411342889e-06,-1.417931662684472e-12
	-6.746662785871240e-07,1.118624629045219e-13
	-1.517008139295672e-05,-1.575288661941479e-12
	-6.746662785871240e-07,1.118624629045219e-13
27		1.862087136662866e+00,0.000000000000000e+00
	-6.746662785871240e-03,1.144680743894631e-09
	1.000000000000000e+00,0.000000000000000e+00
	0.000000000000000e+00,0.000000000000000e+00
	2.100445355241860e-05,8.599381476866496e-14
	2.100445360301831e-05,8.746751304855756e-14
	6.746662785871246e-07,-1.144680743894631e-13
	1.517008139279177e-05,1.611981848584042e-12
	-1.120237526003601e-05,-4.655424023656085e-14
	-4.642372411342889e-06,-1.450959533958018e-12
	-6.746662785871240e-07,1.144680743894631e-13
	-1.517008139295672e-05,-1.611981848584041e-12
	-6.746662785871240e-07,1.144680743894631e-13
28		1.905460717963246e+00,0.000000000000000e+00
	-6.746662785871240e-03,1.171343783626096e-09
	1.000000000000000e+00,0.000000000000000e+00
	0.000000000000000e+00,0.000000000000000e+00
	2.100445355241860e-05,8.799686803226403e-14
	2.100445360301831e-05,8.950489315481435e-14
	6.746662785871246e-07,-1.171343783626097e-13
	1.517008139279177e-05,1.649529729339825e-12
	-1.120237526003601e-05,-4.763862779502741e-14
	-4.642372411342889e-06,-1.484756723182188e-12
	-6.746662785871240e-07,1.171343783626096e-13
	-1.517008139295672e-05,-1.649529729339826e-12
	-6.746662785871240e-07,1.171343783626096e-13
29		1.949844599758044e+00,0.000000000000000e+00
	-6.746662785871240e-03,1.198627885336209e-09
	1.000000000000000e+00,0.000000000000000e+00
	0.000000000000000e+00,0.000000000000000e+00
	2.100445355241860e-05,9.004657840007013e-14
	2.100445360301831e-05,9.158972994015918e-14
	6.746662785871246e-07,-1.198627885336208e-13
	1.517008139279177e-05,1.687952212592213e-12
	-1.120237526003601e-05,-4.874827398452272e-14
	-4.642372411342889e-06,-1.519341150074069e-12
	-6.746662785871240e-07,1.198627885336209e-13
	-1.517008139295672e-05,-1.687952212592212e-12
	-6.746662785871240e-07,1.198627885336209e-13
30		1.995262314968878e+00,0.000000000000000e+00
	-6.746662785871240e-03,1.226547515416841e-09
	1.000000000000000e+00,0.000000000000000e+00
	0.000000000000000e+00,0.000000000000000e+00
	2.100445355241860e-05,9.214403265565127e-14
	2.100445360301831e-05,9.372312881265167e-14
	6.746662785871246e-07,-1.226547515416842e-13
	1.517008139279177e-05,1.727269670450405e-12
	-1.120237526003601e-05,-4.988376715414429e-14
	-4.642372411342889e-06,-1.554731151754576e-12
	-6.746662785871240e-07,1.226547515416841e-13
	-1.517008139295672e-05,-1.727269670450405e-12
	-6.746662785871240e-07,1.226547515416841e-13
31		2.041737944669527e+00,0.000000000000000e+00
	-6.746662785871240e-03,1.255117477225424e-09
	1.000000000000000e+00,0.000000000000000e+00
	0.000000000000000e+00,0.000000000000000e+00
	2.100445355241860e-05,9.429034289701690e-14
	2.100445360301831e-05,9.590622092861286e-14
	6.746662785871246e-07,-1.255117477225425e-13
	1.517008139279177e-05,1.767502949550987e-12
	-1.120237526003601e-05,-5.104570935740070e-14
	-4.642372411342889e-06,-1.590945492471043e-12
	-6.746662785871240e-07,1.255117477225424e-13
	-1.517008139295672e-05,-1.767502949550987e-12
	-6.746662785871240e-07,1.255117477225424e-13
32		2.089296130854037e+00,0.000000000000000e+00
	-6.746662785871240e-03,1.284352918933875e-09
	1.000000000000000e+00,0.000000000000000e+00
	0.000000000000000e+00,0.000000000000000e+00
	2.100445355241860e-05,9.648664712626679e-14
