Title: * GA CMOS Amp | W=1.974014297415882e-05 L=6.028331671292108e-07 Vbias=0.9223507170247978
Date: Mon Sep  8 18:46:01 2025
Plotname: AC Analysis
Flags: complex forward log
No. Variables: 11
No. Points:          901
Offset:    0.0000000000000000e+00
Command: Linear Technology Corporation LTspice
Variables:
	0	frequency	frequency
	1	V(out)	voltage
	2	V(g)	voltage
	3	V(vdd)	voltage
	4	Id(M1)	device_current
	5	Ig(M1)	device_current
	6	Ib(M1)	device_current
	7	Is(M1)	device_current
	8	I(Rload)	device_current
	9	I(Vg)	device_current
	10	I(Vdd)	device_current
Values:
0		1.000000000000000e+00,0.000000000000000e+00
	-5.639802592587476e+00,2.428188177597376e-09
	1.000000000000000e+00,0.000000000000000e+00
	0.000000000000000e+00,0.000000000000000e+00
	5.639802592587477e-04,-2.428188177597376e-13
	1.040881941910308e-22,3.664725909700785e-13
	5.639802643994662e-12,7.458400057244176e-15
	-5.639802648985503e-04,-1.311121732675851e-13
	-5.639802592587477e-04,2.428188177597376e-13
	-1.040881941910308e-22,-3.664725909700785e-13
	-5.639802592587477e-04,2.428188177597376e-13
1		1.023292992280754e+00,0.000000000000000e+00
	-5.639802592587476e+00,2.484747946074369e-09
	1.000000000000000e+00,0.000000000000000e+00
	0.000000000000000e+00,0.000000000000000e+00
	5.639802592587477e-04,-2.484747946074370e-13
	1.089937196524941e-22,3.750088342026526e-13
	5.639802643994662e-12,7.632128512204341e-15
	-5.639802648985503e-04,-1.341661681074199e-13
	-5.639802592587477e-04,2.484747946074370e-13
	-1.089937196524941e-22,-3.750088342026525e-13
	-5.639802592587477e-04,2.484747946074370e-13
2		1.047128548050899e+00,0.000000000000000e+00
	-5.639802592587476e+00,2.542625160801899e-09
	1.000000000000000e+00,0.000000000000000e+00
	0.000000000000000e+00,0.000000000000000e+00
	5.639802592587477e-04,-2.542625160801900e-13
	1.141304354063830e-22,3.837439120829495e-13
	5.639802643994662e-12,7.809903622724873e-15
	-5.639802648985503e-04,-1.372912996254844e-13
	-5.639802592587477e-04,2.542625160801900e-13
	-1.141304354063830e-22,-3.837439120829495e-13
	-5.639802592587477e-04,2.542625160801900e-13
3		1.071519305237606e+00,0.000000000000000e+00
	-5.639802592587476e+00,2.601850509045309e-09
	1.000000000000000e+00,0.000000000000000e+00
	0.000000000000000e+00,0.000000000000000e+00
	5.639802592587477e-04,-2.601850509045309e-13
	1.195092371155027e-22,3.926824560648839e-13
	5.639802643994662e-12,7.991819647522458e-15
	-5.639802648985503e-04,-1.404892248078755e-13
	-5.639802592587477e-04,2.601850509045309e-13
	-1.195092371155027e-22,-3.926824560648839e-13
	-5.639802592587477e-04,2.601850509045309e-13
4		1.096478196143185e+00,0.000000000000000e+00
	-5.639802592587476e+00,2.662455392868177e-09
	1.000000000000000e+00,0.000000000000000e+00
	0.000000000000000e+00,0.000000000000000e+00
	5.639802592587477e-04,-2.662455392868177e-13
	1.251415339394270e-22,4.018292054827909e-13
	5.639802643994662e-12,8.177973040881298e-15
	-5.639802648985503e-04,-1.437616392368544e-13
	-5.639802592587477e-04,2.662455392868177e-13
	-1.251415339394270e-22,-4.018292054827908e-13
	-5.639802592587477e-04,2.662455392868177e-13
5		1.122018454301963e+00,0.000000000000000e+00
	-5.639802592587476e+00,2.724471945782108e-09
	1.000000000000000e+00,0.000000000000000e+00
	0.000000000000000e+00,0.000000000000000e+00
	5.639802592587477e-04,-2.724471945782109e-13
	1.310392727348546e-22,4.111890100642831e-13
	5.639802643994662e-12,8.368462503794827e-15
	-5.639802648985503e-04,-1.471102779898671e-13
	-5.639802592587477e-04,2.724471945782108e-13
	-1.310392727348546e-22,-4.111890100642831e-13
	-5.639802592587477e-04,2.724471945782108e-13
6		1.148153621496882e+00,0.000000000000000e+00
	-5.639802592587476e+00,2.787933049784342e-09
	1.000000000000000e+00,0.000000000000000e+00
	0.000000000000000e+00,0.000000000000000e+00
	5.639802592587477e-04,-2.787933049784342e-13
	1.372149633964941e-22,4.207668325016414e-13
	5.639802643994662e-12,8.563389036297452e-15
	-5.639802648985503e-04,-1.505369165595046e-13
	-5.639802592587477e-04,2.787933049784342e-13
	-1.372149633964941e-22,-4.207668325016413e-13
	-5.639802592587477e-04,2.787933049784342e-13
7		1.174897554939529e+00,0.000000000000000e+00
	-5.639802592587476e+00,2.852872352792228e-09
	1.000000000000000e+00,0.000000000000000e+00
	0.000000000000000e+00,0.000000000000000e+00
	5.639802592587477e-04,-2.852872352792228e-13
	1.436817053922282e-22,4.305677510830994e-13
	5.639802643994662e-12,8.762855991017079e-15
	-5.639802648985503e-04,-1.540433717948937e-13
	-5.639802592587477e-04,2.852872352792228e-13
	-1.436817053922282e-22,-4.305677510830994e-13
	-5.639802592587477e-04,2.852872352792228e-13
8		1.202264434617413e+00,0.000000000000000e+00
	-5.639802592587476e+00,2.919324286483794e-09
	1.000000000000000e+00,0.000000000000000e+00
	0.000000000000000e+00,0.000000000000000e+00
	5.639802592587477e-04,-2.919324286483794e-13
	1.504532155488410e-22,4.405969623854198e-13
	5.639802643994662e-12,8.966969127973151e-15
	-5.639802648985503e-04,-1.576315028650135e-13
	-5.639802592587477e-04,2.919324286483794e-13
	-1.504532155488410e-22,-4.405969623854198e-13
	-5.639802592587477e-04,2.919324286483794e-13
9		1.230268770812381e+00,0.000000000000000e+00
	-5.639802592587476e+00,2.987324084553879e-09
	1.000000000000000e+00,0.000000000000000e+00
	0.000000000000000e+00,0.000000000000000e+00
	5.639802592587477e-04,-2.987324084553880e-13
	1.575438571472469e-22,4.508597840291870e-13
	5.639802643994662e-12,9.175836670652873e-15
	-5.639802648985503e-04,-1.613032122444519e-13
	-5.639802592587477e-04,2.987324084553879e-13
	-1.575438571472469e-22,-4.508597840291869e-13
	-5.639802592587477e-04,2.987324084553879e-13
10		1.258925411794167e+00,0.000000000000000e+00
	-5.639802592587476e+00,3.056907801395503e-09
	1.000000000000000e+00,0.000000000000000e+00
	0.000000000000000e+00,0.000000000000000e+00
	5.639802592587477e-04,-3.056907801395503e-13
	1.649686703889350e-22,4.613616574982814e-13
	5.639802643994662e-12,9.389569363391761e-15
	-5.639802648985503e-04,-1.650604467221228e-13
	-5.639802592587477e-04,3.056907801395503e-13
	-1.649686703889350e-22,-4.613616574982814e-13
	-5.639802592587477e-04,3.056907801395503e-13
11		1.288249551693134e+00,0.000000000000000e+00
	-5.639802592587476e+00,3.128112331216387e-09
	1.000000000000000e+00,0.000000000000000e+00
	0.000000000000000e+00,0.000000000000000e+00
	5.639802592587477e-04,-3.128112331216387e-13
	1.727434042982530e-22,4.721081510250248e-13
	5.639802643994662e-12,9.608280530092873e-15
	-5.639802648985503e-04,-1.689051984334790e-13
	-5.639802592587477e-04,3.128112331216387e-13
	-1.727434042982530e-22,-4.721081510250248e-13
	-5.639802592587477e-04,3.128112331216387e-13
12		1.318256738556407e+00,0.000000000000000e+00
	-5.639802592587476e+00,3.200975427600741e-09
	1.000000000000000e+00,0.000000000000000e+00
	0.000000000000000e+00,0.000000000000000e+00
	5.639802592587477e-04,-3.200975427600742e-13
	1.808845501281991e-22,4.831049625425318e-13
	5.639802643994662e-12,9.832086134311746e-15
	-5.639802648985503e-04,-1.728395059167693e-13
	-5.639802592587477e-04,3.200975427600741e-13
	-1.808845501281991e-22,-4.831049625425318e-13
	-5.639802592587477e-04,3.200975427600741e-13
13		1.348962882591653e+00,0.000000000000000e+00
	-5.639802592587476e+00,3.275535723526730e-09
	1.000000000000000e+00,0.000000000000000e+00
	0.000000000000000e+00,0.000000000000000e+00
	5.639802592587477e-04,-3.275535723526730e-13
	1.894093763405813e-22,4.943579227058291e-13
	5.639802643994662e-12,1.006110484074191e-14
	-5.639802648985503e-04,-1.768654551938980e-13
	-5.639802592587477e-04,3.275535723526730e-13
	-1.894093763405813e-22,-4.943579227058289e-13
	-5.639802592587477e-04,3.275535723526730e-13
14		1.380384264602885e+00,0.000000000000000e+00
	-5.639802592587476e+00,3.351832751850172e-09
	1.000000000000000e+00,0.000000000000000e+00
	0.000000000000000e+00,0.000000000000000e+00
	5.639802592587477e-04,-3.351832751850172e-13
	1.983359652347393e-22,5.058729979833455e-13
	5.639802643994662e-12,1.029545807813319e-14
	-5.639802648985503e-04,-1.809851808764615e-13
	-5.639802592587477e-04,3.351832751850172e-13
	-1.983359652347393e-22,-5.058729979833455e-13
	-5.639802592587477e-04,3.351832751850172e-13
15		1.412537544622754e+00,0.000000000000000e+00
	-5.639802592587476e+00,3.429906966265397e-09
	1.000000000000000e+00,0.000000000000000e+00
	0.000000000000000e+00,0.000000000000000e+00
	5.639802592587477e-04,-3.429906966265397e-13
	2.076832513025263e-22,5.176562938204137e-13
	5.639802643994662e-12,1.053527010367392e-14
	-5.639802648985503e-04,-1.852008672975478e-13
	-5.639802592587477e-04,3.429906966265397e-13
	-2.076832513025263e-22,-5.176562938204137e-13
	-5.639802592587477e-04,3.429906966265397e-13
16		1.445439770745927e+00,0.000000000000000e+00
	-5.639802592587476e+00,3.509799762754321e-09
	1.000000000000000e+00,0.000000000000000e+00
	0.000000000000000e+00,0.000000000000000e+00
	5.639802592587477e-04,-3.509799762754321e-13
	2.174710613909043e-22,5.297140578764561e-13
	5.639802643994662e-12,1.078066806887454e-14
	-5.639802648985503e-04,-1.895147496698985e-13
	-5.639802592587477e-04,3.509799762754320e-13
	-2.174710613909043e-22,-5.297140578764561e-13
	-5.639802592587477e-04,3.509799762754320e-13
17		1.479108388168207e+00,0.000000000000000e+00
	-5.639802592587476e+00,3.591553501535150e-09
	1.000000000000000e+00,0.000000000000000e+00
	0.000000000000000e+00,0.000000000000000e+00
	5.639802592587477e-04,-3.591553501535150e-13
	2.277201567573457e-22,5.420526833375793e-13
	5.639802643994662e-12,1.103178208698412e-14
	-5.639802648985503e-04,-1.939291152710485e-13
	-5.639802592587477e-04,3.591553501535150e-13
	-2.277201567573457e-22,-5.420526833375793e-13
	-5.639802592587477e-04,3.591553501535150e-13
18		1.513561248436208e+00,0.000000000000000e+00
	-5.639802592587476e+00,3.675211529522323e-09
	1.000000000000000e+00,0.000000000000000e+00
	0.000000000000000e+00,0.000000000000000e+00
	5.639802592587477e-04,-3.675211529522323e-13
	2.384522771072426e-22,5.546787123063237e-13
	5.639802643994662e-12,1.128874530197917e-14
	-5.639802648985503e-04,-1.984463046560705e-13
	-5.639802592587477e-04,3.675211529522323e-13
	-2.384522771072426e-22,-5.546787123063236e-13
	-5.639802592587477e-04,3.675211529522323e-13
19		1.548816618912481e+00,0.000000000000000e+00
	-5.639802592587476e+00,3.760818203309625e-09
	1.000000000000000e+00,0.000000000000000e+00
	0.000000000000000e+00,0.000000000000000e+00
	5.639802592587477e-04,-3.760818203309626e-13
	2.496901867067377e-22,5.675988392703735e-13
	5.639802643994662e-12,1.155169395915765e-14
	-5.639802648985503e-04,-2.030687128985686e-13
	-5.639802592587477e-04,3.760818203309626e-13
	-2.496901867067377e-22,-5.675988392703735e-13
	-5.639802592587477e-04,3.760818203309626e-13
20		1.584893192461113e+00,0.000000000000000e+00
	-5.639802592587476e+00,3.848418912688636e-09
	1.000000000000000e+00,0.000000000000000e+00
	0.000000000000000e+00,0.000000000000000e+00
	5.639802592587477e-04,-3.848418912688636e-13
	2.614577226687843e-22,5.808199146520633e-13
	5.639802643994662e-12,1.182076747737781e-14
	-5.639802648985503e-04,-2.077987908605776e-13
	-5.639802592587477e-04,3.848418912688636e-13
	-2.614577226687843e-22,-5.808199146520633e-13
	-5.639802592587477e-04,3.848418912688636e-13
21		1.621810097358929e+00,0.000000000000000e+00
	-5.639802592587476e+00,3.938060104715000e-09
	1.000000000000000e+00,0.000000000000000e+00
	0.000000000000000e+00,0.000000000000000e+00
	5.639802592587477e-04,-3.938060104715001e-13
	2.737798455148588e-22,5.943489484405621e-13
	5.639802643994662e-12,1.209610852298114e-14
	-5.639802648985503e-04,-2.126390464920431e-13
	-5.639802592587477e-04,3.938060104715000e-13
	-2.737798455148588e-22,-5.943489484405621e-13
	-5.639802592587477e-04,3.938060104715000e-13
22		1.659586907437560e+00,0.000000000000000e+00
	-5.639802592587476e+00,4.029789308335273e-09
	1.000000000000000e+00,0.000000000000000e+00
	0.000000000000000e+00,0.000000000000000e+00
	5.639802592587477e-04,-4.029789308335273e-13
	2.866826921195738e-22,6.081931139086625e-13
	5.639802643994662e-12,1.237786308543402e-14
	-5.639802648985503e-04,-2.175920461605691e-13
	-5.639802592587477e-04,4.029789308335273e-13
	-2.866826921195738e-22,-6.081931139086624e-13
	-5.639802592587477e-04,4.029789308335273e-13
23		1.698243652461743e+00,0.000000000000000e+00
	-5.639802592587476e+00,4.123655159587392e-09
	1.000000000000000e+00,0.000000000000000e+00
	0.000000000000000e+00,0.000000000000000e+00
	5.639802592587477e-04,-4.123655159587392e-13
	3.001936311504923e-22,6.223597514161448e-13
	5.639802643994662e-12,1.266618055473526e-14
	-5.639802648985503e-04,-2.226604160121408e-13
	-5.639802592587477e-04,4.123655159587392e-13
	-3.001936311504923e-22,-6.223597514161447e-13
	-5.639802592587477e-04,4.123655159587392e-13
24		1.737800828749374e+00,0.000000000000000e+00
	-5.639802592587476e+00,4.219707427388153e-09
	1.000000000000000e+00,0.000000000000000e+00
	0.000000000000000e+00,0.000000000000000e+00
	5.639802592587477e-04,-4.219707427388153e-13
	3.143413211207422e-22,6.368563723017330e-13
	5.639802643994662e-12,1.296121380062339e-14
	-5.639802648985503e-04,-2.278468433635411e-13
	-5.639802592587477e-04,4.219707427388153e-13
	-3.143413211207422e-22,-6.368563723017329e-13
	-5.639802592587477e-04,4.219707427388153e-13
25		1.778279410038922e+00,0.000000000000000e+00
	-5.639802592587476e+00,4.317997039921346e-09
	1.000000000000000e+00,0.000000000000000e+00
	0.000000000000000e+00,0.000000000000000e+00
	5.639802592587477e-04,-4.317997039921347e-13
	3.291557711775644e-22,6.516906628657063e-13
	5.639802643994662e-12,1.326311925363058e-14
	-5.639802648985503e-04,-2.331540781272022e-13
	-5.639802592587477e-04,4.317997039921347e-13
	-3.291557711775644e-22,-6.516906628657062e-13
	-5.639802592587477e-04,4.317997039921347e-13
26		1.819700858609982e+00,0.000000000000000e+00
	-5.639802592587476e+00,4.418576111640552e-09
	1.000000000000000e+00,0.000000000000000e+00
	0.000000000000000e+00,0.000000000000000e+00
	5.639802592587477e-04,-4.418576111640553e-13
	3.446684047557370e-22,6.668704884452766e-13
	5.639802643994662e-12,1.357205698802417e-14
	-5.639802648985503e-04,-2.385849342692455e-13
	-5.639802592587477e-04,4.418576111640553e-13
	-3.446684047557370e-22,-6.668704884452766e-13
	-5.639802592587477e-04,4.418576111640553e-13
27		1.862087136662866e+00,0.000000000000000e+00
	-5.639802592587476e+00,4.521497970900920e-09
	1.000000000000000e+00,0.000000000000000e+00
	0.000000000000000e+00,0.000000000000000e+00
	5.639802592587477e-04,-4.521497970900921e-13
	3.609121262308946e-22,6.824038975848952e-13
	5.639802643994662e-12,1.388819080668011e-14
	-5.639802648985503e-04,-2.441422913014832e-13
	-5.639802592587477e-04,4.521497970900920e-13
	-3.609121262308946e-22,-6.824038975848952e-13
	-5.639802592587477e-04,4.521497970900920e-13
28		1.905460717963246e+00,0.000000000000000e+00
	-5.639802592587476e+00,4.626817188234560e-09
	1.000000000000000e+00,0.000000000000000e+00
	0.000000000000000e+00,0.000000000000000e+00
	5.639802592587477e-04,-4.626817188234561e-13
	3.779213907141196e-22,6.982991263036967e-13
	5.639802643994662e-12,1.421168832793369e-14
	-5.639802648985503e-04,-2.498290958081743e-13
	-5.639802592587477e-04,4.626817188234561e-13
	-3.779213907141196e-22,-6.982991263036967e-13
	-5.639802592587477e-04,4.626817188234561e-13
29		1.949844599758044e+00,0.000000000000000e+00
	-5.639802592587476e+00,4.734589605284569e-09
	1.000000000000000e+00,0.000000000000000e+00
	0.000000000000000e+00,0.000000000000000e+00
	5.639802592587477e-04,-4.734589605284569e-13
	3.957322771358528e-22,7.145646024623460e-13
	5.639802643994662e-12,1.454272107445276e-14
	-5.639802648985503e-04,-2.556483630083419e-13
	-5.639802592587477e-04,4.734589605284569e-13
	-3.957322771358528e-22,-7.145646024623460e-13
	-5.639802592587477e-04,4.734589605284569e-13
30		1.995262314968878e+00,0.000000000000000e+00
	-5.639802592587476e+00,4.844872364413001e-09
	1.000000000000000e+00,0.000000000000000e+00
	0.000000000000000e+00,0.000000000000000e+00
	5.639802592587477e-04,-4.844872364413001e-13
	4.143825647741416e-22,7.312089502316016e-13
	5.639802643994662e-12,1.488146456418112e-14
	-5.639802648985503e-04,-2.616031783544826e-13
	-5.639802592587477e-04,4.844872364413001e-13
	-4.143825647741416e-22,-7.312089502316016e-13
	-5.639802592587477e-04,4.844872364413001e-13
31		2.041737944669527e+00,0.000000000000000e+00
	-5.639802592587476e+00,4.957723938998510e-09
	1.000000000000000e+00,0.000000000000000e+00
	0.000000000000000e+00,0.000000000000000e+00
	5.639802592587477e-04,-4.957723938998511e-13
	4.339118133895545e-22,7.482409946649646e-13
	5.639802643994662e-12,1.522809840340080e-14
	-5.639802648985503e-04,-2.676966991685142e-13
	-5.639802592587477e-04,4.957723938998509e-13
	-4.339118133895545e-22,-7.482409946649645e-13
	-5.639802592587477e-04,4.957723938998509e-13
32		2.089296130854037e+00,0.000000000000000e+00
	-5.639802592587476e+00,5.073204164439713e-09
	1.000000000000000e+00,0.000000000000000e+00
	0.000000000000000e+00,0.000000000000000e+00
	5.639802592587477e-04,-5.073204164439715e-13
	4.543614471367372e-22,7.656697663778393e-13
	5.639802643994662e-12,1.558280638196199e-14
	-5.639802648985503e-04,-2.739321563158298e-13
	-5.639802592587477e-04,5.073204164439714e-13
	-4.543614471367372e-22,-7.656697663778392e-13
	-5.639802592587477e-04,5.073204164439714e-13
33		2.137962089502230e+00,0.000000000000000e+00
	-5.639802592587476e+00,5.191374269880697e-09
	1.000000000000000e+00,0.000000000000000e+00
	0.000000000000000e+00,0.000000000000000e+00
	5.639802592587477e-04,-5.191374269880697e-13
	4.757748424305972e-22,7.835045063356851e-13
	5.639802643994662e-12,1.594577657072938e-14
	-5.639802648985503e-04,-2.803128559183448e-13
	-5.639802592587477e-04,5.191374269880697e-13
	-4.757748424305972e-22,-7.835045063356851e-13
	-5.639802592587477e-04,5.191374269880697e-13
34		2.187761623949550e+00,0.000000000000000e+00
	-5.639802592587476e+00,5.312296910675534e-09
	1.000000000000000e+00,0.000000000000000e+00
	0.000000000000000e+00,0.000000000000000e+00
	5.639802592587477e-04,-5.312296910675534e-13
	4.981974199534967e-22,8.017546707536984e-13
	5.639802643994662e-12,1.631720142130195e-14
	-5.639802648985503e-04,-2.868421811074469e-13
	-5.639802592587477e-04,5.312296910675534e-13
	-4.981974199534967e-22,-8.017546707536983e-13
	-5.639802592587477e-04,5.312296910675534e-13
35		2.238721138568337e+00,0.000000000000000e+00
	-5.639802592587476e+00,5.436036201608972e-09
	1.000000000000000e+00,0.000000000000000e+00
	0.000000000000000e+00,0.000000000000000e+00
	5.639802592587477e-04,-5.436036201608974e-13
	5.216767409986091e-22,8.204299361106227e-13
	5.639802643994662e-12,1.669727786805204e-14
	-5.639802648985503e-04,-2.935235938177773e-13
	-5.639802592587477e-04,5.436036201608972e-13
	-5.216767409986091e-22,-8.204299361106227e-13
	-5.639802592587477e-04,5.436036201608972e-13
36		2.290867652767770e+00,0.000000000000000e+00
	-5.639802592587476e+00,5.562657750890950e-09
	1.000000000000000e+00,0.000000000000000e+00
	0.000000000000000e+00,0.000000000000000e+00
	5.639802592587477e-04,-5.562657750890950e-13
	5.462626083537989e-22,8.395402042793471e-13
	5.639802643994662e-12,1.708620743254184e-14
	-5.639802648985503e-04,-3.003606366227940e-13
	-5.639802592587477e-04,5.562657750890951e-13
	-5.462626083537989e-22,-8.395402042793470e-13
	-5.639802592587477e-04,5.562657750890951e-13
37		2.344228815319919e+00,0.000000000000000e+00
	-5.639802592587476e+00,5.692228694942930e-09
	1.000000000000000e+00,0.000000000000000e+00
	0.000000000000000e+00,0.000000000000000e+00
	5.639802592587477e-04,-5.692228694942930e-13
	5.720071719400106e-22,8.590956077770086e-13
	5.639802643994662e-12,1.748419633037562e-14
	-5.639802648985503e-04,-3.073569346130912e-13
	-5.639802592587477e-04,5.692228694942930e-13
	-5.720071719400106e-22,-8.590956077770085e-13
	-5.639802592587477e-04,5.692228694942930e-13
38		2.398832919019488e+00,0.000000000000000e+00
	-5.639802592587476e+00,5.824817733994523e-09
	1.000000000000000e+00,0.000000000000000e+00
	0.000000000000000e+00,0.000000000000000e+00
