Title: * GA CMOS Amp | W=6.466112090729727e-06 L=8.885153849957487e-07 Vbias=0.6763402038736108
Date: Sat Sep  6 22:05:33 2025
Plotname: AC Analysis
Flags: complex forward log
No. Variables: 13
No. Points:          901
Offset:    0.0000000000000000e+00
Command: Linear Technology Corporation LTspice
Variables:
	0	frequency	frequency
	1	V(out)	voltage
	2	V(g)	voltage
	3	V(vdd)	voltage
	4	V(m1#dbody)	voltage
	5	V(m1#sbody)	voltage
	6	Id(M1)	device_current
	7	Ig(M1)	device_current
	8	Ib(M1)	device_current
	9	Is(M1)	device_current
	10	I(Rload)	device_current
	11	I(Vg)	device_current
	12	I(Vdd)	device_current
Values:
0		1.000000000000000e+00,0.000000000000000e+00
	-2.640676711672226e+00,4.672053973266513e-09
	1.000000000000000e+00,0.000000000000000e+00
	0.000000000000000e+00,0.000000000000000e+00
	7.987658513606066e-09,-1.324803869254175e-15
	8.007463588913231e-09,3.428018222280706e-13
	2.640676711672226e-04,-4.672053973266514e-13
	4.243308815815852e-07,1.279547822965945e-12
	-4.269326912292267e-09,-1.598858643330286e-13
	-2.644877327218919e-04,-6.524565613062652e-13
	-2.640676711672226e-04,4.672053973266513e-13
	-4.243308817653002e-07,-1.279547822965945e-12
	-2.640676711672226e-04,4.672053973266513e-13
1		1.023292992280754e+00,0.000000000000000e+00
	-2.640676711672226e+00,4.780880090401077e-09
	1.000000000000000e+00,0.000000000000000e+00
	0.000000000000000e+00,0.000000000000000e+00
	7.987658513606035e-09,-1.355662515554193e-15
	8.007463588913228e-09,3.507867024270575e-13
	2.640676711672226e-04,-4.780880090401078e-13
	4.243308815815852e-07,1.309352320529147e-12
	-4.269326912292263e-09,-1.636100845367395e-13
	-2.644877327218919e-04,-6.676542269522994e-13
	-2.640676711672226e-04,4.780880090401078e-13
	-4.243308817653002e-07,-1.309352320529147e-12
	-2.640676711672226e-04,4.780880090401078e-13
2		1.047128548050899e+00,0.000000000000000e+00
	-2.640676711672226e+00,4.892241093442000e-09
	1.000000000000000e+00,0.000000000000000e+00
	0.000000000000000e+00,0.000000000000000e+00
	7.987658513605998e-09,-1.387239952064317e-15
	8.007463588913223e-09,3.589575743788821e-13
	2.640676711672226e-04,-4.892241093442000e-13
	4.243308815815852e-07,1.339851054024019e-12
	-4.269326912292259e-09,-1.674210529729073e-13
	-2.644877327218919e-04,-6.832058917069121e-13
	-2.640676711672226e-04,4.892241093442000e-13
	-4.243308817653002e-07,-1.339851054024019e-12
	-2.640676711672226e-04,4.892241093442000e-13
3		1.071519305237606e+00,0.000000000000000e+00
	-2.640676711672226e+00,5.006196027467132e-09
	1.000000000000000e+00,0.000000000000000e+00
	0.000000000000000e+00,0.000000000000000e+00
	7.987658513605963e-09,-1.419552921559263e-15
	8.007463588913220e-09,3.673187703880076e-13
	2.640676711672226e-04,-5.006196027467131e-13
	4.243308815815852e-07,1.371060194282761e-12
	-4.269326912292255e-09,-1.713207902674410e-13
	-2.644877327218919e-04,-6.991198012686069e-13
	-2.640676711672226e-04,5.006196027467132e-13
	-4.243308817653002e-07,-1.371060194282761e-12
	-2.640676711672226e-04,5.006196027467132e-13
4		1.096478196143185e+00,0.000000000000000e+00
	-2.640676711672226e+00,5.122805312890865e-09
	1.000000000000000e+00,0.000000000000000e+00
	0.000000000000000e+00,0.000000000000000e+00
	7.987658513605927e-09,-1.452618556803250e-15
	8.007463588913215e-09,3.758747236712315e-13
	2.640676711672226e-04,-5.122805312890865e-13
	4.243308815815852e-07,1.402996288804638e-12
	-4.269326912292251e-09,-1.753113641126731e-13
	-2.644877327218919e-04,-7.154043934028788e-13
	-2.640676711672226e-04,5.122805312890865e-13
	-4.243308817653002e-07,-1.402996288804638e-12
	-2.640676711672226e-04,5.122805312890865e-13
5		1.122018454301963e+00,0.000000000000000e+00
	-2.640676711672226e+00,5.242130777499839e-09
	1.000000000000000e+00,0.000000000000000e+00
	0.000000000000000e+00,0.000000000000000e+00
	7.987658513605887e-09,-1.486454389633796e-15
	8.007463588913210e-09,3.846299707082362e-13
	2.640676711672226e-04,-5.242130777499840e-13
	4.243308815815852e-07,1.435676270529692e-12
	-4.269326912292245e-09,-1.793948903636781e-13
	-2.644877327218919e-04,-7.320683024160298e-13
	-2.640676711672226e-04,5.242130777499840e-13
	-4.243308817653002e-07,-1.435676270529692e-12
	-2.640676711672226e-04,5.242130777499840e-13
6		1.148153621496882e+00,0.000000000000000e+00
	-2.640676711672226e+00,5.364235689234846e-09
	1.000000000000000e+00,0.000000000000000e+00
	0.000000000000000e+00,0.000000000000000e+00
	7.987658513605846e-09,-1.521078360257148e-15
	8.007463588913205e-09,3.935891536468899e-13
	2.640676711672226e-04,-5.364235689234847e-13
	4.243308815815852e-07,1.469117466816802e-12
	-4.269326912292240e-09,-1.835735341601260e-13
	-2.644877327218919e-04,-7.491203637331911e-13
	-2.640676711672226e-04,5.364235689234847e-13
	-4.243308817653002e-07,-1.469117466816801e-12
	-2.640676711672226e-04,5.364235689234847e-13
7		1.174897554939529e+00,0.000000000000000e+00
	-2.640676711672226e+00,5.489184789736339e-09
	1.000000000000000e+00,0.000000000000000e+00
	0.000000000000000e+00,0.000000000000000e+00
	7.987658513605801e-09,-1.556508826761108e-15
	8.007463588913198e-09,4.027570227645753e-13
	2.640676711672226e-04,-5.489184789736338e-13
	4.243308815815852e-07,1.503337608630886e-12
	-4.269326912292235e-09,-1.878495110742686e-13
	-2.644877327218919e-04,-7.665696185829840e-13
	-2.640676711672226e-04,5.489184789736340e-13
	-4.243308817653002e-07,-1.503337608630887e-12
	-2.640676711672226e-04,5.489184789736340e-13
8		1.202264434617413e+00,0.000000000000000e+00
	-2.640676711672226e+00,5.617044328671300e-09
	1.000000000000000e+00,0.000000000000000e+00
	0.000000000000000e+00,0.000000000000000e+00
	7.987658513605757e-09,-1.592764574847792e-15
	8.007463588913193e-09,4.121384389868501e-13
	2.640676711672226e-04,-5.617044328671301e-13
	4.243308815815852e-07,1.538354839944093e-12
	-4.269326912292229e-09,-1.922250882856649e-13
	-2.644877327218919e-04,-7.844253187912980e-13
	-2.640676711672226e-04,5.617044328671301e-13
	-4.243308817653002e-07,-1.538354839944093e-12
	-2.640676711672226e-04,5.617044328671301e-13
9		1.230268770812381e+00,0.000000000000000e+00
	-2.640676711672226e+00,5.747882098859696e-09
	1.000000000000000e+00,0.000000000000000e+00
	0.000000000000000e+00,0.000000000000000e+00
	7.987658513605709e-09,-1.629864827794726e-15
	8.007463588913186e-09,4.217383764647728e-13
	2.640676711672226e-04,-5.747882098859693e-13
	4.243308815815852e-07,1.574187727355971e-12
	-4.269326912292222e-09,-1.967025857832702e-13
	-2.644877327218919e-04,-8.026969316867318e-13
	-2.640676711672226e-04,5.747882098859696e-13
	-4.243308817653002e-07,-1.574187727355971e-12
	-2.640676711672226e-04,5.747882098859696e-13
10		1.258925411794167e+00,0.000000000000000e+00
	-2.640676711672226e+00,5.881767472219119e-09
	1.000000000000000e+00,0.000000000000000e+00
	0.000000000000000e+00,0.000000000000000e+00
	7.987658513605661e-09,-1.667829256647338e-15
	8.007463588913181e-09,4.315619252122646e-13
	2.640676711672226e-04,-5.881767472219119e-13
	4.243308815815851e-07,1.610855269937732e-12
	-4.269326912292217e-09,-2.012843775955243e-13
	-2.644877327218919e-04,-8.213941451202958e-13
	-2.640676711672226e-04,5.881767472219120e-13
	-4.243308817653002e-07,-1.610855269937732e-12
	-2.640676711672226e-04,5.881767472219120e-13
11		1.288249551693134e+00,0.000000000000000e+00
	-2.640676711672226e+00,6.018771436546711e-09
	1.000000000000000e+00,0.000000000000000e+00
	0.000000000000000e+00,0.000000000000000e+00
	7.987658513605608e-09,-1.706677990647926e-15
	8.007463588913175e-09,4.416142938049014e-13
	2.640676711672226e-04,-6.018771436546710e-13
	4.243308815815851e-07,1.648376909305804e-12
	-4.269326912292211e-09,-2.059728930490933e-13
	-2.644877327218919e-04,-8.405268726020397e-13
	-2.640676711672226e-04,6.018771436546712e-13
	-4.243308817653002e-07,-1.648376909305804e-12
	-2.640676711672226e-04,6.018771436546712e-13
12		1.318256738556407e+00,0.000000000000000e+00
	-2.640676711672226e+00,6.158966633157815e-09
	1.000000000000000e+00,0.000000000000000e+00
	0.000000000000000e+00,0.000000000000000e+00
	7.987658513605555e-09,-1.746431627909941e-15
	8.007463588913170e-09,4.519008121415695e-13
	2.640676711672226e-04,-6.158966633157817e-13
	4.243308815815851e-07,1.686772539930037e-12
	-4.269326912292205e-09,-2.107706180569304e-13
	-2.644877327218919e-04,-8.601052585573254e-13
	-2.640676711672226e-04,6.158966633157816e-13
	-4.243308817653002e-07,-1.686772539930037e-12
	-2.640676711672226e-04,6.158966633157816e-13
13		1.348962882591653e+00,0.000000000000000e+00
	-2.640676711672226e+00,6.302427395401383e-09
	1.000000000000000e+00,0.000000000000000e+00
	0.000000000000000e+00,0.000000000000000e+00
	7.987658513605497e-09,-1.787111246337791e-15
	8.007463588913162e-09,4.624269342704496e-13
	2.640676711672226e-04,-6.302427395401383e-13
	4.243308815815851e-07,1.726062519682016e-12
	-4.269326912292197e-09,-2.156800964363402e-13
	-2.644877327218919e-04,-8.801396837055372e-13
	-2.640676711672226e-04,6.302427395401384e-13
	-4.243308817653002e-07,-1.726062519682016e-12
	-2.640676711672226e-04,6.302427395401384e-13
14		1.380384264602885e+00,0.000000000000000e+00
	-2.640676711672226e+00,6.449229788072482e-09
	1.000000000000000e+00,0.000000000000000e+00
	0.000000000000000e+00,0.000000000000000e+00
	7.987658513605439e-09,-1.828738414803376e-15
	8.007463588913155e-09,4.731982412808241e-13
	2.640676711672226e-04,-6.449229788072482e-13
	4.243308815815851e-07,1.766267680629068e-12
	-4.269326912292189e-09,-2.207039312577443e-13
	-2.644877327218919e-04,-9.006407705640759e-13
	-2.640676711672226e-04,6.449229788072482e-13
	-4.243308817653002e-07,-1.766267680629068e-12
	-2.640676711672226e-04,6.449229788072482e-13
15		1.412537544622754e+00,0.000000000000000e+00
	-2.640676711672226e+00,6.599451647742863e-09
	1.000000000000000e+00,0.000000000000000e+00
	0.000000000000000e+00,0.000000000000000e+00
	7.987658513605376e-09,-1.871335204582924e-15
	8.007463588913147e-09,4.842204442622448e-13
	2.640676711672226e-04,-6.599451647742864e-13
	4.243308815815851e-07,1.807409340079707e-12
	-4.269326912292181e-09,-2.258447862248630e-13
	-2.644877327218919e-04,-9.216193890805573e-13
	-2.640676711672226e-04,6.599451647742864e-13
	-4.243308817653002e-07,-1.807409340079706e-12
	-2.640676711672226e-04,6.599451647742864e-13
16		1.445439770745927e+00,0.000000000000000e+00
	-2.640676711672226e+00,6.753172624030947e-09
	1.000000000000000e+00,0.000000000000000e+00
	0.000000000000000e+00,0.000000000000000e+00
	7.987658513605310e-09,-1.914924201058088e-15
	8.007463588913138e-09,4.954993873326284e-13
	2.640676711672226e-04,-6.753172624030947e-13
	4.243308815815851e-07,1.849509311886346e-12
	-4.269326912292174e-09,-2.311053870870472e-13
	-2.644877327218919e-04,-9.430866623962038e-13
	-2.640676711672226e-04,6.753172624030947e-13
	-4.243308817653002e-07,-1.849509311886345e-12
	-2.640676711672226e-04,6.753172624030947e-13
17		1.479108388168207e+00,0.000000000000000e+00
	-2.640676711672226e+00,6.910474221833100e-09
	1.000000000000000e+00,0.000000000000000e+00
	0.000000000000000e+00,0.000000000000000e+00
	7.987658513605242e-09,-1.959528515691534e-15
	8.007463588913130e-09,5.070410507368857e-13
	2.640676711672226e-04,-6.910474221833100e-13
	4.243308815815851e-07,1.892589918011297e-12
	-4.269326912292165e-09,-2.364885230845065e-13
	-2.644877327218919e-04,-9.650539727434807e-13
	-2.640676711672226e-04,6.910474221833101e-13
	-4.243308817653002e-07,-1.892589918011297e-12
	-2.640676711672226e-04,6.910474221833101e-13
18		1.513561248436208e+00,0.000000000000000e+00
	-2.640676711672226e+00,7.071439844538608e-09
	1.000000000000000e+00,0.000000000000000e+00
	0.000000000000000e+00,0.000000000000000e+00
	7.987658513605171e-09,-2.005171798281369e-15
	8.007463588913122e-09,5.188515540177255e-13
	2.640676711672226e-04,-7.071439844538607e-13
	4.243308815815851e-07,1.936674000362167e-12
	-4.269326912292156e-09,-2.419970484272008e-13
	-2.644877327218919e-04,-9.875329674811058e-13
	-2.640676711672226e-04,7.071439844538609e-13
	-4.243308817653002e-07,-1.936674000362167e-12
	-2.640676711672226e-04,7.071439844538609e-13
19		1.548816618912481e+00,0.000000000000000e+00
	-2.640676711672226e+00,7.236154838251263e-09
	1.000000000000000e+00,0.000000000000000e+00
	0.000000000000000e+00,0.000000000000000e+00
	7.987658513605095e-09,-2.051878249500527e-15
	8.007463588913112e-09,5.309371592603176e-13
	2.640676711672226e-04,-7.236154838251263e-13
	4.243308815815851e-07,1.981784932902941e-12
	-4.269326912292147e-09,-2.476338838081809e-13
	-2.644877327218919e-04,-1.010535565269633e-12
	-2.640676711672226e-04,7.236154838251263e-13
	-4.243308817653002e-07,-1.981784932902940e-12
	-2.640676711672226e-04,7.236154838251263e-13
20		1.584893192461113e+00,0.000000000000000e+00
	-2.640676711672226e+00,7.404706537040991e-09
	1.000000000000000e+00,0.000000000000000e+00
	0.000000000000000e+00,0.000000000000000e+00
	7.987658513605017e-09,-2.099672633727351e-15
	8.007463588913102e-09,5.433042744125335e-13
	2.640676711672226e-04,-7.404706537040991e-13
	4.243308815815851e-07,2.027946634047163e-12
	-4.269326912292136e-09,-2.534020179521779e-13
	-2.644877327218919e-04,-1.034073962390886e-12
	-2.640676711672226e-04,7.404706537040991e-13
	-4.243308817653002e-07,-2.027946634047163e-12
	-2.640676711672226e-04,7.404706537040991e-13
21		1.621810097358929e+00,0.000000000000000e+00
	-2.640676711672226e+00,7.577184309249535e-09
	1.000000000000000e+00,0.000000000000000e+00
	0.000000000000000e+00,0.000000000000000e+00
	7.987658513604934e-09,-2.148580292176585e-15
	8.007463588913092e-09,5.559594566825255e-13
	2.640676711672226e-04,-7.577184309249536e-13
	4.243308815815851e-07,2.075183579339805e-12
	-4.269326912292127e-09,-2.593045092002656e-13
	-2.644877327218919e-04,-1.058160639214586e-12
	-2.640676711672226e-04,7.577184309249536e-13
	-4.243308817653002e-07,-2.075183579339805e-12
	-2.640676711672226e-04,7.577184309249536e-13
22		1.659586907437560e+00,0.000000000000000e+00
	-2.640676711672226e+00,7.753679604874737e-09
	1.000000000000000e+00,0.000000000000000e+00
	0.000000000000000e+00,0.000000000000000e+00
	7.987658513604847e-09,-2.198627156336713e-15
	8.007463588913081e-09,5.689094160154439e-13
	2.640676711672226e-04,-7.753679604874736e-13
	4.243308815815851e-07,2.123520814434515e-12
	-4.269326912292116e-09,-2.653444871314322e-13
	-2.644877327218919e-04,-1.082808366815609e-12
	-2.640676711672226e-04,7.753679604874738e-13
	-4.243308817653002e-07,-2.123520814434515e-12
	-2.640676711672226e-04,7.753679604874738e-13
23		1.698243652461743e+00,0.000000000000000e+00
	-2.640676711672226e+00,7.934286004058524e-09
	1.000000000000000e+00,0.000000000000000e+00
	0.000000000000000e+00,0.000000000000000e+00
	7.987658513604759e-09,-2.249839761717704e-15
	8.007463588913071e-09,5.821610186511400e-13
	2.640676711672226e-04,-7.934286004058525e-13
	4.243308815815850e-07,2.172983968373159e-12
	-4.269326912292106e-09,-2.715251542219252e-13
	-2.644877327218919e-04,-1.108030213745381e-12
	-2.640676711672226e-04,7.934286004058524e-13
	-4.243308817653002e-07,-2.172983968373159e-12
	-2.640676711672226e-04,7.934286004058524e-13
24		1.737800828749374e+00,0.000000000000000e+00
	-2.640676711672226e+00,8.119099266704354e-09
	1.000000000000000e+00,0.000000000000000e+00
	0.000000000000000e+00,0.000000000000000e+00
	7.987658513604665e-09,-2.302245261920343e-15
	8.007463588913059e-09,5.957212907647368e-13
	2.640676711672226e-04,-8.119099266704354e-13
	4.243308815815850e-07,2.223599267174677e-12
	-4.269326912292093e-09,-2.778497875432471e-13
	-2.644877327218919e-04,-1.133839552960995e-12
	-2.640676711672226e-04,8.119099266704355e-13
	-4.243308817653002e-07,-2.223599267174677e-12
	-2.640676711672226e-04,8.119099266704355e-13
25		1.778279410038922e+00,0.000000000000000e+00
	-2.640676711672226e+00,8.308217383250376e-09
	1.000000000000000e+00,0.000000000000000e+00
	0.000000000000000e+00,0.000000000000000e+00
	7.987658513604566e-09,-2.355871443034654e-15
	8.007463588913047e-09,6.095974221920007e-13
	2.640676711672226e-04,-8.308217383250374e-13
	4.243308815815850e-07,2.275393547740467e-12
	-4.269326912292081e-09,-2.843217404997011e-13
	-2.644877327218919e-04,-1.160250068915729e-12
	-2.640676711672226e-04,8.308217383250376e-13
	-4.243308817653002e-07,-2.275393547740467e-12
	-2.640676711672226e-04,8.308217383250376e-13
26		1.819700858609982e+00,0.000000000000000e+00
	-2.640676711672226e+00,8.501740626625252e-09
	1.000000000000000e+00,0.000000000000000e+00
	0.000000000000000e+00,0.000000000000000e+00
	7.987658513604461e-09,-2.410746738371527e-15
	8.007463588913034e-09,6.237967702414865e-13
	2.640676711672226e-04,-8.501740626625253e-13
	4.243308815815850e-07,2.328394272083664e-12
	-4.269326912292068e-09,-2.909444446064112e-13
	-2.644877327218919e-04,-1.187275764814727e-12
	-2.640676711672226e-04,8.501740626625253e-13
	-4.243308817653002e-07,-2.328394272083663e-12
	-2.640676711672226e-04,8.501740626625253e-13
27		1.862087136662866e+00,0.000000000000000e+00
	-2.640676711672226e+00,8.699771605414208e-09
	1.000000000000000e+00,0.000000000000000e+00
	0.000000000000000e+00,0.000000000000000e+00
	7.987658513604354e-09,-2.466900243539478e-15
	8.007463588913021e-09,6.383268635954808e-13
	2.640676711672226e-04,-8.699771605414210e-13
	4.243308815815850e-07,2.382629541889861e-12
	-4.269326912292055e-09,-2.977214113087566e-13
	-2.644877327218919e-04,-1.214930970039683e-12
	-2.640676711672226e-04,8.699771605414209e-13
	-4.243308817653002e-07,-2.382629541889860e-12
	-2.640676711672226e-04,8.699771605414209e-13
28		1.905460717963246e+00,0.000000000000000e+00
	-2.640676711672226e+00,8.902415318263446e-09
	1.000000000000000e+00,0.000000000000000e+00
	0.000000000000000e+00,0.000000000000000e+00
	7.987658513604240e-09,-2.524361731869468e-15
	8.007463588913006e-09,6.531954063018084e-13
	2.640676711672226e-04,-8.902415318263446e-13
	4.243308815815850e-07,2.438128113416998e-12
	-4.269326912292040e-09,-3.046562338441868e-13
	-2.644877327218919e-04,-1.243230347746466e-12
	-2.640676711672226e-04,8.902415318263446e-13
	-4.243308817653002e-07,-2.438128113416998e-12
	-2.640676711672226e-04,8.902415318263446e-13
29		1.949844599758044e+00,0.000000000000000e+00
	-2.640676711672226e+00,9.109779209551824e-09
	1.000000000000000e+00,0.000000000000000e+00
	0.000000000000000e+00,0.000000000000000e+00
	7.987658513604121e-09,-2.583161670203836e-15
	8.007463588912991e-09,6.684102818586204e-13
	2.640676711672226e-04,-9.109779209551824e-13
	4.243308815815850e-07,2.494919412742310e-12
	-4.269326912292026e-09,-3.117525891474030e-13
	-2.644877327218919e-04,-1.272188902639724e-12
	-2.640676711672226e-04,9.109779209551826e-13
	-4.243308817653002e-07,-2.494919412742309e-12
	-2.640676711672226e-04,9.109779209551826e-13
30		1.995262314968878e+00,0.000000000000000e+00
	-2.640676711672226e+00,9.321973226359289e-09
	1.000000000000000e+00,0.000000000000000e+00
	0.000000000000000e+00,0.000000000000000e+00
	7.987658513603996e-09,-2.643331235047924e-15
	8.007463588912976e-09,6.839795573943299e-13
	2.640676711672226e-04,-9.321973226359288e-13
	4.243308815815850e-07,2.553033551364420e-12
	-4.269326912292011e-09,-3.190142397999185e-13
	-2.644877327218919e-04,-1.301821988928573e-12
	-2.640676711672226e-04,9.321973226359290e-13
	-4.243308817653002e-07,-2.553033551364419e-12
	-2.640676711672226e-04,9.321973226359290e-13
31		2.041737944669527e+00,0.000000000000000e+00
	-2.640676711672226e+00,9.539109876762269e-09
	1.000000000000000e+00,0.000000000000000e+00
	0.000000000000000e+00,0.000000000000000e+00
	7.987658513603866e-09,-2.704902329101276e-15
	8.007463588912960e-09,6.999114879449096e-13
	2.640676711672226e-04,-9.539109876762269e-13
	4.243308815815849e-07,2.612501342168857e-12
	-4.269326912291993e-09,-3.264450360250287e-13
	-2.644877327218919e-04,-1.332145318467601e-12
	-2.640676711672226e-04,9.539109876762269e-13
	-4.243308817653002e-07,-2.612501342168857e-12
	-2.640676711672226e-04,9.539109876762269e-13
32		2.089296130854037e+00,0.000000000000000e+00
	-2.640676711672226e+00,9.761304289486959e-09
	1.000000000000000e+00,0.000000000000000e+00
	0.000000000000000e+00,0.000000000000000e+00
