LTspice 24.0.9 for Windows
Circuit: * GA CMOS Amp | W=1e-06 L=9.07194498837069e-07 Vbias=1.0324069887197416
Start Time: Mon Sep  8 18:45:02 2025
solver = Normal
Maximum thread count: 2
tnom = 27
temp = 27
method = modified trap
AsciiRawFile = 1
Instance "m1": Length shorter than recommended for a level 3 MOSFET.
Instance "m1": Width narrower than recommended for a level 3 MOSFET.
Direct Newton iteration for .op point succeeded.
Semiconductor Device Operating Points:
                        --- MOSFET Transistors ---
Name:          m1
Model:        n_1u
Id:          5.59e-07
Vgs:         1.03e+00
Vds:         1.79e+00
Vbs:         0.00e+00
Vth:         9.96e-01
Vdsat:       6.64e-02
Gm:          1.13e-05
Gds:         4.58e-08
Gmb:         5.75e-06
Cbd:         0.00e+00
Cbs:         0.00e+00
Cgsov:       2.00e-16
Cgdov:       2.00e-16
Cgbov:       7.07e-17
Cgs:         8.14e-16
Cgd:         0.00e+00
Cgb:         0.00e+00



gain_db: MAX(db(v(out)/v(g)))=(30.4217dB,124.713°) FROM 1 TO 1e+09
gain_lin: MAX(mag(v(out)/v(g)))=(-18.8519dB,0°) FROM 1 TO 1e+09

Measurement "fc" FAIL'ed

Total elapsed time: 0.630 seconds.

