Title: * GA CMOS Amp | W=3.1159311620136456e-06 L=9.141388303584319e-07 Vbias=1.4795962239733482
Date: Sat Sep  6 22:16:19 2025
Plotname: AC Analysis
Flags: complex forward log
No. Variables: 13
No. Points:          901
Offset:    0.0000000000000000e+00
Command: Linear Technology Corporation LTspice
Variables:
	0	frequency	frequency
	1	V(out)	voltage
	2	V(g)	voltage
	3	V(vdd)	voltage
	4	V(m1#dbody)	voltage
	5	V(m1#sbody)	voltage
	6	Id(M1)	device_current
	7	Ig(M1)	device_current
	8	Ib(M1)	device_current
	9	Is(M1)	device_current
	10	I(Rload)	device_current
	11	I(Vg)	device_current
	12	I(Vdd)	device_current
Values:
0		1.000000000000000e+00,0.000000000000000e+00
	-9.045822160542824e-02,1.272767664854771e-09
	1.000000000000000e+00,0.000000000000000e+00
	0.000000000000000e+00,0.000000000000000e+00
	9.200647804093751e-05,1.337224233501346e-13
	9.200647871936504e-05,1.394427600791716e-13
	9.045822160542828e-06,-1.272767664854771e-13
	5.569727685972421e-05,6.643284610451768e-13
	-4.907012197551512e-05,-7.399243945340889e-14
	-1.567297704475192e-05,-4.630592551062909e-13
	-9.045822160542824e-06,1.272767664854771e-13
	-5.569727685950099e-05,-6.643284610451768e-13
	-9.045822160542824e-06,1.272767664854771e-13
1		1.023292992280754e+00,0.000000000000000e+00
	-9.045822160542824e-02,1.302414232247426e-09
	1.000000000000000e+00,0.000000000000000e+00
	0.000000000000000e+00,0.000000000000000e+00
	9.200647804093751e-05,1.368372187249930e-13
	9.200647871936504e-05,1.426907992133028e-13
	9.045822160542828e-06,-1.302414232247426e-13
	5.569727685972421e-05,6.798026587601873e-13
	-4.907012197551512e-05,-7.571594477443129e-14
	-1.567297704475192e-05,-4.738452907610134e-13
	-9.045822160542824e-06,1.302414232247426e-13
	-5.569727685950099e-05,-6.798026587601874e-13
	-9.045822160542824e-06,1.302414232247426e-13
2		1.047128548050899e+00,0.000000000000000e+00
	-9.045822160542824e-02,1.332751356905510e-09
	1.000000000000000e+00,0.000000000000000e+00
	0.000000000000000e+00,0.000000000000000e+00
	9.200647804093751e-05,1.400245670044742e-13
	9.200647871936504e-05,1.460144948979129e-13
	9.045822160542828e-06,-1.332751356905510e-13
	5.569727685972421e-05,6.956372968431245e-13
	-4.907012197551512e-05,-7.747959569159213e-14
	-1.567297704475192e-05,-4.848825654609814e-13
	-9.045822160542824e-06,1.332751356905510e-13
	-5.569727685950099e-05,-6.956372968431245e-13
	-9.045822160542824e-06,1.332751356905510e-13
3		1.071519305237606e+00,0.000000000000000e+00
	-9.045822160542824e-02,1.363795123974074e-09
	1.000000000000000e+00,0.000000000000000e+00
	0.000000000000000e+00,0.000000000000000e+00
	9.200647804093751e-05,1.432861581628253e-13
	9.200647871936504e-05,1.494156094004482e-13
	9.045822160542828e-06,-1.363795123974075e-13
	5.569727685972421e-05,7.118407710286961e-13
	-4.907012197551512e-05,-7.928432731595234e-14
	-1.567297704475192e-05,-4.961769313153362e-13
	-9.045822160542824e-06,1.363795123974074e-13
	-5.569727685950099e-05,-7.118407710286960e-13
	-9.045822160542824e-06,1.363795123974074e-13
4		1.096478196143185e+00,0.000000000000000e+00
	-9.045822160542824e-02,1.395561993269332e-09
	1.000000000000000e+00,0.000000000000000e+00
	0.000000000000000e+00,0.000000000000000e+00
	9.200647804093751e-05,1.466237215388509e-13
	9.200647871936504e-05,1.528959460368369e-13
	9.045822160542828e-06,-1.395561993269332e-13
	5.569727685972421e-05,7.284216726133933e-13
	-4.907012197551512e-05,-8.113109654010757e-14
	-1.567297704475192e-05,-5.077343767463526e-13
	-9.045822160542824e-06,1.395561993269332e-13
	-5.569727685950099e-05,-7.284216726133933e-13
	-9.045822160542824e-06,1.395561993269332e-13
5		1.122018454301963e+00,0.000000000000000e+00
	-9.045822160542824e-02,1.428068808005869e-09
	1.000000000000000e+00,0.000000000000000e+00
	0.000000000000000e+00,0.000000000000000e+00
	9.200647804093751e-05,1.500390267528308e-13
	9.200647871936504e-05,1.564573501276316e-13
	9.045822160542828e-06,-1.428068808005869e-13
	5.569727685972421e-05,7.453887930107112e-13
	-4.907012197551512e-05,-8.302088254554543e-14
	-1.567297704475192e-05,-5.195610296645789e-13
	-9.045822160542824e-06,1.428068808005869e-13
	-5.569727685950099e-05,-7.453887930107113e-13
	-9.045822160542824e-06,1.428068808005869e-13
6		1.148153621496882e+00,0.000000000000000e+00
	-9.045822160542824e-02,1.461332803727135e-09
	1.000000000000000e+00,0.000000000000000e+00
	0.000000000000000e+00,0.000000000000000e+00
	9.200647804093751e-05,1.535338846447963e-13
	9.200647871936504e-05,1.601017099764218e-13
	9.045822160542828e-06,-1.461332803727135e-13
	5.569727685972421e-05,7.627511284124704e-13
	-4.907012197551512e-05,-8.495468732182021e-14
	-1.567297704475192e-05,-5.316631607179367e-13
	-9.045822160542824e-06,1.461332803727135e-13
	-5.569727685950099e-05,-7.627511284124704e-13
	-9.045822160542824e-06,1.461332803727135e-13
7		1.174897554939529e+00,0.000000000000000e+00
	-9.045822160542824e-02,1.495371617443964e-09
	1.000000000000000e+00,0.000000000000000e+00
	0.000000000000000e+00,0.000000000000000e+00
	9.200647804093751e-05,1.571101482346618e-13
	9.200647871936504e-05,1.638309578710381e-13
	9.045822160542828e-06,-1.495371617443965e-13
	5.569727685972421e-05,7.805178845587184e-13
	-4.907012197551512e-05,-8.693353619782123e-14
	-1.567297704475192e-05,-5.440471866165007e-13
	-9.045822160542824e-06,1.495371617443964e-13
	-5.569727685950099e-05,-7.805178845587184e-13
	-9.045822160542824e-06,1.495371617443964e-13
8		1.202264434617413e+00,0.000000000000000e+00
	-9.045822160542824e-02,1.530203296985946e-09
	1.000000000000000e+00,0.000000000000000e+00
	0.000000000000000e+00,0.000000000000000e+00
	9.200647804093751e-05,1.607697137047199e-13
	9.200647871936504e-05,1.676470711080767e-13
	9.045822160542828e-06,-1.530203296985945e-13
	5.569727685972421e-05,7.986984816187353e-13
	-4.907012197551512e-05,-8.895847838541576e-14
	-1.567297704475192e-05,-5.567196735347251e-13
	-9.045822160542824e-06,1.530203296985946e-13
	-5.569727685950099e-05,-7.986984816187352e-13
	-9.045822160542824e-06,1.530203296985946e-13
9		1.230268770812381e+00,0.000000000000000e+00
	-9.045822160542824e-02,1.565846310570624e-09
	1.000000000000000e+00,0.000000000000000e+00
	0.000000000000000e+00,0.000000000000000e+00
	9.200647804093751e-05,1.645145214050230e-13
	9.200647871936504e-05,1.715520730412883e-13
	9.045822160542828e-06,-1.565846310570624e-13
	5.569727685972421e-05,8.173025591857306e-13
	-4.907012197551512e-05,-9.103058753575490e-14
	-1.567297704475192e-05,-5.696873405929133e-13
	-9.045822160542824e-06,1.565846310570624e-13
	-5.569727685950099e-05,-8.173025591857306e-13
	-9.045822160542824e-06,1.565846310570624e-13
10		1.258925411794167e+00,0.000000000000000e+00
	-9.045822160542824e-02,1.602319556595592e-09
	1.000000000000000e+00,0.000000000000000e+00
	0.000000000000000e+00,0.000000000000000e+00
	9.200647804093751e-05,1.683465568821822e-13
	9.200647871936504e-05,1.755480341543864e-13
	9.045822160542828e-06,-1.602319556595592e-13
	5.569727685972421e-05,8.363399813878843e-13
	-4.907012197551512e-05,-9.315096230853775e-14
	-1.567297704475192e-05,-5.829570634197874e-13
	-9.045822160542824e-06,1.602319556595593e-13
	-5.569727685950099e-05,-8.363399813878843e-13
	-9.045822160542824e-06,1.602319556595593e-13
11		1.288249551693134e+00,0.000000000000000e+00
	-9.045822160542824e-02,1.639642373658675e-09
	1.000000000000000e+00,0.000000000000000e+00
	0.000000000000000e+00,0.000000000000000e+00
	9.200647804093751e-05,1.722678519321304e-13
	9.200647871936504e-05,1.796370731588461e-13
	9.045822160542828e-06,-1.639642373658675e-13
	5.569727685972421e-05,8.558208421184385e-13
	-4.907012197551512e-05,-9.532072695453535e-14
	-1.567297704475192e-05,-5.965358777980357e-13
	-9.045822160542824e-06,1.639642373658675e-13
	-5.569727685950099e-05,-8.558208421184384e-13
	-9.045822160542824e-06,1.639642373658675e-13
12		1.318256738556407e+00,0.000000000000000e+00
	-9.045822160542824e-02,1.677834550811504e-09
	1.000000000000000e+00,0.000000000000000e+00
	0.000000000000000e+00,0.000000000000000e+00
	9.200647804093751e-05,1.762804856774076e-13
	9.200647871936504e-05,1.838213581172723e-13
	9.045822160542828e-06,-1.677834550811504e-13
	5.569727685972421e-05,8.757554703876118e-13
	-4.907012197551512e-05,-9.754103191168321e-14
	-1.567297704475192e-05,-6.104309833947782e-13
	-9.045822160542824e-06,1.677834550811504e-13
	-5.569727685950099e-05,-8.757554703876115e-13
	-9.045822160542824e-06,1.677834550811504e-13
13		1.348962882591653e+00,0.000000000000000e+00
	-9.045822160542824e-02,1.716916338051939e-09
	1.000000000000000e+00,0.000000000000000e+00
	0.000000000000000e+00,0.000000000000000e+00
	9.200647804093751e-05,1.803865856695390e-13
	9.200647871936504e-05,1.881031075929357e-13
	9.045822160542828e-06,-1.716916338051939e-13
	5.569727685972421e-05,8.961544357991786e-13
	-4.907012197551512e-05,-9.981305441505882e-14
	-1.567297704475192e-05,-6.246497475789259e-13
	-9.045822160542824e-06,1.716916338051939e-13
	-5.569727685950099e-05,-8.961544357991785e-13
	-9.045822160542824e-06,1.716916338051939e-13
14		1.380384264602885e+00,0.000000000000000e+00
	-9.045822160542824e-02,1.756908457060883e-09
	1.000000000000000e+00,0.000000000000000e+00
	0.000000000000000e+00,0.000000000000000e+00
	9.200647804093751e-05,1.845883290170912e-13
	9.200647871936504e-05,1.924845918260838e-13
	9.045822160542828e-06,-1.756908457060884e-13
	5.569727685972421e-05,9.170285541546125e-13
	-4.907012197551512e-05,-1.021379991210673e-13
	-1.567297704475192e-05,-6.391997093274568e-13
	-9.045822160542824e-06,1.756908457060883e-13
	-5.569727685950099e-05,-9.170285541546125e-13
	-9.045822160542824e-06,1.756908457060883e-13
15		1.412537544622754e+00,0.000000000000000e+00
	-9.045822160542824e-02,1.797832112189194e-09
	1.000000000000000e+00,0.000000000000000e+00
	0.000000000000000e+00,0.000000000000000e+00
	9.200647804093751e-05,1.888879435400036e-13
	9.200647871936504e-05,1.969681339376529e-13
	9.045822160542828e-06,-1.797832112189194e-13
	5.569727685972421e-05,9.383888931877670e-13
	-4.907012197551512e-05,-1.045170987461660e-13
	-1.567297704475192e-05,-6.540885832226816e-13
	-9.045822160542824e-06,1.797832112189194e-13
	-5.569727685950099e-05,-9.383888931877668e-13
	-9.045822160542824e-06,1.797832112189194e-13
16		1.445439770745927e+00,0.000000000000000e+00
	-9.045822160542824e-02,1.839709001700509e-09
	1.000000000000000e+00,0.000000000000000e+00
	0.000000000000000e+00,0.000000000000000e+00
	9.200647804093751e-05,1.932877089508084e-13
	9.200647871936504e-05,2.015561111610171e-13
	9.045822160542828e-06,-1.839709001700508e-13
	5.569727685972421e-05,9.602467784331348e-13
	-4.907012197551512e-05,-1.069516147204672e-13
	-1.567297704475192e-05,-6.693242635426168e-13
	-9.045822160542824e-06,1.839709001700509e-13
	-5.569727685950099e-05,-9.602467784331348e-13
	-9.045822160542824e-06,1.839709001700509e-13
17		1.479108388168207e+00,0.000000000000000e+00
	-9.045822160542824e-02,1.882561329275952e-09
	1.000000000000000e+00,0.000000000000000e+00
	0.000000000000000e+00,0.000000000000000e+00
	9.200647804093751e-05,1.977899580633642e-13
	9.200647871936504e-05,2.062509561024295e-13
	9.045822160542828e-06,-1.882561329275952e-13
	5.569727685972421e-05,9.826137992307969e-13
	-4.907012197551512e-05,-1.094428378565652e-13
	-1.567297704475192e-05,-6.849148284466364e-13
	-9.045822160542824e-06,1.882561329275952e-13
	-5.569727685950099e-05,-9.826137992307967e-13
	-9.045822160542824e-06,1.882561329275952e-13
18		1.513561248436208e+00,0.000000000000000e+00
	-9.045822160542824e-02,1.926411815786823e-09
	1.000000000000000e+00,0.000000000000000e+00
	0.000000000000000e+00,0.000000000000000e+00
	9.200647804093751e-05,2.023970780297449e-13
	9.200647871936504e-05,2.110551580308216e-13
	9.045822160542828e-06,-1.926411815786824e-13
	5.569727685972421e-05,1.005501814871242e-12
	-4.907012197551512e-05,-1.119920890339421e-13
	-1.567297704475192e-05,-7.008685442586179e-13
	-9.045822160542824e-06,1.926411815786823e-13
	-5.569727685950099e-05,-1.005501814871242e-12
	-9.045822160542824e-06,1.926411815786823e-13
19		1.548816618912481e+00,0.000000000000000e+00
	-9.045822160542824e-02,1.971283711341499e-09
	1.000000000000000e+00,0.000000000000000e+00
	0.000000000000000e+00,0.000000000000000e+00
	9.200647804093751e-05,2.071115116059389e-13
	9.200647871936504e-05,2.159712641976468e-13
	9.045822160542828e-06,-1.971283711341500e-13
	5.569727685972421e-05,1.028922960883322e-12
	-4.907012197551512e-05,-1.146007198993152e-13
	-1.567297704475192e-05,-7.171938698498571e-13
	-9.045822160542824e-06,1.971283711341499e-13
	-5.569727685950099e-05,-1.028922960883322e-12
	-9.045822160542824e-06,1.971283711341499e-13
20		1.584893192461113e+00,0.000000000000000e+00
	-9.045822160542824e-02,2.017200807612953e-09
	1.000000000000000e+00,0.000000000000000e+00
	0.000000000000000e+00,0.000000000000000e+00
	9.200647804093751e-05,2.119357584470313e-13
	9.200647871936504e-05,2.210018811874673e-13
	9.045822160542828e-06,-2.017200807612953e-13
	5.569727685972421e-05,1.052889655468668e-12
	-4.907012197551512e-05,-1.172701135832988e-13
	-1.567297704475192e-05,-7.338994611240741e-13
	-9.045822160542824e-06,2.017200807612953e-13
	-5.569727685950099e-05,-1.052889655468668e-12
	-9.045822160542824e-06,2.017200807612953e-13
21		1.621810097358929e+00,0.000000000000000e+00
	-9.045822160542824e-02,2.064187450453413e-09
	1.000000000000000e+00,0.000000000000000e+00
	0.000000000000000e+00,0.000000000000000e+00
	9.200647804093751e-05,2.168723764325538e-13
	9.200647871936504e-05,2.261496762999991e-13
	9.045822160542828e-06,-2.064187450453413e-13
	5.569727685972421e-05,1.077414606085986e-12
	-4.907012197551512e-05,-1.200016854337577e-13
	-1.567297704475192e-05,-7.509941756068868e-13
	-9.045822160542824e-06,2.064187450453413e-13
	-5.569727685950099e-05,-1.077414606085986e-12
	-9.045822160542824e-06,2.064187450453413e-13
22		1.659586907437560e+00,0.000000000000000e+00
	-9.045822160542824e-02,2.112268552802854e-09
	1.000000000000000e+00,0.000000000000000e+00
	0.000000000000000e+00,0.000000000000000e+00
	9.200647804093751e-05,2.219239830227062e-13
	9.200647871936504e-05,2.314173789643501e-13
	9.045822160542828e-06,-2.112268552802854e-13
	5.569727685972421e-05,1.102510816188718e-12
	-4.907012197551512e-05,-1.227968837662438e-13
	-1.567297704475192e-05,-7.684870771421894e-13
	-9.045822160542824e-06,2.112268552802854e-13
	-5.569727685950099e-05,-1.102510816188718e-12
	-9.045822160542824e-06,2.112268552802854e-13
23		1.698243652461743e+00,0.000000000000000e+00
	-9.045822160542824e-02,2.161469607898170e-09
	1.000000000000000e+00,0.000000000000000e+00
	0.000000000000000e+00,0.000000000000000e+00
	9.200647804093751e-05,2.270932566461683e-13
	9.200647871936504e-05,2.368077821861990e-13
	9.045822160542828e-06,-2.161469607898170e-13
	5.569727685972421e-05,1.128191592119650e-12
	-4.907012197551512e-05,-1.256571906319115e-13
	-1.567297704475192e-05,-7.863874406979216e-13
	-9.045822160542824e-06,2.161469607898170e-13
	-5.569727685950099e-05,-1.128191592119650e-12
	-9.045822160542824e-06,2.161469607898170e-13
24		1.737800828749374e+00,0.000000000000000e+00
	-9.045822160542824e-02,2.211816702790027e-09
	1.000000000000000e+00,0.000000000000000e+00
	0.000000000000000e+00,0.000000000000000e+00
	9.200647804093751e-05,2.323829381202386e-13
	9.200647871936504e-05,2.423237440286846e-13
	9.045822160542828e-06,-2.211816702790026e-13
	5.569727685972421e-05,1.154470550166105e-12
	-4.907012197551512e-05,-1.285841226033219e-13
	-1.567297704475192e-05,-8.047047572837803e-13
	-9.045822160542824e-06,2.211816702790027e-13
	-5.569727685950099e-05,-1.154470550166105e-12
	-9.045822160542824e-06,2.211816702790027e-13
25		1.778279410038922e+00,0.000000000000000e+00
	-9.045822160542824e-02,2.263336532174558e-09
	1.000000000000000e+00,0.000000000000000e+00
	0.000000000000000e+00,0.000000000000000e+00
	9.200647804093751e-05,2.377958321040523e-13
	9.200647871936504e-05,2.479681891277882e-13
	9.045822160542828e-06,-2.263336532174558e-13
	5.569727685972421e-05,1.181361623779482e-12
	-4.907012197551512e-05,-1.315792315785486e-13
	-1.567297704475192e-05,-8.234487389834774e-13
	-9.045822160542824e-06,2.263336532174558e-13
	-5.569727685950099e-05,-1.181361623779482e-12
	-9.045822160542824e-06,2.263336532174558e-13
26		1.819700858609982e+00,0.000000000000000e+00
	-9.045822160542824e-02,2.316056412547248e-09
	1.000000000000000e+00,0.000000000000000e+00
	0.000000000000000e+00,0.000000000000000e+00
	9.200647804093751e-05,2.433348085856475e-13
	9.200647871936504e-05,2.537441102430143e-13
	9.045822160542828e-06,-2.316056412547249e-13
	5.569727685972421e-05,1.208879070962956e-12
	-4.907012197551512e-05,-1.346441056040153e-13
	-1.567297704475192e-05,-8.426293241042161e-13
	-9.045822160542824e-06,2.316056412547248e-13
	-5.569727685950099e-05,-1.208879070962956e-12
	-9.045822160542824e-06,2.316056412547248e-13
27		1.862087136662866e+00,0.000000000000000e+00
	-9.045822160542824e-02,2.370004296686502e-09
	1.000000000000000e+00,0.000000000000000e+00
	0.000000000000000e+00,0.000000000000000e+00
	9.200647804093751e-05,2.490028044036718e-13
	9.200647871936504e-05,2.596545698441916e-13
	9.045822160542828e-06,-2.370004296686504e-13
	5.569727685972421e-05,1.237037481831262e-12
	-4.907012197551512e-05,-1.377803697164986e-13
	-1.567297704475192e-05,-8.622566824461128e-13
	-9.045822160542824e-06,2.370004296686502e-13
	-5.569727685950099e-05,-1.237037481831262e-12
	-9.045822160542824e-06,2.370004296686502e-13
28		1.905460717963246e+00,0.000000000000000e+00
	-9.045822160542824e-02,2.425208788474575e-09
	1.000000000000000e+00,0.000000000000000e+00
	0.000000000000000e+00,0.000000000000000e+00
	9.200647804093751e-05,2.548028248045326e-13
	9.200647871936504e-05,2.657027017352350e-13
	9.045822160542828e-06,-2.425208788474574e-13
	5.569727685972421e-05,1.265851786346561e-12
	-4.907012197551512e-05,-1.409896868047445e-13
	-1.567297704475192e-05,-8.823412206943587e-13
	-9.045822160542824e-06,2.425208788474576e-13
	-5.569727685950099e-05,-1.265851786346561e-12
	-9.045822160542824e-06,2.425208788474576e-13
29		1.949844599758044e+00,0.000000000000000e+00
	-9.045822160542824e-02,2.481699158063731e-09
	1.000000000000000e+00,0.000000000000000e+00
	0.000000000000000e+00,0.000000000000000e+00
	9.200647804093751e-05,2.607379450358189e-13
	9.200647871936504e-05,2.718917127157292e-13
	9.045822160542828e-06,-2.481699158063732e-13
	5.569727685972421e-05,1.295337262234510e-12
	-4.907012197551512e-05,-1.442737584911533e-13
	-1.567297704475192e-05,-9.028935879369838e-13
	-9.045822160542824e-06,2.481699158063731e-13
	-5.569727685950099e-05,-1.295337262234510e-12
	-9.045822160542824e-06,2.481699158063731e-13
30		1.995262314968878e+00,0.000000000000000e+00
	-9.045822160542824e-02,2.539505357395662e-09
	1.000000000000000e+00,0.000000000000000e+00
	0.000000000000000e+00,0.000000000000000e+00
	9.200647804093751e-05,2.668113119768380e-13
	9.200647871936504e-05,2.782248842812178e-13
	9.045822160542828e-06,-2.539505357395662e-13
	5.569727685972421e-05,1.325509543084712e-12
	-4.907012197551512e-05,-1.476343260340032e-13
	-1.567297704475192e-05,-9.239246813111421e-13
	-9.045822160542824e-06,2.539505357395662e-13
	-5.569727685950099e-05,-1.325509543084711e-12
	-9.045822160542824e-06,2.539505357395662e-13
31		2.041737944669527e+00,0.000000000000000e+00
	-9.045822160542824e-02,2.598658036082413e-09
	1.000000000000000e+00,0.000000000000000e+00
	0.000000000000000e+00,0.000000000000000e+00
	9.200647804093751e-05,2.730261458071323e-13
	9.200647871936504e-05,2.847055743630939e-13
	9.045822160542828e-06,-2.598658036082413e-13
	5.569727685972421e-05,1.356384626639849e-12
	-4.907012197551512e-05,-1.510731712506875e-13
	-1.567297704475192e-05,-9.454456517809206e-13
	-9.045822160542824e-06,2.598658036082413e-13
	-5.569727685950099e-05,-1.356384626639849e-12
	-9.045822160542824e-06,2.598658036082413e-13
32		2.089296130854037e+00,0.000000000000000e+00
	-9.045822160542824e-02,2.659188557657201e-09
	1.000000000000000e+00,0.000000000000000e+00
	0.000000000000000e+00,0.000000000000000e+00
	9.200647804093751e-05,2.793857417138619e-13
