LTspice 24.0.9 for Windows
Circuit: * GA CMOS Amp | W=5e-05 L=7.754042921767139e-07 Vbias=1.233074306595556
Start Time: Mon Sep  8 18:43:26 2025
solver = Normal
Maximum thread count: 2
tnom = 27
temp = 27
method = modified trap
AsciiRawFile = 1
Instance "m1": Length shorter than recommended for a level 3 MOSFET.
Direct Newton iteration for .op point succeeded.
Semiconductor Device Operating Points:
                        --- MOSFET Transistors ---
Name:          m1
Model:        n_1u
Id:          1.76e-04
Vgs:         1.23e+00
Vds:         3.82e-02
Vbs:         0.00e+00
Vth:         7.84e-01
Vdsat:       3.46e-01
Gm:          3.48e-04
Gds:         4.23e-03
Gmb:         7.72e-05
Cbd:         0.00e+00
Cbs:         0.00e+00
Cgsov:       1.00e-14
Cgdov:       1.00e-14
Cgbov:       5.75e-17
Cgs:         2.58e-14
Cgd:         2.38e-14
Cgb:         0.00e+00



gain_db: MAX(db(v(out)/v(g)))=(30.8771dB,128.737°) FROM 1 TO 1e+09
gain_lin: MAX(mag(v(out)/v(g)))=(-20.466dB,0°) FROM 1 TO 1e+09

Measurement "fc" FAIL'ed

Total elapsed time: 0.444 seconds.

