Title: * GA CMOS Amp | W=2.8491014378696e-06 L=9.071881070975976e-07 Vbias=1.4254967249194197
Date: Sat Sep  6 22:13:39 2025
Plotname: AC Analysis
Flags: complex forward log
No. Variables: 13
No. Points:          901
Offset:    0.0000000000000000e+00
Command: Linear Technology Corporation LTspice
Variables:
	0	frequency	frequency
	1	V(out)	voltage
	2	V(g)	voltage
	3	V(vdd)	voltage
	4	V(m1#dbody)	voltage
	5	V(m1#sbody)	voltage
	6	Id(M1)	device_current
	7	Ig(M1)	device_current
	8	Ib(M1)	device_current
	9	Is(M1)	device_current
	10	I(Rload)	device_current
	11	I(Vg)	device_current
	12	I(Vdd)	device_current
Values:
0		1.000000000000000e+00,0.000000000000000e+00
	-1.843430401501276e-01,1.280654751216752e-09
	1.000000000000000e+00,0.000000000000000e+00
	0.000000000000000e+00,0.000000000000000e+00
	5.617127397893364e-05,1.413485883041463e-13
	5.617127536150134e-05,1.518858023487868e-13
	1.843430401501276e-05,-1.280654751216752e-13
	3.475382439215148e-05,5.880610462882644e-13
	-2.995801345660193e-05,-8.030569369307354e-14
	-2.323011495056231e-05,-3.796898774735157e-13
	-1.843430401501276e-05,1.280654751216753e-13
	-3.475382439210861e-05,-5.880610462882644e-13
	-1.843430401501276e-05,1.280654751216753e-13
1		1.023292992280754e+00,0.000000000000000e+00
	-1.843430401501276e-01,1.310485032451155e-09
	1.000000000000000e+00,0.000000000000000e+00
	0.000000000000000e+00,0.000000000000000e+00
	5.617127397893364e-05,1.446410198804102e-13
	5.617127536150134e-05,1.554236771704532e-13
	1.843430401501276e-05,-1.310485032451155e-13
	3.475382439215148e-05,6.017587477000692e-13
	-2.995801345660193e-05,-8.217625359636693e-14
	-2.323011495056231e-05,-3.885339908585868e-13
	-1.843430401501276e-05,1.310485032451155e-13
	-3.475382439210861e-05,-6.017587477000692e-13
	-1.843430401501276e-05,1.310485032451155e-13
2		1.047128548050899e+00,0.000000000000000e+00
	-1.843430401501276e-01,1.341010150196084e-09
	1.000000000000000e+00,0.000000000000000e+00
	0.000000000000000e+00,0.000000000000000e+00
	5.617127397893364e-05,1.480101420399650e-13
	5.617127536150134e-05,1.590439596830310e-13
	1.843430401501276e-05,-1.341010150196084e-13
	3.475382439215148e-05,6.157755095651231e-13
	-2.995801345660193e-05,-8.409038443704836e-14
	-2.323011495056231e-05,-3.975841101084664e-13
	-1.843430401501276e-05,1.341010150196084e-13
	-3.475382439210861e-05,-6.157755095651232e-13
	-1.843430401501276e-05,1.341010150196084e-13
3		1.071519305237606e+00,0.000000000000000e+00
	-1.843430401501276e-01,1.372246289273014e-09
	1.000000000000000e+00,0.000000000000000e+00
	0.000000000000000e+00,0.000000000000000e+00
	5.617127397893364e-05,1.514577411359752e-13
	5.617127536150134e-05,1.627485694082284e-13
	1.843430401501276e-05,-1.372246289273014e-13
	3.475382439215148e-05,6.301187637561008e-13
	-2.995801345660193e-05,-8.604910111262618e-14
	-2.323011495056231e-05,-4.068450337161732e-13
	-1.843430401501276e-05,1.372246289273014e-13
	-3.475382439210861e-05,-6.301187637561009e-13
	-1.843430401501276e-05,1.372246289273014e-13
4		1.096478196143185e+00,0.000000000000000e+00
	-1.843430401501276e-01,1.404210011496344e-09
	1.000000000000000e+00,0.000000000000000e+00
	0.000000000000000e+00,0.000000000000000e+00
	5.617127397893364e-05,1.549856451311159e-13
	5.617127536150134e-05,1.665394705791580e-13
	1.843430401501276e-05,-1.404210011496343e-13
	3.475382439215148e-05,6.447961152562299e-13
	-2.995801345660193e-05,-8.805344216060839e-14
	-2.323011495056231e-05,-4.163216719459872e-13
	-1.843430401501276e-05,1.404210011496344e-13
	-3.475382439210861e-05,-6.447961152562301e-13
	-1.843430401501276e-05,1.404210011496344e-13
5		1.122018454301963e+00,0.000000000000000e+00
	-1.843430401501276e-01,1.436918264454686e-09
	1.000000000000000e+00,0.000000000000000e+00
	0.000000000000000e+00,0.000000000000000e+00
	5.617127397893364e-05,1.585957245667827e-13
	5.617127536150134e-05,1.704186731817992e-13
	1.843430401501276e-05,-1.436918264454685e-13
	3.475382439215148e-05,6.598153461915537e-13
	-2.995801345660193e-05,-9.010447030914929e-14
	-2.323011495056231e-05,-4.260190494369359e-13
	-1.843430401501276e-05,1.436918264454686e-13
	-3.475382439210861e-05,-6.598153461915538e-13
	-1.843430401501276e-05,1.436918264454686e-13
6		1.148153621496882e+00,0.000000000000000e+00
	-1.843430401501276e-01,1.470388390496703e-09
	1.000000000000000e+00,0.000000000000000e+00
	0.000000000000000e+00,0.000000000000000e+00
	5.617127397893364e-05,1.622898935548774e-13
	5.617127536150134e-05,1.743882340207192e-13
	1.843430401501276e-05,-1.470388390496703e-13
	3.475382439215148e-05,6.751844199571166e-13
	-2.995801345660193e-05,-9.220327304052174e-14
	-2.323011495056231e-05,-4.359423078669246e-13
	-1.843430401501276e-05,1.470388390496703e-13
	-3.475382439210861e-05,-6.751844199571167e-13
	-1.843430401501276e-05,1.470388390496703e-13
7		1.174897554939529e+00,0.000000000000000e+00
	-1.843430401501276e-01,1.504638135926254e-09
	1.000000000000000e+00,0.000000000000000e+00
	0.000000000000000e+00,0.000000000000000e+00
	5.617127397893364e-05,1.660701107926955e-13
	5.617127536150134e-05,1.784502578096182e-13
	1.843430401501276e-05,-1.504638135926253e-13
	3.475382439215148e-05,6.909114854392632e-13
	-2.995801345660193e-05,-9.435096316771486e-14
	-2.323011495056231e-05,-4.460967086789230e-13
	-1.843430401501276e-05,1.504638135926254e-13
	-3.475382439210861e-05,-6.909114854392632e-13
	-1.843430401501276e-05,1.504638135926254e-13
8		1.202264434617413e+00,0.000000000000000e+00
	-1.843430401501276e-01,1.539685660411712e-09
	1.000000000000000e+00,0.000000000000000e+00
	0.000000000000000e+00,0.000000000000000e+00
	5.617127397893364e-05,1.699383806014538e-13
	5.617127536150134e-05,1.826068982872762e-13
	1.843430401501276e-05,-1.539685660411711e-13
	3.475382439215148e-05,7.070048813362842e-13
	-2.995801345660193e-05,-9.654867942446219e-14
	-2.323011495056231e-05,-4.564876358706509e-13
	-1.843430401501276e-05,1.539685660411712e-13
	-3.475382439210861e-05,-7.070048813362844e-13
	-1.843430401501276e-05,1.539685660411712e-13
9		1.230268770812381e+00,0.000000000000000e+00
	-1.843430401501276e-01,1.575549546614470e-09
	1.000000000000000e+00,0.000000000000000e+00
	0.000000000000000e+00,0.000000000000000e+00
	5.617127397893364e-05,1.738967539890073e-13
	5.617127536150134e-05,1.868603593594942e-13
	1.843430401501276e-05,-1.575549546614470e-13
	3.475382439215148e-05,7.234731405797058e-13
	-2.995801345660193e-05,-9.879758706901317e-14
	-2.323011495056231e-05,-4.671205988492456e-13
	-1.843430401501276e-05,1.575549546614470e-13
	-3.475382439210861e-05,-7.234731405797059e-13
	-1.843430401501276e-05,1.575549546614470e-13
10		1.258925411794167e+00,0.000000000000000e+00
	-1.843430401501276e-01,1.612248810041706e-09
	1.000000000000000e+00,0.000000000000000e+00
	0.000000000000000e+00,0.000000000000000e+00
	5.617127397893364e-05,1.779473297373214e-13
	5.617127536150134e-05,1.912128962676339e-13
	1.843430401501276e-05,-1.612248810041706e-13
	3.475382439215148e-05,7.403249948585619e-13
	-2.995801345660193e-05,-1.010988785019688e-13
	-2.323011495056231e-05,-4.780012353524224e-13
	-1.843430401501276e-05,1.612248810041707e-13
	-3.475382439210861e-05,-7.403249948585620e-13
	-1.843430401501276e-05,1.612248810041707e-13
11		1.288249551693134e+00,0.000000000000000e+00
	-1.843430401501276e-01,1.649802909128663e-09
	1.000000000000000e+00,0.000000000000000e+00
	0.000000000000000e+00,0.000000000000000e+00
	5.617127397893364e-05,1.820922555152737e-13
	5.617127536150134e-05,1.956668167843765e-13
	1.843430401501276e-05,-1.649802909128662e-13
	3.475382439215148e-05,7.575693792490517e-13
	-2.995801345660193e-05,-1.034537738985081e-13
	-2.323011495056231e-05,-4.891353144376773e-13
	-1.843430401501276e-05,1.649802909128663e-13
	-3.475382439210861e-05,-7.575693792490518e-13
	-1.843430401501276e-05,1.649802909128663e-13
12		1.318256738556407e+00,0.000000000000000e+00
	-1.843430401501276e-01,1.688231755555763e-09
	1.000000000000000e+00,0.000000000000000e+00
	0.000000000000000e+00,0.000000000000000e+00
	5.617127397893364e-05,1.863337290173761e-13
	5.617127536150134e-05,2.002244824373347e-13
	1.843430401501276e-05,-1.688231755555762e-13
	3.475382439215148e-05,7.752154369520357e-13
	-2.995801345660193e-05,-1.058635218553409e-13
	-2.323011495056231e-05,-5.005287395411184e-13
	-1.843430401501276e-05,1.688231755555763e-13
	-3.475382439210861e-05,-7.752154369520358e-13
	-1.843430401501276e-05,1.688231755555763e-13
13		1.348962882591653e+00,0.000000000000000e+00
	-1.843430401501276e-01,1.727555724806047e-09
	1.000000000000000e+00,0.000000000000000e+00
	0.000000000000000e+00,0.000000000000000e+00
	5.617127397893364e-05,1.906739991290220e-13
	5.617127536150134e-05,2.048883097611656e-13
	1.843430401501276e-05,-1.727555724806047e-13
	3.475382439215148e-05,7.932725241408808e-13
	-2.995801345660193e-05,-1.083294000527309e-13
	-2.323011495056231e-05,-5.121875516075453e-13
	-1.843430401501276e-05,1.727555724806047e-13
	-3.475382439210861e-05,-7.932725241408809e-13
	-1.843430401501276e-05,1.727555724806047e-13
14		1.380384264602885e+00,0.000000000000000e+00
	-1.843430401501276e-01,1.767795666968527e-09
	1.000000000000000e+00,0.000000000000000e+00
	0.000000000000000e+00,0.000000000000000e+00
	5.617127397893364e-05,1.951153671188748e-13
	5.617127536150134e-05,2.096607715788491e-13
	1.843430401501276e-05,-1.767795666968527e-13
	3.475382439215148e-05,8.117502149222288e-13
	-2.995801345660193e-05,-1.108527159319378e-13
	-2.323011495056231e-05,-5.241179322934383e-13
	-1.843430401501276e-05,1.767795666968527e-13
	-3.475382439210861e-05,-8.117502149222289e-13
	-1.843430401501276e-05,1.767795666968527e-13
15		1.412537544622754e+00,0.000000000000000e+00
	-1.843430401501276e-01,1.808972917793175e-09
	1.000000000000000e+00,0.000000000000000e+00
	0.000000000000000e+00,0.000000000000000e+00
	5.617127397893364e-05,1.996601878590312e-13
	5.617127536150134e-05,2.145443983128122e-13
	1.843430401501276e-05,-1.808972917793175e-13
	3.475382439215148e-05,8.306583064123126e-13
	-2.995801345660193e-05,-1.134348073884411e-13
	-2.323011495056231e-05,-5.363262072445542e-13
	-1.843430401501276e-05,1.808972917793175e-13
	-3.475382439210861e-05,-8.306583064123129e-13
	-1.843430401501276e-05,1.808972917793175e-13
16		1.445439770745927e+00,0.000000000000000e+00
	-1.843430401501276e-01,1.851109310003425e-09
	1.000000000000000e+00,0.000000000000000e+00
	0.000000000000000e+00,0.000000000000000e+00
	5.617127397893364e-05,2.043108710736055e-13
	5.617127536150134e-05,2.195417793265915e-13
	1.843430401501276e-05,-1.851109310003425e-13
	3.475382439215148e-05,8.500068239315188e-13
	-2.995801345660193e-05,-1.160770434813089e-13
	-2.323011495056231e-05,-5.488188494498676e-13
	-1.843430401501276e-05,1.851109310003425e-13
	-3.475382439210861e-05,-8.500068239315189e-13
	-1.843430401501276e-05,1.851109310003425e-13
17		1.479108388168207e+00,0.000000000000000e+00
	-1.843430401501276e-01,1.894227184872167e-09
	1.000000000000000e+00,0.000000000000000e+00
	0.000000000000000e+00,0.000000000000000e+00
	5.617127397893364e-05,2.090698826163972e-13
	5.617127536150134e-05,2.246555642977489e-13
	1.843430401501276e-05,-1.894227184872166e-13
	3.475382439215148e-05,8.698060263199439e-13
	-2.995801345660193e-05,-1.187808251590917e-13
	-2.323011495056231e-05,-5.616024826736357e-13
	-1.843430401501276e-05,1.894227184872167e-13
	-3.475382439210861e-05,-8.698060263199440e-13
	-1.843430401501276e-05,1.894227184872167e-13
18		1.513561248436208e+00,0.000000000000000e+00
	-1.843430401501276e-01,1.938349404067388e-09
	1.000000000000000e+00,0.000000000000000e+00
	0.000000000000000e+00,0.000000000000000e+00
	5.617127397893364e-05,2.139397457783191e-13
	5.617127536150134e-05,2.298884646227647e-13
	1.843430401501276e-05,-1.938349404067389e-13
	3.475382439215148e-05,8.900664113767678e-13
	-2.995801345660193e-05,-1.215475860026240e-13
	-2.323011495056231e-05,-5.746838849674050e-13
	-1.843430401501276e-05,1.938349404067388e-13
	-3.475382439210861e-05,-8.900664113767682e-13
	-1.843430401501276e-05,1.938349404067388e-13
19		1.548816618912481e+00,0.000000000000000e+00
	-1.843430401501276e-01,1.983499361773735e-09
	1.000000000000000e+00,0.000000000000000e+00
	0.000000000000000e+00,0.000000000000000e+00
	5.617127397893364e-05,2.189230426252800e-13
	5.617127536150134e-05,2.352432548546572e-13
	1.843430401501276e-05,-1.983499361773734e-13
	3.475382439215148e-05,9.107987214263255e-13
	-2.995801345660193e-05,-1.243787929851275e-13
	-2.323011495056231e-05,-5.880699922638246e-13
	-1.843430401501276e-05,1.983499361773735e-13
	-3.475382439210861e-05,-9.107987214263255e-13
	-1.843430401501276e-05,1.983499361773735e-13
20		1.584893192461113e+00,0.000000000000000e+00
	-1.843430401501276e-01,2.029700997096411e-09
	1.000000000000000e+00,0.000000000000000e+00
	0.000000000000000e+00,0.000000000000000e+00
	5.617127397893364e-05,2.240224153672298e-13
	5.617127536150134e-05,2.407227741740863e-13
	1.843430401501276e-05,-2.029700997096411e-13
	3.475382439215148e-05,9.320139490138295e-13
	-2.995801345660193e-05,-1.272759472500196e-13
	-2.323011495056231e-05,-6.017679020541689e-13
	-1.843430401501276e-05,2.029700997096411e-13
	-3.475382439210861e-05,-9.320139490138299e-13
	-1.843430401501276e-05,2.029700997096411e-13
21		1.621810097358929e+00,0.000000000000000e+00
	-1.843430401501276e-01,2.076978806754016e-09
	1.000000000000000e+00,0.000000000000000e+00
	0.000000000000000e+00,0.000000000000000e+00
	5.617127397893364e-05,2.292405677590946e-13
	5.617127536150134e-05,2.463299278947250e-13
	1.843430401501276e-05,-2.076978806754017e-13
	3.475382439215148e-05,9.537233427337638e-13
	-2.995801345660193e-05,-1.302405849068399e-13
	-2.323011495056231e-05,-6.157848771515222e-13
	-1.843430401501276e-05,2.076978806754016e-13
	-3.475382439210861e-05,-9.537233427337640e-13
	-1.843430401501276e-05,2.076978806754016e-13
22		1.659586907437560e+00,0.000000000000000e+00
	-1.843430401501276e-01,2.125357858067028e-09
	1.000000000000000e+00,0.000000000000000e+00
	0.000000000000000e+00,0.000000000000000e+00
	5.617127397893364e-05,2.345802665343429e-13
	5.617127536150134e-05,2.520676890036955e-13
	1.843430401501276e-05,-2.125357858067028e-13
	3.475382439215148e-05,9.759384131940365e-13
	-2.995801345660193e-05,-1.332742778457159e-13
	-2.323011495056231e-05,-6.301283495416178e-13
	-1.843430401501276e-05,2.125357858067028e-13
	-3.475382439210861e-05,-9.759384131940367e-13
	-1.843430401501276e-05,2.125357858067028e-13
23		1.698243652461743e+00,0.000000000000000e+00
	-1.843430401501276e-01,2.174863802248823e-09
	1.000000000000000e+00,0.000000000000000e+00
	0.000000000000000e+00,0.000000000000000e+00
	5.617127397893364e-05,2.400443428719446e-13
	5.617127536150134e-05,2.579390997378861e-13
	1.843430401501276e-05,-2.174863802248823e-13
	3.475382439215148e-05,9.986709391190568e-13
	-2.995801345660193e-05,-1.363786345707992e-13
	-2.323011495056231e-05,-6.448059243233752e-13
	-1.843430401501276e-05,2.174863802248823e-13
	-3.475382439210861e-05,-9.986709391190566e-13
	-1.843430401501276e-05,2.174863802248823e-13
24		1.737800828749374e+00,0.000000000000000e+00
	-1.843430401501276e-01,2.225522888006296e-09
	1.000000000000000e+00,0.000000000000000e+00
	0.000000000000000e+00,0.000000000000000e+00
	5.617127397893364e-05,2.456356938974994e-13
	5.617127536150134e-05,2.639472731969853e-13
	1.843430401501276e-05,-2.225522888006296e-13
	3.475382439215148e-05,1.021932973594970e-12
	-2.995801345660193e-05,-1.395553010531166e-13
	-2.323011495056231e-05,-6.598253837412238e-13
	-1.843430401501276e-05,2.225522888006297e-13
	-3.475382439210861e-05,-1.021932973594970e-12
	-1.843430401501276e-05,2.225522888006297e-13
25		1.778279410038922e+00,0.000000000000000e+00
	-1.843430401501276e-01,2.277361975457269e-09
	1.000000000000000e+00,0.000000000000000e+00
	0.000000000000000e+00,0.000000000000000e+00
	5.617127397893364e-05,2.513572842193316e-13
	5.617127536150134e-05,2.700953949940889e-13
	1.843430401501276e-05,-2.277361975457269e-13
	3.475382439215148e-05,1.045736850460366e-12
	-2.995801345660193e-05,-1.428059616032852e-13
	-2.323011495056231e-05,-6.751946913113540e-13
	-1.843430401501276e-05,2.277361975457269e-13
	-3.475382439210861e-05,-1.045736850460366e-12
	-1.843430401501276e-05,2.277361975457269e-13
26		1.819700858609982e+00,0.000000000000000e+00
	-1.843430401501276e-01,2.330408550372077e-09
	1.000000000000000e+00,0.000000000000000e+00
	0.000000000000000e+00,0.000000000000000e+00
	5.617127397893364e-05,2.572121475003637e-13
	5.617127536150134e-05,2.763867249447533e-13
	1.843430401501276e-05,-2.330408550372077e-13
	3.475382439215148e-05,1.070095190845839e-12
	-2.995801345660193e-05,-1.461323397645561e-13
	-2.323011495056231e-05,-6.909219960440753e-13
	-1.843430401501276e-05,2.330408550372077e-13
	-3.475382439210861e-05,-1.070095190845839e-12
	-1.843430401501276e-05,2.330408550372077e-13
27		1.862087136662866e+00,0.000000000000000e+00
	-1.843430401501276e-01,2.384690738746897e-09
	1.000000000000000e+00,0.000000000000000e+00
	0.000000000000000e+00,0.000000000000000e+00
	5.617127397893364e-05,2.632033880666060e-13
	5.617127536150134e-05,2.828245987953944e-13
	1.843430401501276e-05,-2.384690738746898e-13
	3.475382439215148e-05,1.095020909865883e-12
	-2.995801345660193e-05,-1.495361992266605e-13
	-2.323011495056231e-05,-7.070156367645332e-13
	-1.843430401501276e-05,2.384690738746898e-13
	-3.475382439210861e-05,-1.095020909865884e-12
	-1.843430401501276e-05,2.384690738746898e-13
28		1.905460717963246e+00,0.000000000000000e+00
	-1.843430401501276e-01,2.440237321716515e-09
	1.000000000000000e+00,0.000000000000000e+00
	0.000000000000000e+00,0.000000000000000e+00
	5.617127397893364e-05,2.693341825531097e-13
	5.617127536150134e-05,2.894124299919429e-13
	1.843430401501276e-05,-2.440237321716515e-13
	3.475382439215148e-05,1.120527223466654e-12
	-2.995801345660193e-05,-1.530193447609404e-13
	-2.323011495056231e-05,-7.234841465340618e-13
	-1.843430401501276e-05,2.440237321716515e-13
	-3.475382439210861e-05,-1.120527223466654e-12
	-1.843430401501276e-05,2.440237321716515e-13
29		1.949844599758044e+00,0.000000000000000e+00
	-1.843430401501276e-01,2.497077750814466e-09
	1.000000000000000e+00,0.000000000000000e+00
	0.000000000000000e+00,0.000000000000000e+00
	5.617127397893364e-05,2.756077815882627e-13
	5.617127536150134e-05,2.961537114896996e-13
	1.843430401501276e-05,-2.497077750814466e-13
	3.475382439215148e-05,1.146627655433238e-12
	-2.995801345660193e-05,-1.565836231772631e-13
	-2.323011495056231e-05,-7.403362571745279e-13
	-1.843430401501276e-05,2.497077750814466e-13
	-3.475382439210861e-05,-1.146627655433238e-12
	-1.843430401501276e-05,2.497077750814466e-13
30		1.995262314968878e+00,0.000000000000000e+00
	-1.843430401501276e-01,2.555242163588630e-09
	1.000000000000000e+00,0.000000000000000e+00
	0.000000000000000e+00,0.000000000000000e+00
	5.617127397893364e-05,2.820275115173137e-13
	5.617127536150134e-05,3.030520176053458e-13
	1.843430401501276e-05,-2.555242163588629e-13
	3.475382439215148e-05,1.173336044560143e-12
	-2.995801345660193e-05,-1.602309243032236e-13
	-2.323011495056231e-05,-7.575809038980563e-13
	-1.843430401501276e-05,2.555242163588630e-13
	-3.475382439210861e-05,-1.173336044560143e-12
	-1.843430401501276e-05,2.555242163588630e-13
31		2.041737944669527e+00,0.000000000000000e+00
	-1.843430401501276e-01,2.614761399580557e-09
	1.000000000000000e+00,0.000000000000000e+00
	0.000000000000000e+00,0.000000000000000e+00
	5.617127397893364e-05,2.885967761660466e-13
	5.617127536150134e-05,3.101110059120939e-13
	1.843430401501276e-05,-2.614761399580556e-13
	3.475382439215148e-05,1.200666551988813e-12
	-2.995801345660193e-05,-1.639631819861566e-13
	-2.323011495056231e-05,-7.752272300446006e-13
	-1.843430401501276e-05,2.614761399580557e-13
	-3.475382439210861e-05,-1.200666551988813e-12
	-1.843430401501276e-05,2.614761399580557e-13
32		2.089296130854037e+00,0.000000000000000e+00
	-1.843430401501276e-01,2.675667016677001e-09
	1.000000000000000e+00,0.000000000000000e+00
	0.000000000000000e+00,0.000000000000000e+00
	5.617127397893364e-05,2.953190586455329e-13
