Title: * GA CMOS Amp | W=1e-06 L=8.600593170064845e-07 Vbias=1.0555196442073642
Date: Mon Sep  8 18:45:23 2025
Plotname: AC Analysis
Flags: complex forward log
No. Variables: 11
No. Points:          901
Offset:    0.0000000000000000e+00
Command: Linear Technology Corporation LTspice
Variables:
	0	frequency	frequency
	1	V(out)	voltage
	2	V(g)	voltage
	3	V(vdd)	voltage
	4	Id(M1)	device_current
	5	Ig(M1)	device_current
	6	Ib(M1)	device_current
	7	Is(M1)	device_current
	8	I(Rload)	device_current
	9	I(Vg)	device_current
	10	I(Vdd)	device_current
Values:
0		1.000000000000000e+00,0.000000000000000e+00
	-1.528570668397858e-01,1.447175174696837e-11
	1.000000000000000e+00,0.000000000000000e+00
	0.000000000000000e+00,0.000000000000000e+00
	1.528570668397858e-05,-1.447175174696837e-15
	1.818573958914043e-26,8.081330873501357e-15
	1.528570666038936e-13,-6.022585896645076e-16
	-1.528570683683565e-05,-6.031897109140012e-15
	-1.528570668397858e-05,1.447175174696837e-15
	-1.818573958914043e-26,-8.081330873501357e-15
	-1.528570668397858e-05,1.447175174696837e-15
1		1.023292992280754e+00,0.000000000000000e+00
	-1.528570668397858e-01,1.480884214869949e-11
	1.000000000000000e+00,0.000000000000000e+00
	0.000000000000000e+00,0.000000000000000e+00
	1.528570668397858e-05,-1.480884214869949e-15
	1.904280709120838e-26,8.269569251156045e-15
	1.528570666038936e-13,-6.162869943445818e-16
	-1.528570683683565e-05,-6.172398041941514e-15
	-1.528570668397858e-05,1.480884214869949e-15
	-1.904280709120838e-26,-8.269569251156045e-15
	-1.528570668397858e-05,1.480884214869949e-15
2		1.047128548050899e+00,0.000000000000000e+00
	-1.528570668397858e-01,1.515378439455605e-11
	1.000000000000000e+00,0.000000000000000e+00
	0.000000000000000e+00,0.000000000000000e+00
	1.528570668397858e-05,-1.515378439455606e-15
	1.994026694023040e-26,8.462192263888383e-15
	1.528570666038936e-13,-6.306421625465786e-16
	-1.528570683683565e-05,-6.316171661886199e-15
	-1.528570668397858e-05,1.515378439455605e-15
	-1.994026694023040e-26,-8.462192263888383e-15
	-1.528570668397858e-05,1.515378439455605e-15
3		1.071519305237606e+00,0.000000000000000e+00
	-1.528570668397858e-01,1.550676137748266e-11
	1.000000000000000e+00,0.000000000000000e+00
	0.000000000000000e+00,0.000000000000000e+00
	1.528570668397858e-05,-1.550676137748266e-15
	2.088002276887080e-26,8.659302042969391e-15
	1.528570666038936e-13,-6.453317055706940e-16
	-1.528570683683565e-05,-6.463294199650431e-15
	-1.528570668397858e-05,1.550676137748266e-15
	-2.088002276887080e-26,-8.659302042969391e-15
	-1.528570668397858e-05,1.550676137748266e-15
4		1.096478196143185e+00,0.000000000000000e+00
	-1.528570668397858e-01,1.586796025054785e-11
	1.000000000000000e+00,0.000000000000000e+00
	0.000000000000000e+00,0.000000000000000e+00
	1.528570668397858e-05,-1.586796025054786e-15
	2.186406792523740e-26,8.861003098612994e-15
	1.528570666038936e-13,-6.603634120070774e-16
	-1.528570683683565e-05,-6.613843661551130e-15
	-1.528570668397858e-05,1.586796025054786e-15
	-2.186406792523740e-26,-8.861003098612994e-15
	-1.528570668397858e-05,1.586796025054786e-15
5		1.122018454301963e+00,0.000000000000000e+00
	-1.528570668397858e-01,1.623757252617518e-11
	1.000000000000000e+00,0.000000000000000e+00
	0.000000000000000e+00,0.000000000000000e+00
	1.528570668397858e-05,-1.623757252617518e-15
	2.289448970104009e-26,9.067402375388726e-15
	1.528570666038936e-13,-6.757452518654502e-16
	-1.528570683683565e-05,-6.767899870905758e-15
	-1.528570668397858e-05,1.623757252617518e-15
	-2.289448970104009e-26,-9.067402375388726e-15
	-1.528570668397858e-05,1.623757252617518e-15
6		1.148153621496882e+00,0.000000000000000e+00
	-1.528570668397858e-01,1.661579417768557e-11
	1.000000000000000e+00,0.000000000000000e+00
	0.000000000000000e+00,0.000000000000000e+00
	1.528570668397858e-05,-1.661579417768557e-15
	2.397347375901639e-26,9.278609308925147e-15
	1.528570666038936e-13,-6.914853808009089e-16
	-1.528570683683565e-05,-6.925544510355682e-15
	-1.528570668397858e-05,1.661579417768557e-15
	-2.397347375901639e-26,-9.278609308925147e-15
	-1.528570668397858e-05,1.661579417768557e-15
7		1.174897554939529e+00,0.000000000000000e+00
	-1.528570668397858e-01,1.700282574320499e-11
	1.000000000000000e+00,0.000000000000000e+00
	0.000000000000000e+00,0.000000000000000e+00
	1.528570668397858e-05,-1.700282574320499e-15
	2.510330876901516e-26,9.494735883934073e-15
	1.528570666038936e-13,-7.075921444381594e-16
	-1.528570683683565e-05,-7.086861165175414e-15
	-1.528570668397858e-05,1.700282574320499e-15
	-2.510330876901516e-26,-9.494735883934073e-15
	-1.528570668397858e-05,1.700282574320499e-15
8		1.202264434617413e+00,0.000000000000000e+00
	-1.528570668397858e-01,1.739887243199247e-11
	1.000000000000000e+00,0.000000000000000e+00
	0.000000000000000e+00,0.000000000000000e+00
	1.528570668397858e-05,-1.739887243199248e-15
	2.628639126257226e-26,9.715896693586350e-15
	1.528570666038936e-13,-7.240740827964798e-16
	-1.528570683683565e-05,-7.251935367590622e-15
	-1.528570668397858e-05,1.739887243199248e-15
	-2.628639126257226e-26,-9.715896693586350e-15
	-1.528570668397858e-05,1.739887243199248e-15
9		1.230268770812381e+00,0.000000000000000e+00
	-1.528570668397858e-01,1.780414423324470e-11
	1.000000000000000e+00,0.000000000000000e+00
	0.000000000000000e+00,0.000000000000000e+00
	1.528570668397858e-05,-1.780414423324471e-15
	2.752523071627515e-26,9.942209000270661e-15
	1.528570666038936e-13,-7.409399348177516e-16
	-1.528570683683565e-05,-7.420854642128439e-15
	-1.528570668397858e-05,1.780414423324471e-15
	-2.752523071627515e-26,-9.942209000270661e-15
	-1.528570668397858e-05,1.780414423324471e-15
10		1.258925411794167e+00,0.000000000000000e+00
	-1.528570668397858e-01,1.821885602743511e-11
	1.000000000000000e+00,0.000000000000000e+00
	0.000000000000000e+00,0.000000000000000e+00
	1.528570668397858e-05,-1.821885602743511e-15
	2.882245487469922e-26,1.017379279776761e-14
	1.528570666038936e-13,-7.581986429999637e-16
	-1.528570683683565e-05,-7.593708552024135e-15
	-1.528570668397858e-05,1.821885602743511e-15
	-2.882245487469922e-26,-1.017379279776761e-14
	-1.528570668397858e-05,1.821885602743511e-15
11		1.288249551693134e+00,0.000000000000000e+00
	-1.528570668397858e-01,1.864322770024632e-11
	1.000000000000000e+00,0.000000000000000e+00
	0.000000000000000e+00,0.000000000000000e+00
	1.528570668397858e-05,-1.864322770024633e-15
	3.018081532420637e-26,1.041077087487200e-14
	1.528570666038936e-13,-7.758593581386425e-16
	-1.528570683683565e-05,-7.770588746708730e-15
	-1.528570668397858e-05,1.864322770024632e-15
	-3.018081532420637e-26,-1.041077087487200e-14
	-1.528570668397858e-05,1.864322770024632e-15
12		1.318256738556407e+00,0.000000000000000e+00
	-1.528570668397858e-01,1.907748425915650e-11
	1.000000000000000e+00,0.000000000000000e+00
	0.000000000000000e+00,0.000000000000000e+00
	1.528570668397858e-05,-1.907748425915650e-15
	3.160319332942855e-26,1.065326888049710e-14
	1.528570666038936e-13,-7.939314441787142e-16
	-1.528570683683565e-05,-7.951589010402732e-15
	-1.528570668397858e-05,1.907748425915650e-15
	-3.160319332942855e-26,-1.065326888049710e-14
	-1.528570668397858e-05,1.907748425915650e-15
13		1.348962882591653e+00,0.000000000000000e+00
	-1.528570668397858e-01,1.952185595274125e-11
	1.000000000000000e+00,0.000000000000000e+00
	0.000000000000000e+00,0.000000000000000e+00
	1.528570668397858e-05,-1.952185595274125e-15
	3.309260594481640e-26,1.090141539029532e-14
	1.528570666038936e-13,-8.124244831794182e-16
	-1.528570683683565e-05,-8.136805311841772e-15
	-1.528570668397858e-05,1.952185595274125e-15
	-3.309260594481640e-26,-1.090141539029532e-14
	-1.528570668397858e-05,1.952185595274125e-15
14		1.380384264602885e+00,0.000000000000000e+00
	-1.528570668397858e-01,1.997657839275444e-11
	1.000000000000000e+00,0.000000000000000e+00
	0.000000000000000e+00,0.000000000000000e+00
	1.528570668397858e-05,-1.997657839275444e-15
	3.465221241421616e-26,1.115534197483076e-14
	1.528570666038936e-13,-8.313482803948114e-16
	-1.528570683683565e-05,-8.326335855160503e-15
	-1.528570668397858e-05,1.997657839275444e-15
	-3.465221241421616e-26,-1.115534197483076e-14
	-1.528570668397858e-05,1.997657839275444e-15
15		1.412537544622754e+00,0.000000000000000e+00
	-1.528570668397858e-01,2.044189267905275e-11
	1.000000000000000e+00,0.000000000000000e+00
	0.000000000000000e+00,0.000000000000000e+00
	1.528570668397858e-05,-2.044189267905275e-15
	3.628532087204953e-26,1.141518326933966e-14
	1.528570666038936e-13,-8.507128694726665e-16
	-1.528570683683565e-05,-8.520281131961721e-15
	-1.528570668397858e-05,2.044189267905275e-15
	-3.628532087204953e-26,-1.141518326933966e-14
	-1.528570668397858e-05,2.044189267905275e-15
16		1.445439770745927e+00,0.000000000000000e+00
	-1.528570668397858e-01,2.091804552742992e-11
	1.000000000000000e+00,0.000000000000000e+00
	0.000000000000000e+00,0.000000000000000e+00
	1.528570668397858e-05,-2.091804552742993e-15
	3.799539536031020e-26,1.168107704511578e-14
	1.528570666038936e-13,-8.705285177744327e-16
	-1.528570683683565e-05,-8.718743974598359e-15
	-1.528570668397858e-05,2.091804552742993e-15
	-3.799539536031020e-26,-1.168107704511578e-14
	-1.528570668397858e-05,2.091804552742993e-15
17		1.479108388168207e+00,0.000000000000000e+00
	-1.528570668397858e-01,2.140528940042881e-11
	1.000000000000000e+00,0.000000000000000e+00
	0.000000000000000e+00,0.000000000000000e+00
	1.528570668397858e-05,-2.140528940042882e-15
	3.978606317626149e-26,1.195316428255856e-14
	1.528570666038936e-13,-8.908057318191286e-16
	-1.528570683683565e-05,-8.921829610696549e-15
	-1.528570668397858e-05,2.140528940042881e-15
	-3.978606317626149e-26,-1.195316428255856e-14
	-1.528570668397858e-05,2.140528940042881e-15
18		1.513561248436208e+00,0.000000000000000e+00
	-1.528570668397858e-01,2.190388264120031e-11
	1.000000000000000e+00,0.000000000000000e+00
	0.000000000000000e+00,0.000000000000000e+00
	1.528570668397858e-05,-2.190388264120031e-15
	4.166112256642007e-26,1.223158924592278e-14
	1.528570666038936e-13,-9.115552628540414e-16
	-1.528570683683565e-05,-9.129645718948709e-15
	-1.528570668397858e-05,2.190388264120031e-15
	-4.166112256642007e-26,-1.223158924592278e-14
	-1.528570668397858e-05,2.190388264120031e-15
19		1.548816618912481e+00,0.000000000000000e+00
	-1.528570668397858e-01,2.241408961048033e-11
	1.000000000000000e+00,0.000000000000000e+00
	0.000000000000000e+00,0.000000000000000e+00
	1.528570668397858e-05,-2.241408961048033e-15
	4.362455078314601e-26,1.251649955980941e-14
	1.528570666038936e-13,-9.327881125551811e-16
	-1.528570683683565e-05,-9.342302486206201e-15
	-1.528570668397858e-05,2.241408961048033e-15
	-4.362455078314601e-26,-1.251649955980941e-14
	-1.528570668397858e-05,2.241408961048033e-15
20		1.584893192461113e+00,0.000000000000000e+00
	-1.528570668397858e-01,2.293618082675738e-11
	1.000000000000000e+00,0.000000000000000e+00
	0.000000000000000e+00,0.000000000000000e+00
	1.528570668397858e-05,-2.293618082675738e-15
	4.568051252092842e-26,1.280804628743812e-14
	1.528570666038936e-13,-9.545155388605086e-16
	-1.528570683683565e-05,-9.559912665901871e-15
	-1.528570668397858e-05,2.293618082675738e-15
	-4.568051252092842e-26,-1.280804628743812e-14
	-1.528570668397858e-05,2.293618082675738e-15
21		1.621810097358929e+00,0.000000000000000e+00
	-1.528570668397858e-01,2.347043310970502e-11
	1.000000000000000e+00,0.000000000000000e+00
	0.000000000000000e+00,0.000000000000000e+00
	1.528570668397858e-05,-2.347043310970502e-15
	4.783336875026069e-26,1.310638401074296e-14
	1.528570666038936e-13,-9.767490619390478e-16
	-1.528570683683565e-05,-9.782591637833407e-15
	-1.528570668397858e-05,2.347043310970502e-15
	-4.783336875026069e-26,-1.310638401074296e-14
	-1.528570668397858e-05,2.347043310970502e-15
22		1.659586907437560e+00,0.000000000000000e+00
	-1.528570668397858e-01,2.401712972695533e-11
	1.000000000000000e+00,0.000000000000000e+00
	0.000000000000000e+00,0.000000000000000e+00
	1.528570668397858e-05,-2.401712972695534e-15
	5.008768596784375e-26,1.341167091233379e-14
	1.528570666038936e-13,-9.995004702990273e-16
	-1.528570683683565e-05,-1.001045746933923e-14
	-1.528570668397858e-05,2.401712972695533e-15
	-5.008768596784375e-26,-1.341167091233379e-14
	-1.528570668397858e-05,2.401712972695533e-15
23		1.698243652461743e+00,0.000000000000000e+00
	-1.528570668397858e-01,2.457656054429118e-11
	1.000000000000000e+00,0.000000000000000e+00
	0.000000000000000e+00,0.000000000000000e+00
	1.528570668397858e-05,-2.457656054429118e-15
	5.244824588273765e-26,1.372406885936680e-14
	1.528570666038936e-13,-1.022781827038313e-15
	-1.528570683683565e-05,-1.024363097789937e-14
	-1.528570668397858e-05,2.457656054429118e-15
	-5.244824588273765e-26,-1.372406885936680e-14
	-1.528570668397858e-05,2.457656054429118e-15
24		1.737800828749374e+00,0.000000000000000e+00
	-1.528570668397858e-01,2.514902217933684e-11
	1.000000000000000e+00,0.000000000000000e+00
	0.000000000000000e+00,0.000000000000000e+00
	1.528570668397858e-05,-2.514902217933684e-15
	5.492005555900764e-26,1.404374348936856e-14
	1.528570666038936e-13,-1.046605476240409e-15
	-1.528570683683565e-05,-1.048223579519447e-14
	-1.528570668397858e-05,2.514902217933684e-15
	-5.492005555900764e-26,-1.404374348936856e-14
	-1.528570668397858e-05,2.514902217933684e-15
25		1.778279410038922e+00,0.000000000000000e+00
	-1.528570668397858e-01,2.573481815882864e-11
	1.000000000000000e+00,0.000000000000000e+00
	0.000000000000000e+00,0.000000000000000e+00
	1.528570668397858e-05,-2.573481815882865e-15
	5.750835803637840e-26,1.437086429805932e-14
	1.528570666038936e-13,-1.070984049519472e-15
	-1.528570683683565e-05,-1.072639843265698e-14
	-1.528570668397858e-05,2.573481815882865e-15
	-5.750835803637840e-26,-1.437086429805932e-14
	-1.528570668397858e-05,2.573481815882865e-15
26		1.819700858609982e+00,0.000000000000000e+00
	-1.528570668397858e-01,2.633425907954885e-11
	1.000000000000000e+00,0.000000000000000e+00
	0.000000000000000e+00,0.000000000000000e+00
	1.528570668397858e-05,-2.633425907954885e-15
	6.021864345142417e-26,1.470560472922178e-14
	1.528570666038936e-13,-1.095930472717740e-15
	-1.528570683683565e-05,-1.097624834854915e-14
	-1.528570668397858e-05,2.633425907954885e-15
	-6.021864345142417e-26,-1.470560472922178e-14
	-1.528570668397858e-05,2.633425907954885e-15
27		1.862087136662866e+00,0.000000000000000e+00
	-1.528570668397858e-01,2.694766277300816e-11
	1.000000000000000e+00,0.000000000000000e+00
	0.000000000000000e+00,0.000000000000000e+00
	1.528570668397858e-05,-2.694766277300816e-15
	6.305666068288462e-26,1.504814226666336e-14
	1.528570666038936e-13,-1.121457972759001e-15
	-1.528570683683565e-05,-1.123191801660355e-14
	-1.528570668397858e-05,2.694766277300816e-15
	-6.305666068288462e-26,-1.504814226666336e-14
	-1.528570668397858e-05,2.694766277300816e-15
28		1.905460717963246e+00,0.000000000000000e+00
	-1.528570668397858e-01,2.757535447396420e-11
	1.000000000000000e+00,0.000000000000000e+00
	0.000000000000000e+00,0.000000000000000e+00
	1.528570668397858e-05,-2.757535447396420e-15
	6.602842954580718e-26,1.539865852832044e-14
	1.528570666038936e-13,-1.147580084661664e-15
	-1.528570683683565e-05,-1.149354299626235e-14
	-1.528570668397858e-05,2.757535447396420e-15
	-6.602842954580718e-26,-1.539865852832044e-14
	-1.528570668397858e-05,2.757535447396420e-15
29		1.949844599758044e+00,0.000000000000000e+00
	-1.528570668397858e-01,2.821766699286531e-11
	1.000000000000000e+00,0.000000000000000e+00
	0.000000000000000e+00,0.000000000000000e+00
	1.528570668397858e-05,-2.821766699286531e-15
	6.914025356038220e-26,1.575733936255458e-14
	1.528570666038936e-13,-1.174310658715237e-15
	-1.528570683683565e-05,-1.176126200455281e-14
	-1.528570668397858e-05,2.821766699286531e-15
	-6.914025356038220e-26,-1.575733936255458e-14
	-1.528570668397858e-05,2.821766699286531e-15
30		1.995262314968878e+00,0.000000000000000e+00
	-1.528570668397858e-01,2.887494089231101e-11
	1.000000000000000e+00,0.000000000000000e+00
	0.000000000000000e+00,0.000000000000000e+00
	1.528570668397858e-05,-2.887494089231101e-15
	7.239873332255405e-26,1.612437494669178e-14
	1.528570666038936e-13,-1.201663867823895e-15
	-1.528570683683565e-05,-1.203521698963678e-14
	-1.528570668397858e-05,2.887494089231101e-15
	-7.239873332255405e-26,-1.612437494669178e-14
	-1.528570668397858e-05,2.887494089231101e-15
31		2.041737944669527e+00,0.000000000000000e+00
	-1.528570668397858e-01,2.954752466762283e-11
	1.000000000000000e+00,0.000000000000000e+00
	0.000000000000000e+00,0.000000000000000e+00
	1.528570668397858e-05,-2.954752466762283e-15
	7.581078050477026e-26,1.649995988785706e-14
	1.528570666038936e-13,-1.229654215021181e-15
	-1.528570683683565e-05,-1.231555320607359e-14
	-1.528570668397858e-05,2.954752466762283e-15
	-7.581078050477026e-26,-1.649995988785706e-14
	-1.528570668397858e-05,2.954752466762283e-15
32		2.089296130854037e+00,0.000000000000000e+00
	-1.528570668397858e-01,3.023577493162117e-11
	1.000000000000000e+00,0.000000000000000e+00
	0.000000000000000e+00,0.000000000000000e+00
	1.528570668397858e-05,-3.023577493162117e-15
	7.938363251656555e-26,1.688429332615767e-14
	1.528570666038936e-13,-1.258296541159669e-15
	-1.528570683683565e-05,-1.260241929183588e-14
	-1.528570668397858e-05,3.023577493162117e-15
	-7.938363251656555e-26,-1.688429332615767e-14
	-1.528570668397858e-05,3.023577493162117e-15
33		2.137962089502230e+00,0.000000000000000e+00
	-1.528570668397858e-01,3.094005660370604e-11
	1.000000000000000e+00,0.000000000000000e+00
	0.000000000000000e+00,0.000000000000000e+00
	1.528570668397858e-05,-3.094005660370604e-15
	8.312486785607745e-26,1.727757904026984e-14
	1.528570666038936e-13,-1.287606032779795e-15
	-1.528570683683565e-05,-1.289596734711944e-14
	-1.528570668397858e-05,3.094005660370604e-15
	-8.312486785607745e-26,-1.727757904026984e-14
	-1.528570668397858e-05,3.094005660370604e-15
34		2.187761623949550e+00,0.000000000000000e+00
	-1.528570668397858e-01,3.166074310334226e-11
	1.000000000000000e+00,0.000000000000000e+00
	0.000000000000000e+00,0.000000000000000e+00
	1.528570668397858e-05,-3.166074310334226e-15
	8.704242218505725e-26,1.768002555548497e-14
	1.528570666038936e-13,-1.317598230161988e-15
	-1.528570683683565e-05,-1.319635301498875e-14
	-1.528570668397858e-05,3.166074310334226e-15
	-8.704242218505725e-26,-1.768002555548497e-14
	-1.528570668397858e-05,3.166074310334226e-15
35		2.238721138568337e+00,0.000000000000000e+00
	-1.528570668397858e-01,3.239821654805134e-11
	1.000000000000000e+00,0.000000000000000e+00
	0.000000000000000e+00,0.000000000000000e+00
	1.528570668397858e-05,-3.239821654805135e-15
	9.114460516147239e-26,1.809184625427241e-14
	1.528570666038936e-13,-1.348289035566286e-15
	-1.528570683683565e-05,-1.350373556390099e-14
	-1.528570668397858e-05,3.239821654805134e-15
	-9.114460516147239e-26,-1.809184625427241e-14
	-1.528570668397858e-05,3.239821654805134e-15
36		2.290867652767770e+00,0.000000000000000e+00
	-1.528570668397858e-01,3.315286795601531e-11
	1.000000000000000e+00,0.000000000000000e+00
	0.000000000000000e+00,0.000000000000000e+00
	1.528570668397858e-05,-3.315286795601531e-15
	9.544011806540513e-26,1.851325948941777e-14
	1.528570666038936e-13,-1.379694721663961e-15
	-1.528570683683565e-05,-1.381827797215228e-14
	-1.528570668397858e-05,3.315286795601531e-15
	-9.544011806540513e-26,-1.851325948941777e-14
	-1.528570668397858e-05,3.315286795601531e-15
37		2.344228815319919e+00,0.000000000000000e+00
	-1.528570668397858e-01,3.392509745339963e-11
	1.000000000000000e+00,0.000000000000000e+00
	0.000000000000000e+00,0.000000000000000e+00
	1.528570668397858e-05,-3.392509745339963e-15
	9.993807225563406e-26,1.894448869979638e-14
	1.528570666038936e-13,-1.411831940165473e-15
	-1.528570683683565e-05,-1.414014701429094e-14
	-1.528570668397858e-05,3.392509745339963e-15
	-9.993807225563406e-26,-1.894448869979638e-14
	-1.528570668397858e-05,3.392509745339963e-15
38		2.398832919019488e+00,0.000000000000000e+00
	-1.528570668397858e-01,3.471531448650550e-11
	1.000000000000000e+00,0.000000000000000e+00
	0.000000000000000e+00,0.000000000000000e+00
