Title: * GA CMOS Amp | W=2.6944449104078384e-06 L=9.14434583090362e-07 Vbias=1.484755020790212
Date: Sat Sep  6 22:16:25 2025
Plotname: AC Analysis
Flags: complex forward log
No. Variables: 13
No. Points:          901
Offset:    0.0000000000000000e+00
Command: Linear Technology Corporation LTspice
Variables:
	0	frequency	frequency
	1	V(out)	voltage
	2	V(g)	voltage
	3	V(vdd)	voltage
	4	V(m1#dbody)	voltage
	5	V(m1#sbody)	voltage
	6	Id(M1)	device_current
	7	Ig(M1)	device_current
	8	Ib(M1)	device_current
	9	Is(M1)	device_current
	10	I(Rload)	device_current
	11	I(Vg)	device_current
	12	I(Vdd)	device_current
Values:
0		1.000000000000000e+00,0.000000000000000e+00
	-1.642415740583799e-01,1.255541051169785e-09
	1.000000000000000e+00,0.000000000000000e+00
	0.000000000000000e+00,0.000000000000000e+00
	8.256626998420477e-05,1.377933777739376e-13
	8.256627121600947e-05,1.466121814821487e-13
	1.642415740583800e-05,-1.255541051169785e-13
	4.968407424748332e-05,5.588804202690668e-13
	-4.403534459969512e-05,-7.760859805240560e-14
	-2.207288705362620e-05,-3.557177170996827e-13
	-1.642415740583799e-05,1.255541051169785e-13
	-4.968407424765786e-05,-5.588804202690668e-13
	-1.642415740583799e-05,1.255541051169785e-13
1		1.023292992280754e+00,0.000000000000000e+00
	-1.642415740583799e-01,1.284786359182853e-09
	1.000000000000000e+00,0.000000000000000e+00
	0.000000000000000e+00,0.000000000000000e+00
	8.256626998420477e-05,1.410029978587650e-13
	8.256627121600947e-05,1.500272178936769e-13
	1.642415740583800e-05,-1.284786359182853e-13
	4.968407424748332e-05,5.718984175842588e-13
	-4.403534459969512e-05,-7.941633452776044e-14
	-2.207288705362620e-05,-3.640034471382131e-13
	-1.642415740583799e-05,1.284786359182853e-13
	-4.968407424765786e-05,-5.718984175842588e-13
	-1.642415740583799e-05,1.284786359182853e-13
2		1.047128548050899e+00,0.000000000000000e+00
	-1.642415740583799e-01,1.314712877929717e-09
	1.000000000000000e+00,0.000000000000000e+00
	0.000000000000000e+00,0.000000000000000e+00
	8.256626998420477e-05,1.442873795994523e-13
	8.256627121600947e-05,1.535218007219773e-13
	1.642415740583800e-05,-1.314712877929717e-13
	4.968407424748332e-05,5.852196430104243e-13
	-4.403534459969512e-05,-8.126617859488131e-14
	-2.207288705362620e-05,-3.724821766225714e-13
	-1.642415740583799e-05,1.314712877929717e-13
	-4.968407424765786e-05,-5.852196430104245e-13
	-1.642415740583799e-05,1.314712877929717e-13
3		1.071519305237606e+00,0.000000000000000e+00
	-1.642415740583799e-01,1.345336474846742e-09
	1.000000000000000e+00,0.000000000000000e+00
	0.000000000000000e+00,0.000000000000000e+00
	8.256626998420477e-05,1.476482644186725e-13
	8.256627121600947e-05,1.570977828411217e-13
	1.642415740583800e-05,-1.345336474846741e-13
	4.968407424748332e-05,5.988511596376119e-13
	-4.403534459969512e-05,-8.315911106557826e-14
	-2.207288705362620e-05,-3.811584010873594e-13
	-1.642415740583799e-05,1.345336474846742e-13
	-4.968407424765786e-05,-5.988511596376119e-13
	-1.642415740583799e-05,1.345336474846742e-13
4		1.096478196143185e+00,0.000000000000000e+00
	-1.642415740583799e-01,1.376673386970363e-09
	1.000000000000000e+00,0.000000000000000e+00
	0.000000000000000e+00,0.000000000000000e+00
	8.256626998420477e-05,1.510874343020434e-13
	8.256627121600947e-05,1.607570602841636e-13
	1.642415740583800e-05,-1.376673386970364e-13
	4.968407424748332e-05,6.128001950763713e-13
	-4.403534459969512e-05,-8.509613559770315e-14
	-2.207288705362620e-05,-3.900367207816318e-13
	-1.642415740583799e-05,1.376673386970363e-13
	-4.968407424765786e-05,-6.128001950763713e-13
	-1.642415740583799e-05,1.376673386970363e-13
5		1.122018454301963e+00,0.000000000000000e+00
	-1.642415740583799e-01,1.408740229546184e-09
	1.000000000000000e+00,0.000000000000000e+00
	0.000000000000000e+00,0.000000000000000e+00
	8.256626998420477e-05,1.546067127429599e-13
	8.256627121600947e-05,1.645015732484394e-13
	1.642415740583800e-05,-1.408740229546184e-13
	4.968407424748332e-05,6.270741452899299e-13
	-4.403534459969512e-05,-8.707827922730248e-14
	-2.207288705362620e-05,-3.991218431080091e-13
	-1.642415740583799e-05,1.408740229546184e-13
	-4.968407424765786e-05,-6.270741452899300e-13
	-1.642415740583799e-05,1.408740229546184e-13
6		1.148153621496882e+00,0.000000000000000e+00
	-1.642415740583799e-01,1.441554004838591e-09
	1.000000000000000e+00,0.000000000000000e+00
	0.000000000000000e+00,0.000000000000000e+00
	8.256626998420477e-05,1.582079657094344e-13
	8.256627121600947e-05,1.683333071242872e-13
	1.642415740583800e-05,-1.441554004838591e-13
	4.968407424748332e-05,6.416805785156288e-13
	-4.403534459969512e-05,-8.910659291316537e-14
	-2.207288705362620e-05,-4.084185851186043e-13
	-1.642415740583799e-05,1.441554004838591e-13
	-4.968407424765786e-05,-6.416805785156287e-13
	-1.642415740583799e-05,1.441554004838591e-13
7		1.174897554939529e+00,0.000000000000000e+00
	-1.642415740583799e-01,1.475132111145586e-09
	1.000000000000000e+00,0.000000000000000e+00
	0.000000000000000e+00,0.000000000000000e+00
	8.256626998420477e-05,1.618931026334581e-13
	8.256627121600947e-05,1.722542935477270e-13
	1.642415740583800e-05,-1.475132111145586e-13
	4.968407424748332e-05,6.566272392777030e-13
	-4.403534459969512e-05,-9.118215209405604e-14
	-2.207288705362620e-05,-4.179318760690884e-13
	-1.642415740583799e-05,1.475132111145586e-13
	-4.968407424765786e-05,-6.566272392777031e-13
	-1.642415740583799e-05,1.475132111145586e-13
8		1.202264434617413e+00,0.000000000000000e+00
	-1.642415740583799e-01,1.509492352023593e-09
	1.000000000000000e+00,0.000000000000000e+00
	0.000000000000000e+00,0.000000000000000e+00
	8.256626998420477e-05,1.656640774234066e-13
	8.256627121600947e-05,1.762666114776610e-13
	1.642415740583800e-05,-1.509492352023593e-13
	4.968407424748332e-05,6.719220524935315e-13
	-4.403534459969512e-05,-9.330605725892543e-14
	-2.207288705362620e-05,-4.276667600322468e-13
	-1.642415740583799e-05,1.509492352023593e-13
	-4.968407424765786e-05,-6.719220524935316e-13
	-1.642415740583799e-05,1.509492352023593e-13
9		1.230268770812381e+00,0.000000000000000e+00
	-1.642415740583799e-01,1.544652945727136e-09
	1.000000000000000e+00,0.000000000000000e+00
	0.000000000000000e+00,0.000000000000000e+00
	8.256626998420477e-05,1.695228895000282e-13
	8.256627121600947e-05,1.803723882981648e-13
	1.642415740583800e-05,-1.544652945727136e-13
	4.968407424748332e-05,6.875731276755319e-13
	-4.403534459969512e-05,-9.547943453040518e-14
	-2.207288705362620e-05,-4.376283985724130e-13
	-1.642415740583799e-05,1.544652945727136e-13
	-4.968407424765786e-05,-6.875731276755318e-13
	-1.642415740583799e-05,1.544652945727136e-13
10		1.258925411794167e+00,0.000000000000000e+00
	-1.642415740583799e-01,1.580632534868403e-09
	1.000000000000000e+00,0.000000000000000e+00
	0.000000000000000e+00,0.000000000000000e+00
	8.256626998420477e-05,1.734715848565635e-13
	8.256627121600947e-05,1.845738009464552e-13
	1.642415740583800e-05,-1.580632534868403e-13
	4.968407424748332e-05,7.035887632309320e-13
	-4.403534459969512e-05,-9.770343626189268e-14
	-2.207288705362620e-05,-4.478220734821990e-13
	-1.642415740583799e-05,1.580632534868403e-13
	-4.968407424765786e-05,-7.035887632309318e-13
	-1.642415740583799e-05,1.580632534868403e-13
11		1.288249551693134e+00,0.000000000000000e+00
	-1.642415740583799e-01,1.617450196301801e-09
	1.000000000000000e+00,0.000000000000000e+00
	0.000000000000000e+00,0.000000000000000e+00
	8.256626998420477e-05,1.775122571435576e-13
	8.256627121600947e-05,1.888730770671303e-13
	1.642415740583800e-05,-1.617450196301801e-13
	4.968407424748332e-05,7.199774508616955e-13
	-4.403534459969512e-05,-9.997924164854408e-14
	-2.207288705362620e-05,-4.582531895829713e-13
	-1.642415740583799e-05,1.617450196301801e-13
	-4.968407424765786e-05,-7.199774508616955e-13
	-1.642415740583799e-05,1.617450196301801e-13
12		1.318256738556407e+00,0.000000000000000e+00
	-1.642415740583799e-01,1.655125451238763e-09
	1.000000000000000e+00,0.000000000000000e+00
	0.000000000000000e+00,0.000000000000000e+00
	8.256626998420477e-05,1.816470487789418e-13
	8.256627121600947e-05,1.932724961932974e-13
	1.642415740583800e-05,-1.655125451238763e-13
	4.968407424748332e-05,7.367478800669341e-13
	-4.403534459969512e-05,-1.023080573524993e-13
	-2.207288705362620e-05,-4.689272775905584e-13
	-1.642415740583799e-05,1.655125451238763e-13
	-4.968407424765786e-05,-7.367478800669340e-13
	-1.642415740583799e-05,1.655125451238763e-13
13		1.348962882591653e+00,0.000000000000000e+00
	-1.642415740583799e-01,1.693678275598147e-09
	1.000000000000000e+00,0.000000000000000e+00
	0.000000000000000e+00,0.000000000000000e+00
	8.256626998420477e-05,1.858781520839714e-13
	8.256627121600947e-05,1.977743909552099e-13
	1.642415740583800e-05,-1.693678275598148e-13
	4.968407424748332e-05,7.539089427501950e-13
	-4.403534459969512e-05,-1.046911181426700e-13
	-2.207288705362620e-05,-4.798499970477102e-13
	-1.642415740583799e-05,1.693678275598147e-13
	-4.968407424765786e-05,-7.539089427501950e-13
	-1.642415740583799e-05,1.693678275598147e-13
14		1.380384264602885e+00,0.000000000000000e+00
	-1.642415740583799e-01,1.733129110597736e-09
	1.000000000000000e+00,0.000000000000000e+00
	0.000000000000000e+00,0.000000000000000e+00
	8.256626998420477e-05,1.902078104456242e-13
	8.256627121600947e-05,2.023811483170604e-13
	1.642415740583800e-05,-1.733129110597736e-13
	4.968407424748332e-05,7.714697379340669e-13
	-4.403534459969512e-05,-1.071296875494307e-13
	-2.207288705362620e-05,-4.910271393248626e-13
	-1.642415740583799e-05,1.733129110597736e-13
	-4.968407424765786e-05,-7.714697379340670e-13
	-1.642415740583799e-05,1.733129110597736e-13
15		1.412537544622754e+00,0.000000000000000e+00
	-1.642415740583799e-01,1.773498873592440e-09
	1.000000000000000e+00,0.000000000000000e+00
	0.000000000000000e+00,0.000000000000000e+00
	8.256626998420477e-05,1.946383195060733e-13
	8.256627121600947e-05,2.070952108425799e-13
	1.642415740583800e-05,-1.773498873592439e-13
	4.968407424748332e-05,7.894395765846005e-13
	-4.403534459969512e-05,-1.096250585345592e-13
	-2.207288705362620e-05,-5.024646306907973e-13
	-1.642415740583799e-05,1.773498873592440e-13
	-4.968407424765786e-05,-7.894395765846004e-13
	-1.642415740583799e-05,1.773498873592440e-13
16		1.445439770745927e+00,0.000000000000000e+00
	-1.642415740583799e-01,1.814808969164954e-09
	1.000000000000000e+00,0.000000000000000e+00
	0.000000000000000e+00,0.000000000000000e+00
	8.256626998420477e-05,1.991720283798672e-13
	8.256627121600947e-05,2.119190779901172e-13
	1.642415740583800e-05,-1.814808969164954e-13
	4.968407424748332e-05,8.078279865481072e-13
	-4.403534459969512e-05,-1.121785541767819e-13
	-2.207288705362620e-05,-5.141685354548298e-13
	-1.642415740583799e-05,1.814808969164954e-13
	-4.968407424765786e-05,-8.078279865481074e-13
	-1.642415740583799e-05,1.814808969164954e-13
17		1.479108388168207e+00,0.000000000000000e+00
	-1.642415740583799e-01,1.857081300474757e-09
	1.000000000000000e+00,0.000000000000000e+00
	0.000000000000000e+00,0.000000000000000e+00
	8.256626998420477e-05,2.038113408994616e-13
	8.256627121600947e-05,2.168553074378855e-13
	1.642415740583800e-05,-1.857081300474756e-13
	4.968407424748332e-05,8.266447176029494e-13
	-4.403534459969512e-05,-1.147915283732879e-13
	-2.207288705362620e-05,-5.261450591821859e-13
	-1.642415740583799e-05,1.857081300474757e-13
	-4.968407424765786e-05,-8.266447176029492e-13
	-1.642415740583799e-05,1.857081300474757e-13
18		1.513561248436208e+00,0.000000000000000e+00
	-1.642415740583799e-01,1.900338280871448e-09
	1.000000000000000e+00,0.000000000000000e+00
	0.000000000000000e+00,0.000000000000000e+00
	8.256626998420477e-05,2.085587168897628e-13
	8.256627121600947e-05,2.219065164400768e-13
	1.642415740583800e-05,-1.900338280871448e-13
	4.968407424748332e-05,8.458997466290011e-13
	-4.403534459969512e-05,-1.174653665575828e-13
	-2.207288705362620e-05,-5.384005519842735e-13
	-1.642415740583799e-05,1.900338280871448e-13
	-4.968407424765786e-05,-8.458997466290010e-13
	-1.642415740583799e-05,1.900338280871448e-13
19		1.548816618912481e+00,0.000000000000000e+00
	-1.642415740583799e-01,1.944602845778608e-09
	1.000000000000000e+00,0.000000000000000e+00
	0.000000000000000e+00,0.000000000000000e+00
	8.256626998420477e-05,2.134166734723601e-13
	8.256627121600947e-05,2.270753832145645e-13
	1.642415740583800e-05,-1.944602845778609e-13
	4.968407424748332e-05,8.656032828975224e-13
	-4.403534459969512e-05,-1.202014864340645e-13
	-2.207288705362620e-05,-5.509415118855969e-13
	-1.642415740583799e-05,1.944602845778608e-13
	-4.968407424765786e-05,-8.656032828975224e-13
	-1.642415740583799e-05,1.944602845778608e-13
20		1.584893192461113e+00,0.000000000000000e+00
	-1.642415740583799e-01,1.989898464854461e-09
	1.000000000000000e+00,0.000000000000000e+00
	0.000000000000000e+00,0.000000000000000e+00
	8.256626998420477e-05,2.183877864001361e-13
	8.256627121600947e-05,2.323646483629307e-13
	1.642415740583800e-05,-1.989898464854462e-13
	4.968407424748332e-05,8.857657734842497e-13
	-4.403534459969512e-05,-1.230013387297084e-13
	-2.207288705362620e-05,-5.637745882690952e-13
	-1.642415740583799e-05,1.989898464854462e-13
	-4.968407424765786e-05,-8.857657734842498e-13
	-1.642415740583799e-05,1.989898464854462e-13
21		1.621810097358929e+00,0.000000000000000e+00
	-1.642415740583799e-01,2.036249154435801e-09
	1.000000000000000e+00,0.000000000000000e+00
	0.000000000000000e+00,0.000000000000000e+00
	8.256626998420477e-05,2.234746914229653e-13
	8.256627121600947e-05,2.377771163235685e-13
	1.642415740583800e-05,-2.036249154435801e-13
	4.968407424748332e-05,9.063979088085745e-13
	-4.403534459969512e-05,-1.258664079632619e-13
	-2.207288705362620e-05,-5.769065854017325e-13
	-1.642415740583799e-05,2.036249154435801e-13
	-4.968407424765786e-05,-9.063979088085745e-13
	-1.642415740583799e-05,2.036249154435801e-13
22		1.659586907437560e+00,0.000000000000000e+00
	-1.642415740583799e-01,2.083679490271766e-09
	1.000000000000000e+00,0.000000000000000e+00
	0.000000000000000e+00,0.000000000000000e+00
	8.256626998420477e-05,2.286800856852243e-13
	8.256627121600947e-05,2.433156568586334e-13
	1.642415740583800e-05,-2.083679490271766e-13
	4.968407424748332e-05,9.275106283017442e-13
	-4.403534459969512e-05,-1.287982132323564e-13
	-2.207288705362620e-05,-5.903444660422113e-13
	-1.642415740583799e-05,2.083679490271766e-13
	-4.968407424765786e-05,-9.275106283017444e-13
	-1.642415740583799e-05,2.083679490271766e-13
23		1.698243652461743e+00,0.000000000000000e+00
	-1.642415740583799e-01,2.132214620554232e-09
	1.000000000000000e+00,0.000000000000000e+00
	0.000000000000000e+00,0.000000000000000e+00
	8.256626998420477e-05,2.340067291558525e-13
	8.256627121600947e-05,2.489832065756281e-13
	1.642415740583800e-05,-2.132214620554232e-13
	4.968407424748332e-05,9.491151262070943e-13
	-4.403534459969512e-05,-1.317983090189526e-13
	-2.207288705362620e-05,-6.040953551327185e-13
	-1.642415740583799e-05,2.132214620554232e-13
	-4.968407424765786e-05,-9.491151262070943e-13
	-1.642415740583799e-05,2.132214620554232e-13
24		1.737800828749374e+00,0.000000000000000e+00
	-1.642415740583799e-01,2.181880279251712e-09
	1.000000000000000e+00,0.000000000000000e+00
	0.000000000000000e+00,0.000000000000000e+00
	8.256626998420477e-05,2.394574460917242e-13
	8.256627121600947e-05,2.547827704844316e-13
	1.642415740583800e-05,-2.181880279251713e-13
	4.968407424748332e-05,9.712228575153830e-13
	-4.403534459969512e-05,-1.348682860135475e-13
	-2.207288705362620e-05,-6.181665435766642e-13
	-1.642415740583799e-05,2.181880279251713e-13
	-4.968407424765786e-05,-9.712228575153830e-13
	-1.642415740583799e-05,2.181880279251713e-13
25		1.778279410038922e+00,0.000000000000000e+00
	-1.642415740583799e-01,2.232702799753853e-09
	1.000000000000000e+00,0.000000000000000e+00
	0.000000000000000e+00,0.000000000000000e+00
	8.256626998420477e-05,2.450351265351079e-13
	8.256627121600947e-05,2.607174235905947e-13
	1.642415740583800e-05,-2.232702799753852e-13
	4.968407424748332e-05,9.938455440383808e-13
	-4.403534459969512e-05,-1.380097719585796e-13
	-2.207288705362620e-05,-6.325654921044159e-13
	-1.642415740583799e-05,2.232702799753853e-13
	-4.968407424765786e-05,-9.938455440383808e-13
	-1.642415740583799e-05,2.232702799753853e-13
26		1.819700858609982e+00,0.000000000000000e+00
	-1.642415740583799e-01,2.284709128833737e-09
	1.000000000000000e+00,0.000000000000000e+00
	0.000000000000000e+00,0.000000000000000e+00
	8.256626998420477e-05,2.507427278460038e-13
	8.256627121600947e-05,2.667903125257485e-13
	1.642415740583800e-05,-2.284709128833737e-13
	4.968407424748332e-05,1.016995180623929e-12
	-4.403534459969512e-05,-1.412244325114794e-13
	-2.207288705362620e-05,-6.472998352290754e-13
	-1.642415740583799e-05,2.284709128833737e-13
	-4.968407424765786e-05,-1.016995180623929e-12
	-1.642415740583799e-05,2.284709128833737e-13
27		1.862087136662866e+00,0.000000000000000e+00
	-1.642415740583799e-01,2.337926840935430e-09
	1.000000000000000e+00,0.000000000000000e+00
	0.000000000000000e+00,0.000000000000000e+00
	8.256626998420477e-05,2.565832762701759e-13
	8.256627121600947e-05,2.730046572159907e-13
	1.642415740583800e-05,-2.337926840935429e-13
	4.968407424748332e-05,1.040684041515766e-12
	-4.403534459969512e-05,-1.445139721278232e-13
	-2.207288705362620e-05,-6.623773852943997e-13
	-1.642415740583799e-05,2.337926840935430e-13
	-4.968407424765786e-05,-1.040684041515766e-12
	-1.642415740583799e-05,2.337926840935430e-13
28		1.905460717963246e+00,0.000000000000000e+00
	-1.642415740583799e-01,2.392384152794306e-09
	1.000000000000000e+00,0.000000000000000e+00
	0.000000000000000e+00,0.000000000000000e+00
	8.256626998420477e-05,2.625598685437077e-13
	8.256627121600947e-05,2.793637525891327e-13
	1.642415740583800e-05,-2.392384152794307e-13
	4.968407424748332e-05,1.064924686861496e-12
	-4.403534459969512e-05,-1.478801349650577e-13
	-2.207288705362620e-05,-6.778061366170081e-13
	-1.642415740583799e-05,2.392384152794306e-13
	-4.968407424765786e-05,-1.064924686861497e-12
	-1.642415740583799e-05,2.392384152794306e-13
29		1.949844599758044e+00,0.000000000000000e+00
	-1.642415740583799e-01,2.448109938397943e-09
	1.000000000000000e+00,0.000000000000000e+00
	0.000000000000000e+00,0.000000000000000e+00
	8.256626998420477e-05,2.686756735349322e-13
	8.256627121600947e-05,2.858709703217139e-13
	1.642415740583800e-05,-2.448109938397943e-13
	4.968407424748332e-05,1.089729969372146e-12
	-4.403534459969512e-05,-1.513247058072757e-13
	-2.207288705362620e-05,-6.935942697250760e-13
	-1.642415740583799e-05,2.448109938397942e-13
	-4.968407424765786e-05,-1.089729969372146e-12
	-1.642415740583799e-05,2.448109938397942e-13
30		1.995262314968878e+00,0.000000000000000e+00
	-1.642415740583799e-01,2.505133744295483e-09
	1.000000000000000e+00,0.000000000000000e+00
	0.000000000000000e+00,0.000000000000000e+00
	8.256626998420477e-05,2.749339339246077e-13
	8.256627121600947e-05,2.925297606267092e-13
	1.642415740583800e-05,-2.505133744295483e-13
	4.968407424748332e-05,1.115113041136838e-12
	-4.403534459969512e-05,-1.548495110115319e-13
	-2.207288705362620e-05,-7.097501556957575e-13
	-1.642415740583799e-05,2.505133744295483e-13
	-4.968407424765786e-05,-1.115113041136838e-12
	-1.642415740583799e-05,2.505133744295483e-13
31		2.041737944669527e+00,0.000000000000000e+00
	-1.642415740583799e-01,2.563485805263614e-09
	1.000000000000000e+00,0.000000000000000e+00
	0.000000000000000e+00,0.000000000000000e+00
	8.256626998420477e-05,2.813379679252310e-13
	8.256627121600947e-05,2.993436540828780e-13
	1.642415740583800e-05,-2.563485805263615e-13
	4.968407424748332e-05,1.141087360596206e-12
	-4.403534459969512e-05,-1.584564194762021e-13
	-2.207288705362620e-05,-7.262823605936425e-13
	-1.642415740583799e-05,2.563485805263614e-13
	-4.968407424765786e-05,-1.141087360596206e-12
	-1.642415740583799e-05,2.563485805263614e-13
32		2.089296130854037e+00,0.000000000000000e+00
	-1.642415740583799e-01,2.623197060337442e-09
	1.000000000000000e+00,0.000000000000000e+00
	0.000000000000000e+00,0.000000000000000e+00
	8.256626998420477e-05,2.878911710403964e-13
