LTspice 24.0.9 for Windows
Circuit: * GA CMOS Amp | W=1.7963278871640963e-05 L=2.4532064317197615e-07 Vbias=1.2751222945345053
Start Time: Sat Sep  6 22:04:05 2025
solver = Normal
Maximum thread count: 2
tnom = 27
temp = 27
method = modified trap
AsciiRawFile = 1
Direct Newton iteration for .op point succeeded.
Semiconductor Device Operating Points:
                        --- BSIM4 MOSFETS ---
Name:      m1
Model:      n
Id:      1.77e-04
Vgs:     1.28e+00
Vds:     2.67e-02
Vbs:     0.00e+00
Vth:     2.81e-01
Vdsat:   7.04e-01
Gm:     -7.59e-06
Gds:     6.53e-03
Gmb      9.22e-05
Cbd:     8.90e-15
Cbs:     1.44e-14


.measure op idd find i(vdd)
  Error: FIND can not be evaluated over an interval.

gain_db: MAX(db(v(out)/v(g)))=(35.0047dB,180°) FROM 1 TO 1e+09
gain_lin: MAX(mag(v(out)/v(g)))=(-20.7388dB,0°) FROM 1 TO 1e+09

Measurement "fc" FAIL'ed

Total elapsed time: 6.338 seconds.

