Title: * GA CMOS Amp | W=1e-06 L=8.208244055546704e-07 Vbias=1.295521358805995
Date: Sat Sep  6 22:06:16 2025
Plotname: AC Analysis
Flags: complex forward log
No. Variables: 13
No. Points:          901
Offset:    0.0000000000000000e+00
Command: Linear Technology Corporation LTspice
Variables:
	0	frequency	frequency
	1	V(out)	voltage
	2	V(g)	voltage
	3	V(vdd)	voltage
	4	V(m1#dbody)	voltage
	5	V(m1#sbody)	voltage
	6	Id(M1)	device_current
	7	Ig(M1)	device_current
	8	Ib(M1)	device_current
	9	Is(M1)	device_current
	10	I(Rload)	device_current
	11	I(Vg)	device_current
	12	I(Vdd)	device_current
Values:
0		1.000000000000000e+00,0.000000000000000e+00
	-2.900777443675219e-01,5.957596967411712e-10
	1.000000000000000e+00,0.000000000000000e+00
	0.000000000000000e+00,0.000000000000000e+00
	6.404132221872959e-06,5.373085938290582e-14
	6.404134397455835e-06,5.890305205272684e-14
	2.900777443675219e-05,-5.957596967411713e-14
	4.209037093712399e-06,1.798180028970512e-13
	-3.415538202851867e-06,-3.107024484544770e-14
	-2.980127332761272e-05,-8.917178837748633e-14
	-2.900777443675219e-05,5.957596967411713e-14
	-4.209037093971801e-06,-1.798180028970512e-13
	-2.900777443675219e-05,5.957596967411713e-14
1		1.023292992280754e+00,0.000000000000000e+00
	-2.900777443675219e-01,6.096367227585478e-10
	1.000000000000000e+00,0.000000000000000e+00
	0.000000000000000e+00,0.000000000000000e+00
	6.404132221872959e-06,5.498241187575015e-14
	6.404134397455835e-06,6.027508038950390e-14
	2.900777443675219e-05,-6.096367227585480e-14
	4.209037093712399e-06,1.840065022504728e-13
	-3.415538202851867e-06,-3.179396381879386e-14
	-2.980127332761272e-05,-9.124886615582415e-14
	-2.900777443675219e-05,6.096367227585478e-14
	-4.209037093971801e-06,-1.840065022504728e-13
	-2.900777443675219e-05,6.096367227585478e-14
2		1.047128548050899e+00,0.000000000000000e+00
	-2.900777443675219e-01,6.238369862358269e-10
	1.000000000000000e+00,0.000000000000000e+00
	0.000000000000000e+00,0.000000000000000e+00
	6.404132221872959e-06,5.626311677114924e-14
	6.404134397455835e-06,6.167906737173844e-14
	2.900777443675219e-05,-6.238369862358269e-14
	4.209037093712399e-06,1.882925642870016e-13
	-3.415538202851867e-06,-3.253454037259960e-14
	-2.980127332761272e-05,-9.337432529081932e-14
	-2.900777443675219e-05,6.238369862358269e-14
	-4.209037093971801e-06,-1.882925642870016e-13
	-2.900777443675219e-05,6.238369862358269e-14
3		1.071519305237606e+00,0.000000000000000e+00
	-2.900777443675219e-01,6.383680163406669e-10
	1.000000000000000e+00,0.000000000000000e+00
	0.000000000000000e+00,0.000000000000000e+00
	6.404132221872959e-06,5.757365311579076e-14
	6.404134397455835e-06,6.311575741191243e-14
	2.900777443675219e-05,-6.383680163406668e-14
	4.209037093712399e-06,1.926784615334621e-13
	-3.415538202851867e-06,-3.329236717035644e-14
	-2.980127332761272e-05,-9.554929272903898e-14
	-2.900777443675219e-05,6.383680163406669e-14
	-4.209037093971801e-06,-1.926784615334621e-13
	-2.900777443675219e-05,6.383680163406669e-14
4		1.096478196143185e+00,0.000000000000000e+00
	-2.900777443675219e-01,6.532375176175703e-10
	1.000000000000000e+00,0.000000000000000e+00
	0.000000000000000e+00,0.000000000000000e+00
	6.404132221872959e-06,5.891471577339169e-14
	6.404134397455835e-06,6.458591226210205e-14
	2.900777443675219e-05,-6.532375176175701e-14
	4.209037093712399e-06,1.971665194506286e-13
	-3.415538202851867e-06,-3.406784602186357e-14
	-2.980127332761272e-05,-9.777492166700800e-14
	-2.900777443675219e-05,6.532375176175704e-14
	-4.209037093971801e-06,-1.971665194506286e-13
	-2.900777443675219e-05,6.532375176175704e-14
5		1.122018454301963e+00,0.000000000000000e+00
	-2.900777443675219e-01,6.684533740729354e-10
	1.000000000000000e+00,0.000000000000000e+00
	0.000000000000000e+00,0.000000000000000e+00
	6.404132221872959e-06,6.028701579312413e-14
	6.404134397455835e-06,6.609031141786866e-14
	2.900777443675219e-05,-6.684533740729354e-14
	4.209037093712399e-06,2.017591176662153e-13
	-3.415538202851867e-06,-3.486138809627277e-14
	-2.980127332761272e-05,-1.000523921626490e-13
	-2.900777443675219e-05,6.684533740729354e-14
	-4.209037093971801e-06,-2.017591176662153e-13
	-2.900777443675219e-05,6.684533740729354e-14
6		1.148153621496882e+00,0.000000000000000e+00
	-2.900777443675219e-01,6.840236533552603e-10
	1.000000000000000e+00,0.000000000000000e+00
	0.000000000000000e+00,0.000000000000000e+00
	6.404132221872959e-06,6.169128078662306e-14
	6.404134397455835e-06,6.762975253155772e-14
	2.900777443675219e-05,-6.840236533552605e-14
	4.209037093712399e-06,2.064586912365862e-13
	-3.415538202851867e-06,-3.567341414009562e-14
	-2.980127332761272e-05,-1.023829117609645e-13
	-2.900777443675219e-05,6.840236533552603e-14
	-4.209037093971801e-06,-2.064586912365862e-13
	-2.900777443675219e-05,6.840236533552603e-14
7		1.174897554939529e+00,0.000000000000000e+00
	-2.900777443675219e-01,6.999566110327177e-10
	1.000000000000000e+00,0.000000000000000e+00
	0.000000000000000e+00,0.000000000000000e+00
	6.404132221872959e-06,6.312825531377570e-14
	6.404134397455835e-06,6.920505183522459e-14
	2.900777443675219e-05,-6.999566110327175e-14
	4.209037093712399e-06,2.112677319378545e-13
	-3.415538202851867e-06,-3.650435470028900e-14
	-2.980127332761272e-05,-1.047677161342938e-13
	-2.900777443675219e-05,6.999566110327177e-14
	-4.209037093971801e-06,-2.112677319378546e-13
	-2.900777443675219e-05,6.999566110327177e-14
8		1.202264434617413e+00,0.000000000000000e+00
	-2.900777443675219e-01,7.162606949703656e-10
	1.000000000000000e+00,0.000000000000000e+00
	0.000000000000000e+00,0.000000000000000e+00
	6.404132221872959e-06,6.459870127749698e-14
	6.404134397455835e-06,7.081704457341168e-14
	2.900777443675219e-05,-7.162606949703654e-14
	4.209037093712399e-06,2.161887895870555e-13
	-3.415538202851867e-06,-3.735465035253675e-14
	-2.980127332761272e-05,-1.072080697374821e-13
	-2.900777443675219e-05,7.162606949703656e-14
	-4.209037093971801e-06,-2.161887895870555e-13
	-2.900777443675219e-05,7.162606949703656e-14
9		1.230268770812381e+00,0.000000000000000e+00
	-2.900777443675219e-01,7.329445498093179e-10
	1.000000000000000e+00,0.000000000000000e+00
	0.000000000000000e+00,0.000000000000000e+00
	6.404132221872959e-06,6.610339832770043e-14
	6.404134397455835e-06,7.246658544600596e-14
	2.900777443675219e-05,-7.329445498093179e-14
	4.209037093712399e-06,2.212244733940923e-13
	-3.415538202851867e-06,-3.822475193484865e-14
	-2.980127332761272e-05,-1.097052664783119e-13
	-2.900777443675219e-05,7.329445498093179e-14
	-4.209037093971801e-06,-2.212244733940923e-13
	-2.900777443675219e-05,7.329445498093179e-14
10		1.258925411794167e+00,0.000000000000000e+00
	-2.900777443675219e-01,7.500170215502471e-10
	1.000000000000000e+00,0.000000000000000e+00
	0.000000000000000e+00,0.000000000000000e+00
	6.404132221872959e-06,6.764314427467919e-14
	6.404134397455835e-06,7.415454906141240e-14
	2.900777443675219e-05,-7.500170215502472e-14
	4.209037093712399e-06,2.263774533451748e-13
	-3.415538202851867e-06,-3.911512078660083e-14
	-2.980127332761272e-05,-1.122606304035493e-13
	-2.900777443675219e-05,7.500170215502472e-14
	-4.209037093971801e-06,-2.263774533451748e-13
	-2.900777443675219e-05,7.500170215502472e-14
11		1.288249551693134e+00,0.000000000000000e+00
	-2.900777443675219e-01,7.674871622436514e-10
	1.000000000000000e+00,0.000000000000000e+00
	0.000000000000000e+00,0.000000000000000e+00
	6.404132221872959e-06,6.921875551211523e-14
	6.404134397455835e-06,7.588183040028268e-14
	2.900777443675219e-05,-7.674871622436514e-14
	4.209037093712399e-06,2.316504616184808e-13
	-3.415538202851867e-06,-4.002622899314389e-14
	-2.980127332761272e-05,-1.148755164009717e-13
	-2.900777443675219e-05,7.674871622436515e-14
	-4.209037093971801e-06,-2.316504616184808e-13
	-2.900777443675219e-05,7.674871622436515e-14
12		1.318256738556407e+00,0.000000000000000e+00
	-2.900777443675219e-01,7.853642347893706e-10
	1.000000000000000e+00,0.000000000000000e+00
	0.000000000000000e+00,0.000000000000000e+00
	6.404132221872959e-06,7.083106744994235e-14
	6.404134397455835e-06,7.764934529004597e-14
	2.900777443675219e-05,-7.853642347893705e-14
	4.209037093712399e-06,2.370462940327931e-13
	-3.415538202851867e-06,-4.095855963610889e-14
	-2.980127332761272e-05,-1.175513109177472e-13
	-2.900777443675219e-05,7.853642347893706e-14
	-4.209037093971801e-06,-2.370462940327931e-13
	-2.900777443675219e-05,7.853642347893706e-14
13		1.348962882591653e+00,0.000000000000000e+00
	-2.900777443675219e-01,8.036577178478997e-10
	1.000000000000000e+00,0.000000000000000e+00
	0.000000000000000e+00,0.000000000000000e+00
	6.404132221872959e-06,7.248093495729141e-14
	6.404134397455835e-06,7.945803089049261e-14
	2.900777443675219e-05,-8.036577178478997e-14
	4.209037093712399e-06,2.425678115298804e-13
	-3.415538202851867e-06,-4.191260704954358e-14
	-2.980127332761272e-05,-1.202894326955468e-13
	-2.900777443675219e-05,8.036577178478997e-14
	-4.209037093971801e-06,-2.425678115298805e-13
	-2.900777443675219e-05,8.036577178478997e-14
14		1.380384264602885e+00,0.000000000000000e+00
	-2.900777443675219e-01,8.223773108660994e-10
	1.000000000000000e+00,0.000000000000000e+00
	0.000000000000000e+00,0.000000000000000e+00
	6.404132221872959e-06,7.416923281575346e-14
	6.404134397455835e-06,8.130884619066881e-14
	2.900777443675219e-05,-8.223773108660994e-14
	4.209037093712399e-06,2.482179416914054e-13
	-3.415538202851867e-06,-4.288887708201489e-14
	-2.980127332761272e-05,-1.230913335227805e-13
	-2.900777443675219e-05,8.223773108660994e-14
	-4.209037093971801e-06,-2.482179416914053e-13
	-2.900777443675219e-05,8.223773108660994e-14
15		1.412537544622754e+00,0.000000000000000e+00
	-2.900777443675219e-01,8.415329392199708e-10
	1.000000000000000e+00,0.000000000000000e+00
	0.000000000000000e+00,0.000000000000000e+00
	6.404132221872959e-06,7.589685618320028e-14
	6.404134397455835e-06,8.320277251734507e-14
	2.900777443675219e-05,-8.415329392199707e-14
	4.209037093712399e-06,2.539996802911679e-13
	-3.415538202851867e-06,-4.388788736481648e-14
	-2.980127332761272e-05,-1.259584990043544e-13
	-2.900777443675219e-05,8.415329392199708e-14
	-4.209037093971801e-06,-2.539996802911679e-13
	-2.900777443675219e-05,8.415329392199708e-14
16		1.445439770745927e+00,0.000000000000000e+00
	-2.900777443675219e-01,8.611347594772217e-10
	1.000000000000000e+00,0.000000000000000e+00
	0.000000000000000e+00,0.000000000000000e+00
	6.404132221872959e-06,7.766472106840903e-14
	6.404134397455835e-06,8.514081405532890e-14
	2.900777443675219e-05,-8.611347594772217e-14
	4.209037093712399e-06,2.599160928835040e-13
	-3.415538202851867e-06,-4.491016758642373e-14
	-2.980127332761272e-05,-1.288924493493581e-13
	-2.900777443675219e-05,8.611347594772217e-14
	-4.209037093971801e-06,-2.599160928835040e-13
	-2.900777443675219e-05,8.611347594772217e-14
17		1.479108388168207e+00,0.000000000000000e+00
	-2.900777443675219e-01,8.811931647824135e-10
	1.000000000000000e+00,0.000000000000000e+00
	0.000000000000000e+00,0.000000000000000e+00
	6.404132221872959e-06,7.947376481674240e-14
	6.404134397455835e-06,8.712399837989679e-14
	2.900777443675219e-05,-8.811931647824136e-14
	4.209037093712399e-06,2.659703164286833e-13
	-3.415538202851867e-06,-4.595625977334168e-14
	-2.980127332761272e-05,-1.318947401771002e-13
	-2.900777443675219e-05,8.811931647824136e-14
	-4.209037093971801e-06,-2.659703164286833e-13
	-2.900777443675219e-05,8.811931647824136e-14
18		1.513561248436208e+00,0.000000000000000e+00
	-2.900777443675219e-01,9.017187903675437e-10
	1.000000000000000e+00,0.000000000000000e+00
	0.000000000000000e+00,0.000000000000000e+00
	6.404132221872959e-06,8.132494660714125e-14
	6.404134397455835e-06,8.915337700162817e-14
	2.900777443675219e-05,-9.017187903675437e-14
	4.209037093712399e-06,2.721655609561663e-13
	-3.415538202851867e-06,-4.702671857749445e-14
	-2.980127332761272e-05,-1.349669633419175e-13
	-2.900777443675219e-05,9.017187903675437e-14
	-4.209037093971801e-06,-2.721655609561663e-13
	-2.900777443675219e-05,9.017187903675437e-14
19		1.548816618912481e+00,0.000000000000000e+00
	-2.900777443675219e-01,9.227225191909858e-10
	1.000000000000000e+00,0.000000000000000e+00
	0.000000000000000e+00,0.000000000000000e+00
	6.404132221872959e-06,8.321924796069415e-14
	6.404134397455835e-06,9.123002592393028e-14
	2.900777443675219e-05,-9.227225191909857e-14
	4.209037093712399e-06,2.785051112666054e-13
	-3.415538202851867e-06,-4.812211157030924e-14
	-2.980127332761272e-05,-1.381107477771976e-13
	-2.900777443675219e-05,9.227225191909858e-14
	-4.209037093971801e-06,-2.785051112666054e-13
	-2.900777443675219e-05,9.227225191909858e-14
20		1.584893192461113e+00,0.000000000000000e+00
	-2.900777443675219e-01,9.442154877077796e-10
	1.000000000000000e+00,0.000000000000000e+00
	0.000000000000000e+00,0.000000000000000e+00
	6.404132221872959e-06,8.515767326105275e-14
	6.404134397455835e-06,9.335504621354936e-14
	2.900777443675219e-05,-9.442154877077793e-14
	4.209037093712399e-06,2.849923286734890e-13
	-3.415538202851867e-06,-4.924301954365004e-14
	-2.980127332761272e-05,-1.413277603590610e-13
	-2.900777443675219e-05,9.442154877077797e-14
	-4.209037093971801e-06,-2.849923286734890e-13
	-2.900777443675219e-05,9.442154877077797e-14
21		1.621810097358929e+00,0.000000000000000e+00
	-2.900777443675219e-01,9.662090917743254e-10
	1.000000000000000e+00,0.000000000000000e+00
	0.000000000000000e+00,0.000000000000000e+00
	6.404132221872959e-06,8.714125028696943e-14
	6.404134397455835e-06,9.552956458437102e-14
	2.900777443675219e-05,-9.662090917743253e-14
	4.209037093712399e-06,2.916306527853548e-13
	-3.415538202851867e-06,-5.039003681776130e-14
	-2.980127332761272e-05,-1.446197067901609e-13
	-2.900777443675219e-05,9.662090917743254e-14
	-4.209037093971801e-06,-2.916306527853548e-13
	-2.900777443675219e-05,9.662090917743254e-14
22		1.659586907437560e+00,0.000000000000000e+00
	-2.900777443675219e-01,9.887149926906189e-10
	1.000000000000000e+00,0.000000000000000e+00
	0.000000000000000e+00,0.000000000000000e+00
	6.404132221872959e-06,8.917103075723906e-14
	6.404134397455835e-06,9.775473399481857e-14
	2.900777443675219e-05,-9.887149926906190e-14
	4.209037093712399e-06,2.984236033295153e-13
	-3.415538202851867e-06,-5.156377155638433e-14
	-2.980127332761272e-05,-1.479883325040691e-13
	-2.900777443675219e-05,9.887149926906189e-14
	-4.209037093971801e-06,-2.984236033295153e-13
	-2.900777443675219e-05,9.887149926906189e-14
23		1.698243652461743e+00,0.000000000000000e+00
	-2.900777443675219e-01,1.011745123383228e-09
	1.000000000000000e+00,0.000000000000000e+00
	0.000000000000000e+00,0.000000000000000e+00
	6.404132221872959e-06,9.124809088833434e-14
	6.404134397455835e-06,1.000317342591671e-13
	2.900777443675219e-05,-1.011745123383227e-13
	4.209037093712399e-06,3.053747820182645e-13
	-3.415538202851867e-06,-5.276484608921376e-14
	-2.980127332761272e-05,-1.514354235907280e-13
	-2.900777443675219e-05,1.011745123383228e-13
	-4.209037093971801e-06,-3.053747820182645e-13
	-2.900777443675219e-05,1.011745123383228e-13
24		1.737800828749374e+00,0.000000000000000e+00
	-2.900777443675219e-01,1.035311694732284e-09
	1.000000000000000e+00,0.000000000000000e+00
	0.000000000000000e+00,0.000000000000000e+00
	6.404132221872959e-06,9.337353196502985e-14
	6.404134397455835e-06,1.023617726730963e-13
	2.900777443675219e-05,-1.035311694732284e-13
	4.209037093712399e-06,3.124878744585529e-13
	-3.415538202851867e-06,-5.399389724186500e-14
	-2.980127332761272e-05,-1.549628077434596e-13
	-2.900777443675219e-05,1.035311694732284e-13
	-4.209037093971801e-06,-3.124878744585529e-13
	-2.900777443675219e-05,1.035311694732284e-13
25		1.778279410038922e+00,0.000000000000000e+00
	-2.900777443675219e-01,1.059427202045857e-09
	1.000000000000000e+00,0.000000000000000e+00
	0.000000000000000e+00,0.000000000000000e+00
	6.404132221872959e-06,9.554848092431802e-14
	6.404134397455835e-06,1.047460846538150e-13
	2.900777443675219e-05,-1.059427202045857e-13
	4.209037093712399e-06,3.197666521061452e-13
	-3.415538202851867e-06,-5.525157667352758e-14
	-2.980127332761272e-05,-1.585723552280319e-13
	-2.900777443675219e-05,1.059427202045857e-13
	-4.209037093971801e-06,-3.197666521061452e-13
	-2.900777443675219e-05,1.059427202045857e-13
26		1.819700858609982e+00,0.000000000000000e+00
	-2.900777443675219e-01,1.084104431685132e-09
	1.000000000000000e+00,0.000000000000000e+00
	0.000000000000000e+00,0.000000000000000e+00
	6.404132221872959e-06,9.777409095292597e-14
	6.404134397455835e-06,1.071859343950955e-13
	2.900777443675219e-05,-1.084104431685132e-13
	4.209037093712399e-06,3.272149742652962e-13
	-3.415538202851867e-06,-5.653855122248356e-14
	-2.980127332761272e-05,-1.622659798742995e-13
	-2.900777443675219e-05,1.084104431685132e-13
	-4.209037093971801e-06,-3.272149742652962e-13
	-2.900777443675219e-05,1.084104431685132e-13
27		1.862087136662866e+00,0.000000000000000e+00
	-2.900777443675219e-01,1.109356467843905e-09
	1.000000000000000e+00,0.000000000000000e+00
	0.000000000000000e+00,0.000000000000000e+00
	6.404132221872959e-06,1.000515420987502e-13
	6.404134397455835e-06,1.096826155375659e-13
	2.900777443675219e-05,-1.109356467843905e-13
	4.209037093712399e-06,3.348367901350050e-13
	-3.415538202851867e-06,-5.785550325967386e-14
	-2.980127332761272e-05,-1.660456400909406e-13
	-2.900777443675219e-05,1.109356467843905e-13
	-4.209037093971801e-06,-3.348367901350050e-13
	-2.900777443675219e-05,1.109356467843905e-13
28		1.905460717963246e+00,0.000000000000000e+00
	-2.900777443675219e-01,1.135196699485998e-09
	1.000000000000000e+00,0.000000000000000e+00
	0.000000000000000e+00,0.000000000000000e+00
	6.404132221872959e-06,1.023820418965339e-13
	6.404134397455835e-06,1.122374518546153e-13
	2.900777443675219e-05,-1.135196699485998e-13
	4.209037093712399e-06,3.426361409029320e-13
	-3.415538202851867e-06,-5.920313105050059e-14
	-2.980127332761272e-05,-1.699133399038317e-13
	-2.900777443675219e-05,1.135196699485998e-13
	-4.209037093971801e-06,-3.426361409029321e-13
	-2.900777443675219e-05,1.135196699485998e-13
29		1.949844599758044e+00,0.000000000000000e+00
	-2.900777443675219e-01,1.161638827444263e-09
	1.000000000000000e+00,0.000000000000000e+00
	0.000000000000000e+00,0.000000000000000e+00
	6.404132221872959e-06,1.047668260081178e-13
	6.404134397455835e-06,1.148517979542764e-13
	2.900777443675219e-05,-1.161638827444263e-13
	4.209037093712399e-06,3.506171618880915e-13
	-3.415538202851867e-06,-6.058214912505639e-14
	-2.980127332761272e-05,-1.738711300186088e-13
	-2.900777443675219e-05,1.161638827444263e-13
	-4.209037093971801e-06,-3.506171618880915e-13
	-2.900777443675219e-05,1.161638827444263e-13
30		1.995262314968878e+00,0.000000000000000e+00
	-2.900777443675219e-01,1.188696871684946e-09
	1.000000000000000e+00,0.000000000000000e+00
	0.000000000000000e+00,0.000000000000000e+00
	6.404132221872959e-06,1.072071588776039e-13
	6.404134397455835e-06,1.175270399974561e-13
	2.900777443675219e-05,-1.188696871684946e-13
	4.209037093712399e-06,3.587840847334507e-13
	-3.415538202851867e-06,-6.199328865697782e-14
	-2.980127332761272e-05,-1.779211089079782e-13
	-2.900777443675219e-05,1.188696871684946e-13
	-4.209037093971801e-06,-3.587840847334507e-13
	-2.900777443675219e-05,1.188696871684946e-13
31		2.041737944669527e+00,0.000000000000000e+00
	-2.900777443675219e-01,1.216385178741260e-09
	1.000000000000000e+00,0.000000000000000e+00
	0.000000000000000e+00,0.000000000000000e+00
	6.404132221872959e-06,1.097043344017815e-13
	6.404134397455835e-06,1.202645964328967e-13
	2.900777443675219e-05,-1.216385178741260e-13
	4.209037093712399e-06,3.671412396496043e-13
	-3.415538202851867e-06,-6.343729785112337e-14
	-2.980127332761272e-05,-1.820654239243550e-13
	-2.900777443675219e-05,1.216385178741260e-13
	-4.209037093971801e-06,-3.671412396496043e-13
	-2.900777443675219e-05,1.216385178741260e-13
32		2.089296130854037e+00,0.000000000000000e+00
	-2.900777443675219e-01,1.244718429320104e-09
	1.000000000000000e+00,0.000000000000000e+00
	0.000000000000000e+00,0.000000000000000e+00
	6.404132221872959e-06,1.122596766161675e-13
