Title: * GA CMOS Amp | W=1e-06 L=6.241938447124174e-07 Vbias=1.2403775657445497
Date: Mon Sep  8 18:45:05 2025
Plotname: AC Analysis
Flags: complex forward log
No. Variables: 11
No. Points:          901
Offset:    0.0000000000000000e+00
Command: Linear Technology Corporation LTspice
Variables:
	0	frequency	frequency
	1	V(out)	voltage
	2	V(g)	voltage
	3	V(vdd)	voltage
	4	Id(M1)	device_current
	5	Ig(M1)	device_current
	6	Ib(M1)	device_current
	7	Is(M1)	device_current
	8	I(Rload)	device_current
	9	I(Vg)	device_current
	10	I(Vdd)	device_current
Values:
0		1.000000000000000e+00,0.000000000000000e+00
	-4.779573416002194e-01,1.781615227380878e-11
	1.000000000000000e+00,0.000000000000000e+00
	0.000000000000000e+00,0.000000000000000e+00
	4.779573416002193e-05,-1.781615227380878e-15
	2.238843723945390e-26,6.568815498015740e-15
	4.779573411313118e-13,-3.870476269320563e-16
	-4.779573463797927e-05,-4.400152643702806e-15
	-4.779573416002194e-05,1.781615227380878e-15
	-2.238843723945390e-26,-6.568815498015740e-15
	-4.779573416002194e-05,1.781615227380878e-15
1		1.023292992280754e+00,0.000000000000000e+00
	-4.779573416002194e-01,1.823114377119535e-11
	1.000000000000000e+00,0.000000000000000e+00
	0.000000000000000e+00,0.000000000000000e+00
	4.779573416002193e-05,-1.823114377119535e-15
	2.344357177967805e-26,6.721822866704719e-15
	4.779573411313118e-13,-3.960631243184701e-16
	-4.779573463797927e-05,-4.502645365266715e-15
	-4.779573416002194e-05,1.823114377119535e-15
	-2.344357177967805e-26,-6.721822866704719e-15
	-4.779573416002194e-05,1.823114377119535e-15
2		1.047128548050899e+00,0.000000000000000e+00
	-4.779573416002194e-01,1.865580166232712e-11
	1.000000000000000e+00,0.000000000000000e+00
	0.000000000000000e+00,0.000000000000000e+00
	4.779573416002193e-05,-1.865580166232712e-15
	2.454843327878132e-26,6.878394234851468e-15
	4.779573411313118e-13,-4.052886196159109e-16
	-4.779573463797927e-05,-4.607525449002845e-15
	-4.779573416002194e-05,1.865580166232712e-15
	-2.454843327878132e-26,-6.878394234851468e-15
	-4.779573416002194e-05,1.865580166232712e-15
3		1.071519305237606e+00,0.000000000000000e+00
	-4.779573416002194e-01,1.909035110643898e-11
	1.000000000000000e+00,0.000000000000000e+00
	0.000000000000000e+00,0.000000000000000e+00
	4.779573416002193e-05,-1.909035110643898e-15
	2.570536529613466e-26,7.038612618667846e-15
	4.779573411313118e-13,-4.147290043041013e-16
	-4.779573463797927e-05,-4.714848503719847e-15
	-4.779573416002194e-05,1.909035110643898e-15
	-2.570536529613466e-26,-7.038612618667846e-15
	-4.779573416002194e-05,1.909035110643898e-15
4		1.096478196143185e+00,0.000000000000000e+00
	-4.779573416002194e-01,1.953502250739815e-11
	1.000000000000000e+00,0.000000000000000e+00
	0.000000000000000e+00,0.000000000000000e+00
	4.779573416002193e-05,-1.953502250739815e-15
	2.691682183965945e-26,7.202562968061693e-15
	4.779573411313118e-13,-4.243892837999606e-16
	-4.779573463797927e-05,-4.824671433521917e-15
	-4.779573416002194e-05,1.953502250739815e-15
	-2.691682183965945e-26,-7.202562968061693e-15
	-4.779573416002194e-05,1.953502250739815e-15
5		1.122018454301963e+00,0.000000000000000e+00
	-4.779573416002194e-01,1.999005163586733e-11
	1.000000000000000e+00,0.000000000000000e+00
	0.000000000000000e+00,0.000000000000000e+00
	4.779573416002193e-05,-1.999005163586733e-15
	2.818537257110736e-26,7.370332211678402e-15
	4.779573411313118e-13,-4.342745801115507e-16
	-4.779573463797927e-05,-4.937052467980118e-15
	-4.779573416002194e-05,1.999005163586733e-15
	-2.818537257110736e-26,-7.370332211678402e-15
	-4.779573416002194e-05,1.999005163586733e-15
6		1.148153621496882e+00,0.000000000000000e+00
	-4.779573416002194e-01,2.045567975431347e-11
	1.000000000000000e+00,0.000000000000000e+00
	0.000000000000000e+00,0.000000000000000e+00
	4.779573416002193e-05,-2.045567975431347e-15
	2.951370825665729e-26,7.542009302991619e-15
	4.779573411313118e-13,-4.443901345538148e-16
	-4.779573463797927e-05,-5.052051193006457e-15
	-4.779573416002194e-05,2.045567975431347e-15
	-2.951370825665729e-26,-7.542009302991619e-15
	-4.779573416002194e-05,2.045567975431347e-15
7		1.174897554939529e+00,0.000000000000000e+00
	-4.779573416002194e-01,2.093215374492827e-11
	1.000000000000000e+00,0.000000000000000e+00
	0.000000000000000e+00,0.000000000000000e+00
	4.779573416002193e-05,-2.093215374492827e-15
	3.090464647439139e-26,7.717685267467579e-15
	4.779573411313118e-13,-4.547413105276215e-16
	-4.779573463797927e-05,-5.169728582447131e-15
	-4.779573416002194e-05,2.093215374492827e-15
	-3.090464647439139e-26,-7.717685267467579e-15
	-4.779573416002194e-05,2.093215374492827e-15
8		1.202264434617413e+00,0.000000000000000e+00
	-4.779573416002194e-01,2.141972624052844e-11
	1.000000000000000e+00,0.000000000000000e+00
	0.000000000000000e+00,0.000000000000000e+00
	4.779573416002193e-05,-2.141972624052844e-15
	3.236113759075581e-26,7.897453250827991e-15
	4.779573411313118e-13,-4.653335963634804e-16
	-4.779573463797927e-05,-5.290147030411666e-15
	-4.779573416002194e-05,2.141972624052844e-15
	-3.236113759075581e-26,-7.897453250827991e-15
	-4.779573416002194e-05,2.141972624052844e-15
9		1.230268770812381e+00,0.000000000000000e+00
	-4.779573416002194e-01,2.191865575850494e-11
	1.000000000000000e+00,0.000000000000000e+00
	0.000000000000000e+00,0.000000000000000e+00
	4.779573416002193e-05,-2.191865575850494e-15
	3.388627101868352e-26,8.081408568437143e-15
	4.779573411313118e-13,-4.761726082315493e-16
	-4.779573463797927e-05,-5.413370384355100e-15
	-4.779573416002194e-05,2.191865575850494e-15
	-3.388627101868352e-26,-8.081408568437143e-15
	-4.779573416002194e-05,2.191865575850494e-15
10		1.258925411794167e+00,0.000000000000000e+00
	-4.779573416002194e-01,2.242920683789230e-11
	1.000000000000000e+00,0.000000000000000e+00
	0.000000000000000e+00,0.000000000000000e+00
	4.779573416002193e-05,-2.242920683789230e-15
	3.548328177065335e-26,8.269648755839370e-15
	4.779573411313118e-13,-4.872640931193939e-16
	-4.779573463797927e-05,-5.539463978930746e-15
	-4.779573416002194e-05,2.242920683789230e-15
	-3.548328177065335e-26,-8.269648755839370e-15
	-4.779573416002194e-05,2.242920683789230e-15
11		1.288249551693134e+00,0.000000000000000e+00
	-4.779573416002194e-01,2.295165017963077e-11
	1.000000000000000e+00,0.000000000000000e+00
	0.000000000000000e+00,0.000000000000000e+00
	4.779573416002193e-05,-2.295165017963077e-15
	3.715555732058520e-26,8.462273620473686e-15
	4.779573411313118e-13,-4.986139318791137e-16
	-4.779573463797927e-05,-5.668494670631496e-15
	-4.779573416002194e-05,2.295165017963077e-15
	-3.715555732058520e-26,-8.462273620473686e-15
	-4.779573416002194e-05,2.295165017963077e-15
12		1.318256738556407e+00,0.000000000000000e+00
	-4.779573416002194e-01,2.348626279009547e-11
	1.000000000000000e+00,0.000000000000000e+00
	0.000000000000000e+00,0.000000000000000e+00
	4.779573416002193e-05,-2.348626279009547e-15
	3.890664478912634e-26,8.659385294593008e-15
	4.779573411313118e-13,-5.102281423454503e-16
	-4.779573463797927e-05,-5.800530873238011e-15
	-4.779573416002194e-05,2.348626279009547e-15
	-3.890664478912634e-26,-8.659385294593008e-15
	-4.779573416002194e-05,2.348626279009547e-15
13		1.348962882591653e+00,0.000000000000000e+00
	-4.779573416002194e-01,2.403332812796893e-11
	1.000000000000000e+00,0.000000000000000e+00
	0.000000000000000e+00,0.000000000000000e+00
	4.779573416002193e-05,-2.403332812796893e-15
	4.074025846756998e-26,8.861088289416039e-15
	4.779573411313118e-13,-5.221128825265250e-16
	-4.779573463797927e-05,-5.935642594092621e-15
	-4.779573416002194e-05,2.403332812796894e-15
	-4.074025846756998e-26,-8.861088289416039e-15
	-4.779573416002194e-05,2.403332812796894e-15
14		1.380384264602885e+00,0.000000000000000e+00
	-4.779573416002194e-01,2.459313625453454e-11
	1.000000000000000e+00,0.000000000000000e+00
	0.000000000000000e+00,0.000000000000000e+00
	4.779573416002193e-05,-2.459313625453454e-15
	4.266028769636491e-26,9.067489550540488e-15
	4.779573411313118e-13,-5.342744538688980e-16
	-4.779573463797927e-05,-6.073901471218136e-15
	-4.779573416002194e-05,2.459313625453454e-15
	-4.266028769636491e-26,-9.067489550540488e-15
	-4.779573416002194e-05,2.459313625453454e-15
15		1.412537544622754e+00,0.000000000000000e+00
	-4.779573416002194e-01,2.516598398747095e-11
	1.000000000000000e+00,0.000000000000000e+00
	0.000000000000000e+00,0.000000000000000e+00
	4.779573416002193e-05,-2.516598398747095e-15
	4.467080511492825e-26,9.278698514647047e-15
	4.779573411313118e-13,-5.467193045986710e-16
	-4.779573463797927e-05,-6.215380811301281e-15
	-4.779573416002194e-05,2.516598398747095e-15
	-4.467080511492825e-26,-9.278698514647047e-15
	-4.779573416002194e-05,2.516598398747095e-15
16		1.445439770745927e+00,0.000000000000000e+00
	-4.779573416002194e-01,2.575217505822868e-11
	1.000000000000000e+00,0.000000000000000e+00
	0.000000000000000e+00,0.000000000000000e+00
	4.779573416002193e-05,-2.575217505822869e-15
	4.677607530025948e-26,9.494827167524163e-15
	4.779573411313118e-13,-5.594540331404266e-16
	-4.779573463797927e-05,-6.360155628560867e-15
	-4.779573416002194e-05,2.575217505822868e-15
	-4.677607530025948e-26,-9.494827167524163e-15
	-4.779573416002194e-05,2.575217505822868e-15
17		1.479108388168207e+00,0.000000000000000e+00
	-4.779573416002194e-01,2.635202027307264e-11
	1.000000000000000e+00,0.000000000000000e+00
	0.000000000000000e+00,0.000000000000000e+00
	4.779573416002193e-05,-2.635202027307263e-15
	4.898056381268025e-26,9.715990103444397e-15
	4.779573411313118e-13,-5.724853916158029e-16
	-4.779573463797927e-05,-6.508302684521330e-15
	-4.779573416002194e-05,2.635202027307264e-15
	-4.898056381268025e-26,-9.715990103444397e-15
	-4.779573416002194e-05,2.635202027307264e-15
18		1.513561248436208e+00,0.000000000000000e+00
	-4.779573416002194e-01,2.696583767787560e-11
	1.000000000000000e+00,0.000000000000000e+00
	0.000000000000000e+00,0.000000000000000e+00
	4.779573416002193e-05,-2.696583767787560e-15
	5.128894666788632e-26,9.942304585923812e-15
	4.779573411313118e-13,-5.858202894235549e-16
	-4.779573463797927e-05,-6.659900528712697e-15
	-4.779573416002194e-05,2.696583767787560e-15
	-5.128894666788632e-26,-9.942304585923812e-15
	-4.779573416002194e-05,2.696583767787560e-15
19		1.548816618912481e+00,0.000000000000000e+00
	-4.779573416002194e-01,2.759395272675042e-11
	1.000000000000000e+00,0.000000000000000e+00
	0.000000000000000e+00,0.000000000000000e+00
	4.779573416002193e-05,-2.759395272675042e-15
	5.370612025540382e-26,1.017389060989664e-14
	4.779573411313118e-13,-5.994657969030069e-16
	-4.779573463797927e-05,-6.815029540318592e-15
	-4.779573416002194e-05,2.759395272675042e-15
	-5.370612025540382e-26,-1.017389060989664e-14
	-4.779573416002194e-05,2.759395272675042e-15
20		1.584893192461113e+00,0.000000000000000e+00
	-4.779573416002194e-01,2.823669845461011e-11
	1.000000000000000e+00,0.000000000000000e+00
	0.000000000000000e+00,0.000000000000000e+00
	4.779573416002193e-05,-2.823669845461011e-15
	5.623721172448801e-26,1.041087096533820e-14
	4.779573411313118e-13,-6.134291490828450e-16
	-4.779573463797927e-05,-6.973771970794344e-15
	-4.779573416002194e-05,2.823669845461012e-15
	-5.623721172448801e-26,-1.041087096533820e-14
	-4.779573416002194e-05,2.823669845461012e-15
21		1.621810097358929e+00,0.000000000000000e+00
	-4.779573416002194e-01,2.889441565374732e-11
	1.000000000000000e+00,0.000000000000000e+00
	0.000000000000000e+00,0.000000000000000e+00
	4.779573416002193e-05,-2.889441565374732e-15
	5.888758985949412e-26,1.065337130236975e-14
	4.779573411313118e-13,-6.277177495172221e-16
	-4.779573463797927e-05,-7.136211987477796e-15
	-4.779573416002194e-05,2.889441565374732e-15
	-5.888758985949412e-26,-1.065337130236975e-14
	-4.779573416002194e-05,2.889441565374732e-15
22		1.659586907437560e+00,0.000000000000000e+00
	-4.779573416002194e-01,2.956745305452696e-11
	1.000000000000000e+00,0.000000000000000e+00
	0.000000000000000e+00,0.000000000000000e+00
	4.779573416002193e-05,-2.956745305452696e-15
	6.166287646778897e-26,1.090152019787986e-14
	4.779573411313118e-13,-6.423391742112167e-16
	-4.779573463797927e-05,-7.302435718215943e-15
	-4.779573416002194e-05,2.956745305452696e-15
	-6.166287646778897e-26,-1.090152019787986e-14
	-4.779573416002194e-05,2.956745305452696e-15
23		1.698243652461743e+00,0.000000000000000e+00
	-4.779573416002194e-01,3.025616751028761e-11
	1.000000000000000e+00,0.000000000000000e+00
	0.000000000000000e+00,0.000000000000000e+00
	4.779573416002193e-05,-3.025616751028762e-15
	6.456895830435784e-26,1.115544922369756e-14
	4.779573411313118e-13,-6.573011756377452e-16
	-4.779573463797927e-05,-7.472531297031050e-15
	-4.779573416002194e-05,3.025616751028762e-15
	-6.456895830435784e-26,-1.115544922369756e-14
	-4.779573416002194e-05,3.025616751028762e-15
24		1.737800828749374e+00,0.000000000000000e+00
	-4.779573416002194e-01,3.096092418654995e-11
	1.000000000000000e+00,0.000000000000000e+00
	0.000000000000000e+00,0.000000000000000e+00
	4.779573416002193e-05,-3.096092418654995e-15
	6.761199955840129e-26,1.141529301635349e-14
	4.779573411313118e-13,-6.726116868480063e-16
	-4.779573463797927e-05,-7.646588910850486e-15
	-4.779573416002194e-05,3.096092418654995e-15
	-6.761199955840129e-26,-1.141529301635349e-14
	-4.779573416002194e-05,3.096092418654995e-15
25		1.778279410038922e+00,0.000000000000000e+00
	-4.779573416002194e-01,3.168209675463227e-11
	1.000000000000000e+00,0.000000000000000e+00
	0.000000000000000e+00,0.000000000000000e+00
	4.779573416002193e-05,-3.168209675463228e-15
	7.079845492840682e-26,1.168118934846596e-14
	4.779573411313118e-13,-6.882788256777018e-16
	-4.779573463797927e-05,-7.824700847325027e-15
	-4.779573416002194e-05,3.168209675463228e-15
	-7.079845492840682e-26,-1.168118934846596e-14
	-4.779573416002194e-05,3.168209675463228e-15
26		1.819700858609982e+00,0.000000000000000e+00
	-4.779573416002194e-01,3.242006758977602e-11
	1.000000000000000e+00,0.000000000000000e+00
	0.000000000000000e+00,0.000000000000000e+00
	4.779573416002193e-05,-3.242006758977603e-15
	7.413508331342964e-26,1.195327920178980e-14
	4.779573411313118e-13,-7.043108990512189e-16
	-4.779573463797927e-05,-8.006961543760978e-15
	-4.779573416002194e-05,3.242006758977602e-15
	-7.413508331342964e-26,-1.195327920178980e-14
	-4.779573416002194e-05,3.242006758977602e-15
27		1.862087136662866e+00,0.000000000000000e+00
	-4.779573416002194e-01,3.317522797388621e-11
	1.000000000000000e+00,0.000000000000000e+00
	0.000000000000000e+00,0.000000000000000e+00
	4.779573416002193e-05,-3.317522797388620e-15
	7.762896214962408e-26,1.223170684196679e-14
	4.779573411313118e-13,-7.207164073860702e-16
	-4.779573463797927e-05,-8.193467637192097e-15
	-4.779573416002194e-05,3.317522797388621e-15
	-7.762896214962408e-26,-1.223170684196679e-14
	-4.779573416002194e-05,3.317522797388621e-15
28		1.905460717963246e+00,0.000000000000000e+00
	-4.779573416002194e-01,3.394797830299418e-11
	1.000000000000000e+00,0.000000000000000e+00
	0.000000000000000e+00,0.000000000000000e+00
	4.779573416002193e-05,-3.394797830299419e-15
	8.128750242243404e-26,1.251661989501717e-14
	4.779573411313118e-13,-7.375040490999278e-16
	-4.779573463797927e-05,-8.384318015617821e-15
	-4.779573416002194e-05,3.394797830299418e-15
	-8.128750242243404e-26,-1.251661989501717e-14
	-4.779573416002194e-05,3.394797830299418e-15
29		1.949844599758044e+00,0.000000000000000e+00
	-4.779573416002194e-01,3.473872829955304e-11
	1.000000000000000e+00,0.000000000000000e+00
	0.000000000000000e+00,0.000000000000000e+00
	4.779573416002193e-05,-3.473872829955304e-15
	8.511846438628737e-26,1.280816942561294e-14
	4.779573411313118e-13,-7.546827252226360e-16
	-4.779573463797927e-05,-8.579613870434995e-15
	-4.779573416002194e-05,3.473872829955305e-15
	-8.511846438628737e-26,-1.280816942561294e-14
	-4.779573416002194e-05,3.473872829955305e-15
30		1.995262314968878e+00,0.000000000000000e+00
	-4.779573416002194e-01,3.554789722967774e-11
	1.000000000000000e+00,0.000000000000000e+00
	0.000000000000000e+00,0.000000000000000e+00
	4.779573416002193e-05,-3.554789722967775e-15
	8.912997402513528e-26,1.310651001717433e-14
	4.779573411313118e-13,-7.722615441156674e-16
	-4.779573463797927e-05,-8.779458750090887e-15
	-4.779573416002194e-05,3.554789722967775e-15
	-8.912997402513528e-26,-1.310651001717433e-14
	-4.779573416002194e-05,3.554789722967775e-15
31		2.041737944669527e+00,0.000000000000000e+00
	-4.779573416002194e-01,3.637591412544566e-11
	1.000000000000000e+00,0.000000000000000e+00
	0.000000000000000e+00,0.000000000000000e+00
	4.779573416002193e-05,-3.637591412544566e-15
	9.333054028875425e-26,1.341179985383199e-14
	4.779573411313118e-13,-7.902498263014759e-16
	-4.779573463797927e-05,-8.983958614985952e-15
	-4.779573416002194e-05,3.637591412544567e-15
	-9.333054028875425e-26,-1.341179985383199e-14
	-4.779573416002194e-05,3.637591412544567e-15
32		2.089296130854037e+00,0.000000000000000e+00
	-4.779573416002194e-01,3.722321801237505e-11
	1.000000000000000e+00,0.000000000000000e+00
	0.000000000000000e+00,0.000000000000000e+00
	4.779573416002193e-05,-3.722321801237505e-15
	9.772907314136925e-26,1.372420080429832e-14
	4.779573411313118e-13,-8.086571094053848e-16
	-4.779573463797927e-05,-9.193221893655435e-15
	-4.779573416002194e-05,3.722321801237505e-15
	-9.772907314136925e-26,-1.372420080429832e-14
	-4.779573416002194e-05,3.722321801237505e-15
33		2.137962089502230e+00,0.000000000000000e+00
	-4.779573416002194e-01,3.809025814220213e-11
	1.000000000000000e+00,0.000000000000000e+00
	0.000000000000000e+00,0.000000000000000e+00
	4.779573416002193e-05,-3.809025814220213e-15
	1.023349024608821e-25,1.404387850769236e-14
	4.779573411313118e-13,-8.274931532125388e-16
	-4.779573463797927e-05,-9.407359540259613e-15
	-4.779573416002194e-05,3.809025814220213e-15
	-1.023349024608821e-25,-1.404387850769236e-14
	-4.779573416002194e-05,3.809025814220213e-15
34		2.187761623949550e+00,0.000000000000000e+00
	-4.779573416002194e-01,3.897749423108037e-11
	1.000000000000000e+00,0.000000000000000e+00
	0.000000000000000e+00,0.000000000000000e+00
	4.779573416002193e-05,-3.897749423108038e-15
	1.071577978287939e-25,1.437100246136389e-14
	4.779573411313118e-13,-8.467679448426938e-16
	-4.779573463797927e-05,-9.626485093413157e-15
	-4.779573416002194e-05,3.897749423108037e-15
	-1.071577978287939e-25,-1.437100246136389e-14
	-4.779573416002194e-05,3.897749423108037e-15
35		2.238721138568337e+00,0.000000000000000e+00
	-4.779573416002194e-01,3.988539670332806e-11
	1.000000000000000e+00,0.000000000000000e+00
	0.000000000000000e+00,0.000000000000000e+00
	4.779573416002193e-05,-3.988539670332806e-15
	1.122079892527968e-25,1.470574611076314e-14
	4.779573411313118e-13,-8.664917040455068e-16
	-4.779573463797927e-05,-9.850714736384823e-15
	-4.779573416002194e-05,3.988539670332806e-15
	-1.122079892527968e-25,-1.470574611076314e-14
	-4.779573416002194e-05,3.988539670332806e-15
36		2.290867652767770e+00,0.000000000000000e+00
	-4.779573416002194e-01,4.081444694085350e-11
	1.000000000000000e+00,0.000000000000000e+00
	0.000000000000000e+00,0.000000000000000e+00
	4.779573416002193e-05,-4.081444694085350e-15
	1.174961888659920e-25,1.504828694140387e-14
	4.779573411313118e-13,-8.866748886191784e-16
	-4.779573463797927e-05,-1.008016735869935e-14
	-4.779573416002194e-05,4.081444694085350e-15
	-1.174961888659920e-25,-1.504828694140387e-14
	-4.779573416002194e-05,4.081444694085350e-15
37		2.344228815319919e+00,0.000000000000000e+00
	-4.779573416002194e-01,4.176513753839004e-11
	1.000000000000000e+00,0.000000000000000e+00
	0.000000000000000e+00,0.000000000000000e+00
	4.779573416002193e-05,-4.176513753839005e-15
	1.230336136487605e-25,1.539880657296857e-14
	4.779573411313118e-13,-9.073281999553229e-16
	-4.779573463797927e-05,-1.031496461917424e-14
	-4.779573416002194e-05,4.176513753839005e-15
	-1.230336136487605e-25,-1.539880657296857e-14
	-4.779573416002194e-05,4.176513753839005e-15
38		2.398832919019488e+00,0.000000000000000e+00
	-4.779573416002194e-01,4.273797256467640e-11
	1.000000000000000e+00,0.000000000000000e+00
	0.000000000000000e+00,0.000000000000000e+00
