LTspice 24.0.9 for Windows
Circuit: * GA CMOS Amp | W=1.103996304075014e-05 L=5.711807386847685e-07 Vbias=1.2801430438429615
Start Time: Sat Sep  6 22:07:17 2025
solver = Normal
Maximum thread count: 2
tnom = 27
temp = 27
method = modified trap
AsciiRawFile = 1
Direct Newton iteration for .op point succeeded.
Semiconductor Device Operating Points:
                        --- BSIM4 MOSFETS ---
Name:      m1
Model:      n
Id:      1.70e-04
Vgs:     1.28e+00
Vds:     9.73e-02
Vbs:     0.00e+00
Vth:     2.47e-01
Vdsat:   7.24e-01
Gm:     -1.00e-05
Gds:     1.63e-03
Gmb      9.23e-05
Cbd:     5.35e-15
Cbs:     8.83e-15


.measure op idd find i(vdd)
  Error: FIND can not be evaluated over an interval.

gain_db: MAX(db(v(out)/v(g)))=(32.4366dB,180°) FROM 1 TO 1e+09
gain_lin: MAX(mag(v(out)/v(g)))=(-7.74038dB,0°) FROM 1 TO 1e+09

Measurement "fc" FAIL'ed

Total elapsed time: 0.863 seconds.

