LTspice 24.0.9 for Windows
Circuit: * GA CMOS Amp | W=3.6869247232212806e-05 L=5.112029681821301e-07 Vbias=1.2331686616459705
Start Time: Sat Sep  6 22:01:23 2025
solver = Normal
Maximum thread count: 2
tnom = 27
temp = 27
method = modified trap
AsciiRawFile = 1
Direct Newton iteration for .op point succeeded.
Semiconductor Device Operating Points:
                        --- BSIM4 MOSFETS ---
Name:      m1
Model:      n
Id:      1.77e-04
Vgs:     1.23e+00
Vds:     2.60e-02
Vbs:     0.00e+00
Vth:     2.50e-01
Vdsat:   6.92e-01
Gm:     -1.45e-05
Gds:     6.78e-03
Gmb      9.89e-05
Cbd:     1.83e-14
Cbs:     2.95e-14


.measure op idd find i(vdd)
  Error: FIND can not be evaluated over an interval.

gain_db: MAX(db(v(out)/v(g)))=(33.783dB,180°) FROM 1 TO 1e+09
gain_lin: MAX(mag(v(out)/v(g)))=(-9.71724dB,0°) FROM 1 TO 1e+09

Measurement "fc" FAIL'ed

Total elapsed time: 3.595 seconds.

