Title: * GA CMOS Amp | W=3.401833700349272e-05 L=7.758289625409559e-07 Vbias=1.2394141101368716
Date: Mon Sep  8 18:44:48 2025
Plotname: AC Analysis
Flags: complex forward log
No. Variables: 11
No. Points:          901
Offset:    0.0000000000000000e+00
Command: Linear Technology Corporation LTspice
Variables:
	0	frequency	frequency
	1	V(out)	voltage
	2	V(g)	voltage
	3	V(vdd)	voltage
	4	Id(M1)	device_current
	5	Ig(M1)	device_current
	6	Ib(M1)	device_current
	7	Is(M1)	device_current
	8	I(Rload)	device_current
	9	I(Vg)	device_current
	10	I(Vdd)	device_current
Values:
0		1.000000000000000e+00,0.000000000000000e+00
	-1.270566275786250e-01,6.399387079796134e-11
	1.000000000000000e+00,0.000000000000000e+00
	0.000000000000000e+00,0.000000000000000e+00
	1.270566275786249e-05,-6.399387079796114e-15
	9.425094639219128e-24,3.170406300260721e-13
	1.323842294467803e-13,7.674752577805963e-16
	-1.270566289024672e-05,-3.114087182040566e-13
	-1.270566275786250e-05,6.399387079796134e-15
	-9.425094639219128e-24,-3.170406300260721e-13
	-1.270566275786250e-05,6.399387079796134e-15
1		1.023292992280754e+00,0.000000000000000e+00
	-1.270566275786250e-01,6.548447953647383e-11
	1.000000000000000e+00,0.000000000000000e+00
	0.000000000000000e+00,0.000000000000000e+00
	1.270566275786249e-05,-6.548447953647375e-15
	9.869285664807843e-24,3.244254549739548e-13
	1.323842294467803e-13,7.853520530357557e-16
	-1.270566289024672e-05,-3.186623590733432e-13
	-1.270566275786250e-05,6.548447953647383e-15
	-9.869285664807843e-24,-3.244254549739548e-13
	-1.270566275786250e-05,6.548447953647383e-15
2		1.047128548050899e+00,0.000000000000000e+00
	-1.270566275786250e-01,6.700980901282610e-11
	1.000000000000000e+00,0.000000000000000e+00
	0.000000000000000e+00,0.000000000000000e+00
	1.270566275786249e-05,-6.700980901282608e-15
	1.033441076848979e-23,3.319822945923432e-13
	1.323842294467803e-13,8.036452523448153e-16
	-1.270566289024672e-05,-3.260849589434054e-13
	-1.270566275786250e-05,6.700980901282611e-15
	-1.033441076848979e-23,-3.319822945923432e-13
	-1.270566275786250e-05,6.700980901282611e-15
3		1.071519305237606e+00,0.000000000000000e+00
	-1.270566275786250e-01,6.857066797689666e-11
	1.000000000000000e+00,0.000000000000000e+00
	0.000000000000000e+00,0.000000000000000e+00
	1.270566275786249e-05,-6.857066797689653e-15
	1.082145654297029e-23,3.397151556176297e-13
	1.323842294467803e-13,8.223645550040810e-16
	-1.270566289024672e-05,-3.336804533749442e-13
	-1.270566275786250e-05,6.857066797689667e-15
	-1.082145654297029e-23,-3.397151556176297e-13
	-1.270566275786250e-05,6.857066797689667e-15
4		1.096478196143185e+00,0.000000000000000e+00
	-1.270566275786250e-01,7.016788401676865e-11
	1.000000000000000e+00,0.000000000000000e+00
	0.000000000000000e+00,0.000000000000000e+00
	1.270566275786249e-05,-7.016788401676868e-15
	1.133145607763638e-23,3.476281381150863e-13
	1.323842294467803e-13,8.415198862358101e-16
	-1.270566289024672e-05,-3.414528695996452e-13
	-1.270566275786250e-05,7.016788401676866e-15
	-1.133145607763638e-23,-3.476281381150863e-13
	-1.270566275786250e-05,7.016788401676866e-15
5		1.122018454301963e+00,0.000000000000000e+00
	-1.270566275786250e-01,7.180230399752810e-11
	1.000000000000000e+00,0.000000000000000e+00
	0.000000000000000e+00,0.000000000000000e+00
	1.270566275786249e-05,-7.180230399752850e-15
	1.186549114987793e-23,3.557254376527740e-13
	1.323842294467803e-13,8.611214024500022e-16
	-1.270566289024672e-05,-3.494063286554711e-13
	-1.270566275786250e-05,7.180230399752811e-15
	-1.186549114987793e-23,-3.557254376527740e-13
	-1.270566275786250e-05,7.180230399752811e-15
6		1.148153621496882e+00,0.000000000000000e+00
	-1.270566275786250e-01,7.347479451028289e-11
	1.000000000000000e+00,0.000000000000000e+00
	0.000000000000000e+00,0.000000000000000e+00
	1.270566275786249e-05,-7.347479451028302e-15
	1.242469451968248e-23,3.640113475260879e-13
	1.323842294467803e-13,8.811794966300090e-16
	-1.270566289024672e-05,-3.575450475716896e-13
	-1.270566275786250e-05,7.347479451028289e-15
	-1.242469451968248e-23,-3.640113475260879e-13
	-1.270566275786250e-05,7.347479451028289e-15
7		1.174897554939529e+00,0.000000000000000e+00
	-1.270566275786250e-01,7.518624233164091e-11
	1.000000000000000e+00,0.000000000000000e+00
	0.000000000000000e+00,0.000000000000000e+00
	1.270566275786249e-05,-7.518624233164082e-15
	1.301025233237108e-23,3.724902610341199e-13
	1.323842294467803e-13,9.017048038430499e-16
	-1.270566289024672e-05,-3.658733416047989e-13
	-1.270566275786250e-05,7.518624233164090e-15
	-1.301025233237108e-23,-3.724902610341199e-13
	-1.270566275786250e-05,7.518624233164090e-15
8		1.202264434617413e+00,0.000000000000000e+00
	-1.270566275786250e-01,7.693755489389072e-11
	1.000000000000000e+00,0.000000000000000e+00
	0.000000000000000e+00,0.000000000000000e+00
	1.270566275786249e-05,-7.693755489389088e-15
	1.362340663457156e-23,3.811666738090438e-13
	1.323842294467803e-13,9.227082068784087e-16
	-1.270566289024672e-05,-3.743956265265331e-13
	-1.270566275786250e-05,7.693755489389072e-15
	-1.362340663457156e-23,-3.811666738090438e-13
	-1.270566275786250e-05,7.693755489389072e-15
9		1.230268770812381e+00,0.000000000000000e+00
	-1.270566275786250e-01,7.872966076613422e-11
	1.000000000000000e+00,0.000000000000000e+00
	0.000000000000000e+00,0.000000000000000e+00
	1.270566275786249e-05,-7.872966076613393e-15
	1.426545800876591e-23,3.900451861997586e-13
	1.323842294467803e-13,9.442008420186648e-16
	-1.270566289024672e-05,-3.831164209651639e-13
	-1.270566275786250e-05,7.872966076613423e-15
	-1.426545800876591e-23,-3.900451861997586e-13
	-1.270566275786250e-05,7.872966076613423e-15
10		1.258925411794167e+00,0.000000000000000e+00
	-1.270566275786250e-01,8.056351014662618e-11
	1.000000000000000e+00,0.000000000000000e+00
	0.000000000000000e+00,0.000000000000000e+00
	1.270566275786249e-05,-8.056351014662589e-15
	1.493776833200012e-23,3.991305057110549e-13
	1.323842294467803e-13,9.661941049432250e-16
	-1.270566289024672e-05,-3.920403488013355e-13
	-1.270566275786250e-05,8.056351014662617e-15
	-1.493776833200012e-23,-3.991305057110549e-13
	-1.270566275786250e-05,8.056351014662617e-15
11		1.288249551693134e+00,0.000000000000000e+00
	-1.270566275786250e-01,8.244007536658201e-11
	1.000000000000000e+00,0.000000000000000e+00
	0.000000000000000e+00,0.000000000000000e+00
	1.270566275786249e-05,-8.244007536658201e-15
	1.564176366460800e-23,4.084274494995961e-13
	1.323842294467803e-13,9.886996567713766e-16
	-1.270566289024672e-05,-4.011721416197092e-13
	-1.270566275786250e-05,8.244007536658201e-15
	-1.564176366460800e-23,-4.084274494995961e-13
	-1.270566275786250e-05,8.244007536658201e-15
12		1.318256738556407e+00,0.000000000000000e+00
	-1.270566275786250e-01,8.436035140572057e-11
	1.000000000000000e+00,0.000000000000000e+00
	0.000000000000000e+00,0.000000000000000e+00
	1.270566275786249e-05,-8.436035140572086e-15
	1.637893727507628e-23,4.179409469280382e-13
	1.323842294467803e-13,1.011729430244534e-15
	-1.270566289024672e-05,-4.105166412177107e-13
	-1.270566275786250e-05,8.436035140572057e-15
	-1.637893727507628e-23,-4.179409469280382e-13
	-1.270566275786250e-05,8.436035140572057e-15
13		1.348962882591653e+00,0.000000000000000e+00
	-1.270566275786250e-01,8.632535641981575e-11
	1.000000000000000e+00,0.000000000000000e+00
	0.000000000000000e+00,0.000000000000000e+00
	1.270566275786249e-05,-8.632535641981531e-15
	1.715085280746739e-23,4.276760421786441e-13
	1.323842294467803e-13,1.035295636053508e-15
	-1.270566289024672e-05,-4.200788021727161e-13
	-1.270566275786250e-05,8.632535641981576e-15
	-1.715085280746739e-23,-4.276760421786441e-13
	-1.270566275786250e-05,8.632535641981576e-15
14		1.380384264602885e+00,0.000000000000000e+00
	-1.270566275786250e-01,8.833613228053587e-11
	1.000000000000000e+00,0.000000000000000e+00
	0.000000000000000e+00,0.000000000000000e+00
	1.270566275786249e-05,-8.833613228053577e-15
	1.795914759811803e-23,4.376378969277748e-13
	1.323842294467803e-13,1.059410769312392e-15
	-1.270566289024672e-05,-4.298636944690336e-13
	-1.270566275786250e-05,8.833613228053586e-15
	-1.795914759811803e-23,-4.376378969277748e-13
	-1.270566275786250e-05,8.833613228053586e-15
15		1.412537544622754e+00,0.000000000000000e+00
	-1.270566275786250e-01,9.039374512785806e-11
	1.000000000000000e+00,0.000000000000000e+00
	0.000000000000000e+00,0.000000000000000e+00
	1.270566275786249e-05,-9.039374512785795e-15
	1.880553614864913e-23,4.478317930826789e-13
	1.323842294467803e-13,1.084087616184159e-15
	-1.270566289024672e-05,-4.398765061860772e-13
	-1.270566275786250e-05,9.039374512785806e-15
	-1.880553614864913e-23,-4.478317930826789e-13
	-1.270566275786250e-05,9.039374512785806e-15
16		1.445439770745927e+00,0.000000000000000e+00
	-1.270566275786250e-01,9.249928593534969e-11
	1.000000000000000e+00,0.000000000000000e+00
	0.000000000000000e+00,0.000000000000000e+00
	1.270566275786249e-05,-9.249928593534955e-15
	1.969181376265366e-23,4.582631355820299e-13
	1.323842294467803e-13,1.109339260659491e-15
	-1.270566289024672e-05,-4.501225462491544e-13
	-1.270566275786250e-05,9.249928593534970e-15
	-1.969181376265366e-23,-4.582631355820299e-13
	-1.270566275786250e-05,9.249928593534970e-15
17		1.479108388168207e+00,0.000000000000000e+00
	-1.270566275786250e-01,9.465387108861706e-11
	1.000000000000000e+00,0.000000000000000e+00
	0.000000000000000e+00,0.000000000000000e+00
	1.270566275786249e-05,-9.465387108861682e-15
	2.061986035377624e-23,4.689374552616962e-13
	1.323842294467803e-13,1.135179091494838e-15
	-1.270566289024672e-05,-4.606072472443294e-13
	-1.270566275786250e-05,9.465387108861706e-15
	-2.061986035377624e-23,-4.689374552616962e-13
	-1.270566275786250e-05,9.465387108861706e-15
18		1.513561248436208e+00,0.000000000000000e+00
	-1.270566275786250e-01,9.685864297722771e-11
	1.000000000000000e+00,0.000000000000000e+00
	0.000000000000000e+00,0.000000000000000e+00
	1.270566275786249e-05,-9.685864297722790e-15
	2.159164443326202e-23,4.798604117872635e-13
	1.323842294467803e-13,1.161620809310304e-15
	-1.270566289024672e-05,-4.713361682988510e-13
	-1.270566275786250e-05,9.685864297722771e-15
	-2.159164443326202e-23,-4.798604117872635e-13
	-1.270566275786250e-05,9.685864297722771e-15
19		1.548816618912481e+00,0.000000000000000e+00
	-1.270566275786250e-01,9.911477060042058e-11
	1.000000000000000e+00,0.000000000000000e+00
	0.000000000000000e+00,0.000000000000000e+00
	1.270566275786249e-05,-9.911477060042070e-15
	2.260922728543295e-23,4.910377966548636e-13
	1.323842294467803e-13,1.188678433854784e-15
	-1.270566289024672e-05,-4.823149980286763e-13
	-1.270566275786250e-05,9.911477060042059e-15
	-2.260922728543295e-23,-4.910377966548636e-13
	-1.270566275786250e-05,9.911477060042059e-15
20		1.584893192461113e+00,0.000000000000000e+00
	-1.270566275786250e-01,1.014234501869249e-10
	1.000000000000000e+00,0.000000000000000e+00
	0.000000000000000e+00,0.000000000000000e+00
	1.270566275786249e-05,-1.014234501869249e-14
	2.367476733994819e-23,5.024755362619039e-13
	1.323842294467803e-13,1.216366311438781e-15
	-1.270566289024672e-05,-4.935495575546502e-13
	-1.270566275786250e-05,1.014234501869249e-14
	-2.367476733994819e-23,-5.024755362619039e-13
	-1.270566275786250e-05,1.014234501869249e-14
21		1.621810097358929e+00,0.000000000000000e+00
	-1.270566275786250e-01,1.037859058292164e-10
	1.000000000000000e+00,0.000000000000000e+00
	0.000000000000000e+00,0.000000000000000e+00
	1.270566275786249e-05,-1.037859058292163e-14
	2.479052475012280e-23,5.141796950493202e-13
	1.323842294467803e-13,1.244699122541801e-15
	-1.270566289024672e-05,-5.050458035889403e-13
	-1.270566275786250e-05,1.037859058292164e-14
	-2.479052475012280e-23,-5.141796950493202e-13
	-1.270566275786250e-05,1.037859058292164e-14
22		1.659586907437560e+00,0.000000000000000e+00
	-1.270566275786250e-01,1.062033901325474e-10
	1.000000000000000e+00,0.000000000000000e+00
	0.000000000000000e+00,0.000000000000000e+00
	1.270566275786249e-05,-1.062033901325474e-14
	2.595886618701598e-23,5.261564787170246e-13
	1.323842294467803e-13,1.273691889594936e-15
	-1.270566289024672e-05,-5.168098315933648e-13
	-1.270566275786250e-05,1.062033901325474e-14
	-2.595886618701598e-23,-5.261564787170246e-13
	-1.270566275786250e-05,1.062033901325474e-14
23		1.698243652461743e+00,0.000000000000000e+00
	-1.270566275786250e-01,1.086771848790948e-10
	1.000000000000000e+00,0.000000000000000e+00
	0.000000000000000e+00,0.000000000000000e+00
	1.270566275786249e-05,-1.086771848790944e-14
	2.718226985945763e-23,5.384122375142490e-13
	1.323842294467803e-13,1.303359984947328e-15
	-1.270566289024672e-05,-5.288478790112869e-13
	-1.270566275786250e-05,1.086771848790948e-14
	-2.718226985945763e-23,-5.384122375142490e-13
	-1.270566275786250e-05,1.086771848790948e-14
24		1.737800828749374e+00,0.000000000000000e+00
	-1.270566275786250e-01,1.112086017075776e-10
	1.000000000000000e+00,0.000000000000000e+00
	0.000000000000000e+00,0.000000000000000e+00
	1.270566275786249e-05,-1.112086017075774e-14
	2.846333077066159e-23,5.509534696065319e-13
	1.323842294467803e-13,1.333719139015743e-15
	-1.270566289024672e-05,-5.411663285747899e-13
	-1.270566275786250e-05,1.112086017075776e-14
	-2.846333077066159e-23,-5.509534696065319e-13
	-1.270566275786250e-05,1.112086017075776e-14
25		1.778279410038922e+00,0.000000000000000e+00
	-1.270566275786250e-01,1.137989828087057e-10
	1.000000000000000e+00,0.000000000000000e+00
	0.000000000000000e+00,0.000000000000000e+00
	1.270566275786249e-05,-1.137989828087053e-14
	2.980476622257536e-23,5.637868245211315e-13
	1.323842294467803e-13,1.364785448625547e-15
	-1.270566289024672e-05,-5.537717116888866e-13
	-1.270566275786250e-05,1.137989828087057e-14
	-2.980476622257536e-23,-5.637868245211315e-13
	-1.270566275786250e-05,1.137989828087057e-14
26		1.819700858609982e+00,0.000000000000000e+00
	-1.270566275786250e-01,1.164497016368265e-10
	1.000000000000000e+00,0.000000000000000e+00
	0.000000000000000e+00,0.000000000000000e+00
	1.270566275786249e-05,-1.164497016368259e-14
	3.120942157964182e-23,5.769191066726931e-13
	1.323842294467803e-13,1.396575385545194e-15
	-1.270566289024672e-05,-5.666707118945557e-13
	-1.270566275786250e-05,1.164497016368265e-14
	-3.120942157964182e-23,-5.769191066726931e-13
	-1.270566275786250e-05,1.164497016368265e-14
27		1.862087136662866e+00,0.000000000000000e+00
	-1.270566275786250e-01,1.191621636381492e-10
	1.000000000000000e+00,0.000000000000000e+00
	0.000000000000000e+00,0.000000000000000e+00
	1.270566275786249e-05,-1.191621636381491e-14
	3.268027630419875e-23,5.903572789710396e-13
	1.323842294467803e-13,1.429105805220293e-15
	-1.270566289024672e-05,-5.798701684124450e-13
	-1.270566275786250e-05,1.191621636381492e-14
	-3.268027630419875e-23,-5.903572789710396e-13
	-1.270566275786250e-05,1.191621636381492e-14
28		1.905460717963246e+00,0.000000000000000e+00
	-1.270566275786250e-01,1.219378069959306e-10
	1.000000000000000e+00,0.000000000000000e+00
	0.000000000000000e+00,0.000000000000000e+00
	1.270566275786249e-05,-1.219378069959307e-14
	3.422045027631785e-23,6.041084665129990e-13
	1.323842294467803e-13,1.462393955709675e-15
	-1.270566289024672e-05,-5.933770797691156e-13
	-1.270566275786250e-05,1.219378069959306e-14
	-3.422045027631785e-23,-6.041084665129990e-13
	-1.270566275786250e-05,1.219378069959306e-14
29		1.949844599758044e+00,0.000000000000000e+00
	-1.270566275786250e-01,1.247781033930189e-10
	1.000000000000000e+00,0.000000000000000e+00
	0.000000000000000e+00,0.000000000000000e+00
	1.270566275786249e-05,-1.247781033930187e-14
	3.583321041148873e-23,6.181799603602246e-13
	1.323842294467803e-13,1.496457486831428e-15
	-1.270566289024672e-05,-6.071986075077542e-13
	-1.270566275786250e-05,1.247781033930189e-14
	-3.583321041148873e-23,-6.181799603602246e-13
	-1.270566275786250e-05,1.247781033930189e-14
30		1.995262314968878e+00,0.000000000000000e+00
	-1.270566275786250e-01,1.276845587921596e-10
	1.000000000000000e+00,0.000000000000000e+00
	0.000000000000000e+00,0.000000000000000e+00
	1.270566275786249e-05,-1.276845587921596e-14
	3.752197759018456e-23,6.325792214050121e-13
	1.323842294467803e-13,1.531314459520638e-15
	-1.270566289024672e-05,-6.213420799853168e-13
	-1.270566275786250e-05,1.276845587921596e-14
	-3.752197759018456e-23,-6.325792214050121e-13
	-1.270566275786250e-05,1.276845587921596e-14
31		2.041737944669527e+00,0.000000000000000e+00
	-1.270566275786250e-01,1.306587142344769e-10
	1.000000000000000e+00,0.000000000000000e+00
	0.000000000000000e+00,0.000000000000000e+00
	1.270566275786249e-05,-1.306587142344764e-14
	3.929033391400833e-23,6.473138843261644e-13
	1.323842294467803e-13,1.566983355405725e-15
	-1.270566289024672e-05,-6.358149962581224e-13
	-1.270566275786250e-05,1.306587142344769e-14
	-3.929033391400833e-23,-6.473138843261644e-13
	-1.270566275786250e-05,1.306587142344769e-14
32		2.089296130854037e+00,0.000000000000000e+00
	-1.270566275786250e-01,1.337021466565538e-10
	1.000000000000000e+00,0.000000000000000e+00
	0.000000000000000e+00,0.000000000000000e+00
	1.270566275786249e-05,-1.337021466565537e-14
	4.114203030381056e-23,6.623917616369988e-13
	1.323842294467803e-13,1.603483086607232e-15
	-1.270566289024672e-05,-6.506250300579506e-13
	-1.270566275786250e-05,1.337021466565538e-14
	-4.114203030381056e-23,-6.623917616369988e-13
	-1.270566275786250e-05,1.337021466565538e-14
33		2.137962089502230e+00,0.000000000000000e+00
	-1.270566275786250e-01,1.368164697265451e-10
	1.000000000000000e+00,0.000000000000000e+00
	0.000000000000000e+00,0.000000000000000e+00
	1.270566275786249e-05,-1.368164697265456e-14
	4.308099445589526e-23,6.778208478276446e-13
	1.323842294467803e-13,1.640833005765880e-15
	-1.270566289024672e-05,-6.657800338607559e-13
	-1.270566275786250e-05,1.368164697265452e-14
	-4.308099445589526e-23,-6.778208478276446e-13
	-1.270566275786250e-05,1.368164697265452e-14
34		2.187761623949550e+00,0.000000000000000e+00
	-1.270566275786250e-01,1.400033346997656e-10
	1.000000000000000e+00,0.000000000000000e+00
	0.000000000000000e+00,0.000000000000000e+00
	1.270566275786249e-05,-1.400033346997654e-14
	4.511133917319045e-23,6.936093236038281e-13
	1.323842294467803e-13,1.679052916303056e-15
	-1.270566289024672e-05,-6.812880430501546e-13
	-1.270566275786250e-05,1.400033346997656e-14
	-4.511133917319045e-23,-6.936093236038281e-13
	-1.270566275786250e-05,1.400033346997656e-14
35		2.238721138568337e+00,0.000000000000000e+00
	-1.270566275786250e-01,1.432644312942071e-10
	1.000000000000000e+00,0.000000000000000e+00
	0.000000000000000e+00,0.000000000000000e+00
	1.270566275786249e-05,-1.432644312942069e-14
	4.723737108905458e-23,7.097655602243911e-13
	1.323842294467803e-13,1.718163082921626e-15
	-1.270566289024672e-05,-6.971572801778920e-13
	-1.270566275786250e-05,1.432644312942071e-14
	-4.723737108905458e-23,-7.097655602243911e-13
	-1.270566275786250e-05,1.432644312942071e-14
36		2.290867652767770e+00,0.000000000000000e+00
	-1.270566275786250e-01,1.466014885864496e-10
	1.000000000000000e+00,0.000000000000000e+00
	0.000000000000000e+00,0.000000000000000e+00
	1.270566275786249e-05,-1.466014885864499e-14
	4.946359980222326e-23,7.262981239398429e-13
	1.323842294467803e-13,1.758184242349236e-15
	-1.270566289024672e-05,-7.133961593235472e-13
	-1.270566275786250e-05,1.466014885864497e-14
	-4.946359980222326e-23,-7.262981239398429e-13
	-1.270566275786250e-05,1.466014885864497e-14
37		2.344228815319919e+00,0.000000000000000e+00
	-1.270566275786250e-01,1.500162759284409e-10
	1.000000000000000e+00,0.000000000000000e+00
	0.000000000000000e+00,0.000000000000000e+00
	1.270566275786249e-05,-1.500162759284404e-14
	5.179474744227280e-23,7.432157805342999e-13
	1.323842294467803e-13,1.799137614334253e-15
	-1.270566289024672e-05,-7.300132905557901e-13
	-1.270566275786250e-05,1.500162759284409e-14
	-5.179474744227280e-23,-7.432157805342999e-13
	-1.270566275786250e-05,1.500162759284409e-14
38		2.398832919019488e+00,0.000000000000000e+00
	-1.270566275786250e-01,1.535106038856295e-10
	1.000000000000000e+00,0.000000000000000e+00
	0.000000000000000e+00,0.000000000000000e+00
