LTspice 24.0.9 for Windows
Circuit: * GA CMOS Amp | W=4.216074529571602e-06 L=6.545368872891412e-07 Vbias=0.6440825643619259
Start Time: Mon Sep  8 18:45:17 2025
solver = Normal
Maximum thread count: 2
tnom = 27
temp = 27
method = modified trap
AsciiRawFile = 1
Instance "m1": Length shorter than recommended for a level 3 MOSFET.
Direct Newton iteration for .op point succeeded.
Semiconductor Device Operating Points:
                        --- MOSFET Transistors ---
Name:          m1
Model:        n_1u
Id:          8.87e-08
Vgs:         6.44e-01
Vds:         1.80e+00
Vbs:         0.00e+00
Vth:         8.07e-01
Vdsat:       4.63e-02
Gm:          1.65e-06
Gds:         1.22e-08
Gmb:         4.18e-07
Cbd:         0.00e+00
Cbs:         0.00e+00
Cgsov:       8.43e-16
Cgdov:       8.43e-16
Cgbov:       4.55e-17
Cgs:         1.18e-15
Cgd:         0.00e+00
Cgb:         7.70e-16



gain_db: MAX(db(v(out)/v(g)))=(33.0478dB,142.588°) FROM 1 TO 1e+09
gain_lin: MAX(mag(v(out)/v(g)))=(-25.131dB,0°) FROM 1 TO 1e+09

Measurement "fc" FAIL'ed

Total elapsed time: 0.482 seconds.

