LTspice 24.0.9 for Windows
Circuit: * GA CMOS Amp | W=4.788573707968051e-05 L=6.017078987635203e-07 Vbias=0.7805993245051371
Start Time: Sat Sep  6 22:35:02 2025
solver = Normal
Maximum thread count: 2
tnom = 27
temp = 27
method = modified trap
AsciiRawFile = 1
Direct Newton iteration for .op point succeeded.
Semiconductor Device Operating Points:
                        --- BSIM4 MOSFETS ---
Name:      m1
Model:      n
Id:      1.78e-04
Vgs:     7.81e-01
Vds:     2.44e-02
Vbs:     0.00e+00
Vth:     2.46e-01
Vdsat:   3.97e-01
Gm:      8.84e-05
Gds:     7.07e-03
Gmb      1.56e-04
Cbd:     2.38e-14
Cbs:     3.83e-14


.measure op idd find i(vdd)
  Error: FIND can not be evaluated over an interval.

gain_db: MAX(db(v(out)/v(g)))=(33.4607dB,144.596°) FROM 1 TO 1e+09
gain_lin: MAX(mag(v(out)/v(g)))=(-7.394dB,0°) FROM 1 TO 1e+09

Measurement "fc" FAIL'ed

Total elapsed time: 3.409 seconds.

