Title: * GA CMOS Amp | W=1.76049306229839e-05 L=9.526541503115229e-07 Vbias=1.4606365118209201
Date: Mon Sep  8 18:43:01 2025
Plotname: AC Analysis
Flags: complex forward log
No. Variables: 11
No. Points:          901
Offset:    0.0000000000000000e+00
Command: Linear Technology Corporation LTspice
Variables:
	0	frequency	frequency
	1	V(out)	voltage
	2	V(g)	voltage
	3	V(vdd)	voltage
	4	Id(M1)	device_current
	5	Ig(M1)	device_current
	6	Ib(M1)	device_current
	7	Is(M1)	device_current
	8	I(Rload)	device_current
	9	I(Vg)	device_current
	10	I(Vdd)	device_current
Values:
0		1.000000000000000e+00,0.000000000000000e+00
	-1.793018391219914e-01,8.568073976464813e-11
	1.000000000000000e+00,0.000000000000000e+00
	0.000000000000000e+00,0.000000000000000e+00
	1.793018391219915e-05,-8.568073976464822e-15
	7.888143126272049e-24,2.049027706939402e-13
	1.803379494347279e-13,5.905189793068423e-16
	-1.793018409253710e-05,-1.969252156967823e-13
	-1.793018391219914e-05,8.568073976464813e-15
	-7.888143126272049e-24,-2.049027706939402e-13
	-1.793018391219914e-05,8.568073976464813e-15
1		1.023292992280754e+00,0.000000000000000e+00
	-1.793018391219914e-01,8.767650057459537e-11
	1.000000000000000e+00,0.000000000000000e+00
	0.000000000000000e+00,0.000000000000000e+00
	1.793018391219915e-05,-8.767650057459546e-15
	8.259899858630933e-24,2.096755693500193e-13
	1.803379494347279e-13,6.042739333334713e-16
	-1.793018409253710e-05,-2.015121932258933e-13
	-1.793018391219914e-05,8.767650057459539e-15
	-8.259899858630933e-24,-2.096755693500193e-13
	-1.793018391219914e-05,8.767650057459539e-15
2		1.047128548050899e+00,0.000000000000000e+00
	-1.793018391219914e-01,8.971874862568296e-11
	1.000000000000000e+00,0.000000000000000e+00
	0.000000000000000e+00,0.000000000000000e+00
	1.793018391219915e-05,-8.971874862568296e-15
	8.649176946014038e-24,2.145595407683520e-13
	1.803379494347279e-13,6.183492813980591e-16
	-1.793018409253710e-05,-2.062060151871818e-13
	-1.793018391219914e-05,8.971874862568296e-15
	-8.649176946014038e-24,-2.145595407683520e-13
	-1.793018391219914e-05,8.971874862568296e-15
3		1.071519305237606e+00,0.000000000000000e+00
	-1.793018391219914e-01,9.180856674485990e-11
	1.000000000000000e+00,0.000000000000000e+00
	0.000000000000000e+00,0.000000000000000e+00
	1.793018391219915e-05,-9.180856674486009e-15
	9.056800097314991e-24,2.195572744952314e-13
	1.803379494347279e-13,6.327524864364512e-16
	-1.793018409253710e-05,-2.110091703071818e-13
	-1.793018391219914e-05,9.180856674485991e-15
	-9.056800097314991e-24,-2.195572744952314e-13
	-1.793018391219914e-05,9.180856674485991e-15
4		1.096478196143185e+00,0.000000000000000e+00
	-1.793018391219914e-01,9.394706298135500e-11
	1.000000000000000e+00,0.000000000000000e+00
	0.000000000000000e+00,0.000000000000000e+00
	1.793018391219915e-05,-9.394706298135499e-15
	9.483633935888688e-24,2.246714203952322e-13
	1.803379494347279e-13,6.474911852186395e-16
	-1.793018409253710e-05,-2.159242052823153e-13
	-1.793018391219914e-05,9.394706298135500e-15
	-9.483633935888688e-24,-2.246714203952322e-13
	-1.793018391219914e-05,9.394706298135500e-15
5		1.122018454301963e+00,0.000000000000000e+00
	-1.793018391219914e-01,9.613537119417924e-11
	1.000000000000000e+00,0.000000000000000e+00
	0.000000000000000e+00,0.000000000000000e+00
	1.793018391219915e-05,-9.613537119417950e-15
	9.930583833533363e-24,2.299046900562044e-13
	1.803379494347279e-13,6.625731923978274e-16
	-1.793018409253710e-05,-2.209537261291843e-13
	-1.793018391219914e-05,9.613537119417925e-15
	-9.930583833533363e-24,-2.299046900562044e-13
	-1.793018391219914e-05,9.613537119417925e-15
6		1.148153621496882e+00,0.000000000000000e+00
	-1.793018391219914e-01,9.837465165331268e-11
	1.000000000000000e+00,0.000000000000000e+00
	0.000000000000000e+00,0.000000000000000e+00
	1.793018391219915e-05,-9.837465165331293e-15
	1.039859783090553e-23,2.352598582269928e-13
	1.803379494347279e-13,6.780065046537800e-16
	-1.793018409253710e-05,-2.261003995663153e-13
	-1.793018391219914e-05,9.837465165331270e-15
	-1.039859783090553e-23,-2.352598582269928e-13
	-1.793018391219914e-05,9.837465165331270e-15
7		1.174897554939529e+00,0.000000000000000e+00
	-1.793018391219914e-01,1.006660916548952e-10
	1.000000000000000e+00,0.000000000000000e+00
	0.000000000000000e+00,0.000000000000000e+00
	1.793018391219915e-05,-1.006660916548954e-14
	1.088866864844133e-23,2.407397642886454e-13
	1.803379494347279e-13,6.937993049330080e-16
	-1.793018409253710e-05,-2.313669544280889e-13
	-1.793018391219914e-05,1.006660916548952e-14
	-1.088866864844133e-23,-2.407397642886454e-13
	-1.793018391219914e-05,1.006660916548952e-14
8		1.202264434617413e+00,0.000000000000000e+00
	-1.793018391219914e-01,1.030109061507463e-10
	1.000000000000000e+00,0.000000000000000e+00
	0.000000000000000e+00,0.000000000000000e+00
	1.793018391219915e-05,-1.030109061507463e-14
	1.140183579204973e-23,2.463473137598914e-13
	1.803379494347279e-13,7.099599667871244e-16
	-1.793018409253710e-05,-2.367561831116039e-13
	-1.793018391219914e-05,1.030109061507463e-14
	-1.140183579204973e-23,-2.463473137598914e-13
	-1.793018391219914e-05,1.030109061507463e-14
9		1.230268770812381e+00,0.000000000000000e+00
	-1.793018391219914e-01,1.054103383925491e-10
	1.000000000000000e+00,0.000000000000000e+00
	0.000000000000000e+00,0.000000000000000e+00
	1.793018391219915e-05,-1.054103383925496e-14
	1.193918775804380e-23,2.520854798376851e-13
	1.803379494347279e-13,7.264970588131588e-16
	-1.793018409253710e-05,-2.422709430572433e-13
	-1.793018391219914e-05,1.054103383925491e-14
	-1.193918775804380e-23,-2.520854798376851e-13
	-1.793018391219914e-05,1.054103383925491e-14
10		1.258925411794167e+00,0.000000000000000e+00
	-1.793018391219914e-01,1.078656605910385e-10
	1.000000000000000e+00,0.000000000000000e+00
	0.000000000000000e+00,0.000000000000000e+00
	1.793018391219915e-05,-1.078656605910385e-14
	1.250186434198749e-23,2.579573049736345e-13
	1.803379494347279e-13,7.434193491961348e-16
	-1.793018409253710e-05,-2.479141582637267e-13
	-1.793018391219914e-05,1.078656605910385e-14
	-1.250186434198749e-23,-2.579573049736345e-13
	-1.793018391219914e-05,1.078656605910385e-14
11		1.288249551693134e+00,0.000000000000000e+00
	-1.793018391219914e-01,1.103781745905440e-10
	1.000000000000000e+00,0.000000000000000e+00
	0.000000000000000e+00,0.000000000000000e+00
	1.793018391219915e-05,-1.103781745905442e-14
	1.309105905635468e-23,2.639659024871495e-13
	1.803379494347279e-13,7.607358103583004e-16
	-1.793018409253710e-05,-2.536888208384534e-13
	-1.793018391219914e-05,1.103781745905440e-14
	-1.309105905635468e-23,-2.639659024871495e-13
	-1.793018391219914e-05,1.103781745905440e-14
12		1.318256738556407e+00,0.000000000000000e+00
	-1.793018391219914e-01,1.129492125592453e-10
	1.000000000000000e+00,0.000000000000000e+00
	0.000000000000000e+00,0.000000000000000e+00
	1.793018391219915e-05,-1.129492125592451e-14
	1.370802166212925e-23,2.701144582161649e-13
	1.803379494347279e-13,7.784556237167036e-16
	-1.793018409253710e-05,-2.595979925839571e-13
	-1.793018391219914e-05,1.129492125592453e-14
	-1.370802166212925e-23,-2.701144582161649e-13
	-1.793018391219914e-05,1.129492125592453e-14
13		1.348962882591653e+00,0.000000000000000e+00
	-1.793018391219914e-01,1.155801376955050e-10
	1.000000000000000e+00,0.000000000000000e+00
	0.000000000000000e+00,0.000000000000000e+00
	1.793018391219915e-05,-1.155801376955053e-14
	1.435406081971567e-23,2.764062322063142e-13
	1.803379494347279e-13,7.965881845508054e-16
	-1.793018409253710e-05,-2.656448066213144e-13
	-1.793018391219914e-05,1.155801376955050e-14
	-1.435406081971567e-23,-2.764062322063142e-13
	-1.793018391219914e-05,1.155801376955050e-14
14		1.380384264602885e+00,0.000000000000000e+00
	-1.793018391219914e-01,1.182723449506549e-10
	1.000000000000000e+00,0.000000000000000e+00
	0.000000000000000e+00,0.000000000000000e+00
	1.793018391219915e-05,-1.182723449506549e-14
	1.503054686478318e-23,2.828445604394483e-13
	1.803379494347279e-13,8.151431069843949e-16
	-1.793018409253710e-05,-2.718324690513672e-13
	-1.793018391219914e-05,1.182723449506549e-14
	-1.503054686478318e-23,-2.828445604394483e-13
	-1.793018391219914e-05,1.182723449506549e-14
15		1.412537544622754e+00,0.000000000000000e+00
	-1.793018391219914e-01,1.210272617686172e-10
	1.000000000000000e+00,0.000000000000000e+00
	0.000000000000000e+00,0.000000000000000e+00
	1.793018391219915e-05,-1.210272617686173e-14
	1.573891471493142e-23,2.894328566024176e-13
	1.803379494347279e-13,8.341302290831708e-16
	-1.793018409253710e-05,-2.781642606546391e-13
	-1.793018391219914e-05,1.210272617686173e-14
	-1.573891471493142e-23,-2.894328566024176e-13
	-1.793018391219914e-05,1.210272617686173e-14
16		1.445439770745927e+00,0.000000000000000e+00
	-1.793018391219914e-01,1.238463488427544e-10
	1.000000000000000e+00,0.000000000000000e+00
	0.000000000000000e+00,0.000000000000000e+00
	1.793018391219915e-05,-1.238463488427547e-14
	1.648066691334306e-23,2.961746138970542e-13
	1.803379494347279e-13,8.535596180703615e-16
	-1.793018409253710e-05,-2.846435386308491e-13
	-1.793018391219914e-05,1.238463488427544e-14
	-1.648066691334306e-23,-2.961746138970542e-13
	-1.793018391219914e-05,1.238463488427544e-14
17		1.479108388168207e+00,0.000000000000000e+00
	-1.793018391219914e-01,1.267311008903483e-10
	1.000000000000000e+00,0.000000000000000e+00
	0.000000000000000e+00,0.000000000000000e+00
	1.793018391219915e-05,-1.267311008903482e-14
	1.725737681587942e-23,3.030734068923136e-13
	1.803379494347279e-13,8.734415756652053e-16
	-1.793018409253710e-05,-2.912737383789440e-13
	-1.793018391219914e-05,1.267311008903483e-14
	-1.725737681587942e-23,-3.030734068923136e-13
	-1.793018391219914e-05,1.267311008903483e-14
18		1.513561248436208e+00,0.000000000000000e+00
	-1.793018391219914e-01,1.296830474451186e-10
	1.000000000000000e+00,0.000000000000000e+00
	0.000000000000000e+00,0.000000000000000e+00
	1.793018391219915e-05,-1.296830474451187e-14
	1.807069192837908e-23,3.101328934195582e-13
	1.803379494347279e-13,8.937866435448724e-16
	-1.793018409253710e-05,-2.980583753185912e-13
	-1.793018391219914e-05,1.296830474451186e-14
	-1.807069192837908e-23,-3.101328934195582e-13
	-1.793018391219914e-05,1.296830474451186e-14
19		1.548816618912481e+00,0.000000000000000e+00
	-1.793018391219914e-01,1.327037536682025e-10
	1.000000000000000e+00,0.000000000000000e+00
	0.000000000000000e+00,0.000000000000000e+00
	1.793018391219915e-05,-1.327037536682024e-14
	1.892233740123869e-23,3.173568165119878e-13
	1.803379494347279e-13,9.146056089336889e-16
	-1.793018409253710e-05,-3.050010467541013e-13
	-1.793018391219914e-05,1.327037536682025e-14
	-1.892233740123869e-23,-3.173568165119878e-13
	-1.793018391219914e-05,1.327037536682025e-14
20		1.584893192461113e+00,0.000000000000000e+00
	-1.793018391219914e-01,1.357948211780230e-10
	1.000000000000000e+00,0.000000000000000e+00
	0.000000000000000e+00,0.000000000000000e+00
	1.793018391219915e-05,-1.357948211780231e-14
	1.981411968868830e-23,3.247490063892463e-13
	1.803379494347279e-13,9.359095103224421e-16
	-1.793018409253710e-05,-3.121054337817665e-13
	-1.793018391219914e-05,1.357948211780230e-14
	-1.981411968868830e-23,-3.247490063892463e-13
	-1.793018391219914e-05,1.357948211780230e-14
21		1.621810097358929e+00,0.000000000000000e+00
	-1.793018391219914e-01,1.389578888994890e-10
	1.000000000000000e+00,0.000000000000000e+00
	0.000000000000000e+00,0.000000000000000e+00
	1.793018391219915e-05,-1.389578888994892e-14
	2.074793038052292e-23,3.323133824882536e-13
	1.803379494347279e-13,9.577096433218542e-16
	-1.793018409253710e-05,-3.193753032416265e-13
	-1.793018391219914e-05,1.389578888994891e-14
	-2.074793038052292e-23,-3.323133824882536e-13
	-1.793018391219914e-05,1.389578888994891e-14
22		1.659586907437560e+00,0.000000000000000e+00
	-1.793018391219914e-01,1.421946339329747e-10
	1.000000000000000e+00,0.000000000000000e+00
	0.000000000000000e+00,0.000000000000000e+00
	1.793018391219915e-05,-1.421946339329749e-14
	2.172575021441811e-23,3.400539555413438e-13
	1.803379494347279e-13,9.800175666509835e-16
	-1.793018409253710e-05,-3.268145097146973e-13
	-1.793018391219914e-05,1.421946339329748e-14
	-2.172575021441811e-23,-3.400539555413438e-13
	-1.793018391219914e-05,1.421946339329748e-14
23		1.698243652461743e+00,0.000000000000000e+00
	-1.793018391219914e-01,1.455067724435402e-10
	1.000000000000000e+00,0.000000000000000e+00
	0.000000000000000e+00,0.000000000000000e+00
	1.793018391219915e-05,-1.455067724435407e-14
	2.274965327734016e-23,3.479748297028082e-13
	1.803379494347279e-13,1.002845108265929e-15
	-1.793018409253710e-05,-3.344269975667201e-13
	-1.793018391219914e-05,1.455067724435402e-14
	-2.274965327734016e-23,-3.479748297028082e-13
	-1.793018391219914e-05,1.455067724435402e-14
24		1.737800828749374e+00,0.000000000000000e+00
	-1.793018391219914e-01,1.488960605708650e-10
	1.000000000000000e+00,0.000000000000000e+00
	0.000000000000000e+00,0.000000000000000e+00
	1.793018391219915e-05,-1.488960605708655e-14
	2.382181140496258e-23,3.560802047249724e-13
	1.803379494347279e-13,1.026204371631588e-15
	-1.793018409253710e-05,-3.422168030395175e-13
	-1.793018391219914e-05,1.488960605708650e-14
	-2.382181140496258e-23,-3.560802047249724e-13
	-1.793018391219914e-05,1.488960605708650e-14
25		1.778279410038922e+00,0.000000000000000e+00
	-1.793018391219914e-01,1.523642953603768e-10
	1.000000000000000e+00,0.000000000000000e+00
	0.000000000000000e+00,0.000000000000000e+00
	1.793018391219915e-05,-1.523642953603772e-14
	2.494449878842082e-23,3.643743781849605e-13
	1.803379494347279e-13,1.050107742138572e-15
	-1.793018409253710e-05,-3.501880563910613e-13
	-1.793018391219914e-05,1.523642953603768e-14
	-2.494449878842082e-23,-3.643743781849605e-13
	-1.793018391219914e-05,1.523642953603768e-14
26		1.819700858609982e+00,0.000000000000000e+00
	-1.793018391219914e-01,1.559133157160686e-10
	1.000000000000000e+00,0.000000000000000e+00
	0.000000000000000e+00,0.000000000000000e+00
	1.793018391219915e-05,-1.559133157160690e-14
	2.612009679817651e-23,3.728617477633273e-13
	1.803379494347279e-13,1.074567893670133e-15
	-1.793018409253710e-05,-3.583449840853906e-13
	-1.793018391219914e-05,1.559133157160686e-14
	-2.612009679817651e-23,-3.728617477633273e-13
	-1.793018391219914e-05,1.559133157160686e-14
27		1.862087136662866e+00,0.000000000000000e+00
	-1.793018391219914e-01,1.595450033755098e-10
	1.000000000000000e+00,0.000000000000000e+00
	0.000000000000000e+00,0.000000000000000e+00
	1.793018391219915e-05,-1.595450033755103e-14
	2.735109903522352e-23,3.815468135757671e-13
	1.803379494347279e-13,1.099597795322502e-15
	-1.793018409253710e-05,-3.666919110335385e-13
	-1.793018391219914e-05,1.595450033755098e-14
	-2.735109903522352e-23,-3.815468135757671e-13
	-1.793018391219914e-05,1.595450033755098e-14
28		1.905460717963246e+00,0.000000000000000e+00
	-1.793018391219914e-01,1.632612839075684e-10
	1.000000000000000e+00,0.000000000000000e+00
	0.000000000000000e+00,0.000000000000000e+00
	1.793018391219915e-05,-1.632612839075687e-14
	2.864011662034996e-23,3.904341805591337e-13
	1.803379494347279e-13,1.125210718280884e-15
	-1.793018409253710e-05,-3.752332628866577e-13
	-1.793018391219914e-05,1.632612839075684e-14
	-2.864011662034996e-23,-3.904341805591337e-13
	-1.793018391219914e-05,1.632612839075684e-14
29		1.949844599758044e+00,0.000000000000000e+00
	-1.793018391219914e-01,1.670641277333734e-10
	1.000000000000000e+00,0.000000000000000e+00
	0.000000000000000e+00,0.000000000000000e+00
	1.793018391219915e-05,-1.670641277333741e-14
	2.998988373267549e-23,3.995285609130402e-13
	1.803379494347279e-13,1.151420242856014e-15
	-1.793018409253710e-05,-3.839735683825588e-13
	-1.793018391219914e-05,1.670641277333734e-14
	-2.998988373267549e-23,-3.995285609130402e-13
	-1.793018391219914e-05,1.670641277333734e-14
30		1.995262314968878e+00,0.000000000000000e+00
	-1.793018391219914e-01,1.709555511710578e-10
	1.000000000000000e+00,0.000000000000000e+00
	0.000000000000000e+00,0.000000000000000e+00
	1.793018391219915e-05,-1.709555511710578e-14
	3.140326340921178e-23,4.088347765983284e-13
	1.803379494347279e-13,1.178240265684783e-15
	-1.793018409253710e-05,-3.929174617469074e-13
	-1.793018391219914e-05,1.709555511710578e-14
	-3.140326340921178e-23,-4.088347765983284e-13
	-1.793018391219914e-05,1.709555511710578e-14
31		2.041737944669527e+00,0.000000000000000e+00
	-1.793018391219914e-01,1.749376175048373e-10
	1.000000000000000e+00,0.000000000000000e+00
	0.000000000000000e+00,0.000000000000000e+00
	1.793018391219915e-05,-1.749376175048375e-14
	3.288325361774786e-23,4.183577618937371e-13
	1.803379494347279e-13,1.205685007098198e-15
	-1.793018409253710e-05,-4.020696851503515e-13
	-1.793018391219914e-05,1.749376175048373e-14
	-3.288325361774786e-23,-4.183577618937371e-13
	-1.793018391219914e-05,1.749376175048373e-14
32		2.089296130854037e+00,0.000000000000000e+00
	-1.793018391219914e-01,1.790124380789910e-10
	1.000000000000000e+00,0.000000000000000e+00
	0.000000000000000e+00,0.000000000000000e+00
	1.793018391219915e-05,-1.790124380789912e-14
	3.443299361594181e-23,4.281025660121215e-13
	1.803379494347279e-13,1.233769018661629e-15
	-1.793018409253710e-05,-4.114350912228840e-13
	-1.793018391219914e-05,1.790124380789910e-14
	-3.443299361594181e-23,-4.281025660121215e-13
	-1.793018391219914e-05,1.790124380789910e-14
33		2.137962089502230e+00,0.000000000000000e+00
	-1.793018391219914e-01,1.831821734173239e-10
	1.000000000000000e+00,0.000000000000000e+00
	0.000000000000000e+00,0.000000000000000e+00
	1.793018391219915e-05,-1.831821734173243e-14
	3.605577061010704e-23,4.380743557776128e-13
	1.803379494347279e-13,1.262507190889492e-15
	-1.793018409253710e-05,-4.210186456267699e-13
	-1.793018391219914e-05,1.831821734173239e-14
	-3.605577061010704e-23,-4.380743557776128e-13
	-1.793018391219914e-05,1.831821734173239e-14
34		2.187761623949550e+00,0.000000000000000e+00
	-1.793018391219914e-01,1.874490343687054e-10
	1.000000000000000e+00,0.000000000000000e+00
	0.000000000000000e+00,0.000000000000000e+00
	1.793018391219915e-05,-1.874490343687055e-14
	3.775502672781768e-23,4.482784183651371e-13
	1.803379494347279e-13,1.291914761141301e-15
	-1.793018409253710e-05,-4.308254296894078e-13
	-1.793018391219914e-05,1.874490343687054e-14
	-3.775502672781768e-23,-4.482784183651371e-13
	-1.793018391219914e-05,1.874490343687054e-14
35		2.238721138568337e+00,0.000000000000000e+00
	-1.793018391219914e-01,1.918152832792905e-10
	1.000000000000000e+00,0.000000000000000e+00
	0.000000000000000e+00,0.000000000000000e+00
	1.793018391219915e-05,-1.918152832792905e-14
	3.953436631912263e-23,4.587201641037449e-13
	1.803379494347279e-13,1.322007321699912e-15
	-1.793018409253710e-05,-4.408606430975157e-13
	-1.793018391219914e-05,1.918152832792905e-14
	-3.953436631912263e-23,-4.587201641037449e-13
	-1.793018391219914e-05,1.918152832792905e-14
36		2.290867652767770e+00,0.000000000000000e+00
	-1.793018391219914e-01,1.962832351920456e-10
	1.000000000000000e+00,0.000000000000000e+00
	0.000000000000000e+00,0.000000000000000e+00
	1.793018391219915e-05,-1.962832351920456e-14
	4.139756360185526e-23,4.694051293452397e-13
	1.803379494347279e-13,1.352800828039388e-15
	-1.793018409253710e-05,-4.511296066540745e-13
	-1.793018391219914e-05,1.962832351920456e-14
	-4.139756360185526e-23,-4.694051293452397e-13
	-1.793018391219914e-05,1.962832351920456e-14
37		2.344228815319919e+00,0.000000000000000e+00
	-1.793018391219914e-01,2.008552590742154e-10
	1.000000000000000e+00,0.000000000000000e+00
	0.000000000000000e+00,0.000000000000000e+00
	1.793018391219915e-05,-2.008552590742158e-14
	4.334857066725546e-23,4.803389793996247e-13
	1.803379494347279e-13,1.384311607284313e-15
	-1.793018409253710e-05,-4.616377650994874e-13
	-1.793018391219914e-05,2.008552590742154e-14
	-4.334857066725546e-23,-4.803389793996247e-13
	-1.793018391219914e-05,2.008552590742154e-14
38		2.398832919019488e+00,0.000000000000000e+00
	-1.793018391219914e-01,2.055337790733800e-10
	1.000000000000000e+00,0.000000000000000e+00
	0.000000000000000e+00,0.000000000000000e+00
