Title: * GA CMOS Amp | W=1.2352305978564013e-06 L=4.1318334303832157e-07 Vbias=1.4569241843269025
Date: Mon Sep  8 18:43:19 2025
Plotname: AC Analysis
Flags: complex forward log
No. Variables: 11
No. Points:          901
Offset:    0.0000000000000000e+00
Command: Linear Technology Corporation LTspice
Variables:
	0	frequency	frequency
	1	V(out)	voltage
	2	V(g)	voltage
	3	V(vdd)	voltage
	4	Id(M1)	device_current
	5	Ig(M1)	device_current
	6	Ib(M1)	device_current
	7	Is(M1)	device_current
	8	I(Rload)	device_current
	9	I(Vg)	device_current
	10	I(Vdd)	device_current
Values:
0		1.000000000000000e+00,0.000000000000000e+00
	-6.171197590805240e-01,2.039685160352345e-11
	1.000000000000000e+00,0.000000000000000e+00
	0.000000000000000e+00,0.000000000000000e+00
	6.171197590805241e-05,-2.039685160352345e-15
	4.390507282442850e-26,7.047019342553211e-15
	6.171197450624555e-13,-1.344607692687177e-16
	-6.171197652517216e-05,-4.872873412932148e-15
	-6.171197590805240e-05,2.039685160352345e-15
	-4.390507282442850e-26,-7.047019342553209e-15
	-6.171197590805240e-05,2.039685160352345e-15
1		1.023292992280754e+00,0.000000000000000e+00
	-6.171197590805240e-01,2.087195531047601e-11
	1.000000000000000e+00,0.000000000000000e+00
	0.000000000000000e+00,0.000000000000000e+00
	6.171197590805241e-05,-2.087195531047601e-15
	4.597425515871283e-26,7.211165509701628e-15
	6.171197450624555e-13,-1.375927629293571e-16
	-6.171197652517216e-05,-4.986377215724669e-15
	-6.171197590805240e-05,2.087195531047601e-15
	-4.597425515871283e-26,-7.211165509701626e-15
	-6.171197590805240e-05,2.087195531047601e-15
2		1.047128548050899e+00,0.000000000000000e+00
	-6.171197590805240e-01,2.135812560440717e-11
	1.000000000000000e+00,0.000000000000000e+00
	0.000000000000000e+00,0.000000000000000e+00
	6.171197590805241e-05,-2.135812560440718e-15
	4.814095505206453e-26,7.379135132254347e-15
	6.171197450624555e-13,-1.407977100941587e-16
	-6.171197652517216e-05,-5.102524861719470e-15
	-6.171197590805240e-05,2.135812560440717e-15
	-4.814095505206453e-26,-7.379135132254345e-15
	-6.171197590805240e-05,2.135812560440717e-15
3		1.071519305237606e+00,0.000000000000000e+00
	-6.171197590805240e-01,2.185562025924200e-11
	1.000000000000000e+00,0.000000000000000e+00
	0.000000000000000e+00,0.000000000000000e+00
	6.171197590805241e-05,-2.185562025924201e-15
	5.040976836545193e-26,7.551017269928589e-15
	6.171197450624555e-13,-1.440773100685310e-16
	-6.171197652517216e-05,-5.221377933935857e-15
	-6.171197590805240e-05,2.185562025924200e-15
	-5.040976836545193e-26,-7.551017269928587e-15
	-6.171197590805240e-05,2.185562025924200e-15
4		1.096478196143185e+00,0.000000000000000e+00
	-6.171197590805240e-01,2.236470305323162e-11
	1.000000000000000e+00,0.000000000000000e+00
	0.000000000000000e+00,0.000000000000000e+00
	6.171197590805241e-05,-2.236470305323162e-15
	5.278550755609784e-26,7.726903056908875e-15
	6.171197450624555e-13,-1.474333017397881e-16
	-6.171197652517216e-05,-5.342999449845925e-15
	-6.171197590805240e-05,2.236470305323162e-15
	-5.278550755609784e-26,-7.726903056908873e-15
	-6.171197590805240e-05,2.236470305323162e-15
5		1.122018454301963e+00,0.000000000000000e+00
	-6.171197590805240e-01,2.288564390881190e-11
	1.000000000000000e+00,0.000000000000000e+00
	0.000000000000000e+00,0.000000000000000e+00
	6.171197590805241e-05,-2.288564390881191e-15
	5.527321188534652e-26,7.906885750167590e-15
	6.171197450624555e-13,-1.508674644991393e-16
	-6.171197652517216e-05,-5.467453894787260e-15
	-6.171197590805240e-05,2.288564390881190e-15
	-5.527321188534652e-26,-7.906885750167589e-15
	-6.171197590805240e-05,2.288564390881190e-15
6		1.148153621496882e+00,0.000000000000000e+00
	-6.171197590805240e-01,2.341871903571995e-11
	1.000000000000000e+00,0.000000000000000e+00
	0.000000000000000e+00,0.000000000000000e+00
	6.171197590805241e-05,-2.341871903571994e-15
	5.787815810761264e-26,8.091060778911049e-15
	6.171197450624555e-13,-1.543816191851344e-16
	-6.171197652517216e-05,-5.594807256153920e-15
	-6.171197590805240e-05,2.341871903571995e-15
	-5.787815810761264e-26,-8.091060778911047e-15
	-6.171197590805240e-05,2.341871903571995e-15
7		1.174897554939529e+00,0.000000000000000e+00
	-6.171197590805240e-01,2.396421107744411e-11
	1.000000000000000e+00,0.000000000000000e+00
	0.000000000000000e+00,0.000000000000000e+00
	6.171197590805241e-05,-2.396421107744412e-15
	6.060587166308480e-26,8.279525795177336e-15
	6.171197450624555e-13,-1.579776290491054e-16
	-6.171197652517216e-05,-5.725127058383819e-15
	-6.171197590805240e-05,2.396421107744411e-15
	-6.060587166308480e-26,-8.279525795177334e-15
	-6.171197590805240e-05,2.396421107744411e-15
8		1.202264434617413e+00,0.000000000000000e+00
	-6.171197590805240e-01,2.452240926108539e-11
	1.000000000000000e+00,0.000000000000000e+00
	0.000000000000000e+00,0.000000000000000e+00
	6.171197590805241e-05,-2.452240926108539e-15
	6.346213839792515e-26,8.472380725612706e-15
	6.171197450624555e-13,-1.616574007430770e-16
	-6.171197652517216e-05,-5.858482398761090e-15
	-6.171197590805240e-05,2.452240926108539e-15
	-6.346213839792515e-26,-8.472380725612704e-15
	-6.171197590805240e-05,2.452240926108539e-15
9		1.230268770812381e+00,0.000000000000000e+00
	-6.171197590805240e-01,2.509360955070934e-11
	1.000000000000000e+00,0.000000000000000e+00
	0.000000000000000e+00,0.000000000000000e+00
	6.171197590805241e-05,-2.509360955070935e-15
	6.645301683682460e-26,8.669727824454012e-15
	6.171197450624555e-13,-1.654228853307119e-16
	-6.171197652517216e-05,-5.994943984052365e-15
	-6.171197590805240e-05,2.509360955070934e-15
	-6.645301683682460e-26,-8.669727824454011e-15
	-6.171197590805240e-05,2.509360955070934e-15
10		1.258925411794167e+00,0.000000000000000e+00
	-6.171197590805240e-01,2.567811480427027e-11
	1.000000000000000e+00,0.000000000000000e+00
	0.000000000000000e+00,0.000000000000000e+00
	6.171197590805241e-05,-2.567811480427028e-15
	6.958485103394614e-26,8.871671727745260e-15
	6.171197450624555e-13,-1.692760793217817e-16
	-6.171197652517216e-05,-6.134584167996451e-15
	-6.171197590805240e-05,2.567811480427028e-15
	-6.958485103394614e-26,-8.871671727745257e-15
	-6.171197590805240e-05,2.567811480427028e-15
11		1.288249551693134e+00,0.000000000000000e+00
	-6.171197590805240e-01,2.627623493419046e-11
	1.000000000000000e+00,0.000000000000000e+00
	0.000000000000000e+00,0.000000000000000e+00
	6.171197590805241e-05,-2.627623493419046e-15
	7.286428402951416e-26,9.078319508817017e-15
	6.171197450624555e-13,-1.732190257307410e-16
	-6.171197652517216e-05,-6.277476989667229e-15
	-6.171197590805240e-05,2.627623493419046e-15
	-7.286428402951416e-26,-9.078319508817015e-15
	-6.171197590805240e-05,2.627623493419046e-15
12		1.318256738556407e+00,0.000000000000000e+00
	-6.171197590805240e-01,2.688828707167984e-11
	1.000000000000000e+00,0.000000000000000e+00
	0.000000000000000e+00,0.000000000000000e+00
	6.171197590805241e-05,-2.688828707167985e-15
	7.629827194059350e-26,9.289780735058109e-15
	6.171197450624555e-13,-1.772538151599640e-16
	-6.171197652517216e-05,-6.423698212730160e-15
	-6.171197590805240e-05,2.688828707167984e-15
	-7.629827194059350e-26,-9.289780735058107e-15
	-6.171197590805240e-05,2.688828707167984e-15
13		1.348962882591653e+00,0.000000000000000e+00
	-6.171197590805240e-01,2.751459573488318e-11
	1.000000000000000e+00,0.000000000000000e+00
	0.000000000000000e+00,0.000000000000000e+00
	6.171197590805241e-05,-2.751459573488318e-15
	7.989409871594637e-26,9.506167526009717e-15
	6.171197450624555e-13,-1.813825869082207e-16
	-6.171197652517216e-05,-6.573325365613178e-15
	-6.171197590805240e-05,2.751459573488318e-15
	-7.989409871594637e-26,-9.506167526009715e-15
	-6.171197590805240e-05,2.751459573488318e-15
14		1.380384264602885e+00,0.000000000000000e+00
	-6.171197590805240e-01,2.815549300094389e-11
	1.000000000000000e+00,0.000000000000000e+00
	0.000000000000000e+00,0.000000000000000e+00
	6.171197590805241e-05,-2.815549300094389e-15
	8.365939158626416e-26,9.727594612812618e-15
	6.171197450624555e-13,-1.856075301049370e-16
	-6.171197652517216e-05,-6.726437782613292e-15
	-6.171197590805240e-05,2.815549300094389e-15
	-8.365939158626416e-26,-9.727594612812616e-15
	-6.171197590805240e-05,2.815549300094389e-15
15		1.412537544622754e+00,0.000000000000000e+00
	-6.171197590805240e-01,2.881131868207570e-11
	1.000000000000000e+00,0.000000000000000e+00
	0.000000000000000e+00,0.000000000000000e+00
	6.171197590805241e-05,-2.881131868207570e-15
	8.760213724254643e-26,9.954179399039167e-15
	6.171197450624555e-13,-1.899308848709208e-16
	-6.171197652517216e-05,-6.883116645960676e-15
	-6.171197590805240e-05,2.881131868207570e-15
	-8.760213724254643e-26,-9.954179399039166e-15
	-6.171197590805240e-05,2.881131868207570e-15
16		1.445439770745927e+00,0.000000000000000e+00
	-6.171197590805240e-01,2.948242050573563e-11
	1.000000000000000e+00,0.000000000000000e+00
	0.000000000000000e+00,0.000000000000000e+00
	6.171197590805241e-05,-2.948242050573563e-15
	9.173069877694323e-26,1.018604202294223e-14
	6.171197450624555e-13,-1.943549435060974e-16
	-6.171197652517216e-05,-7.043445028862567e-15
	-6.171197590805240e-05,2.948242050573563e-15
	-9.173069877694323e-26,-1.018604202294223e-14
	-6.171197590805240e-05,2.948242050573563e-15
17		1.479108388168207e+00,0.000000000000000e+00
	-6.171197590805240e-01,3.016915429899367e-11
	1.000000000000000e+00,0.000000000000000e+00
	0.000000000000000e+00,0.000000000000000e+00
	6.171197590805241e-05,-3.016915429899368e-15
	9.605383342199499e-26,1.042330542115406e-14
	6.171197450624555e-13,-1.988820517049109e-16
	-6.171197652517216e-05,-7.207507939549777e-15
	-6.171197590805240e-05,3.016915429899368e-15
	-9.605383342199499e-26,-1.042330542115405e-14
	-6.171197590805240e-05,3.016915429899368e-15
18		1.513561248436208e+00,0.000000000000000e+00
	-6.171197590805240e-01,3.087188417719702e-11
	1.000000000000000e+00,0.000000000000000e+00
	0.000000000000000e+00,0.000000000000000e+00
	6.171197590805241e-05,-3.087188417719702e-15
	1.005807111258966e-25,1.066609539386894e-14
	6.171197450624555e-13,-2.035146098000518e-16
	-6.171197652517216e-05,-7.375392366349185e-15
	-6.171197590805240e-05,3.087188417719702e-15
	-1.005807111258966e-25,-1.066609539386894e-14
	-6.171197590805240e-05,3.087188417719702e-15
19		1.548816618912481e+00,0.000000000000000e+00
	-6.171197590805240e-01,3.159098273702880e-11
	1.000000000000000e+00,0.000000000000000e+00
	0.000000000000000e+00,0.000000000000000e+00
	6.171197590805241e-05,-3.159098273702880e-15
	1.053209340031870e-25,1.091454067154412e-14
	6.171197450624555e-13,-2.082550740351470e-16
	-6.171197652517216e-05,-7.547187323806088e-15
	-6.171197590805240e-05,3.159098273702880e-15
	-1.053209340031870e-25,-1.091454067154411e-14
	-6.171197590805240e-05,3.159098273702880e-15
20		1.584893192461113e+00,0.000000000000000e+00
	-6.171197590805240e-01,3.232683125406385e-11
	1.000000000000000e+00,0.000000000000000e+00
	0.000000000000000e+00,0.000000000000000e+00
	6.171197590805241e-05,-3.232683125406385e-15
	1.102845567021219e-25,1.116877298315437e-14
	6.171197450624555e-13,-2.131059578670751e-16
	-6.171197652517216e-05,-7.722983899880910e-15
	-6.171197590805240e-05,3.232683125406385e-15
	-1.102845567021219e-25,-1.116877298315437e-14
	-6.171197590805240e-05,3.232683125406385e-15
21		1.621810097358929e+00,0.000000000000000e+00
	-6.171197590805240e-01,3.307981988492600e-11
	1.000000000000000e+00,0.000000000000000e+00
	0.000000000000000e+00,0.000000000000000e+00
	6.171197590805241e-05,-3.307981988492600e-15
	1.154821077319299e-25,1.142892712603648e-14
	6.171197450624555e-13,-2.180698332986547e-16
	-6.171197652517216e-05,-7.902875304245225e-15
	-6.171197590805240e-05,3.307981988492600e-15
	-1.154821077319299e-25,-1.142892712603648e-14
	-6.171197590805240e-05,3.307981988492600e-15
22		1.659586907437560e+00,0.000000000000000e+00
	-6.171197590805240e-01,3.385034787415432e-11
	1.000000000000000e+00,0.000000000000000e+00
	0.000000000000000e+00,0.000000000000000e+00
	6.171197590805241e-05,-3.385034787415432e-15
	1.209246117951934e-25,1.169514103736055e-14
	6.171197450624555e-13,-2.231493322423444e-16
	-6.171197652517216e-05,-8.086956917702771e-15
	-6.171197590805240e-05,3.385034787415432e-15
	-1.209246117951934e-25,-1.169514103736055e-14
	-6.171197590805240e-05,3.385034787415432e-15
23		1.698243652461743e+00,0.000000000000000e+00
	-6.171197590805240e-01,3.463882376588783e-11
	1.000000000000000e+00,0.000000000000000e+00
	0.000000000000000e+00,0.000000000000000e+00
	6.171197590805241e-05,-3.463882376588785e-15
	1.266236131727195e-25,1.196755586726612e-14
	6.171197450624555e-13,-2.283471479157222e-16
	-6.171197652517216e-05,-8.275326342761612e-15
	-6.171197590805240e-05,3.463882376588783e-15
	-1.266236131727195e-25,-1.196755586726612e-14
	-6.171197590805240e-05,3.463882376588783e-15
24		1.737800828749374e+00,0.000000000000000e+00
	-6.171197590805240e-01,3.544566562048106e-11
	1.000000000000000e+00,0.000000000000000e+00
	0.000000000000000e+00,0.000000000000000e+00
	6.171197590805241e-05,-3.544566562048106e-15
	1.325912002105085e-25,1.224631605370184e-14
	6.171197450624555e-13,-2.336660362694559e-16
	-6.171197652517216e-05,-8.468083455384279e-15
	-6.171197590805240e-05,3.544566562048106e-15
	-1.325912002105085e-25,-1.224631605370184e-14
	-6.171197590805240e-05,3.544566562048106e-15
25		1.778279410038922e+00,0.000000000000000e+00
	-6.171197590805240e-01,3.627130123616511e-11
	1.000000000000000e+00,0.000000000000000e+00
	0.000000000000000e+00,0.000000000000000e+00
	6.171197590805241e-05,-3.627130123616513e-15
	1.388400309607559e-25,1.253156939900839e-14
	6.171197450624555e-13,-2.391088174485543e-16
	-6.171197652517216e-05,-8.665330457943327e-15
	-6.171197590805240e-05,3.627130123616512e-15
	-1.388400309607559e-25,-1.253156939900839e-14
	-6.171197590805240e-05,3.627130123616512e-15
26		1.819700858609982e+00,0.000000000000000e+00
	-6.171197590805240e-01,3.711616837587202e-11
	1.000000000000000e+00,0.000000000000000e+00
	0.000000000000000e+00,0.000000000000000e+00
	6.171197590805241e-05,-3.711616837587203e-15
	1.453833600312782e-25,1.282346714828523e-14
	6.171197450624555e-13,-2.446783772876431e-16
	-6.171197652517216e-05,-8.867171933410383e-15
	-6.171197590805240e-05,3.711616837587202e-15
	-1.453833600312782e-25,-1.282346714828523e-14
	-6.171197590805240e-05,3.711616837587202e-15
27		1.862087136662866e+00,0.000000000000000e+00
	-6.171197590805240e-01,3.798071499934237e-11
	1.000000000000000e+00,0.000000000000000e+00
	0.000000000000000e+00,0.000000000000000e+00
	6.171197590805241e-05,-3.798071499934239e-15
	1.522350667003135e-25,1.312216406958274e-14
	6.171197450624555e-13,-2.503776688410730e-16
	-6.171197652517216e-05,-9.073714900807430e-15
	-6.171197590805240e-05,3.798071499934237e-15
	-1.522350667003135e-25,-1.312216406958274e-14
	-6.171197590805240e-05,3.798071499934237e-15
28		1.905460717963246e+00,0.000000000000000e+00
	-6.171197590805240e-01,3.886539950063957e-11
	1.000000000000000e+00,0.000000000000000e+00
	0.000000000000000e+00,0.000000000000000e+00
	6.171197590805241e-05,-3.886539950063958e-15
	1.594096843563312e-25,1.342781853596232e-14
	6.171197450624555e-13,-2.562097139486609e-16
	-6.171197652517216e-05,-9.285068871949702e-15
	-6.171197590805240e-05,3.886539950063957e-15
	-1.594096843563312e-25,-1.342781853596232e-14
	-6.171197590805240e-05,3.886539950063957e-15
29		1.949844599758044e+00,0.000000000000000e+00
	-6.171197590805240e-01,3.977069095119640e-11
	1.000000000000000e+00,0.000000000000000e+00
	0.000000000000000e+00,0.000000000000000e+00
	6.171197590805241e-05,-3.977069095119640e-15
	1.669224313252973e-25,1.374059260946786e-14
	6.171197450624555e-13,-2.621776048379217e-16
	-6.171197652517216e-05,-9.501345909510297e-15
	-6.171197590805240e-05,3.977069095119640e-15
	-1.669224313252973e-25,-1.374059260946786e-14
	-6.171197590805240e-05,3.977069095119640e-15
30		1.995262314968878e+00,0.000000000000000e+00
	-6.171197590805240e-01,4.069706934852286e-11
	1.000000000000000e+00,0.000000000000000e+00
	0.000000000000000e+00,0.000000000000000e+00
	6.171197590805241e-05,-4.069706934852288e-15
	1.747892431507844e-25,1.406065212705318e-14
	6.171197450624555e-13,-2.682845057635973e-16
	-6.171197652517216e-05,-9.722660686437294e-15
	-6.171197590805240e-05,4.069706934852287e-15
	-1.747892431507844e-25,-1.406065212705318e-14
	-6.171197590805240e-05,4.069706934852287e-15
31		2.041737944669527e+00,0.000000000000000e+00
	-6.171197590805240e-01,4.164502587070732e-11
	1.000000000000000e+00,0.000000000000000e+00
	0.000000000000000e+00,0.000000000000000e+00
	6.171197590805241e-05,-4.164502587070732e-15
	1.830268063953965e-25,1.438816678851100e-14
	6.171197450624555e-13,-2.745336546853962e-16
	-6.171197652517216e-05,-9.949130546754868e-15
	-6.171197590805240e-05,4.164502587070732e-15
	-1.830268063953965e-25,-1.438816678851099e-14
	-6.171197590805240e-05,4.164502587070732e-15
32		2.089296130854037e+00,0.000000000000000e+00
	-6.171197590805240e-01,4.261506313684551e-11
	1.000000000000000e+00,0.000000000000000e+00
	0.000000000000000e+00,0.000000000000000e+00
	6.171197590805241e-05,-4.261506313684553e-15
	1.916525940352047e-25,1.472331024644999e-14
	6.171197450624555e-13,-2.809283649847859e-16
	-6.171197652517216e-05,-1.018087556778065e-14
	-6.171197590805240e-05,4.261506313684552e-15
	-1.916525940352047e-25,-1.472331024644998e-14
	-6.171197590805240e-05,4.261506313684552e-15
33		2.137962089502230e+00,0.000000000000000e+00
	-6.171197590805240e-01,4.360769547353591e-11
	1.000000000000000e+00,0.000000000000000e+00
	0.000000000000000e+00,0.000000000000000e+00
	6.171197590805241e-05,-4.360769547353592e-15
	2.006849025222724e-25,1.506626019836769e-14
	6.171197450624555e-13,-2.874720272218223e-16
	-6.171197652517216e-05,-1.041801862379228e-14
	-6.171197590805240e-05,4.360769547353591e-15
	-2.006849025222724e-25,-1.506626019836769e-14
	-6.171197590805240e-05,4.360769547353591e-15
34		2.187761623949550e+00,0.000000000000000e+00
	-6.171197590805240e-01,4.462344918758245e-11
	1.000000000000000e+00,0.000000000000000e+00
	0.000000000000000e+00,0.000000000000000e+00
	6.171197590805241e-05,-4.462344918758246e-15
	2.101428905938833e-25,1.541719848086811e-14
	6.171197450624555e-13,-2.941681109328361e-16
	-6.171197652517216e-05,-1.066068545117702e-14
	-6.171197590805240e-05,4.462344918758245e-15
	-2.101428905938833e-25,-1.541719848086810e-14
	-6.171197590805240e-05,4.462344918758245e-15
35		2.238721138568337e+00,0.000000000000000e+00
	-6.171197590805240e-01,4.566286284504944e-11
	1.000000000000000e+00,0.000000000000000e+00
	0.000000000000000e+00,0.000000000000000e+00
	6.171197590805241e-05,-4.566286284504944e-15
	2.200466199107921e-25,1.577631116607382e-14
	6.171197450624555e-13,-3.010201664700370e-16
	-6.171197652517216e-05,-1.090900471509884e-14
	-6.171197590805240e-05,4.566286284504944e-15
	-2.200466199107921e-25,-1.577631116607382e-14
	-6.171197590805240e-05,4.566286284504944e-15
36		2.290867652767770e+00,0.000000000000000e+00
	-6.171197590805240e-01,4.672648755681630e-11
	1.000000000000000e+00,0.000000000000000e+00
	0.000000000000000e+00,0.000000000000000e+00
	6.171197590805241e-05,-4.672648755681631e-15
	2.304170976106958e-25,1.614378866028395e-14
	6.171197450624555e-13,-3.080318268839735e-16
	-6.171197652517216e-05,-1.116310807771834e-14
	-6.171197590805240e-05,4.672648755681630e-15
	-2.304170976106958e-25,-1.614378866028395e-14
	-6.171197590805240e-05,4.672648755681630e-15
37		2.344228815319919e+00,0.000000000000000e+00
	-6.171197590805240e-01,4.781488727078398e-11
	1.000000000000000e+00,0.000000000000000e+00
	0.000000000000000e+00,0.000000000000000e+00
	6.171197590805241e-05,-4.781488727078398e-15
	2.412763208671903e-25,1.651982580493007e-14
	6.171197450624555e-13,-3.152068098498124e-16
	-6.171197652517216e-05,-1.142313026800186e-14
	-6.171197590805240e-05,4.781488727078398e-15
	-2.412763208671903e-25,-1.651982580493007e-14
	-6.171197590805240e-05,4.781488727078398e-15
38		2.398832919019488e+00,0.000000000000000e+00
	-6.171197590805240e-01,4.892863907088748e-11
	1.000000000000000e+00,0.000000000000000e+00
