Title: * GA CMOS Amp | W=2.9019122931629446e-05 L=8.669331101240293e-07 Vbias=0.6628131480557514
Date: Mon Sep  8 18:47:33 2025
Plotname: AC Analysis
Flags: complex forward log
No. Variables: 11
No. Points:          901
Offset:    0.0000000000000000e+00
Command: Linear Technology Corporation LTspice
Variables:
	0	frequency	frequency
	1	V(out)	voltage
	2	V(g)	voltage
	3	V(vdd)	voltage
	4	Id(M1)	device_current
	5	Ig(M1)	device_current
	6	Ib(M1)	device_current
	7	Is(M1)	device_current
	8	I(Rload)	device_current
	9	I(Vg)	device_current
	10	I(Vdd)	device_current
Values:
0		1.000000000000000e+00,0.000000000000000e+00
	-1.249970986428730e-01,4.100433573482310e-10
	1.000000000000000e+00,0.000000000000000e+00
	0.000000000000000e+00,0.000000000000000e+00
	1.249970986428730e-05,-4.100433573482310e-14
	1.495284829113462e-23,2.233804957015950e-13
	1.249970992597133e-13,-5.917706482434732e-15
	-1.249970998928440e-05,-1.764584534843372e-13
	-1.249970986428730e-05,4.100433573482310e-14
	-1.495284829113462e-23,-2.233804957015950e-13
	-1.249970986428730e-05,4.100433573482310e-14
1		1.023292992280754e+00,0.000000000000000e+00
	-1.249970986428730e-01,4.195944941057179e-10
	1.000000000000000e+00,0.000000000000000e+00
	0.000000000000000e+00,0.000000000000000e+00
	1.249970986428730e-05,-4.195944941057179e-14
	1.565755432032117e-23,2.285836958636433e-13
	1.249970992597133e-13,-6.055547573849849e-15
	-1.249970998928440e-05,-1.805686988792217e-13
	-1.249970986428730e-05,4.195944941057179e-14
	-1.565755432032117e-23,-2.285836958636433e-13
	-1.249970986428730e-05,4.195944941057179e-14
2		1.047128548050899e+00,0.000000000000000e+00
	-1.249970986428730e-01,4.293681054179693e-10
	1.000000000000000e+00,0.000000000000000e+00
	0.000000000000000e+00,0.000000000000000e+00
	1.249970986428730e-05,-4.293681054179693e-14
	1.639547212146600e-23,2.339080941269014e-13
	1.249970992597133e-13,-6.196599396743274e-15
	-1.249970998928440e-05,-1.847746841883611e-13
	-1.249970986428730e-05,4.293681054179693e-14
	-1.639547212146600e-23,-2.339080941269014e-13
	-1.249970986428730e-05,4.293681054179693e-14
3		1.071519305237606e+00,0.000000000000000e+00
	-1.249970986428730e-01,4.393693733830720e-10
	1.000000000000000e+00,0.000000000000000e+00
	0.000000000000000e+00,0.000000000000000e+00
	1.249970986428730e-05,-4.393693733830721e-14
	1.716816691715969e-23,2.393565135578051e-13
	1.249970992597133e-13,-6.340936738658507e-15
	-1.249970998928440e-05,-1.890786394808394e-13
	-1.249970986428730e-05,4.393693733830720e-14
	-1.716816691715969e-23,-2.393565135578051e-13
	-1.249970986428730e-05,4.393693733830720e-14
4		1.096478196143185e+00,0.000000000000000e+00
	-1.249970986428730e-01,4.496036008056836e-10
	1.000000000000000e+00,0.000000000000000e+00
	0.000000000000000e+00,0.000000000000000e+00
	1.249970986428730e-05,-4.496036008056837e-14
	1.797727769666091e-23,2.449318429804553e-13
	1.249970992597133e-13,-6.488636129164833e-15
	-1.249970998928440e-05,-1.934828467707221e-13
	-1.249970986428730e-05,4.496036008056836e-14
	-1.797727769666091e-23,-2.449318429804553e-13
	-1.249970986428730e-05,4.496036008056836e-14
5		1.122018454301963e+00,0.000000000000000e+00
	-1.249970986428730e-01,4.600762140086498e-10
	1.000000000000000e+00,0.000000000000000e+00
	0.000000000000000e+00,0.000000000000000e+00
	1.249970986428730e-05,-4.600762140086498e-14
	1.882452069241236e-23,2.506370385083100e-13
	1.249970992597133e-13,-6.639775880434151e-15
	-1.249970998928440e-05,-1.979896412270108e-13
	-1.249970986428730e-05,4.600762140086498e-14
	-1.882452069241236e-23,-2.506370385083100e-13
	-1.249970986428730e-05,4.600762140086498e-14
6		1.148153621496882e+00,0.000000000000000e+00
	-1.249970986428730e-01,4.707927657101118e-10
	1.000000000000000e+00,0.000000000000000e+00
	0.000000000000000e+00,0.000000000000000e+00
	1.249970986428730e-05,-4.707927657101118e-14
	1.971169302039987e-23,2.564751251115551e-13
	1.249970992597133e-13,-6.794436128763006e-15
	-1.249970998928440e-05,-2.026014124117809e-13
	-1.249970986428730e-05,4.707927657101118e-14
	-1.971169302039987e-23,-2.564751251115551e-13
	-1.249970986428730e-05,4.707927657101118e-14
7		1.174897554939529e+00,0.000000000000000e+00
	-1.249970986428730e-01,4.817589379676323e-10
	1.000000000000000e+00,0.000000000000000e+00
	0.000000000000000e+00,0.000000000000000e+00
	1.249970986428730e-05,-4.817589379676323e-14
	2.064067649207636e-23,2.624491982209839e-13
	1.249970992597133e-13,-6.952698877062331e-15
	-1.249970998928440e-05,-2.073206055471583e-13
	-1.249970986428730e-05,4.817589379676323e-14
	-2.064067649207636e-23,-2.624491982209839e-13
	-1.249970986428730e-05,4.817589379676323e-14
8		1.202264434617413e+00,0.000000000000000e+00
	-1.249970986428730e-01,4.929805451908967e-10
	1.000000000000000e+00,0.000000000000000e+00
	0.000000000000000e+00,0.000000000000000e+00
	1.249970986428730e-05,-4.929805451908967e-14
	2.161344160593626e-23,2.685624253692354e-13
	1.249970992597133e-13,-7.114648038336144e-15
	-1.249970998928440e-05,-2.121497228118096e-13
	-1.249970986428730e-05,4.929805451908967e-14
	-2.161344160593626e-23,-2.685624253692354e-13
	-1.249970986428730e-05,4.929805451908967e-14
9		1.230268770812381e+00,0.000000000000000e+00
	-1.249970986428730e-01,5.044635372245902e-10
	1.000000000000000e+00,0.000000000000000e+00
	0.000000000000000e+00,0.000000000000000e+00
	1.249970986428730e-05,-5.044635372245903e-14
	2.263205172720693e-23,2.748180478702617e-13
	1.249970992597133e-13,-7.280369480173453e-15
	-1.249970998928440e-05,-2.170913246676292e-13
	-1.249970986428730e-05,5.044635372245903e-14
	-2.263205172720693e-23,-2.748180478702617e-13
	-1.249970986428730e-05,5.044635372245903e-14
10		1.258925411794167e+00,0.000000000000000e+00
	-1.249970986428730e-01,5.162140025030846e-10
	1.000000000000000e+00,0.000000000000000e+00
	0.000000000000000e+00,0.000000000000000e+00
	1.249970986428730e-05,-5.162140025030846e-14
	2.369866746452305e-23,2.812193825379156e-13
	1.249970992597133e-13,-7.449951070276165e-15
	-1.249970998928440e-05,-2.221480312173310e-13
	-1.249970986428730e-05,5.162140025030846e-14
	-2.369866746452305e-23,-2.812193825379156e-13
	-1.249970986428730e-05,5.162140025030846e-14
11		1.288249551693134e+00,0.000000000000000e+00
	-1.249970986428730e-01,5.282381712786061e-10
	1.000000000000000e+00,0.000000000000000e+00
	0.000000000000000e+00,0.000000000000000e+00
	1.249970986428730e-05,-5.282381712786062e-14
	2.481555125286712e-23,2.877698234445697e-13
	1.249970992597133e-13,-7.623482723048046e-15
	-1.249970998928440e-05,-2.273225235936610e-13
	-1.249970986428730e-05,5.282381712786061e-14
	-2.481555125286712e-23,-2.877698234445697e-13
	-1.249970986428730e-05,5.282381712786061e-14
12		1.318256738556407e+00,0.000000000000000e+00
	-1.249970986428730e-01,5.405424189245983e-10
	1.000000000000000e+00,0.000000000000000e+00
	0.000000000000000e+00,0.000000000000000e+00
	1.249970986428730e-05,-5.405424189245984e-14
	2.598507215249742e-23,2.944728437206981e-13
	1.249970992597133e-13,-7.801056447268528e-15
	-1.249970998928440e-05,-2.326175453809697e-13
	-1.249970986428730e-05,5.405424189245983e-14
	-2.598507215249742e-23,-2.944728437206981e-13
	-1.249970986428730e-05,5.405424189245983e-14
13		1.348962882591653e+00,0.000000000000000e+00
	-1.249970986428730e-01,5.531332693160291e-10
	1.000000000000000e+00,0.000000000000000e+00
	0.000000000000000e+00,0.000000000000000e+00
	1.249970986428730e-05,-5.531332693160292e-14
	2.720971087404248e-23,3.013319973963760e-13
	1.249970992597133e-13,-7.982766394876476e-15
	-1.249970998928440e-05,-2.380359040698966e-13
	-1.249970986428730e-05,5.531332693160291e-14
	-2.720971087404248e-23,-3.013319973963760e-13
	-1.249970986428730e-05,5.531332693160291e-14
14		1.380384264602885e+00,0.000000000000000e+00
	-1.249970986428730e-01,5.660173982884358e-10
	1.000000000000000e+00,0.000000000000000e+00
	0.000000000000000e+00,0.000000000000000e+00
	1.249970986428730e-05,-5.660173982884358e-14
	2.849206504042089e-23,3.083509212856740e-13
	1.249970992597133e-13,-8.168708910891361e-15
	-1.249970998928440e-05,-2.435804725459391e-13
	-1.249970986428730e-05,5.660173982884358e-14
	-2.849206504042089e-23,-3.083509212856740e-13
	-1.249970986428730e-05,5.660173982884358e-14
15		1.412537544622754e+00,0.000000000000000e+00
	-1.249970986428730e-01,5.792016371775408e-10
	1.000000000000000e+00,0.000000000000000e+00
	0.000000000000000e+00,0.000000000000000e+00
	1.249970986428730e-05,-5.792016371775409e-14
	2.983485469674772e-23,3.155333369149446e-13
	1.249970992597133e-13,-8.358982584496449e-15
	-1.249970998928440e-05,-2.492541906126941e-13
	-1.249970986428730e-05,5.792016371775409e-14
	-2.983485469674772e-23,-3.155333369149446e-13
	-1.249970986428730e-05,5.792016371775409e-14
16		1.445439770745927e+00,0.000000000000000e+00
	-1.249970986428730e-01,5.926929764413173e-10
	1.000000000000000e+00,0.000000000000000e+00
	0.000000000000000e+00,0.000000000000000e+00
	1.249970986428730e-05,-5.926929764413174e-14
	3.124092807991499e-23,3.228830524960250e-13
	1.249970992597133e-13,-8.553688301312116e-15
	-1.249970998928440e-05,-2.550600665505811e-13
	-1.249970986428730e-05,5.926929764413173e-14
	-3.124092807991499e-23,-3.228830524960250e-13
	-1.249970986428730e-05,5.926929764413173e-14
17		1.479108388168207e+00,0.000000000000000e+00
	-1.249970986428730e-01,6.064985693664221e-10
	1.000000000000000e+00,0.000000000000000e+00
	0.000000000000000e+00,0.000000000000000e+00
	1.249970986428730e-05,-6.064985693664221e-14
	3.271326766008395e-23,3.304039649454012e-13
	1.249970992597133e-13,-8.752929296886549e-15
	-1.249970998928440e-05,-2.610011787118724e-13
	-1.249970986428730e-05,6.064985693664222e-14
	-3.271326766008395e-23,-3.304039649454012e-13
	-1.249970986428730e-05,6.064985693664222e-14
18		1.513561248436208e+00,0.000000000000000e+00
	-1.249970986428730e-01,6.206257358609626e-10
	1.000000000000000e+00,0.000000000000000e+00
	0.000000000000000e+00,0.000000000000000e+00
	1.249970986428730e-05,-6.206257358609626e-14
	3.425499646690417e-23,3.381000619504050e-13
	1.249970992597133e-13,-8.956811211432917e-15
	-1.249970998928440e-05,-2.670806771528758e-13
	-1.249970986428730e-05,6.206257358609626e-14
	-3.425499646690417e-23,-3.381000619504050e-13
	-1.249970986428730e-05,6.206257358609626e-14
19		1.548816618912481e+00,0.000000000000000e+00
	-1.249970986428730e-01,6.350819663356094e-10
	1.000000000000000e+00,0.000000000000000e+00
	0.000000000000000e+00,0.000000000000000e+00
	1.249970986428730e-05,-6.350819663356093e-14
	3.586938471387804e-23,3.459754240835383e-13
	1.249970992597133e-13,-9.165442145841058e-15
	-1.249970998928440e-05,-2.733017853041363e-13
	-1.249970986428730e-05,6.350819663356093e-14
	-3.586938471387804e-23,-3.459754240835383e-13
	-1.249970986428730e-05,6.350819663356093e-14
20		1.584893192461113e+00,0.000000000000000e+00
	-1.249970986428730e-01,6.498749256751108e-10
	1.000000000000000e+00,0.000000000000000e+00
	0.000000000000000e+00,0.000000000000000e+00
	1.249970986428730e-05,-6.498749256751109e-14
	3.755985673492224e-23,3.540342269660467e-13
	1.249970992597133e-13,-9.378932718993776e-15
	-1.249970998928440e-05,-2.796678016795419e-13
	-1.249970986428730e-05,6.498749256751109e-14
	-3.755985673492224e-23,-3.540342269660467e-13
	-1.249970986428730e-05,6.498749256751109e-14
21		1.621810097358929e+00,0.000000000000000e+00
	-1.249970986428730e-01,6.650124573023169e-10
	1.000000000000000e+00,0.000000000000000e+00
	0.000000000000000e+00,0.000000000000000e+00
	1.249970986428730e-05,-6.650124573023169e-14
	3.932999824783893e-23,3.622807434818896e-13
	1.249970992597133e-13,-9.597396126419005e-15
	-1.249970998928440e-05,-2.861821016252389e-13
	-1.249970986428730e-05,6.650124573023169e-14
	-3.932999824783893e-23,-3.622807434818896e-13
	-1.249970986428730e-05,6.650124573023169e-14
22		1.659586907437560e+00,0.000000000000000e+00
	-1.249970986428730e-01,6.805025873368650e-10
	1.000000000000000e+00,0.000000000000000e+00
	0.000000000000000e+00,0.000000000000000e+00
	1.249970986428730e-05,-6.805025873368650e-14
	4.118356396010400e-23,3.707193460432792e-13
	1.249970992597133e-13,-9.820948200307040e-15
	-1.249970998928440e-05,-2.928481391092856e-13
	-1.249970986428730e-05,6.805025873368650e-14
	-4.118356396010400e-23,-3.707193460432792e-13
	-1.249970986428730e-05,6.805025873368650e-14
23		1.698243652461743e+00,0.000000000000000e+00
	-1.249970986428730e-01,6.963535288507357e-10
	1.000000000000000e+00,0.000000000000000e+00
	0.000000000000000e+00,0.000000000000000e+00
	1.249970986428730e-05,-6.963535288507359e-14
	4.312448553310505e-23,3.793545089089915e-13
	1.249970992597133e-13,-1.004970747092649e-14
	-1.249970998928440e-05,-2.996694485529914e-13
	-1.249970986428730e-05,6.963535288507357e-14
	-4.312448553310505e-23,-3.793545089089915e-13
	-1.249970986428730e-05,6.963535288507357e-14
24		1.737800828749374e+00,0.000000000000000e+00
	-1.249970986428730e-01,7.125736862229319e-10
	1.000000000000000e+00,0.000000000000000e+00
	0.000000000000000e+00,0.000000000000000e+00
	1.249970986428730e-05,-7.125736862229319e-14
	4.515687992172231e-23,3.881908105566778e-13
	1.249970992597133e-13,-1.028379522947057e-14
	-1.249970998928440e-05,-3.066496467049140e-13
	-1.249970986428730e-05,7.125736862229319e-14
	-4.515687992172231e-23,-3.881908105566778e-13
	-1.249970986428730e-05,7.125736862229319e-14
25		1.778279410038922e+00,0.000000000000000e+00
	-1.249970986428730e-01,7.291716595955911e-10
	1.000000000000000e+00,0.000000000000000e+00
	0.000000000000000e+00,0.000000000000000e+00
	1.249970986428730e-05,-7.291716595955911e-14
	4.728505810694190e-23,3.972329361104342e-13
	1.249970992597133e-13,-1.052333559236746e-14
	-1.249970998928440e-05,-3.137924345585076e-13
	-1.249970986428730e-05,7.291716595955911e-14
	-4.728505810694190e-23,-3.972329361104342e-13
	-1.249970986428730e-05,7.291716595955911e-14
26		1.819700858609982e+00,0.000000000000000e+00
	-1.249970986428730e-01,7.461562494338958e-10
	1.000000000000000e+00,0.000000000000000e+00
	0.000000000000000e+00,0.000000000000000e+00
	1.249970986428730e-05,-7.461562494338960e-14
	4.951353424002448e-23,4.064856798249158e-13
	1.249970992597133e-13,-1.076845556708828e-14
	-1.249970998928440e-05,-3.211015993144379e-13
	-1.249970986428730e-05,7.461562494338957e-14
	-4.951353424002448e-23,-4.064856798249158e-13
	-1.249970986428730e-05,7.461562494338957e-14
27		1.862087136662866e+00,0.000000000000000e+00
	-1.249970986428730e-01,7.635364611921960e-10
	1.000000000000000e+00,0.000000000000000e+00
	0.000000000000000e+00,0.000000000000000e+00
	1.249970986428730e-05,-7.635364611921960e-14
	5.184703521762532e-23,4.159539476273146e-13
	1.249970992597133e-13,-1.101928511948814e-14
	-1.249970998928440e-05,-3.285810163886069e-13
	-1.249970986428730e-05,7.635364611921960e-14
	-5.184703521762532e-23,-4.159539476273146e-13
	-1.249970986428730e-05,7.635364611921960e-14
28		1.905460717963246e+00,0.000000000000000e+00
	-1.249970986428730e-01,7.813215100888200e-10
	1.000000000000000e+00,0.000000000000000e+00
	0.000000000000000e+00,0.000000000000000e+00
	1.249970986428730e-05,-7.813215100888202e-14
	5.429051070817585e-23,4.256427597185468e-13
	1.249970992597133e-13,-1.127595724271577e-14
	-1.249970998928440e-05,-3.362346514669491e-13
	-1.249970986428730e-05,7.813215100888201e-14
	-5.429051070817585e-23,-4.256427597185468e-13
	-1.249970986428730e-05,7.813215100888201e-14
29		1.949844599758044e+00,0.000000000000000e+00
	-1.249970986428730e-01,7.995208259921062e-10
	1.000000000000000e+00,0.000000000000000e+00
	0.000000000000000e+00,0.000000000000000e+00
	1.249970986428730e-05,-7.995208259921062e-14
	5.684914365079400e-23,4.355572532350300e-13
	1.249970992597133e-13,-1.153860802772853e-14
	-1.249970998928440e-05,-3.440665626080908e-13
	-1.249970986428730e-05,7.995208259921062e-14
	-5.684914365079400e-23,-4.355572532350300e-13
	-1.249970986428730e-05,7.995208259921062e-14
30		1.995262314968878e+00,0.000000000000000e+00
	-1.249970986428730e-01,8.181440584202424e-10
	1.000000000000000e+00,0.000000000000000e+00
	0.000000000000000e+00,0.000000000000000e+00
	1.249970986428730e-05,-8.181440584202425e-14
	5.952836124899293e-23,4.457026849724599e-13
	1.249970992597133e-13,-1.180737673544905e-14
	-1.249970998928440e-05,-3.520809023949866e-13
	-1.249970986428730e-05,8.181440584202425e-14
	-5.952836124899293e-23,-4.457026849724599e-13
	-1.249970986428730e-05,8.181440584202425e-14
31		2.041737944669527e+00,0.000000000000000e+00
	-1.249970986428730e-01,8.372010816575698e-10
	1.000000000000000e+00,0.000000000000000e+00
	0.000000000000000e+00,0.000000000000000e+00
	1.249970986428730e-05,-8.372010816575699e-14
	6.233384648250738e-23,4.560844341730347e-13
	1.249970992597133e-13,-1.208240587060376e-14
	-1.249970998928440e-05,-3.602819201366739e-13
	-1.249970986428730e-05,8.372010816575698e-14
	-6.233384648250738e-23,-4.560844341730347e-13
	-1.249970986428730e-05,8.372010816575698e-14
32		2.089296130854037e+00,0.000000000000000e+00
	-1.249970986428730e-01,8.567019999900587e-10
	1.000000000000000e+00,0.000000000000000e+00
	0.000000000000000e+00,0.000000000000000e+00
	1.249970986428730e-05,-8.567019999900588e-14
	6.527155016165564e-23,4.667080053775994e-13
	1.249970992597133e-13,-1.236384125728076e-14
	-1.249970998928440e-05,-3.686739641213128e-13
	-1.249970986428730e-05,8.567019999900588e-14
	-6.527155016165564e-23,-4.667080053775994e-13
	-1.249970986428730e-05,8.567019999900588e-14
33		2.137962089502230e+00,0.000000000000000e+00
	-1.249970986428730e-01,8.766571530627337e-10
	1.000000000000000e+00,0.000000000000000e+00
	0.000000000000000e+00,0.000000000000000e+00
	1.249970986428730e-05,-8.766571530627338e-14
	6.834770354980591e-23,4.775790313442259e-13
	1.249970992597133e-13,-1.265183211624700e-14
	-1.249970998928440e-05,-3.772614839217055e-13
	-1.249970986428730e-05,8.766571530627337e-14
	-6.834770354980591e-23,-4.775790313442259e-13
	-1.249970986428730e-05,8.766571530627337e-14
34		2.187761623949550e+00,0.000000000000000e+00
	-1.249970986428730e-01,8.970771213618918e-10
	1.000000000000000e+00,0.000000000000000e+00
	0.000000000000000e+00,0.000000000000000e+00
	1.249970986428730e-05,-8.970771213618919e-14
	7.156883158072158e-23,4.887032760347770e-13
	1.249970992597133e-13,-1.294653114406815e-14
	-1.249970998928440e-05,-3.860490327545197e-13
	-1.249970986428730e-05,8.970771213618919e-14
	-7.156883158072158e-23,-4.887032760347770e-13
	-1.249970986428730e-05,8.970771213618919e-14
35		2.238721138568337e+00,0.000000000000000e+00
	-1.249970986428730e-01,9.179727318250155e-10
	1.000000000000000e+00,0.000000000000000e+00
	0.000000000000000e+00,0.000000000000000e+00
	1.249970986428730e-05,-9.179727318250156e-14
	7.494176669882035e-23,5.000866376710344e-13
	1.249970992597133e-13,-1.324809459406952e-14
	-1.249970998928440e-05,-3.950412698944633e-13
	-1.249970986428730e-05,9.179727318250155e-14
	-7.494176669882035e-23,-5.000866376710344e-13
	-1.249970986428730e-05,9.179727318250155e-14
36		2.290867652767770e+00,0.000000000000000e+00
	-1.249970986428730e-01,9.393550635813581e-10
	1.000000000000000e+00,0.000000000000000e+00
	0.000000000000000e+00,0.000000000000000e+00
	1.249970986428730e-05,-9.393550635813584e-14
	7.847366335170497e-23,5.117351518620140e-13
	1.249970992597133e-13,-1.355668235918386e-14
	-1.249970998928440e-05,-4.042429631446943e-13
	-1.249970986428730e-05,9.393550635813582e-14
	-7.847366335170497e-23,-5.117351518620140e-13
	-1.249970986428730e-05,9.393550635813582e-14
37		2.344228815319919e+00,0.000000000000000e+00
	-1.249970986428730e-01,9.612354538262460e-10
	1.000000000000000e+00,0.000000000000000e+00
	0.000000000000000e+00,0.000000000000000e+00
	1.249970986428730e-05,-9.612354538262462e-14
	8.217201316570591e-23,5.236549948041263e-13
	1.249970992597133e-13,-1.387245805672885e-14
	-1.249970998928440e-05,-4.136589913647729e-13
	-1.249970986428730e-05,9.612354538262461e-14
	-8.217201316570591e-23,-5.236549948041263e-13
	-1.249970986428730e-05,9.612354538262461e-14
38		2.398832919019488e+00,0.000000000000000e+00
	-1.249970986428730e-01,9.836255038322079e-10
	1.000000000000000e+00,0.000000000000000e+00
