Title: * GA CMOS Amp | W=1.1978772484148081e-05 L=8.45880416161528e-07 Vbias=0.8642403851074422
Date: Mon Sep  8 18:43:49 2025
Plotname: AC Analysis
Flags: complex forward log
No. Variables: 11
No. Points:          901
Offset:    0.0000000000000000e+00
Command: Linear Technology Corporation LTspice
Variables:
	0	frequency	frequency
	1	V(out)	voltage
	2	V(g)	voltage
	3	V(vdd)	voltage
	4	Id(M1)	device_current
	5	Ig(M1)	device_current
	6	Ib(M1)	device_current
	7	Is(M1)	device_current
	8	I(Rload)	device_current
	9	I(Vg)	device_current
	10	I(Vdd)	device_current
Values:
0		1.000000000000000e+00,0.000000000000000e+00
	-2.070568282951651e+00,4.550243952905760e-10
	1.000000000000000e+00,0.000000000000000e+00
	0.000000000000000e+00,0.000000000000000e+00
	2.070568282951651e-04,-4.550243952905760e-14
	6.849468323174480e-24,1.198329421575465e-13
	2.070568271960588e-12,-2.603955854129733e-15
	-2.070568303657334e-04,-7.172654677435913e-14
	-2.070568282951651e-04,4.550243952905760e-14
	-6.849468323174480e-24,-1.198329421575465e-13
	-2.070568282951651e-04,4.550243952905760e-14
1		1.023292992280754e+00,0.000000000000000e+00
	-2.070568282951651e+00,4.656232750176343e-10
	1.000000000000000e+00,0.000000000000000e+00
	0.000000000000000e+00,0.000000000000000e+00
	2.070568282951651e-04,-4.656232750176343e-14
	7.172273820166324e-24,1.226242099542023e-13
	2.070568271960588e-12,-2.664609777739407e-15
	-2.070568303657334e-04,-7.339727267469944e-14
	-2.070568282951651e-04,4.656232750176343e-14
	-7.172273820166324e-24,-1.226242099542023e-13
	-2.070568282951651e-04,4.656232750176343e-14
2		1.047128548050899e+00,0.000000000000000e+00
	-2.070568282951651e+00,4.764690343683594e-10
	1.000000000000000e+00,0.000000000000000e+00
	0.000000000000000e+00,0.000000000000000e+00
	2.070568282951651e-04,-4.764690343683594e-14
	7.510292671534239e-24,1.254804947300991e-13
	2.070568271960588e-12,-2.726676512723512e-15
	-2.070568303657334e-04,-7.510691478053960e-14
	-2.070568282951651e-04,4.764690343683594e-14
	-7.510292671534239e-24,-1.254804947300991e-13
	-2.070568282951651e-04,4.764690343683594e-14
3		1.071519305237606e+00,0.000000000000000e+00
	-2.070568282951651e+00,4.875674239079199e-10
	1.000000000000000e+00,0.000000000000000e+00
	0.000000000000000e+00,0.000000000000000e+00
	2.070568282951651e-04,-4.875674239079199e-14
	7.864241860580957e-24,1.284033109252324e-13
	2.070568271960588e-12,-2.790188967686494e-15
	-2.070568303657334e-04,-7.685637956675396e-14
	-2.070568282951651e-04,4.875674239079199e-14
	-7.864241860580957e-24,-1.284033109252324e-13
	-2.070568282951651e-04,4.875674239079199e-14
4		1.096478196143185e+00,0.000000000000000e+00
	-2.070568282951651e+00,4.989243281493541e-10
	1.000000000000000e+00,0.000000000000000e+00
	0.000000000000000e+00,0.000000000000000e+00
	2.070568282951651e-04,-4.989243281493542e-14
	8.234872160991240e-24,1.313942082554371e-13
	2.070568271960588e-12,-2.855180817772654e-15
	-2.070568303657334e-04,-7.864659462272906e-14
	-2.070568282951651e-04,4.989243281493542e-14
	-8.234872160991240e-24,-1.313942082554371e-13
	-2.070568282951651e-04,4.989243281493542e-14
5		1.122018454301963e+00,0.000000000000000e+00
	-2.070568282951651e+00,5.105457686736176e-10
	1.000000000000000e+00,0.000000000000000e+00
	0.000000000000000e+00,0.000000000000000e+00
	2.070568282951651e-04,-5.105457686736176e-14
	8.622969729323533e-24,1.344547725340669e-13
	2.070568271960588e-12,-2.921686522521188e-15
	-2.070568303657334e-04,-8.047850914418391e-14
	-2.070568282951651e-04,5.105457686736176e-14
	-8.622969729323533e-24,-1.344547725340669e-13
	-2.070568282951651e-04,5.105457686736176e-14
6		1.148153621496882e+00,0.000000000000000e+00
	-2.070568282951651e+00,5.224379073223038e-10
	1.000000000000000e+00,0.000000000000000e+00
	0.000000000000000e+00,0.000000000000000e+00
	2.070568282951651e-04,-5.224379073223039e-14
	9.029357772553407e-24,1.375866265128134e-13
	2.070568271960588e-12,-2.989741344137059e-15
	-2.070568303657334e-04,-8.235309443644598e-14
	-2.070568282951651e-04,5.224379073223038e-14
	-9.029357772553407e-24,-1.375866265128134e-13
	-2.070568282951651e-04,5.224379073223038e-14
7		1.174897554939529e+00,0.000000000000000e+00
	-2.070568282951651e+00,5.346070494647356e-10
	1.000000000000000e+00,0.000000000000000e+00
	0.000000000000000e+00,0.000000000000000e+00
	2.070568282951651e-04,-5.346070494647357e-14
	9.454898294205955e-24,1.407914307421114e-13
	2.070568271960588e-12,-3.059381366187496e-15
	-2.070568303657334e-04,-8.427134442945031e-14
	-2.070568282951651e-04,5.346070494647357e-14
	-9.454898294205955e-24,-1.407914307421114e-13
	-2.070568282951651e-04,5.346070494647357e-14
8		1.202264434617413e+00,0.000000000000000e+00
	-2.070568282951651e+00,5.470596473411543e-10
	1.000000000000000e+00,0.000000000000000e+00
	0.000000000000000e+00,0.000000000000000e+00
	2.070568282951651e-04,-5.470596473411544e-14
	9.900493922780806e-24,1.440708844515837e-13
	2.070568271960588e-12,-3.130643512733991e-15
	-2.070568303657334e-04,-8.623427620473428e-14
	-2.070568282951651e-04,5.470596473411544e-14
	-9.900493922780806e-24,-1.440708844515837e-13
	-2.070568282951651e-04,5.470596473411544e-14
9		1.230268770812381e+00,0.000000000000000e+00
	-2.070568282951651e+00,5.598023034837839e-10
	1.000000000000000e+00,0.000000000000000e+00
	0.000000000000000e+00,0.000000000000000e+00
	2.070568282951651e-04,-5.598023034837840e-14
	1.036708982634822e-23,1.474267264509959e-13
	2.070568271960588e-12,-3.203565567909912e-15
	-2.070568303657334e-04,-8.824293053470757e-14
	-2.070568282951651e-04,5.598023034837840e-14
	-1.036708982634822e-23,-1.474267264509959e-13
	-2.070568282951651e-04,5.598023034837840e-14
10		1.258925411794167e+00,0.000000000000000e+00
	-2.070568282951651e+00,5.728417742175802e-10
	1.000000000000000e+00,0.000000000000000e+00
	0.000000000000000e+00,0.000000000000000e+00
	2.070568282951651e-04,-5.728417742175802e-14
	1.085567571737727e-23,1.508607360521958e-13
	2.070568271960588e-12,-3.278186195954107e-15
	-2.070568303657334e-04,-9.029837243448365e-14
	-2.070568282951651e-04,5.728417742175803e-14
	-1.085567571737727e-23,-1.508607360521958e-13
	-2.070568282951651e-04,5.728417742175803e-14
11		1.288249551693134e+00,0.000000000000000e+00
	-2.070568282951651e+00,5.861849732425238e-10
	1.000000000000000e+00,0.000000000000000e+00
	0.000000000000000e+00,0.000000000000000e+00
	2.070568282951651e-04,-5.861849732425238e-14
	1.136728795204866e-23,1.543747340125285e-13
	2.070568271960588e-12,-3.354544961711344e-15
	-2.070568303657334e-04,-9.240169172656474e-14
	-2.070568282951651e-04,5.861849732425238e-14
	-1.136728795204866e-23,-1.543747340125285e-13
	-2.070568282951651e-04,5.861849732425238e-14
12		1.318256738556407e+00,0.000000000000000e+00
	-2.070568282951651e+00,5.998389752993561e-10
	1.000000000000000e+00,0.000000000000000e+00
	0.000000000000000e+00,0.000000000000000e+00
	2.070568282951651e-04,-5.998389752993561e-14
	1.190301172850520e-23,1.579705835002258e-13
	2.070568271960588e-12,-3.432682351609922e-15
	-2.070568303657334e-04,-9.455400361868024e-14
	-2.070568282951651e-04,5.998389752993561e-14
	-1.190301172850520e-23,-1.579705835002258e-13
	-2.070568282951651e-04,5.998389752993561e-14
13		1.348962882591653e+00,0.000000000000000e+00
	-2.070568282951651e+00,6.138110199206993e-10
	1.000000000000000e+00,0.000000000000000e+00
	0.000000000000000e+00,0.000000000000000e+00
	2.070568282951651e-04,-6.138110199206994e-14
	1.246398338870248e-23,1.616501910822827e-13
	2.070568271960588e-12,-3.512639795128235e-15
	-2.070568303657334e-04,-9.675644929508455e-14
	-2.070568282951651e-04,6.138110199206993e-14
	-1.246398338870248e-23,-1.616501910822827e-13
	-2.070568282951651e-04,6.138110199206993e-14
14		1.380384264602885e+00,0.000000000000000e+00
	-2.070568282951651e+00,6.281085152695541e-10
	1.000000000000000e+00,0.000000000000000e+00
	0.000000000000000e+00,0.000000000000000e+00
	2.070568282951651e-04,-6.281085152695542e-14
	1.305139282874256e-23,1.654155077353448e-13
	2.070568271960588e-12,-3.594459686761250e-15
	-2.070568303657334e-04,-9.901019652162814e-14
	-2.070568282951651e-04,6.281085152695542e-14
	-1.305139282874256e-23,-1.654155077353448e-13
	-2.070568282951651e-04,6.281085152695542e-14
15		1.412537544622754e+00,0.000000000000000e+00
	-2.070568282951651e+00,6.427390420672036e-10
	1.000000000000000e+00,0.000000000000000e+00
	0.000000000000000e+00,0.000000000000000e+00
	2.070568282951651e-04,-6.427390420672037e-14
	1.366648602280312e-23,1.692685298801412e-13
	2.070568271960588e-12,-3.678185408498476e-15
	-2.070568303657334e-04,-1.013164402649224e-13
	-2.070568282951651e-04,6.427390420672036e-14
	-1.366648602280312e-23,-1.692685298801412e-13
	-2.070568282951651e-04,6.427390420672036e-14
16		1.445439770745927e+00,0.000000000000000e+00
	-2.070568282951651e+00,6.577103576126143e-10
	1.000000000000000e+00,0.000000000000000e+00
	0.000000000000000e+00,0.000000000000000e+00
	2.070568282951651e-04,-6.577103576126143e-14
	1.431056766601574e-23,1.732113004400139e-13
	2.070568271960588e-12,-3.763861352825809e-15
	-2.070568303657334e-04,-1.036764033259267e-13
	-2.070568282951651e-04,6.577103576126143e-14
	-1.431056766601574e-23,-1.732113004400139e-13
	-2.070568282951651e-04,6.577103576126143e-14
17		1.479108388168207e+00,0.000000000000000e+00
	-2.070568282951651e+00,6.730303998954568e-10
	1.000000000000000e+00,0.000000000000000e+00
	0.000000000000000e+00,0.000000000000000e+00
	2.070568282951651e-04,-6.730303998954568e-14
	1.498500394189920e-23,1.772459099241025e-13
	2.070568271960588e-12,-3.851532946263009e-15
	-2.070568303657334e-04,-1.060913369882938e-13
	-2.070568282951651e-04,6.730303998954568e-14
	-1.498500394189920e-23,-1.772459099241025e-13
	-2.070568282951651e-04,6.730303998954568e-14
18		1.513561248436208e+00,0.000000000000000e+00
	-2.070568282951651e+00,6.887072918049347e-10
	1.000000000000000e+00,0.000000000000000e+00
	0.000000000000000e+00,0.000000000000000e+00
	2.070568282951651e-04,-6.887072918049346e-14
	1.569122542021793e-23,1.813744975357599e-13
	2.070568271960588e-12,-3.941246673449378e-15
	-2.070568303657334e-04,-1.085625216818170e-13
	-2.070568282951651e-04,6.887072918049347e-14
	-1.569122542021793e-23,-1.813744975357599e-13
	-2.070568282951651e-04,6.887072918049347e-14
19		1.548816618912481e+00,0.000000000000000e+00
	-2.070568282951651e+00,7.047493454366461e-10
	1.000000000000000e+00,0.000000000000000e+00
	0.000000000000000e+00,0.000000000000000e+00
	2.070568282951651e-04,-7.047493454366462e-14
	1.643073009141216e-23,1.855992523067860e-13
	2.070568271960588e-12,-4.033050101790575e-15
	-2.070568303657334e-04,-1.110912676613308e-13
	-2.070568282951651e-04,7.047493454366461e-14
	-1.643073009141216e-23,-1.855992523067860e-13
	-2.070568282951651e-04,7.047493454366461e-14
20		1.584893192461113e+00,0.000000000000000e+00
	-2.070568282951651e+00,7.211650664997682e-10
	1.000000000000000e+00,0.000000000000000e+00
	0.000000000000000e+00,0.000000000000000e+00
	2.070568282951651e-04,-7.211650664997683e-14
	1.720508654403663e-23,1.899224142580817e-13
	2.070568271960588e-12,-4.126991906679499e-15
	-2.070568303657334e-04,-1.136789157014254e-13
	-2.070568282951651e-04,7.211650664997683e-14
	-1.720508654403663e-23,-1.899224142580817e-13
	-2.070568282951651e-04,7.211650664997683e-14
21		1.621810097358929e+00,0.000000000000000e+00
	-2.070568282951651e+00,7.379631588268970e-10
	1.000000000000000e+00,0.000000000000000e+00
	0.000000000000000e+00,0.000000000000000e+00
	2.070568282951651e-04,-7.379631588268971e-14
	1.801593729194715e-23,1.943462755873374e-13
	2.070568271960588e-12,-4.223121897304497e-15
	-2.070568303657334e-04,-1.163268378073432e-13
	-2.070568282951651e-04,7.379631588268971e-14
	-1.801593729194715e-23,-1.943462755873374e-13
	-2.070568282951651e-04,7.379631588268971e-14
22		1.659586907437560e+00,0.000000000000000e+00
	-2.070568282951651e+00,7.551525289889328e-10
	1.000000000000000e+00,0.000000000000000e+00
	0.000000000000000e+00,0.000000000000000e+00
	2.070568282951651e-04,-7.551525289889329e-14
	1.886500225829268e-23,1.988731818843865e-13
	2.070568271960588e-12,-4.321491043059086e-15
	-2.070568303657334e-04,-1.190364379424342e-13
	-2.070568282951651e-04,7.551525289889328e-14
	-1.886500225829268e-23,-1.988731818843865e-13
	-2.070568282951651e-04,7.551525289889328e-14
23		1.698243652461743e+00,0.000000000000000e+00
	-2.070568282951651e+00,7.727422910174640e-10
	1.000000000000000e+00,0.000000000000000e+00
	0.000000000000000e+00,0.000000000000000e+00
	2.070568282951651e-04,-7.727422910174641e-14
	1.975408242370295e-23,2.035055333748686e-13
	2.070568271960588e-12,-4.422151500566430e-15
	-2.070568303657334e-04,-1.218091527725557e-13
	-2.070568282951651e-04,7.727422910174641e-14
	-1.975408242370295e-23,-2.035055333748686e-13
	-2.070568282951651e-04,7.727422910174641e-14
24		1.737800828749374e+00,0.000000000000000e+00
	-2.070568282951651e+00,7.907417712371459e-10
	1.000000000000000e+00,0.000000000000000e+00
	0.000000000000000e+00,0.000000000000000e+00
	2.070568282951651e-04,-7.907417712371460e-14
	2.068506364640986e-23,2.082457861928601e-13
	2.070568271960588e-12,-4.525156641333461e-15
	-2.070568303657334e-04,-1.246464524278121e-13
	-2.070568282951651e-04,7.907417712371459e-14
	-2.068506364640986e-23,-2.082457861928601e-13
	-2.070568282951651e-04,7.907417712371459e-14
25		1.778279410038922e+00,0.000000000000000e+00
	-2.070568282951651e+00,8.091605132106427e-10
	1.000000000000000e+00,0.000000000000000e+00
	0.000000000000000e+00,0.000000000000000e+00
	2.070568282951651e-04,-8.091605132106426e-14
	2.165992066240561e-23,2.130964536831500e-13
	2.070568271960588e-12,-4.630561080049245e-15
	-2.070568303657334e-04,-1.275498412820365e-13
	-2.070568282951651e-04,8.091605132106428e-14
	-2.165992066240561e-23,-2.130964536831500e-13
	-2.070568282951651e-04,8.091605132106428e-14
26		1.819700858609982e+00,0.000000000000000e+00
	-2.070568282951651e+00,8.280082827987492e-10
	1.000000000000000e+00,0.000000000000000e+00
	0.000000000000000e+00,0.000000000000000e+00
	2.070568282951651e-04,-8.280082827987491e-14
	2.268072127412245e-23,2.180601077338477e-13
	2.070568271960588e-12,-4.738420703542374e-15
	-2.070568303657334e-04,-1.305208587504304e-13
	-2.070568282951651e-04,8.280082827987492e-14
	-2.268072127412245e-23,-2.180601077338477e-13
	-2.070568282951651e-04,8.280082827987492e-14
27		1.862087136662866e+00,0.000000000000000e+00
	-2.070568282951651e+00,8.472950733383808e-10
	1.000000000000000e+00,0.000000000000000e+00
	0.000000000000000e+00,0.000000000000000e+00
	2.070568282951651e-04,-8.472950733383807e-14
	2.374963073651899e-23,2.231393801400326e-13
	2.070568271960588e-12,-4.848792700412965e-15
	-2.070568303657334e-04,-1.335610801057815e-13
	-2.070568282951651e-04,8.472950733383809e-14
	-2.374963073651899e-23,-2.231393801400326e-13
	-2.070568282951651e-04,8.472950733383809e-14
28		1.905460717963246e+00,0.000000000000000e+00
	-2.070568282951651e+00,8.670311109411725e-10
	1.000000000000000e+00,0.000000000000000e+00
	0.000000000000000e+00,0.000000000000000e+00
	2.070568282951651e-04,-8.670311109411727e-14
	2.486891634987614e-23,2.283369639991666e-13
	2.070568271960588e-12,-4.961735591354629e-15
	-2.070568303657334e-04,-1.366721173136947e-13
	-2.070568282951651e-04,8.670311109411725e-14
	-2.486891634987614e-23,-2.283369639991666e-13
	-2.070568282951651e-04,8.670311109411725e-14
29		1.949844599758044e+00,0.000000000000000e+00
	-2.070568282951651e+00,8.872268599154991e-10
	1.000000000000000e+00,0.000000000000000e+00
	0.000000000000000e+00,0.000000000000000e+00
	2.070568282951651e-04,-8.872268599154992e-14
	2.604095226904508e-23,2.336556151390100e-13
	2.070568271960588e-12,-5.077309260183190e-15
	-2.070568303657334e-04,-1.398556198872769e-13
	-2.070568282951651e-04,8.872268599154991e-14
	-2.604095226904508e-23,-2.336556151390100e-13
	-2.070568282951651e-04,8.872268599154991e-14
30		1.995262314968878e+00,0.000000000000000e+00
	-2.070568282951651e+00,9.078930283147887e-10
	1.000000000000000e+00,0.000000000000000e+00
	0.000000000000000e+00,0.000000000000000e+00
	2.070568282951651e-04,-9.078930283147887e-14
	2.726822453934796e-23,2.390981535787978e-13
	2.070568271960588e-12,-5.195574985587651e-15
	-2.070568303657334e-04,-1.431132757617313e-13
	-2.070568282951651e-04,9.078930283147887e-14
	-2.726822453934796e-23,-2.390981535787978e-13
	-2.070568282951651e-04,9.078930283147887e-14
31		2.041737944669527e+00,0.000000000000000e+00
	-2.070568282951651e+00,9.290405736150752e-10
	1.000000000000000e+00,0.000000000000000e+00
	0.000000000000000e+00,0.000000000000000e+00
	2.070568282951651e-04,-9.290405736150753e-14
	2.855333636981332e-23,2.446674650244513e-13
	2.070568271960588e-12,-5.316595473621003e-15
	-2.070568303657334e-04,-1.464468121893227e-13
	-2.070568282951651e-04,9.290405736150752e-14
	-2.855333636981332e-23,-2.446674650244513e-13
	-2.070568282951651e-04,9.290405736150752e-14
32		2.089296130854037e+00,0.000000000000000e+00
	-2.070568282951651e+00,9.506807085247986e-10
	1.000000000000000e+00,0.000000000000000e+00
	0.000000000000000e+00,0.000000000000000e+00
	2.070568282951651e-04,-9.506807085247986e-14
	2.989901365493156e-23,2.503665023986176e-13
	2.070568271960588e-12,-5.440434890948011e-15
	-2.070568303657334e-04,-1.498579966551897e-13
	-2.070568282951651e-04,9.506807085247986e-14
	-2.989901365493156e-23,-2.503665023986176e-13
	-2.070568282951651e-04,9.506807085247986e-14
33		2.137962089502230e+00,0.000000000000000e+00
	-2.070568282951651e+00,9.728249069299286e-10
	1.000000000000000e+00,0.000000000000000e+00
	0.000000000000000e+00,0.000000000000000e+00
	2.070568282951651e-04,-9.728249069299287e-14
	3.130811075664251e-23,2.561982874063479e-13
	2.070568271960588e-12,-5.567158898866766e-15
	-2.070568303657334e-04,-1.533486378144883e-13
	-2.070568282951651e-04,9.728249069299286e-14
	-3.130811075664251e-23,-2.561982874063479e-13
	-2.070568282951651e-04,9.728249069299286e-14
34		2.187761623949550e+00,0.000000000000000e+00
	-2.070568282951651e+00,9.954849099775728e-10
	1.000000000000000e+00,0.000000000000000e+00
	0.000000000000000e+00,0.000000000000000e+00
	2.070568282951651e-04,-9.954849099775726e-14
	3.278361655881982e-23,2.621659121372464e-13
	2.070568271960588e-12,-5.696834688123828e-15
	-2.070568303657334e-04,-1.569205864513653e-13
	-2.070568282951651e-04,9.954849099775728e-14
	-3.278361655881982e-23,-2.621659121372464e-13
	-2.070568282951651e-04,9.954849099775728e-14
35		2.238721138568337e+00,0.000000000000000e+00
	-2.070568282951651e+00,1.018672732301288e-09
	1.000000000000000e+00,0.000000000000000e+00
	0.000000000000000e+00,0.000000000000000e+00
	2.070568282951651e-04,-1.018672732301288e-13
	3.432866080709443e-23,2.682725407049362e-13
	2.070568271960588e-12,-5.829531014539023e-15
	-2.070568303657334e-04,-1.605757364602684e-13
	-2.070568282951651e-04,1.018672732301288e-13
	-3.432866080709443e-23,-2.682725407049362e-13
	-2.070568282951651e-04,1.018672732301288e-13
36		2.290867652767770e+00,0.000000000000000e+00
	-2.070568282951651e+00,1.042400668391396e-09
	1.000000000000000e+00,0.000000000000000e+00
	0.000000000000000e+00,0.000000000000000e+00
	2.070568282951651e-04,-1.042400668391396e-13
	3.594652074746461e-23,2.745214109247145e-13
	2.070568271960588e-12,-5.965318235461092e-15
	-2.070568303657334e-04,-1.643160258501138e-13
	-2.070568282951651e-04,1.042400668391396e-13
	-3.594652074746461e-23,-2.745214109247145e-13
	-2.070568282951651e-04,1.042400668391396e-13
37		2.344228815319919e+00,0.000000000000000e+00
	-2.070568282951651e+00,1.066681299113690e-09
	1.000000000000000e+00,0.000000000000000e+00
	0.000000000000000e+00,0.000000000000000e+00
	2.070568282951651e-04,-1.066681299113690e-13
	3.764062807777414e-23,2.809158360302856e-13
	2.070568271960588e-12,-6.104268347071922e-15
	-2.070568303657334e-04,-1.681434377718447e-13
	-2.070568282951651e-04,1.066681299113690e-13
	-3.764062807777414e-23,-2.809158360302856e-13
	-2.070568282951651e-04,1.066681299113690e-13
38		2.398832919019488e+00,0.000000000000000e+00
	-2.070568282951651e+00,1.091527498379970e-09
	1.000000000000000e+00,0.000000000000000e+00
