Title: * GA CMOS Amp | W=1e-06 L=6.319100670555179e-07 Vbias=1.256328801131365
Date: Sat Sep  6 22:06:57 2025
Plotname: AC Analysis
Flags: complex forward log
No. Variables: 13
No. Points:          901
Offset:    0.0000000000000000e+00
Command: Linear Technology Corporation LTspice
Variables:
	0	frequency	frequency
	1	V(out)	voltage
	2	V(g)	voltage
	3	V(vdd)	voltage
	4	V(m1#dbody)	voltage
	5	V(m1#sbody)	voltage
	6	Id(M1)	device_current
	7	Ig(M1)	device_current
	8	Ib(M1)	device_current
	9	Is(M1)	device_current
	10	I(Rload)	device_current
	11	I(Vg)	device_current
	12	I(Vdd)	device_current
Values:
0		1.000000000000000e+00,0.000000000000000e+00
	-3.896123679621467e-01,4.753635863257302e-10
	1.000000000000000e+00,0.000000000000000e+00
	0.000000000000000e+00,0.000000000000000e+00
	3.386087433543158e-06,3.910837630511501e-14
	3.386090355635806e-06,4.617470797156554e-14
	3.896123679621467e-05,-4.753635863257302e-14
	2.325791220725412e-06,1.418853632240922e-13
	-1.805914662897557e-06,-2.415547321935260e-14
	-3.948111335404253e-05,-7.019353137216655e-14
	-3.896123679621466e-05,4.753635863257302e-14
	-2.325791220059159e-06,-1.418853632240922e-13
	-3.896123679621466e-05,4.753635863257302e-14
1		1.023292992280754e+00,0.000000000000000e+00
	-3.896123679621467e-01,4.864362266725670e-10
	1.000000000000000e+00,0.000000000000000e+00
	0.000000000000000e+00,0.000000000000000e+00
	3.386087433543158e-06,4.001932741250289e-14
	3.386090355635806e-06,4.725025508791330e-14
	3.896123679621467e-05,-4.864362266725670e-14
	2.325791220725412e-06,1.451902978944229e-13
	-1.805914662897557e-06,-2.471812647058894e-14
	-3.948111335404253e-05,-7.182854875657730e-14
	-3.896123679621466e-05,4.864362266725670e-14
	-2.325791220059159e-06,-1.451902978944230e-13
	-3.896123679621466e-05,4.864362266725670e-14
2		1.047128548050899e+00,0.000000000000000e+00
	-3.896123679621467e-01,4.977667819455302e-10
	1.000000000000000e+00,0.000000000000000e+00
	0.000000000000000e+00,0.000000000000000e+00
	3.386087433543158e-06,4.095149729700327e-14
	3.386090355635806e-06,4.835085491493970e-14
	3.896123679621467e-05,-4.977667819455302e-14
	2.325791220725412e-06,1.485722143825181e-13
	-1.805914662897557e-06,-2.529388559966307e-14
	-3.948111335404253e-05,-7.350165058830203e-14
	-3.896123679621466e-05,4.977667819455302e-14
	-2.325791220059159e-06,-1.485722143825181e-13
	-3.896123679621466e-05,4.977667819455302e-14
3		1.071519305237606e+00,0.000000000000000e+00
	-3.896123679621467e-01,5.093612597550032e-10
	1.000000000000000e+00,0.000000000000000e+00
	0.000000000000000e+00,0.000000000000000e+00
	3.386087433543158e-06,4.190538020742770e-14
	3.386090355635806e-06,4.947709100524127e-14
	3.896123679621467e-05,-5.093612597550033e-14
	2.325791220725412e-06,1.520329058252646e-13
	-1.805914662897557e-06,-2.588305588168631e-14
	-3.948111335404253e-05,-7.521372396807802e-14
	-3.896123679621466e-05,5.093612597550032e-14
	-2.325791220059159e-06,-1.520329058252647e-13
	-3.896123679621466e-05,5.093612597550032e-14
4		1.096478196143185e+00,0.000000000000000e+00
	-3.896123679621467e-01,5.212258076465916e-10
	1.000000000000000e+00,0.000000000000000e+00
	0.000000000000000e+00,0.000000000000000e+00
	3.386087433543158e-06,4.288148190512137e-14
	3.386090355635806e-06,5.062956050410051e-14
	3.896123679621467e-05,-5.212258076465916e-14
	2.325791220725412e-06,1.555742071270731e-13
	-1.805914662897557e-06,-2.648594970254074e-14
	-3.948111335404253e-05,-7.696567665987321e-14
	-3.896123679621466e-05,5.212258076465916e-14
	-2.325791220059159e-06,-1.555742071270732e-13
	-3.896123679621466e-05,5.212258076465916e-14
5		1.122018454301963e+00,0.000000000000000e+00
	-3.896123679621467e-01,5.333667163606336e-10
	1.000000000000000e+00,0.000000000000000e+00
	0.000000000000000e+00,0.000000000000000e+00
	3.386087433543158e-06,4.388031993212466e-14
	3.386090355635806e-06,5.180887446610050e-14
	3.896123679621467e-05,-5.333667163606336e-14
	2.325791220725412e-06,1.591979959327685e-13
	-1.805914662897557e-06,-2.710288672451047e-14
	-3.948111335404253e-05,-7.875843757219467e-14
	-3.896123679621466e-05,5.333667163606336e-14
	-2.325791220059159e-06,-1.591979959327685e-13
	-3.896123679621466e-05,5.333667163606336e-14
6		1.148153621496882e+00,0.000000000000000e+00
	-3.896123679621467e-01,5.457904231676330e-10
	1.000000000000000e+00,0.000000000000000e+00
	0.000000000000000e+00,0.000000000000000e+00
	3.386087433543158e-06,4.490242388558064e-14
	3.386090355635806e-06,5.301565817911392e-14
	3.896123679621467e-05,-5.457904231676331e-14
	2.325791220725412e-06,1.629061936231420e-13
	-1.805914662897557e-06,-2.773419405577063e-14
	-3.948111335404253e-05,-8.059295725060806e-14
	-3.896123679621466e-05,5.457904231676330e-14
	-2.325791220059159e-06,-1.629061936231421e-13
	-3.896123679621466e-05,5.457904231676330e-14
7		1.174897554939529e+00,0.000000000000000e+00
	-3.896123679621467e-01,5.585035152813862e-10
	1.000000000000000e+00,0.000000000000000e+00
	0.000000000000000e+00,0.000000000000000e+00
	3.386087433543158e-06,4.594833569853463e-14
	3.386090355635806e-06,5.425055149583913e-14
	3.896123679621467e-05,-5.585035152813862e-14
	2.325791220725412e-06,1.667007663336929e-13
	-1.805914662897557e-06,-2.838020642382464e-14
	-3.948111335404253e-05,-8.247020838172960e-14
	-3.896123679621466e-05,5.585035152813862e-14
	-2.325791220059159e-06,-1.667007663336928e-13
	-3.896123679621466e-05,5.585035152813862e-14
8		1.202264434617413e+00,0.000000000000000e+00
	-3.896123679621467e-01,5.715127333516095e-10
	1.000000000000000e+00,0.000000000000000e+00
	0.000000000000000e+00,0.000000000000000e+00
	3.386087433543158e-06,4.701860992727410e-14
	3.386090355635806e-06,5.551420917305837e-14
	3.896123679621467e-05,-5.715127333516097e-14
	2.325791220725412e-06,1.705837259970994e-13
	-1.805914662897557e-06,-2.904126635298100e-14
	-3.948111335404253e-05,-8.439118630895744e-14
	-3.896123679621466e-05,5.715127333516095e-14
	-2.325791220059159e-06,-1.705837259970994e-13
	-3.896123679621466e-05,5.715127333516095e-14
9		1.230268770812381e+00,0.000000000000000e+00
	-3.896123679621467e-01,5.848249750379212e-10
	1.000000000000000e+00,0.000000000000000e+00
	0.000000000000000e+00,0.000000000000000e+00
	3.386087433543158e-06,4.811381404536189e-14
	3.386090355635806e-06,5.680730121879859e-14
	3.896123679621467e-05,-5.848249750379213e-14
	2.325791220725412e-06,1.745571314099721e-13
	-1.805914662897557e-06,-2.971772434596431e-14
	-3.948111335404253e-05,-8.635690956021566e-14
	-3.896123679621466e-05,5.848249750379211e-14
	-2.325791220059159e-06,-1.745571314099721e-13
	-3.896123679621466e-05,5.848249750379211e-14
10		1.258925411794167e+00,0.000000000000000e+00
	-3.896123679621467e-01,5.984472986670718e-10
	1.000000000000000e+00,0.000000000000000e+00
	0.000000000000000e+00,0.000000000000000e+00
	3.386087433543158e-06,4.923452874451814e-14
	3.386090355635806e-06,5.813051324757853e-14
	3.896123679621467e-05,-5.984472986670719e-14
	2.325791220725412e-06,1.786230893244552e-13
	-1.805914662897557e-06,-3.040993906975644e-14
	-3.948111335404253e-05,-8.836842038799156e-14
	-3.896123679621466e-05,5.984472986670718e-14
	-2.325791220059159e-06,-1.786230893244552e-13
	-3.896123679621466e-05,5.984472986670718e-14
11		1.288249551693134e+00,0.000000000000000e+00
	-3.896123679621467e-01,6.123869269753621e-10
	1.000000000000000e+00,0.000000000000000e+00
	0.000000000000000e+00,0.000000000000000e+00
	3.386087433543158e-06,5.038134824251078e-14
	3.386090355635806e-06,5.948454684393066e-14
	3.896123679621467e-05,-6.123869269753622e-14
	2.325791220725412e-06,1.827837555652542e-13
	-1.805914662897557e-06,-3.111827754576648e-14
	-3.948111335404253e-05,-9.042678532195148e-14
	-3.896123679621466e-05,6.123869269753622e-14
	-2.325791220059159e-06,-1.827837555652542e-13
	-3.896123679621466e-05,6.123869269753622e-14
12		1.318256738556407e+00,0.000000000000000e+00
	-3.896123679621467e-01,6.266512509382340e-10
	1.000000000000000e+00,0.000000000000000e+00
	0.000000000000000e+00,0.000000000000000e+00
	3.386087433543158e-06,5.155488059821756e-14
	3.386090355635806e-06,6.087011993439050e-14
	3.896123679621467e-05,-6.266512509382341e-14
	2.325791220725412e-06,1.870413361726829e-13
	-1.805914662897557e-06,-3.184311534443039e-14
	-3.948111335404253e-05,-9.253309573442910e-14
	-3.896123679621466e-05,6.266512509382341e-14
	-2.325791220059159e-06,-1.870413361726829e-13
	-3.896123679621466e-05,6.266512509382341e-14
13		1.348962882591653e+00,0.000000000000000e+00
	-3.896123679621467e-01,6.412478336890634e-10
	1.000000000000000e+00,0.000000000000000e+00
	0.000000000000000e+00,0.000000000000000e+00
	3.386087433543158e-06,5.275574803402705e-14
	3.386090355635806e-06,6.228796716815083e-14
	3.896123679621467e-05,-6.412478336890633e-14
	2.325791220725412e-06,1.913980885723352e-13
	-1.805914662897557e-06,-3.258483678434336e-14
	-3.948111335404253e-05,-9.468846841908546e-14
	-3.896123679621466e-05,6.412478336890635e-14
	-2.325791220059159e-06,-1.913980885723352e-13
	-3.896123679621466e-05,6.412478336890635e-14
14		1.380384264602885e+00,0.000000000000000e+00
	-3.896123679621467e-01,6.561844145292329e-10
	1.000000000000000e+00,0.000000000000000e+00
	0.000000000000000e+00,0.000000000000000e+00
	3.386087433543158e-06,5.398458726574905e-14
	3.386090355635806e-06,6.373884030658244e-14
	3.896123679621467e-05,-6.561844145292330e-14
	2.325791220725412e-06,1.958563227720017e-13
	-1.805914662897557e-06,-3.334383513603071e-14
	-3.948111335404253e-05,-9.689404618304765e-14
	-3.896123679621466e-05,6.561844145292330e-14
	-2.325791220059159e-06,-1.958563227720017e-13
	-3.896123679621466e-05,6.561844145292330e-14
15		1.412537544622754e+00,0.000000000000000e+00
	-3.896123679621467e-01,6.714689130316135e-10
	1.000000000000000e+00,0.000000000000000e+00
	0.000000000000000e+00,0.000000000000000e+00
	3.386087433543158e-06,5.524204984020983e-14
	3.386090355635806e-06,6.522350862182789e-14
	3.896123679621467e-05,-6.714689130316136e-14
	2.325791220725412e-06,2.004184025864668e-13
	-1.805914662897557e-06,-3.412051283046501e-14
	-3.948111335404253e-05,-9.915099845284041e-14
	-3.896123679621466e-05,6.714689130316135e-14
	-2.325791220059159e-06,-2.004184025864668e-13
	-3.896123679621466e-05,6.714689130316135e-14
16		1.445439770745927e+00,0.000000000000000e+00
	-3.896123679621467e-01,6.871094332396251e-10
	1.000000000000000e+00,0.000000000000000e+00
	0.000000000000000e+00,0.000000000000000e+00
	3.386087433543158e-06,5.652880248071088e-14
	3.386090355635806e-06,6.674275930467982e-14
	3.896123679621467e-05,-6.871094332396251e-14
	2.325791220725412e-06,2.050867468908344e-13
	-1.805914662897557e-06,-3.491528167244039e-14
	-3.948111335404253e-05,-1.014605218944315e-13
	-3.896123679621466e-05,6.871094332396251e-14
	-2.325791220059159e-06,-2.050867468908344e-13
	-3.896123679621466e-05,6.871094332396251e-14
17		1.479108388168207e+00,0.000000000000000e+00
	-3.896123679621467e-01,7.031142679641090e-10
	1.000000000000000e+00,0.000000000000000e+00
	0.000000000000000e+00,0.000000000000000e+00
	3.386087433543158e-06,5.784552744053433e-14
	3.386090355635806e-06,6.829739788195993e-14
	3.896123679621467e-05,-7.031142679641090e-14
	2.325791220725412e-06,2.098638309030475e-13
	-1.805914662897557e-06,-3.572856305891690e-14
	-3.948111335404253e-05,-1.038238410477197e-13
	-3.896123679621466e-05,7.031142679641091e-14
	-2.325791220059159e-06,-2.098638309030476e-13
	-3.896123679621466e-05,7.031142679641091e-14
18		1.513561248436208e+00,0.000000000000000e+00
	-3.896123679621467e-01,7.194919031802849e-10
	1.000000000000000e+00,0.000000000000000e+00
	0.000000000000000e+00,0.000000000000000e+00
	3.386087433543158e-06,5.919292286468286e-14
	3.386090355635806e-06,6.988824864362003e-14
	3.896123679621467e-05,-7.194919031802850e-14
	2.325791220725412e-06,2.147521874962817e-13
	-1.805914662897557e-06,-3.656078820245069e-14
	-3.948111335404253e-05,-1.062422089758025e-13
	-3.896123679621466e-05,7.194919031802850e-14
	-2.325791220059159e-06,-2.147521874962818e-13
	-3.896123679621466e-05,7.194919031802850e-14
19		1.548816618912481e+00,0.000000000000000e+00
	-3.896123679621467e-01,7.362510225271286e-10
	1.000000000000000e+00,0.000000000000000e+00
	0.000000000000000e+00,0.000000000000000e+00
	3.386087433543158e-06,6.057170316004520e-14
	3.386090355635806e-06,7.151615507979130e-14
	3.896123679621467e-05,-7.362510225271285e-14
	2.325791220725412e-06,2.197544085419077e-13
	-1.805914662897557e-06,-3.741239835982866e-14
	-3.948111335404253e-05,-1.087169079293662e-13
	-3.896123679621466e-05,7.362510225271286e-14
	-2.325791220059159e-06,-2.197544085419076e-13
	-3.896123679621466e-05,7.362510225271286e-14
20		1.584893192461113e+00,0.000000000000000e+00
	-3.896123679621467e-01,7.534005119115502e-10
	1.000000000000000e+00,0.000000000000000e+00
	0.000000000000000e+00,0.000000000000000e+00
	3.386087433543158e-06,6.198259937418425e-14
	3.386090355635806e-06,7.318198032801410e-14
	3.896123679621467e-05,-7.534005119115503e-14
	2.325791220725412e-06,2.248731462837360e-13
	-1.805914662897557e-06,-3.828384506602866e-14
	-3.948111335404253e-05,-1.112492500265523e-13
	-3.896123679621466e-05,7.534005119115503e-14
	-2.325791220059159e-06,-2.248731462837360e-13
	-3.896123679621466e-05,7.534005119115503e-14
21		1.621810097358929e+00,0.000000000000000e+00
	-3.896123679621467e-01,7.709494642198220e-10
	1.000000000000000e+00,0.000000000000000e+00
	0.000000000000000e+00,0.000000000000000e+00
	3.386087433543158e-06,6.342635958294821e-14
	3.386090355635806e-06,7.488660763088482e-14
	3.896123679621467e-05,-7.709494642198222e-14
	2.325791220725412e-06,2.301111147442720e-13
	-1.805914662897557e-06,-3.917559037362924e-14
	-3.948111335404253e-05,-1.138405779486605e-13
	-3.896123679621466e-05,7.709494642198220e-14
	-2.325791220059159e-06,-2.301111147442720e-13
	-3.896123679621466e-05,7.709494642198220e-14
22		1.659586907437560e+00,0.000000000000000e+00
	-3.896123679621467e-01,7.889071841387459e-10
	1.000000000000000e+00,0.000000000000000e+00
	0.000000000000000e+00,0.000000000000000e+00
	3.386087433543158e-06,6.490374928711015e-14
	3.386090355635806e-06,7.663094080436289e-14
	3.896123679621467e-05,-7.889071841387460e-14
	2.325791220725412e-06,2.354710911637260e-13
	-1.805914662897557e-06,-4.008810709779617e-14
	-3.948111335404253e-05,-1.164922656520552e-13
	-3.896123679621466e-05,7.889071841387460e-14
	-2.325791220059159e-06,-2.354710911637260e-13
	-3.896123679621466e-05,7.889071841387460e-14
23		1.698243652461743e+00,0.000000000000000e+00
	-3.896123679621467e-01,8.072831930891214e-10
	1.000000000000000e+00,0.000000000000000e+00
	0.000000000000000e+00,0.000000000000000e+00
	3.386087433543158e-06,6.641555181824683e-14
	3.386090355635806e-06,7.841590471698585e-14
	3.896123679621467e-05,-8.072831930891213e-14
	2.325791220725412e-06,2.409559174725434e-13
	-1.805914662897557e-06,-4.102187906697519e-14
	-3.948111335404253e-05,-1.192057190966561e-13
	-3.896123679621466e-05,8.072831930891214e-14
	-2.325791220059159e-06,-2.409559174725434e-13
	-3.896123679621466e-05,8.072831930891214e-14
24		1.737800828749374e+00,0.000000000000000e+00
	-3.896123679621467e-01,8.260872342741287e-10
	1.000000000000000e+00,0.000000000000000e+00
	0.000000000000000e+00,0.000000000000000e+00
	3.386087433543158e-06,6.796256875407126e-14
	3.386090355635806e-06,8.024244578024694e-14
	3.896123679621467e-05,-8.260872342741286e-14
	2.325791220725412e-06,2.465685017982334e-13
	-1.805914662897557e-06,-4.197740137942427e-14
	-3.948111335404253e-05,-1.219823769913963e-13
	-3.896123679621466e-05,8.260872342741288e-14
	-2.325791220059159e-06,-2.465685017982334e-13
	-3.896123679621466e-05,8.260872342741288e-14
25		1.778279410038922e+00,0.000000000000000e+00
	-3.896123679621467e-01,8.453292778453054e-10
	1.000000000000000e+00,0.000000000000000e+00
	0.000000000000000e+00,0.000000000000000e+00
	3.386087433543158e-06,6.954562034344006e-14
	3.386090355635806e-06,8.211153245039505e-14
	3.896123679621467e-05,-8.453292778453055e-14
	2.325791220725412e-06,2.523118200072968e-13
	-1.805914662897557e-06,-4.295518066572131e-14
	-3.948111335404253e-05,-1.248237115570449e-13
	-3.896123679621466e-05,8.453292778453054e-14
	-2.325791220059159e-06,-2.523118200072968e-13
	-3.896123679621466e-05,8.453292778453054e-14
26		1.819700858609982e+00,0.000000000000000e+00
	-3.896123679621467e-01,8.650195261888515e-10
	1.000000000000000e+00,0.000000000000000e+00
	0.000000000000000e+00,0.000000000000000e+00
	3.386087433543158e-06,7.116554594126005e-14
	3.386090355635806e-06,8.402415574192299e-14
	3.896123679621467e-05,-8.650195261888516e-14
	2.325791220725412e-06,2.581889172830697e-13
	-1.805914662897557e-06,-4.395573535738635e-14
	-3.948111335404253e-05,-1.277312293067982e-13
	-3.896123679621466e-05,8.650195261888516e-14
	-2.325791220059159e-06,-2.581889172830697e-13
	-3.896123679621466e-05,8.650195261888516e-14
27		1.862087136662866e+00,0.000000000000000e+00
	-3.896123679621467e-01,8.851684193350701e-10
	1.000000000000000e+00,0.000000000000000e+00
	0.000000000000000e+00,0.000000000000000e+00
	3.386087433543158e-06,7.282320445352548e-14
	3.386090355635806e-06,8.598132975301648e-14
	3.896123679621467e-05,-8.851684193350701e-14
	2.325791220725412e-06,2.642029097403205e-13
	-1.805914662897557e-06,-4.497959596176082e-14
	-3.948111335404253e-05,-1.307064718450527e-13
	-3.896123679621466e-05,8.851684193350701e-14
	-2.325791220059159e-06,-2.642029097403205e-13
	-3.896123679621466e-05,8.851684193350701e-14
28		1.905460717963246e+00,0.000000000000000e+00
	-3.896123679621467e-01,9.057866404938090e-10
	1.000000000000000e+00,0.000000000000000e+00
	0.000000000000000e+00,0.000000000000000e+00
	3.386087433543158e-06,7.451947479272123e-14
	3.386090355635806e-06,8.798409220324247e-14
	3.896123679621467e-05,-9.057866404938092e-14
	2.325791220725412e-06,2.703569860774546e-13
	-1.805914662897557e-06,-4.602730534328955e-14
	-3.948111335404253e-05,-1.337510166847841e-13
	-3.896123679621466e-05,9.057866404938090e-14
	-2.325791220059159e-06,-2.703569860774545e-13
	-3.896123679621466e-05,9.057866404938090e-14
29		1.949844599758044e+00,0.000000000000000e+00
	-3.896123679621467e-01,9.268851217188417e-10
	1.000000000000000e+00,0.000000000000000e+00
	0.000000000000000e+00,0.000000000000000e+00
	3.386087433543158e-06,7.625525634383395e-14
	3.386090355635806e-06,9.003350498376179e-14
	3.896123679621467e-05,-9.268851217188419e-14
	2.325791220725412e-06,2.766544092672048e-13
	-1.805914662897557e-06,-4.709941901135472e-14
	-3.948111335404253e-05,-1.368664780839658e-13
	-3.896123679621466e-05,9.268851217188417e-14
	-2.325791220059159e-06,-2.766544092672047e-13
	-3.896123679621466e-05,9.268851217188417e-14
30		1.995262314968878e+00,0.000000000000000e+00
	-3.896123679621467e-01,9.484750497041844e-10
	1.000000000000000e+00,0.000000000000000e+00
	0.000000000000000e+00,0.000000000000000e+00
	3.386087433543158e-06,7.803146944121778e-14
	3.386090355635806e-06,9.213065472035774e-14
	3.896123679621467e-05,-9.484750497041844e-14
	2.325791220725412e-06,2.830985182867022e-13
	-1.805914662897557e-06,-4.819650541481419e-14
	-3.948111335404253e-05,-1.400545079014696e-13
	-3.896123679621466e-05,9.484750497041844e-14
	-2.325791220059159e-06,-2.830985182867023e-13
	-3.896123679621466e-05,9.484750497041844e-14
31		2.041737944669527e+00,0.000000000000000e+00
	-3.896123679621467e-01,9.705678717154319e-10
	1.000000000000000e+00,0.000000000000000e+00
	0.000000000000000e+00,0.000000000000000e+00
	3.386087433543158e-06,7.984905585656795e-14
	3.386090355635806e-06,9.427665334957985e-14
	3.896123679621467e-05,-9.705678717154318e-14
	2.325791220725412e-06,2.896927298878473e-13
	-1.805914662897557e-06,-4.931914624340077e-14
	-3.948111335404253e-05,-1.433167964729033e-13
	-3.896123679621466e-05,9.705678717154319e-14
	-2.325791220059159e-06,-2.896927298878474e-13
	-3.896123679621466e-05,9.705678717154319e-14
32		2.089296130854037e+00,0.000000000000000e+00
	-3.896123679621467e-01,9.931753016592474e-10
	1.000000000000000e+00,0.000000000000000e+00
	0.000000000000000e+00,0.000000000000000e+00
	3.386087433543158e-06,8.170897929826052e-14
