Title: * GA CMOS Amp | W=2.617635765873986e-05 L=1.1392897071472943e-07 Vbias=0.7113653706712656
Date: Sat Sep  6 22:04:41 2025
Plotname: AC Analysis
Flags: complex forward log
No. Variables: 13
No. Points:          901
Offset:    0.0000000000000000e+00
Command: Linear Technology Corporation LTspice
Variables:
	0	frequency	frequency
	1	V(out)	voltage
	2	V(g)	voltage
	3	V(vdd)	voltage
	4	V(m1#dbody)	voltage
	5	V(m1#sbody)	voltage
	6	Id(M1)	device_current
	7	Ig(M1)	device_current
	8	Ib(M1)	device_current
	9	Is(M1)	device_current
	10	I(Rload)	device_current
	11	I(Vg)	device_current
	12	I(Vdd)	device_current
Values:
0		1.000000000000000e+00,0.000000000000000e+00
	-1.743932044306446e-02,3.066966037096635e-11
	1.000000000000000e+00,0.000000000000000e+00
	0.000000000000000e+00,0.000000000000000e+00
	9.679568700754564e-10,-1.050677661305906e-14
	9.681193558914797e-10,2.066399434929651e-16
	1.743932044306494e-06,-3.066966037096617e-15
	2.468104332940345e-07,8.747733726197294e-13
	-5.163194911448469e-10,6.040194194159620e-16
	-1.990226158109384e-06,-8.723104260020486e-13
	-1.743932044306446e-06,3.066966037096636e-15
	-2.468104332922771e-07,-8.747733726197294e-13
	-1.743932044306446e-06,3.066966037096636e-15
1		1.023292992280754e+00,0.000000000000000e+00
	-1.743932044306446e-02,3.138404853324063e-11
	1.000000000000000e+00,0.000000000000000e+00
	0.000000000000000e+00,0.000000000000000e+00
	9.679568700754543e-10,-1.075151087960265e-14
	9.681193558914785e-10,2.114532061016407e-16
	1.743932044306494e-06,-3.138404853324028e-15
	2.468104332940345e-07,8.951494620355699e-13
	-5.163194911448462e-10,6.180888390898445e-16
	-1.990226158109384e-06,-8.926291460213357e-13
	-1.743932044306446e-06,3.138404853324063e-15
	-2.468104332922771e-07,-8.951494620355701e-13
	-1.743932044306446e-06,3.138404853324063e-15
2		1.047128548050899e+00,0.000000000000000e+00
	-1.743932044306446e-02,3.211507693346421e-11
	1.000000000000000e+00,0.000000000000000e+00
	0.000000000000000e+00,0.000000000000000e+00
	9.679568700754523e-10,-1.100194573952768e-14
	9.681193558914774e-10,2.163785839991076e-16
	1.743932044306494e-06,-3.211507693346516e-15
	2.468104332940345e-07,9.160001715448856e-13
	-5.163194911448456e-10,6.324859776475843e-16
	-1.990226158109384e-06,-9.134211498291866e-13
	-1.743932044306446e-06,3.211507693346421e-15
	-2.468104332922771e-07,-9.160001715448856e-13
	-1.743932044306446e-06,3.211507693346421e-15
3		1.071519305237606e+00,0.000000000000000e+00
	-1.743932044306446e-02,3.286313317257122e-11
	1.000000000000000e+00,0.000000000000000e+00
	0.000000000000000e+00,0.000000000000000e+00
	9.679568700754500e-10,-1.125821397671177e-14
	9.681193558914762e-10,2.214186886859166e-16
	1.743932044306494e-06,-3.286313317257041e-15
	2.468104332940345e-07,9.373365564698499e-13
	-5.163194911448448e-10,6.472184686426158e-16
	-1.990226158109384e-06,-9.346974616212355e-13
	-1.743932044306446e-06,3.286313317257122e-15
	-2.468104332922771e-07,-9.373365564698501e-13
	-1.743932044306446e-06,3.286313317257122e-15
4		1.096478196143185e+00,0.000000000000000e+00
	-1.743932044306446e-02,3.362861387988131e-11
	1.000000000000000e+00,0.000000000000000e+00
	0.000000000000000e+00,0.000000000000000e+00
	9.679568700754475e-10,-1.152045146796640e-14
	9.681193558914748e-10,2.265761924922929e-16
	1.743932044306494e-06,-3.362861387988078e-15
	2.468104332940345e-07,9.591699296441706e-13
	-5.163194911448440e-10,6.622941234366693e-16
	-1.990226158109384e-06,-9.564693623796193e-13
	-1.743932044306446e-06,3.362861387988131e-15
	-2.468104332922771e-07,-9.591699296441708e-13
	-1.743932044306446e-06,3.362861387988131e-15
5		1.122018454301963e+00,0.000000000000000e+00
	-1.743932044306446e-02,3.441192492339785e-11
	1.000000000000000e+00,0.000000000000000e+00
	0.000000000000000e+00,0.000000000000000e+00
	9.679568700754452e-10,-1.178879725508054e-14
	9.681193558914735e-10,2.318538299950202e-16
	1.743932044306494e-06,-3.441192492339648e-15
	2.468104332940345e-07,9.815118674113037e-13
	-5.163194911448432e-10,6.777209353414678e-16
	-1.990226158109384e-06,-9.787483958543056e-13
	-1.743932044306446e-06,3.441192492339785e-15
	-2.468104332922771e-07,-9.815118674113041e-13
	-1.743932044306446e-06,3.441192492339785e-15
6		1.148153621496882e+00,0.000000000000000e+00
	-1.743932044306446e-02,3.521348162500444e-11
	1.000000000000000e+00,0.000000000000000e+00
	0.000000000000000e+00,0.000000000000000e+00
	9.679568700754430e-10,-1.206339361854251e-14
	9.681193558914723e-10,2.372543994673604e-16
	1.743932044306494e-06,-3.521348162500403e-15
	2.468104332940345e-07,1.004374215762384e-12
	-5.163194911448425e-10,6.935070838568805e-16
	-1.990226158109384e-06,-1.001546374683741e-12
	-1.743932044306446e-06,3.521348162500444e-15
	-2.468104332922771e-07,-1.004374215762384e-12
	-1.743932044306446e-06,3.521348162500444e-15
7		1.174897554939529e+00,0.000000000000000e+00
	-1.743932044306446e-02,3.603370898067415e-11
	1.000000000000000e+00,0.000000000000000e+00
	0.000000000000000e+00,0.000000000000000e+00
	9.679568700754403e-10,-1.234438615297892e-14
	9.681193558914708e-10,2.427807643627234e-16
	1.743932044306494e-06,-3.603370898067418e-15
	2.468104332940345e-07,1.027769096617126e-12
	-5.163194911448417e-10,7.096609390078098e-16
	-1.990226158109384e-06,-1.024875386658066e-12
	-1.743932044306446e-06,3.603370898067414e-15
	-2.468104332922771e-07,-1.027769096617126e-12
	-1.743932044306446e-06,3.603370898067414e-15
8		1.202264434617413e+00,0.000000000000000e+00
	-1.743932044306446e-02,3.687304188580793e-11
	1.000000000000000e+00,0.000000000000000e+00
	0.000000000000000e+00,0.000000000000000e+00
	9.679568700754374e-10,-1.263192384435090e-14
	9.681193558914692e-10,2.484358548329432e-16
	1.743932044306494e-06,-3.687304188580810e-15
	2.468104332940345e-07,1.051708914251026e-12
	-5.163194911448408e-10,7.261910657820698e-16
	-1.990226158109384e-06,-1.048747801128227e-12
	-1.743932044306446e-06,3.687304188580793e-15
	-2.468104332922771e-07,-1.051708914251026e-12
	-1.743932044306446e-06,3.687304188580793e-15
9		1.230268770812381e+00,0.000000000000000e+00
	-1.743932044306446e-02,3.773192536582198e-11
	1.000000000000000e+00,0.000000000000000e+00
	0.000000000000000e+00,0.000000000000000e+00
	9.679568700754345e-10,-1.292615914894844e-14
	9.681193558914675e-10,2.542226692818278e-16
	1.743932044306494e-06,-3.773192536582101e-15
	2.468104332940345e-07,1.076206361872275e-12
	-5.163194911448397e-10,7.431062286716849e-16
	-1.990226158109384e-06,-1.073176275564365e-12
	-1.743932044306446e-06,3.773192536582199e-15
	-2.468104332922771e-07,-1.076206361872275e-12
	-1.743932044306446e-06,3.773192536582199e-15
10		1.258925411794167e+00,0.000000000000000e+00
	-1.743932044306446e-02,3.861081481210606e-11
	1.000000000000000e+00,0.000000000000000e+00
	0.000000000000000e+00,0.000000000000000e+00
	9.679568700754316e-10,-1.322724807422470e-14
	9.681193558914659e-10,2.601442759550034e-16
	1.743932044306494e-06,-3.861081481210576e-15
	2.468104332940345e-07,1.101274428351865e-12
	-5.163194911448388e-10,7.604153963199143e-16
	-1.990226158109384e-06,-1.098173762266974e-12
	-1.743932044306446e-06,3.861081481210606e-15
	-2.468104332922771e-07,-1.101274428351865e-12
	-1.743932044306446e-06,3.861081481210606e-15
11		1.288249551693134e+00,0.000000000000000e+00
	-1.743932044306446e-02,3.951017622347807e-11
	1.000000000000000e+00,0.000000000000000e+00
	0.000000000000000e+00,0.000000000000000e+00
	9.679568700754283e-10,-1.353535026151323e-14
	9.681193558914640e-10,2.662038145667085e-16
	1.743932044306494e-06,-3.951017622347828e-15
	2.468104332940345e-07,1.126926405110457e-12
	-5.163194911448378e-10,7.781277462765594e-16
	-1.990226158109384e-06,-1.123753515234386e-12
	-1.743932044306446e-06,3.951017622347808e-15
	-2.468104332922771e-07,-1.126926405110457e-12
	-1.743932044306446e-06,3.951017622347808e-15
12		1.318256738556407e+00,0.000000000000000e+00
	-1.743932044306446e-02,4.043048645326280e-11
	1.000000000000000e+00,0.000000000000000e+00
	0.000000000000000e+00,0.000000000000000e+00
	9.679568700754250e-10,-1.385062907067197e-14
	9.681193558914621e-10,2.724044979645096e-16
	1.743932044306494e-06,-4.043048645326144e-15
	2.468104332940345e-07,1.153175893165673e-12
	-5.163194911448366e-10,7.962526698640244e-16
	-1.990226158109384e-06,-1.149929097190211e-12
	-1.743932044306446e-06,4.043048645326280e-15
	-2.468104332922771e-07,-1.153175893165673e-12
	-1.743932044306446e-06,4.043048645326280e-15
13		1.348962882591653e+00,0.000000000000000e+00
	-1.743932044306446e-02,4.137223346212578e-11
	1.000000000000000e+00,0.000000000000000e+00
	0.000000000000000e+00,0.000000000000000e+00
	9.679568700754214e-10,-1.417325166669872e-14
	9.681193558914603e-10,2.787496138328449e-16
	1.743932044306494e-06,-4.137223346212242e-15
	2.468104332940345e-07,1.180036810343533e-12
	-5.163194911448355e-10,8.147997771566938e-16
	-1.990226158109384e-06,-1.176714386774477e-12
	-1.743932044306446e-06,4.137223346212578e-15
	-2.468104332922771e-07,-1.180036810343533e-12
	-1.743932044306446e-06,4.137223346212578e-15
14		1.380384264602885e+00,0.000000000000000e+00
	-1.743932044306446e-02,4.233591657679664e-11
	1.000000000000000e+00,0.000000000000000e+00
	0.000000000000000e+00,0.000000000000000e+00
	9.679568700754179e-10,-1.450338910836432e-14
	9.681193558914584e-10,2.852425264361121e-16
	1.743932044306494e-06,-4.233591657679384e-15
	2.468104332940345e-07,1.207523398657870e-12
	-5.163194911448343e-10,8.337789020763676e-16
	-1.990226158109384e-06,-1.204123585902267e-12
	-1.743932044306446e-06,4.233591657679664e-15
	-2.468104332922771e-07,-1.207523398657871e-12
	-1.743932044306446e-06,4.233591657679664e-15
15		1.412537544622754e+00,0.000000000000000e+00
	-1.743932044306446e-02,4.332204675481860e-11
	1.000000000000000e+00,0.000000000000000e+00
	0.000000000000000e+00,0.000000000000000e+00
	9.679568700754140e-10,-1.484121643891022e-14
	9.681193558914561e-10,2.918866784025358e-16
	1.743932044306494e-06,-4.332204675481701e-15
	2.468104332940345e-07,1.235650231861638e-12
	-5.163194911448331e-10,8.532001076062854e-16
	-1.990226158109384e-06,-1.232171227293762e-12
	-1.743932044306446e-06,4.332204675481860e-15
	-2.468104332922771e-07,-1.235650231861638e-12
	-1.743932044306446e-06,4.332204675481860e-15
16		1.445439770745927e+00,0.000000000000000e+00
	-1.743932044306446e-02,4.433114685546506e-11
	1.000000000000000e+00,0.000000000000000e+00
	0.000000000000000e+00,0.000000000000000e+00
	9.679568700754103e-10,-1.518691277885875e-14
	9.681193558914541e-10,2.986855925494231e-16
	1.743932044306494e-06,-4.433114685546374e-15
	2.468104332940345e-07,1.264432223174103e-12
	-5.163194911448319e-10,8.730736911266960e-16
	-1.990226158109384e-06,-1.260872182179683e-12
	-1.743932044306446e-06,4.433114685546506e-15
	-2.468104332922771e-07,-1.264432223174103e-12
	-1.743932044306446e-06,4.433114685546506e-15
17		1.479108388168207e+00,0.000000000000000e+00
	-1.743932044306446e-02,4.536375191696636e-11
	1.000000000000000e+00,0.000000000000000e+00
	0.000000000000000e+00,0.000000000000000e+00
	9.679568700754059e-10,-1.554066142098520e-14
	9.681193558914516e-10,3.056428737510442e-16
	1.743932044306494e-06,-4.536375191696811e-15
	2.468104332940345e-07,1.293884633188034e-12
	-5.163194911448304e-10,8.934101898746423e-16
	-1.990226158109384e-06,-1.290241668186212e-12
	-1.743932044306446e-06,4.536375191696636e-15
	-2.468104332922771e-07,-1.293884633188034e-12
	-1.743932044306446e-06,4.536375191696636e-15
18		1.513561248436208e+00,0.000000000000000e+00
	-1.743932044306446e-02,4.642040944019431e-11
	1.000000000000000e+00,0.000000000000000e+00
	0.000000000000000e+00,0.000000000000000e+00
	9.679568700754014e-10,-1.590264992750202e-14
	9.681193558914491e-10,3.127622108499963e-16
	1.743932044306494e-06,-4.642040944019424e-15
	2.468104332940345e-07,1.324023077961069e-12
	-5.163194911448289e-10,9.142203865309386e-16
	-1.990226158109384e-06,-1.320295257403581e-12
	-1.743932044306446e-06,4.642040944019432e-15
	-2.468104332922771e-07,-1.324023077961069e-12
	-1.743932044306446e-06,4.642040944019432e-15
19		1.548816618912481e+00,0.000000000000000e+00
	-1.743932044306446e-02,4.750167967895421e-11
	1.000000000000000e+00,0.000000000000000e+00
	0.000000000000000e+00,0.000000000000000e+00
	9.679568700753970e-10,-1.627307022950686e-14
	9.681193558914468e-10,3.200473786130395e-16
	1.743932044306494e-06,-4.750167967895431e-15
	2.468104332940345e-07,1.354863537295557e-12
	-5.163194911448276e-10,9.355153149373103e-16
	-1.990226158109384e-06,-1.351048884642599e-12
	-1.743932044306446e-06,4.750167967895422e-15
	-2.468104332922771e-07,-1.354863537295557e-12
	-1.743932044306446e-06,4.750167967895422e-15
20		1.584893192461113e+00,0.000000000000000e+00
	-1.743932044306446e-02,4.860813593703895e-11
	1.000000000000000e+00,0.000000000000000e+00
	0.000000000000000e+00,0.000000000000000e+00
	9.679568700753921e-10,-1.665211872874693e-14
	9.681193558914439e-10,3.275022397325470e-16
	1.743932044306494e-06,-4.860813593703725e-15
	2.468104332940345e-07,1.386422363211257e-12
	-5.163194911448260e-10,9.573062659466734e-16
	-1.990226158109384e-06,-1.382518855883500e-12
	-1.743932044306446e-06,4.860813593703896e-15
	-2.468104332922771e-07,-1.386422363211257e-12
	-1.743932044306446e-06,4.860813593703896e-15
21		1.621810097358929e+00,0.000000000000000e+00
	-1.743932044306446e-02,4.974036487220224e-11
	1.000000000000000e+00,0.000000000000000e+00
	0.000000000000000e+00,0.000000000000000e+00
	9.679568700753871e-10,-1.703999640175384e-14
	9.681193558914413e-10,3.351307468745654e-16
	1.743932044306494e-06,-4.974036487220168e-15
	2.468104332940345e-07,1.418716288615402e-12
	-5.163194911448243e-10,9.796047934096875e-16
	-1.990226158109384e-06,-1.414721856921591e-12
	-1.743932044306446e-06,4.974036487220223e-15
	-2.468104332922771e-07,-1.418716288615402e-12
	-1.743932044306446e-06,4.974036487220223e-15
22		1.659586907437560e+00,0.000000000000000e+00
	-1.743932044306446e-02,5.089896680721235e-11
	1.000000000000000e+00,0.000000000000000e+00
	0.000000000000000e+00,0.000000000000000e+00
	9.679568700753817e-10,-1.743690890640396e-14
	9.681193558914382e-10,3.429369447745649e-16
	1.743932044306494e-06,-5.089896680721177e-15
	2.468104332940344e-07,1.451762436174701e-12
	-5.163194911448226e-10,1.002422720300766e-15
	-1.990226158109384e-06,-1.447674962214280e-12
	-1.743932044306446e-06,5.089896680721235e-15
	-2.468104332922771e-07,-1.451762436174701e-12
	-1.743932044306446e-06,5.089896680721235e-15
23		1.698243652461743e+00,0.000000000000000e+00
	-1.743932044306446e-02,5.208455604815110e-11
	1.000000000000000e+00,0.000000000000000e+00
	0.000000000000000e+00,0.000000000000000e+00
	9.679568700753762e-10,-1.784306669096105e-14
	9.681193558914351e-10,3.509249723819766e-16
	1.743932044306494e-06,-5.208455604815129e-15
	2.468104332940344e-07,1.485578327394007e-12
	-5.163194911448207e-10,1.025772144986788e-15
	-1.990226158109384e-06,-1.481395643934179e-12
	-1.743932044306446e-06,5.208455604815110e-15
	-2.468104332922771e-07,-1.485578327394007e-12
	-1.743932044306446e-06,5.208455604815110e-15
24		1.737800828749374e+00,0.000000000000000e+00
	-1.743932044306446e-02,5.329776121012718e-11
	1.000000000000000e+00,0.000000000000000e+00
	0.000000000000000e+00,0.000000000000000e+00
	9.679568700753706e-10,-1.825868510565859e-14
	9.681193558914320e-10,3.590990650547836e-16
	1.743932044306494e-06,-5.329776121012705e-15
	2.468104332940344e-07,1.520181891906451e-12
	-5.163194911448189e-10,1.049665447641783e-15
	-1.990226158109384e-06,-1.515901781233080e-12
	-1.743932044306446e-06,5.329776121012718e-15
	-2.468104332922771e-07,-1.520181891906451e-12
	-1.743932044306446e-06,5.329776121012718e-15
25		1.778279410038922e+00,0.000000000000000e+00
	-1.743932044306446e-02,5.453922555057616e-11
	1.000000000000000e+00,0.000000000000000e+00
	0.000000000000000e+00,0.000000000000000e+00
	9.679568700753646e-10,-1.868398451688141e-14
	9.681193558914286e-10,3.674635568051390e-16
	1.743932044306494e-06,-5.453922555057356e-15
	2.468104332940344e-07,1.555591476979970e-12
	-5.163194911448170e-10,1.074115296811073e-15
	-1.990226158109384e-06,-1.551211669721724e-12
	-1.743932044306446e-06,5.453922555057616e-15
	-2.468104332922771e-07,-1.555591476979970e-12
	-1.743932044306446e-06,5.453922555057616e-15
26		1.819700858609982e+00,0.000000000000000e+00
	-1.743932044306446e-02,5.580960731032402e-11
	1.000000000000000e+00,0.000000000000000e+00
	0.000000000000000e+00,0.000000000000000e+00
	9.679568700753582e-10,-1.911919042400685e-14
	9.681193558914251e-10,3.760228825972630e-16
	1.743932044306494e-06,-5.580960731032369e-15
	2.468104332940344e-07,1.591825857245271e-12
	-5.163194911448149e-10,1.099134656128331e-15
	-1.990226158109384e-06,-1.587344031170367e-12
	-1.743932044306446e-06,5.580960731032403e-15
	-2.468104332922771e-07,-1.591825857245271e-12
	-1.743932044306446e-06,5.580960731032403e-15
27		1.862087136662866e+00,0.000000000000000e+00
	-1.743932044306446e-02,5.710958006259532e-11
	1.000000000000000e+00,0.000000000000000e+00
	0.000000000000000e+00,0.000000000000000e+00
	9.679568700753518e-10,-1.956453357896751e-14
	9.681193558914216e-10,3.847815806989915e-16
	1.743932044306494e-06,-5.710958006259466e-15
	2.468104332940344e-07,1.628904244650390e-12
	-5.163194911448128e-10,1.124736791189035e-15
	-1.990226158109384e-06,-1.624318023435320e-12
	-1.743932044306446e-06,5.710958006259533e-15
	-2.468104332922771e-07,-1.628904244650390e-12
	-1.743932044306446e-06,5.710958006259533e-15
28		1.905460717963246e+00,0.000000000000000e+00
	-1.743932044306446e-02,5.843983307015046e-11
	1.000000000000000e+00,0.000000000000000e+00
	0.000000000000000e+00,0.000000000000000e+00
	9.679568700753447e-10,-2.002025010859896e-14
	9.681193558914177e-10,3.937442950879897e-16
	1.743932044306494e-06,-5.843983307014995e-15
	2.468104332940344e-07,1.666846298647119e-12
	-5.163194911448105e-10,1.150935276584082e-15
	-1.990226158109384e-06,-1.662153250616688e-12
	-1.743932044306446e-06,5.843983307015046e-15
	-2.468104332922771e-07,-1.666846298647119e-12
	-1.743932044306446e-06,5.843983307015046e-15
29		1.949844599758044e+00,0.000000000000000e+00
	-1.743932044306446e-02,5.980107165074204e-11
	1.000000000000000e+00,0.000000000000000e+00
	0.000000000000000e+00,0.000000000000000e+00
	9.679568700753375e-10,-2.048658163983732e-14
	9.681193558914135e-10,4.029157779140657e-16
	1.743932044306494e-06,-5.980107165074108e-15
	2.468104332940344e-07,1.705672136614710e-12
	-5.163194911448081e-10,1.177744003097203e-15
	-1.990226158109384e-06,-1.700869773452733e-12
	-1.743932044306446e-06,5.980107165074204e-15
	-2.468104332922771e-07,-1.705672136614710e-12
	-1.743932044306446e-06,5.980107165074204e-15
30		1.995262314968878e+00,0.000000000000000e+00
	-1.743932044306446e-02,6.119401755108359e-11
	1.000000000000000e+00,0.000000000000000e+00
	0.000000000000000e+00,0.000000000000000e+00
	9.679568700753298e-10,-2.096377542783310e-14
	9.681193558914094e-10,4.123008920187997e-16
	1.743932044306494e-06,-6.119401755108164e-15
	2.468104332940344e-07,1.745402344526374e-12
	-5.163194911448056e-10,1.205177185070057e-15
	-1.990226158109384e-06,-1.740488119956336e-12
	-1.743932044306446e-06,6.119401755108359e-15
	-2.468104332922771e-07,-1.745402344526374e-12
	-1.743932044306446e-06,6.119401755108359e-15
31		2.041737944669527e+00,0.000000000000000e+00
	-1.743932044306446e-02,6.261940932952929e-11
	1.000000000000000e+00,0.000000000000000e+00
	0.000000000000000e+00,0.000000000000000e+00
	9.679568700753218e-10,-2.145208448704906e-14
	9.681193558914049e-10,4.219046135139492e-16
	1.743932044306494e-06,-6.261940932953046e-15
	2.468104332940344e-07,1.786057987864237e-12
	-5.163194911448030e-10,1.233249367938830e-15
	-1.990226158109384e-06,-1.781029296299222e-12
	-1.743932044306446e-06,6.261940932952930e-15
	-2.468104332922771e-07,-1.786057987864237e-12
	-1.743932044306446e-06,6.261940932952930e-15
32		2.089296130854037e+00,0.000000000000000e+00
	-1.743932044306446e-02,6.407800274766742e-11
	1.000000000000000e+00,0.000000000000000e+00
	0.000000000000000e+00,0.000000000000000e+00
	9.679568700753133e-10,-2.195176772541198e-14
