LTspice 24.0.9 for Windows
Circuit: * GA CMOS Amp | W=1.4657834069194693e-05 L=6.103925110489871e-07 Vbias=0.82889735285347
Start Time: Sat Sep  6 22:03:31 2025
solver = Normal
Maximum thread count: 2
tnom = 27
temp = 27
method = modified trap
AsciiRawFile = 1
Direct Newton iteration for .op point succeeded.
Semiconductor Device Operating Points:
                        --- BSIM4 MOSFETS ---
Name:      m1
Model:      n
Id:      1.72e-04
Vgs:     8.29e-01
Vds:     8.21e-02
Vbs:     0.00e+00
Vth:     2.45e-01
Vdsat:   4.29e-01
Gm:      8.38e-05
Gds:     1.87e-03
Gmb      1.45e-04
Cbd:     7.14e-15
Cbs:     1.17e-14


.measure op idd find i(vdd)
  Error: FIND can not be evaluated over an interval.

gain_db: MAX(db(v(out)/v(g)))=(31.766dB,135.239°) FROM 1 TO 1e+09
gain_lin: MAX(mag(v(out)/v(g)))=(-6.45963dB,0°) FROM 1 TO 1e+09

Measurement "fc" FAIL'ed

Total elapsed time: 1.195 seconds.

