Title: * GA CMOS Amp | W=1e-06 L=6.820642007189056e-07 Vbias=1.412609449468549
Date: Sat Sep  6 22:10:02 2025
Plotname: AC Analysis
Flags: complex forward log
No. Variables: 13
No. Points:          901
Offset:    0.0000000000000000e+00
Command: Linear Technology Corporation LTspice
Variables:
	0	frequency	frequency
	1	V(out)	voltage
	2	V(g)	voltage
	3	V(vdd)	voltage
	4	V(m1#dbody)	voltage
	5	V(m1#sbody)	voltage
	6	Id(M1)	device_current
	7	Ig(M1)	device_current
	8	Ib(M1)	device_current
	9	Is(M1)	device_current
	10	I(Rload)	device_current
	11	I(Vg)	device_current
	12	I(Vdd)	device_current
Values:
0		1.000000000000000e+00,0.000000000000000e+00
	-3.074519978036717e-01,5.078429677549695e-10
	1.000000000000000e+00,0.000000000000000e+00
	0.000000000000000e+00,0.000000000000000e+00
	1.276935514811309e-05,4.411799399095707e-14
	1.276935745400266e-05,4.970379703934089e-14
	3.074519978036717e-05,-5.078429677549695e-14
	7.816538737352412e-06,1.525563788481233e-13
	-6.810323826888330e-06,-2.613649746136691e-14
	-3.175141469083126e-05,-7.563558461125948e-14
	-3.074519978036717e-05,5.078429677549696e-14
	-7.816538738047996e-06,-1.525563788481233e-13
	-3.074519978036717e-05,5.078429677549696e-14
1		1.023292992280754e+00,0.000000000000000e+00
	-3.074519978036717e-01,5.196721500827212e-10
	1.000000000000000e+00,0.000000000000000e+00
	0.000000000000000e+00,0.000000000000000e+00
	1.276935514811309e-05,4.514563408443079e-14
	1.276935745400266e-05,5.086154720010243e-14
	3.074519978036717e-05,-5.196721500827213e-14
	7.816538737352412e-06,1.561098734030125e-13
	-6.810323826888330e-06,-2.674529469498048e-14
	-3.175141469083126e-05,-7.739736369975987e-14
	-3.074519978036717e-05,5.196721500827212e-14
	-7.816538738047996e-06,-1.561098734030125e-13
	-3.074519978036717e-05,5.196721500827212e-14
2		1.047128548050899e+00,0.000000000000000e+00
	-3.074519978036717e-01,5.317768694631210e-10
	1.000000000000000e+00,0.000000000000000e+00
	0.000000000000000e+00,0.000000000000000e+00
	1.276935514811309e-05,4.619721099066918e-14
	1.276935745400266e-05,5.204626482642162e-14
	3.074519978036717e-05,-5.317768694631210e-14
	7.816538737352412e-06,1.597461394791383e-13
	-6.810323826888330e-06,-2.736827263785715e-14
	-3.175141469083126e-05,-7.920017989496908e-14
	-3.074519978036717e-05,5.317768694631210e-14
	-7.816538738047996e-06,-1.597461394791383e-13
	-3.074519978036717e-05,5.317768694631210e-14
3		1.071519305237606e+00,0.000000000000000e+00
	-3.074519978036717e-01,5.441635439786088e-10
	1.000000000000000e+00,0.000000000000000e+00
	0.000000000000000e+00,0.000000000000000e+00
	1.276935514811309e-05,4.727328226966722e-14
	1.276935745400266e-05,5.325857807126555e-14
	3.074519978036717e-05,-5.441635439786090e-14
	7.816538737352412e-06,1.634671050729061e-13
	-6.810323826888330e-06,-2.800576160114833e-14
	-3.175141469083126e-05,-8.104498907389691e-14
	-3.074519978036717e-05,5.441635439786088e-14
	-7.816538738047996e-06,-1.634671050729062e-13
	-3.074519978036717e-05,5.441635439786088e-14
4		1.096478196143185e+00,0.000000000000000e+00
	-3.074519978036717e-01,5.568387412079704e-10
	1.000000000000000e+00,0.000000000000000e+00
	0.000000000000000e+00,0.000000000000000e+00
	1.276935514811309e-05,4.837441846866046e-14
	1.276935745400266e-05,5.449912971916345e-14
	3.074519978036717e-05,-5.568387412079705e-14
	7.816538737352412e-06,1.672747430895265e-13
	-6.810323826888330e-06,-2.865809958994051e-14
	-3.175141469083126e-05,-8.293276937878900e-14
	-3.074519978036717e-05,5.568387412079705e-14
	-7.816538738047996e-06,-1.672747430895265e-13
	-3.074519978036717e-05,5.568387412079705e-14
5		1.122018454301963e+00,0.000000000000000e+00
	-3.074519978036717e-01,5.698091817085526e-10
	1.000000000000000e+00,0.000000000000000e+00
	0.000000000000000e+00,0.000000000000000e+00
	1.276935514811309e-05,4.950120342463696e-14
	1.276935745400266e-05,5.576857752701977e-14
	3.074519978036717e-05,-5.698091817085526e-14
	7.816538737352412e-06,1.711710723890760e-13
	-6.810323826888330e-06,-2.932563248247009e-14
	-3.175141469083126e-05,-8.486452173575070e-14
	-3.074519978036717e-05,5.698091817085527e-14
	-7.816538738047996e-06,-1.711710723890761e-13
	-3.074519978036717e-05,5.698091817085527e-14
6		1.148153621496882e+00,0.000000000000000e+00
	-3.074519978036717e-01,5.830817425795927e-10
	1.000000000000000e+00,0.000000000000000e+00
	0.000000000000000e+00,0.000000000000000e+00
	1.276935514811309e-05,5.065423457389505e-14
	1.276935745400266e-05,5.706759457286527e-14
	3.074519978036717e-05,-5.830817425795928e-14
	7.816538737352412e-06,1.751581588569232e-13
	-6.810323826888330e-06,-3.000871421351249e-14
	-3.175141469083126e-05,-8.684127038545142e-14
	-3.074519978036717e-05,5.830817425795928e-14
	-7.816538738047996e-06,-1.751581588569232e-13
	-3.074519978036717e-05,5.830817425795928e-14
7		1.174897554939529e+00,0.000000000000000e+00
	-3.074519978036717e-01,5.966634611085478e-10
	1.000000000000000e+00,0.000000000000000e+00
	0.000000000000000e+00,0.000000000000000e+00
	1.276935514811309e-05,5.183412326881231e-14
	1.276935745400266e-05,5.839686961273223e-14
	3.074519978036717e-05,-5.966634611085477e-14
	7.816538737352412e-06,1.792381164990886e-13
	-6.810323826888330e-06,-3.070770696204320e-14
	-3.175141469083126e-05,-8.886406342619063e-14
	-3.074519978036717e-05,5.966634611085479e-14
	-7.816538738047996e-06,-1.792381164990886e-13
	-3.074519978036717e-05,5.966634611085479e-14
8		1.202264434617413e+00,0.000000000000000e+00
	-3.074519978036717e-01,6.105615385023572e-10
	1.000000000000000e+00,0.000000000000000e+00
	0.000000000000000e+00,0.000000000000000e+00
	1.276935514811309e-05,5.304149510199240e-14
	1.276935745400266e-05,5.975710744584180e-14
	3.074519978036717e-05,-6.105615385023573e-14
	7.816538737352412e-06,1.834131085631188e-13
	-6.810323826888330e-06,-3.142298134326973e-14
	-3.175141469083126e-05,-9.093397336961334e-14
	-3.074519978036717e-05,6.105615385023572e-14
	-7.816538738047996e-06,-1.834131085631188e-13
	-3.074519978036717e-05,6.105615385023572e-14
9		1.230268770812381e+00,0.000000000000000e+00
	-3.074519978036717e-01,6.247833437056181e-10
	1.000000000000000e+00,0.000000000000000e+00
	0.000000000000000e+00,0.000000000000000e+00
	1.276935514811309e-05,5.427699023796277e-14
	1.276935745400266e-05,6.114902928829798e-14
	3.074519978036717e-05,-6.247833437056179e-14
	7.816538737352412e-06,1.876853486850686e-13
	-6.810323826888330e-06,-3.215491660513678e-14
	-3.175141469083126e-05,-9.305209770937004e-14
	-3.074519978036717e-05,6.247833437056181e-14
	-7.816538738047996e-06,-1.876853486850686e-13
	-3.074519978036717e-05,6.247833437056181e-14
10		1.258925411794167e+00,0.000000000000000e+00
	-3.074519978036717e-01,6.393364173076968e-10
	1.000000000000000e+00,0.000000000000000e+00
	0.000000000000000e+00,0.000000000000000e+00
	1.276935514811309e-05,5.554126375259821e-14
	1.276935745400266e-05,6.257337315548592e-14
	3.074519978036717e-05,-6.393364173076969e-14
	7.816538737352412e-06,1.920571020632006e-13
	-6.810323826888330e-06,-3.290390082940853e-14
	-3.175141469083126e-05,-9.521955950302238e-14
	-3.074519978036717e-05,6.393364173076969e-14
	-7.816538738047996e-06,-1.920571020632006e-13
	-3.074519978036717e-05,6.393364173076969e-14
11		1.288249551693134e+00,0.000000000000000e+00
	-3.074519978036717e-01,6.542284755408501e-10
	1.000000000000000e+00,0.000000000000000e+00
	0.000000000000000e+00,0.000000000000000e+00
	1.276935514811309e-05,5.683498598045081e-14
	1.276935745400266e-05,6.403089425337741e-14
	3.074519978036717e-05,-6.542284755408502e-14
	7.816538737352412e-06,1.965306866590227e-13
	-6.810323826888330e-06,-3.367033113743465e-14
	-3.175141469083126e-05,-9.743750796750309e-14
	-3.074519978036717e-05,6.542284755408502e-14
	-7.816538738047996e-06,-1.965306866590227e-13
	-3.074519978036717e-05,6.542284755408502e-14
12		1.318256738556407e+00,0.000000000000000e+00
	-3.074519978036717e-01,6.694674143714724e-10
	1.000000000000000e+00,0.000000000000000e+00
	0.000000000000000e+00,0.000000000000000e+00
	1.276935514811309e-05,5.815884287017020e-14
	1.276935745400266e-05,6.552236537895110e-14
	3.074519978036717e-05,-6.694674143714725e-14
	7.816538737352412e-06,2.011084744263027e-13
	-6.810323826888330e-06,-3.445461390070934e-14
	-3.175141469083126e-05,-9.970711908844606e-14
	-3.074519978036717e-05,6.694674143714724e-14
	-7.816538738047996e-06,-2.011084744263027e-13
	-3.074519978036717e-05,6.694674143714724e-14
13		1.348962882591653e+00,0.000000000000000e+00
	-3.074519978036717e-01,6.850613136866436e-10
	1.000000000000000e+00,0.000000000000000e+00
	0.000000000000000e+00,0.000000000000000e+00
	1.276935514811309e-05,5.951353634820268e-14
	1.276935745400266e-05,6.704857732993977e-14
	3.074519978036717e-05,-6.850613136866437e-14
	7.816538737352412e-06,2.057928925687088e-13
	-6.810323826888330e-06,-3.525716495633493e-14
	-3.175141469083126e-05,-1.020295962437095e-13
	-3.074519978036717e-05,6.850613136866437e-14
	-7.816538738047996e-06,-2.057928925687087e-13
	-3.074519978036717e-05,6.850613136866437e-14
14		1.380384264602885e+00,0.000000000000000e+00
	-3.074519978036717e-01,7.010184415781902e-10
	1.000000000000000e+00,0.000000000000000e+00
	0.000000000000000e+00,0.000000000000000e+00
	1.276935514811309e-05,6.089978469096176e-14
	1.276935745400266e-05,6.861033932412161e-14
	3.074519978036717e-05,-7.010184415781900e-14
	7.816538737352412e-06,2.105864248267458e-13
	-6.810323826888330e-06,-3.607840982750412e-14
	-3.175141469083126e-05,-1.044061708414227e-13
	-3.074519978036717e-05,7.010184415781903e-14
	-7.816538738047996e-06,-2.105864248267458e-13
	-3.074519978036717e-05,7.010184415781903e-14
15		1.412537544622754e+00,0.000000000000000e+00
	-3.074519978036717e-01,7.173472587265369e-10
	1.000000000000000e+00,0.000000000000000e+00
	0.000000000000000e+00,0.000000000000000e+00
	1.276935514811309e-05,6.231832290566792e-14
	1.276935745400266e-05,7.020847942837831e-14
	3.074519978036717e-05,-7.173472587265371e-14
	7.816538737352412e-06,2.154916127946668e-13
	-6.810323826888330e-06,-3.691878394911806e-14
	-3.175141469083126e-05,-1.068381029728950e-13
	-3.074519978036717e-05,7.173472587265370e-14
	-7.816538738047996e-06,-2.154916127946668e-13
	-3.074519978036717e-05,7.173472587265370e-14
16		1.445439770745927e+00,0.000000000000000e+00
	-3.074519978036717e-01,7.340564228866743e-10
	1.000000000000000e+00,0.000000000000000e+00
	0.000000000000000e+00,0.000000000000000e+00
	1.276935514811309e-05,6.376990312005915e-14
	1.276935745400266e-05,7.184384499774697e-14
	3.074519978036717e-05,-7.340564228866743e-14
	7.816538737352412e-06,2.205110572680602e-13
	-6.810323826888330e-06,-3.777873289865968e-14
	-3.175141469083126e-05,-1.093266820807331e-13
	-3.074519978036717e-05,7.340564228866744e-14
	-7.816538738047996e-06,-2.205110572680602e-13
	-3.074519978036717e-05,7.340564228866744e-14
17		1.479108388168207e+00,0.000000000000000e+00
	-3.074519978036717e-01,7.511547934786116e-10
	1.000000000000000e+00,0.000000000000000e+00
	0.000000000000000e+00,0.000000000000000e+00
	1.276935514811309e-05,6.525529498117913e-14
	1.276935745400266e-05,7.351730312469918e-14
	3.074519978036717e-05,-7.511547934786115e-14
	7.816538737352412e-06,2.256474196228260e-13
	-6.810323826888330e-06,-3.865871263244483e-14
	-3.175141469083126e-05,-1.118732276425200e-13
	-3.074519978036717e-05,7.511547934786117e-14
	-7.816538738047996e-06,-2.256474196228260e-13
	-3.074519978036717e-05,7.511547934786117e-14
18		1.513561248436208e+00,0.000000000000000e+00
	-3.074519978036717e-01,7.686514362847603e-10
	1.000000000000000e+00,0.000000000000000e+00
	0.000000000000000e+00,0.000000000000000e+00
	1.276935514811309e-05,6.677528606345408e-14
	1.276935745400266e-05,7.522974109888467e-14
	3.074519978036717e-05,-7.686514362847603e-14
	7.816538737352412e-06,2.309034232262726e-13
	-6.810323826888330e-06,-3.955918972737627e-14
	-3.175141469083126e-05,-1.144790898704203e-13
	-3.074519978036717e-05,7.686514362847603e-14
	-7.816538738047996e-06,-2.309034232262726e-13
	-3.074519978036717e-05,7.686514362847603e-14
19		1.548816618912481e+00,0.000000000000000e+00
	-3.074519978036717e-01,7.865556282567318e-10
	1.000000000000000e+00,0.000000000000000e+00
	0.000000000000000e+00,0.000000000000000e+00
	1.276935514811309e-05,6.833068228627526e-14
	1.276935745400266e-05,7.698206687758414e-14
	3.074519978036717e-05,-7.865556282567320e-14
	7.816538737352412e-06,2.362818548810819e-13
	-6.810323826888330e-06,-4.048064162832893e-14
	-3.175141469083126e-05,-1.171456504270798e-13
	-3.074519978036717e-05,7.865556282567319e-14
	-7.816538738047996e-06,-2.362818548810819e-13
	-3.074519978036717e-05,7.865556282567319e-14
20		1.584893192461113e+00,0.000000000000000e+00
	-3.074519978036717e-01,8.048768624340995e-10
	1.000000000000000e+00,0.000000000000000e+00
	0.000000000000000e+00,0.000000000000000e+00
	1.276935514811309e-05,6.992230834130811e-14
	1.276935745400266e-05,7.877520956712017e-14
	3.074519978036717e-05,-8.048768624340997e-14
	7.816538737352412e-06,2.417855663029092e-13
	-6.810323826888330e-06,-4.142355690129756e-14
	-3.175141469083126e-05,-1.198743231582016e-13
	-3.074519978036717e-05,8.048768624340996e-14
	-7.816538738047996e-06,-2.417855663029092e-13
	-3.074519978036717e-05,8.048768624340996e-14
21		1.621810097358929e+00,0.000000000000000e+00
	-3.074519978036717e-01,8.236248529777346e-10
	1.000000000000000e+00,0.000000000000000e+00
	0.000000000000000e+00,0.000000000000000e+00
	1.276935514811309e-05,7.155100812975472e-14
	1.276935745400266e-05,8.061011991548190e-14
	3.074519978036717e-05,-8.236248529777346e-14
	7.816538737352412e-06,2.474174756324006e-13
	-6.810323826888330e-06,-4.238843549244087e-14
	-3.175141469083126e-05,-1.226665548421863e-13
	-3.074519978036717e-05,8.236248529777346e-14
	-7.816538738047996e-06,-2.474174756324007e-13
	-3.074519978036717e-05,8.236248529777346e-14
22		1.659586907437560e+00,0.000000000000000e+00
	-3.074519978036717e-01,8.428095403203821e-10
	1.000000000000000e+00,0.000000000000000e+00
	0.000000000000000e+00,0.000000000000000e+00
	1.276935514811309e-05,7.321764520980127e-14
	1.276935745400266e-05,8.248777081642388e-14
	3.074519978036717e-05,-8.428095403203823e-14
	7.816538737352412e-06,2.531805689824297e-13
	-6.810323826888330e-06,-4.337578899315954e-14
	-3.175141469083126e-05,-1.255238259572320e-13
	-3.074519978036717e-05,8.428095403203822e-14
	-7.816538738047996e-06,-2.531805689824297e-13
	-3.074519978036717e-05,8.428095403203822e-14
23		1.698243652461743e+00,0.000000000000000e+00
	-3.074519978036717e-01,8.624410964372108e-10
	1.000000000000000e+00,0.000000000000000e+00
	0.000000000000000e+00,0.000000000000000e+00
	1.276935514811309e-05,7.492310325448818e-14
	1.276935745400266e-05,8.440915782530746e-14
	3.074519978036717e-05,-8.624410964372109e-14
	7.816538737352412e-06,2.590779020213745e-13
	-6.810323826888330e-06,-4.438614091134883e-14
	-3.175141469083126e-05,-1.284476514663045e-13
	-3.074519978036717e-05,8.624410964372108e-14
	-7.816538738047996e-06,-2.590779020213744e-13
	-3.074519978036717e-05,8.624410964372108e-14
24		1.737800828749374e+00,0.000000000000000e+00
	-3.074519978036717e-01,8.825299302391278e-10
	1.000000000000000e+00,0.000000000000000e+00
	0.000000000000000e+00,0.000000000000000e+00
	1.276935514811309e-05,7.666828652024510e-14
	1.276935745400266e-05,8.637529968695729e-14
	3.074519978036717e-05,-8.825299302391278e-14
	7.816538737352412e-06,2.651126015932722e-13
	-6.810323826888330e-06,-4.542002694896933e-14
	-3.175141469083126e-05,-1.314395816203901e-13
	-3.074519978036717e-05,8.825299302391278e-14
	-7.816538738047996e-06,-2.651126015932722e-13
	-3.074519978036717e-05,8.825299302391278e-14
25		1.778279410038922e+00,0.000000000000000e+00
	-3.074519978036717e-01,9.030866930917222e-10
	1.000000000000000e+00,0.000000000000000e+00
	0.000000000000000e+00,0.000000000000000e+00
	1.276935514811309e-05,7.845412032633984e-14
	1.276935745400266e-05,8.838723887581344e-14
	3.074519978036717e-05,-9.030866930917224e-14
	7.816538737352412e-06,2.712878673757150e-13
	-6.810323826888330e-06,-4.647799528608333e-14
	-3.175141469083126e-05,-1.345012027804594e-13
	-3.074519978036717e-05,9.030866930917222e-14
	-7.816538738047996e-06,-2.712878673757149e-13
	-3.074519978036717e-05,9.030866930917222e-14
26		1.819700858609982e+00,0.000000000000000e+00
	-3.074519978036717e-01,9.241222844627594e-10
	1.000000000000000e+00,0.000000000000000e+00
	0.000000000000000e+00,0.000000000000000e+00
	1.276935514811309e-05,8.028155154549459e-14
	1.276935745400266e-05,9.044604214866489e-14
	3.074519978036717e-05,-9.241222844627595e-14
	7.816538737352412e-06,2.776069735763597e-13
	-6.810323826888330e-06,-4.756060687150698e-14
	-3.175141469083126e-05,-1.376341382585768e-13
	-3.074519978036717e-05,9.241222844627594e-14
	-7.816538738047996e-06,-2.776069735763597e-13
	-3.074519978036717e-05,9.241222844627594e-14
27		1.862087136662866e+00,0.000000000000000e+00
	-3.074519978036717e-01,9.456478577012234e-10
	1.000000000000000e+00,0.000000000000000e+00
	0.000000000000000e+00,0.000000000000000e+00
	1.276935514811309e-05,8.215154910593079e-14
	1.276935745400266e-05,9.255280111025852e-14
	3.074519978036717e-05,-9.456478577012233e-14
	7.816538737352412e-06,2.840732706689574e-13
	-6.810323826888330e-06,-4.866843572023298e-14
	-3.175141469083126e-05,-1.408400491786021e-13
	-3.074519978036717e-05,9.456478577012235e-14
	-7.816538738047996e-06,-2.840732706689574e-13
	-3.074519978036717e-05,9.456478577012235e-14
28		1.905460717963246e+00,0.000000000000000e+00
	-3.074519978036717e-01,9.676748259509696e-10
	1.000000000000000e+00,0.000000000000000e+00
	0.000000000000000e+00,0.000000000000000e+00
	1.276935514811309e-05,8.406510450510722e-14
	1.276935745400266e-05,9.470863279208195e-14
	3.074519978036717e-05,-9.676748259509696e-14
	7.816538737352412e-06,2.906901871698180e-13
	-6.810323826888330e-06,-4.980206921778074e-14
	-3.175141469083126e-05,-1.441206353569403e-13
	-3.074519978036717e-05,9.676748259509696e-14
	-7.816538738047996e-06,-2.906901871698180e-13
	-3.074519978036717e-05,9.676748259509696e-14
29		1.949844599758044e+00,0.000000000000000e+00
	-3.074519978036717e-01,9.902148682021256e-10
	1.000000000000000e+00,0.000000000000000e+00
	0.000000000000000e+00,0.000000000000000e+00
	1.276935514811309e-05,8.602323233542547e-14
	1.276935745400266e-05,9.691468024462869e-14
	3.074519978036717e-05,-9.902148682021256e-14
	7.816538737352412e-06,2.974612314556555e-13
	-6.810323826888330e-06,-5.096210843163609e-14
	-3.175141469083126e-05,-1.474776362038069e-13
	-3.074519978036717e-05,9.902148682021257e-14
	-7.816538738047996e-06,-2.974612314556555e-13
	-3.074519978036717e-05,9.902148682021257e-14
30		1.995262314968878e+00,0.000000000000000e+00
	-3.074519978036717e-01,1.013279935483446e-09
	1.000000000000000e+00,0.000000000000000e+00
	0.000000000000000e+00,0.000000000000000e+00
	1.276935514811309e-05,8.802697082218004e-14
	1.276935745400266e-05,9.917211314345857e-14
	3.074519978036717e-05,-1.013279935483446e-13
	7.816538737352412e-06,3.043899936237757e-13
	-6.810323826888330e-06,-5.214916842994514e-14
	-3.175141469083126e-05,-1.509128316454860e-13
	-3.074519978036717e-05,1.013279935483446e-13
	-7.816538738047996e-06,-3.043899936237757e-13
	-3.074519978036717e-05,1.013279935483446e-13
31		2.041737944669527e+00,0.000000000000000e+00
	-3.074519978036717e-01,1.036882257198904e-09
	1.000000000000000e+00,0.000000000000000e+00
	0.000000000000000e+00,0.000000000000000e+00
	1.276935514811309e-05,9.007738237403924e-14
	1.276935745400266e-05,1.014821284093752e-13
	3.074519978036717e-05,-1.036882257198905e-13
	7.816538737352412e-06,3.114801473955931e-13
	-6.810323826888330e-06,-5.336387860763159e-14
	-3.175141469083126e-05,-1.544280430680710e-13
	-3.074519978036717e-05,1.036882257198904e-13
	-7.816538738047996e-06,-3.114801473955931e-13
	-3.074519978036717e-05,1.036882257198904e-13
32		2.089296130854037e+00,0.000000000000000e+00
	-3.074519978036717e-01,1.061034347611889e-09
	1.000000000000000e+00,0.000000000000000e+00
	0.000000000000000e+00,0.000000000000000e+00
	1.276935514811309e-05,9.217555414634829e-14
