LTspice 24.0.9 for Windows
Circuit: * GA CMOS Amp | W=5e-05 L=1.0078940624985244e-07 Vbias=1.1432432825060257
Start Time: Sat Sep  6 22:05:37 2025
solver = Normal
Maximum thread count: 2
tnom = 27
temp = 27
method = modified trap
AsciiRawFile = 1
Direct Newton iteration for .op point succeeded.
Semiconductor Device Operating Points:
                        --- BSIM4 MOSFETS ---
Name:      m1
Model:      n
Id:      1.80e-04
Vgs:     1.14e+00
Vds:     4.40e-03
Vbs:     0.00e+00
Vth:     3.61e-01
Vdsat:   5.73e-01
Gm:      3.38e-05
Gds:     4.07e-02
Gmb      9.39e-05
Cbd:     2.50e-14
Cbs:     4.00e-14


.measure op idd find i(vdd)
  Error: FIND can not be evaluated over an interval.

gain_db: MAX(db(v(out)/v(g)))=(36.6231dB,156.263°) FROM 1 TO 1e+09
gain_lin: MAX(mag(v(out)/v(g)))=(-34.308dB,0°) FROM 1 TO 1e+09

Measurement "fc" FAIL'ed

Total elapsed time: 7.736 seconds.

