LTspice 24.0.9 for Windows
Circuit: * GA CMOS Amp | W=1.95244884342926e-06 L=7.09243050381034e-07 Vbias=1.4450168566471895
Start Time: Sat Sep  6 22:15:03 2025
solver = Normal
Maximum thread count: 2
tnom = 27
temp = 27
method = modified trap
AsciiRawFile = 1
Direct Newton iteration for .op point succeeded.
Semiconductor Device Operating Points:
                        --- BSIM4 MOSFETS ---
Name:      m1
Model:      n
Id:      1.08e-04
Vgs:     1.45e+00
Vds:     7.21e-01
Vbs:     0.00e+00
Vth:     2.42e-01
Vdsat:   8.33e-01
Gm:      4.11e-05
Gds:     4.16e-05
Gmb      5.88e-05
Cbd:     8.16e-16
Cbs:     1.56e-15


.measure op idd find i(vdd)
  Error: FIND can not be evaluated over an interval.

gain_db: MAX(db(v(out)/v(g)))=(29.371dB,111.918°) FROM 1 TO 1e+09
gain_lin: MAX(mag(v(out)/v(g)))=(-1.93853dB,0°) FROM 1 TO 1e+09

Measurement "fc" FAIL'ed

Total elapsed time: 1.744 seconds.

