Title: * GA CMOS Amp | W=7.0990305500921455e-06 L=5.922048614196644e-07 Vbias=0.5769684730026553
Date: Sat Sep  6 22:37:53 2025
Plotname: AC Analysis
Flags: complex forward log
No. Variables: 13
No. Points:          901
Offset:    0.0000000000000000e+00
Command: Linear Technology Corporation LTspice
Variables:
	0	frequency	frequency
	1	V(out)	voltage
	2	V(g)	voltage
	3	V(vdd)	voltage
	4	V(m1#dbody)	voltage
	5	V(m1#sbody)	voltage
	6	Id(M1)	device_current
	7	Ig(M1)	device_current
	8	Ib(M1)	device_current
	9	Is(M1)	device_current
	10	I(Rload)	device_current
	11	I(Vg)	device_current
	12	I(Vdd)	device_current
Values:
0		1.000000000000000e+00,0.000000000000000e+00
	-4.059181287380457e+00,4.365627065928418e-09
	1.000000000000000e+00,0.000000000000000e+00
	0.000000000000000e+00,0.000000000000000e+00
	6.998669369371228e-10,-3.977144244815892e-13
	7.303107968464835e-10,2.025895622045852e-13
	4.059181287380457e-04,-4.365627065928419e-13
	1.811821732426418e-07,1.032684844206773e-12
	-3.874695012821708e-10,-6.802750082984574e-14
	-4.060989234417871e-04,-5.280946367840849e-13
	-4.059181287380457e-04,4.365627065928419e-13
	-1.811821732644603e-07,-1.032684844206772e-12
	-4.059181287380457e-04,4.365627065928419e-13
1		1.023292992280754e+00,0.000000000000000e+00
	-4.059181287380457e+00,4.467315583475741e-09
	1.000000000000000e+00,0.000000000000000e+00
	0.000000000000000e+00,0.000000000000000e+00
	6.998669369370881e-10,-4.069783835009833e-13
	7.303107968464793e-10,2.073084793131780e-13
	4.059181287380457e-04,-4.467315583475740e-13
	1.811821732426418e-07,1.056739164311333e-12
	-3.874695012821665e-10,-6.961206488155435e-14
	-4.060989234417871e-04,-5.403955410822043e-13
	-4.059181287380457e-04,4.467315583475742e-13
	-1.811821732644603e-07,-1.056739164311333e-12
	-4.059181287380457e-04,4.467315583475742e-13
2		1.047128548050899e+00,0.000000000000000e+00
	-4.059181287380457e+00,4.571372730877334e-09
	1.000000000000000e+00,0.000000000000000e+00
	0.000000000000000e+00,0.000000000000000e+00
	6.998669369370516e-10,-4.164581278463054e-13
	7.303107968464747e-10,2.121373141215546e-13
	4.059181287380457e-04,-4.571372730877333e-13
	1.811821732426418e-07,1.081353781508407e-12
	-3.874695012821620e-10,-7.123353817148774e-14
	-4.060989234417871e-04,-5.529829702491859e-13
	-4.059181287380457e-04,4.571372730877335e-13
	-1.811821732644603e-07,-1.081353781508407e-12
	-4.059181287380457e-04,4.571372730877335e-13
3		1.071519305237606e+00,0.000000000000000e+00
	-4.059181287380457e+00,4.677853680610108e-09
	1.000000000000000e+00,0.000000000000000e+00
	0.000000000000000e+00,0.000000000000000e+00
	6.998669369370137e-10,-4.261586838034867e-13
	7.303107968464701e-10,2.170786269418478e-13
	4.059181287380457e-04,-4.677853680610108e-13
	1.811821732426418e-07,1.106541746793846e-12
	-3.874695012821572e-10,-7.289278042624698e-14
	-4.060989234417871e-04,-5.658635983065887e-13
	-4.059181287380457e-04,4.677853680610109e-13
	-1.811821732644603e-07,-1.106541746793846e-12
	-4.059181287380457e-04,4.677853680610109e-13
4		1.096478196143185e+00,0.000000000000000e+00
	-4.059181287380457e+00,4.786814890283057e-09
	1.000000000000000e+00,0.000000000000000e+00
	0.000000000000000e+00,0.000000000000000e+00
	6.998669369369738e-10,-4.360851947356975e-13
	7.303107968464651e-10,2.221350377235211e-13
	4.059181287380457e-04,-4.786814890283055e-13
	1.811821732426418e-07,1.132316415160248e-12
	-3.874695012821522e-10,-7.459067139803829e-14
	-4.060989234417871e-04,-5.790442547339037e-13
	-4.059181287380457e-04,4.786814890283057e-13
	-1.811821732644603e-07,-1.132316415160247e-12
	-4.059181287380457e-04,4.786814890283057e-13
5		1.122018454301963e+00,0.000000000000000e+00
	-4.059181287380457e+00,4.898314132571819e-09
	1.000000000000000e+00,0.000000000000000e+00
	0.000000000000000e+00,0.000000000000000e+00
	6.998669369369320e-10,-4.462429238104273e-13
	7.303107968464599e-10,2.273092274425001e-13
	4.059181287380457e-04,-4.898314132571818e-13
	1.811821732426418e-07,1.158691452677946e-12
	-3.874695012821471e-10,-7.632811133112907e-14
	-4.060989234417871e-04,-5.925319280896356e-13
	-4.059181287380457e-04,4.898314132571819e-13
	-1.811821732644603e-07,-1.158691452677946e-12
	-4.059181287380457e-04,4.898314132571819e-13
6		1.148153621496882e+00,0.000000000000000e+00
	-4.059181287380457e+00,5.012410525850523e-09
	1.000000000000000e+00,0.000000000000000e+00
	0.000000000000000e+00,0.000000000000000e+00
	6.998669369368883e-10,-4.566372567900848e-13
	7.303107968464544e-10,2.326039395226625e-13
	4.059181287380457e-04,-5.012410525850522e-13
	1.811821732426418e-07,1.185680843740950e-12
	-3.874695012821416e-10,-7.810602143916961e-14
	-4.060989234417871e-04,-6.063337697167278e-13
	-4.059181287380457e-04,5.012410525850523e-13
	-1.811821732644603e-07,-1.185680843740949e-12
	-4.059181287380457e-04,5.012410525850523e-13
7		1.174897554939529e+00,0.000000000000000e+00
	-4.059181287380457e+00,5.129164565537131e-09
	1.000000000000000e+00,0.000000000000000e+00
	0.000000000000000e+00,0.000000000000000e+00
	6.998669369368425e-10,-4.672737048876010e-13
	7.303107968464488e-10,2.380219812904367e-13
	4.059181287380457e-04,-5.129164565537129e-13
	1.811821732426418e-07,1.213298898481646e-12
	-3.874695012821359e-10,-7.992534439363254e-14
	-4.060989234417871e-04,-6.204570975343001e-13
	-4.059181287380457e-04,5.129164565537132e-13
	-1.811821732644603e-07,-1.213298898481645e-12
	-4.059181287380457e-04,5.129164565537132e-13
8		1.202264434617413e+00,0.000000000000000e+00
	-4.059181287380457e+00,5.248638156168904e-09
	1.000000000000000e+00,0.000000000000000e+00
	0.000000000000000e+00,0.000000000000000e+00
	6.998669369367945e-10,-4.781579076885471e-13
	7.303107968464428e-10,2.435662254632848e-13
	4.059181287380457e-04,-5.248638156168905e-13
	1.811821732426418e-07,1.241560260358226e-12
	-3.874695012821298e-10,-8.178704482363009e-14
	-4.060989234417871e-04,-6.349093999177057e-13
	-4.059181287380457e-04,5.248638156168904e-13
	-1.811821732644603e-07,-1.241560260358226e-12
	-4.059181287380457e-04,5.248638156168904e-13
9		1.230268770812381e+00,0.000000000000000e+00
	-4.059181287380457e+00,5.370894644225018e-09
	1.000000000000000e+00,0.000000000000000e+00
	0.000000000000000e+00,0.000000000000000e+00
	6.998669369367442e-10,-4.892956361413180e-13
	7.303107968464366e-10,2.492396116728535e-13
	4.059181287380457e-04,-5.370894644225018e-13
	1.811821732426418e-07,1.270479913918842e-12
	-3.874695012821236e-10,-8.369210982737260e-14
	-4.060989234417871e-04,-6.496983396689671e-13
	-4.059181287380457e-04,5.370894644225018e-13
	-1.811821732644603e-07,-1.270479913918841e-12
	-4.059181287380457e-04,5.370894644225018e-13
10		1.258925411794167e+00,0.000000000000000e+00
	-4.059181287380457e+00,5.495998851713695e-09
	1.000000000000000e+00,0.000000000000000e+00
	0.000000000000000e+00,0.000000000000000e+00
	6.998669369366917e-10,-5.006927956169646e-13
	7.303107968464300e-10,2.550451480236074e-13
	4.059181287380457e-04,-5.495998851713695e-13
	1.811821732426418e-07,1.300073192746606e-12
	-3.874695012821171e-10,-8.564154949554159e-14
	-4.060989234417871e-04,-6.648317580796950e-13
	-4.059181287380457e-04,5.495998851713696e-13
	-1.811821732644603e-07,-1.300073192746606e-12
	-4.059181287380457e-04,5.495998851713696e-13
11		1.288249551693134e+00,0.000000000000000e+00
	-4.059181287380457e+00,5.624017110541697e-09
	1.000000000000000e+00,0.000000000000000e+00
	0.000000000000000e+00,0.000000000000000e+00
	6.998669369366367e-10,-5.123554290402995e-13
	7.303107968464233e-10,2.609859126877652e-13
	4.059181287380457e-04,-5.624017110541696e-13
	1.811821732426418e-07,1.330355787589668e-12
	-3.874695012821103e-10,-8.763639744685315e-14
	-4.060989234417871e-04,-6.803176790886457e-13
	-4.059181287380457e-04,5.624017110541697e-13
	-1.811821732644603e-07,-1.330355787589668e-12
	-4.059181287380457e-04,5.624017110541697e-13
12		1.318256738556407e+00,0.000000000000000e+00
	-4.059181287380457e+00,5.755017297684373e-09
	1.000000000000000e+00,0.000000000000000e+00
	0.000000000000000e+00,0.000000000000000e+00
	6.998669369365792e-10,-5.242897200939378e-13
	7.303107968464162e-10,2.670650555373867e-13
	4.059181287380457e-04,-5.755017297684372e-13
	1.811821732426418e-07,1.361343754680651e-12
	-3.874695012821031e-10,-8.967771137609571e-14
	-4.060989234417871e-04,-6.961643135361180e-13
	-4.059181287380457e-04,5.755017297684373e-13
	-1.811821732644603e-07,-1.361343754680651e-12
	-4.059181287380457e-04,5.755017297684373e-13
13		1.348962882591653e+00,0.000000000000000e+00
	-4.059181287380457e+00,5.889068871174942e-09
	1.000000000000000e+00,0.000000000000000e+00
	0.000000000000000e+00,0.000000000000000e+00
	6.998669369365188e-10,-5.365019964969648e-13
	7.303107968464086e-10,2.732857998144782e-13
	4.059181287380457e-04,-5.889068871174941e-13
	1.811821732426417e-07,1.393053524249880e-12
	-3.874695012820955e-10,-9.176657361493479e-14
	-4.060989234417871e-04,-7.123800635174513e-13
	-4.059181287380457e-04,5.889068871174943e-13
	-1.811821732644603e-07,-1.393053524249880e-12
	-4.059181287380457e-04,5.889068871174943e-13
14		1.380384264602885e+00,0.000000000000000e+00
	-4.059181287380457e+00,6.026242906932050e-09
	1.000000000000000e+00,0.000000000000000e+00
	0.000000000000000e+00,0.000000000000000e+00
	6.998669369364555e-10,-5.489987333599777e-13
	7.303107968464009e-10,2.796514438399967e-13
	4.059181287380457e-04,-6.026242906932049e-13
	1.811821732426417e-07,1.425501909236910e-12
	-3.874695012820877e-10,-9.390409170577879e-14
	-4.060989234417871e-04,-7.289735268379265e-13
	-4.059181287380457e-04,6.026242906932050e-13
	-1.811821732644603e-07,-1.425501909236910e-12
	-4.059181287380457e-04,6.026242906932050e-13
15		1.412537544622754e+00,0.000000000000000e+00
	-4.059181287380457e+00,6.166612136445168e-09
	1.000000000000000e+00,0.000000000000000e+00
	0.000000000000000e+00,0.000000000000000e+00
	6.998669369363894e-10,-5.617865566182754e-13
	7.303107968463927e-10,2.861653627626635e-13
	4.059181287380457e-04,-6.166612136445167e-13
	1.811821732426417e-07,1.458706114204966e-12
	-3.874695012820795e-10,-9.609139898901272e-14
	-4.060989234417871e-04,-7.459535015714364e-13
	-4.059181287380457e-04,6.166612136445168e-13
	-1.811821732644603e-07,-1.458706114204966e-12
	-4.059181287380457e-04,6.166612136445168e-13
16		1.445439770745927e+00,0.000000000000000e+00
	-4.059181287380457e+00,6.310250985337787e-09
	1.000000000000000e+00,0.000000000000000e+00
	0.000000000000000e+00,0.000000000000000e+00
	6.998669369363200e-10,-5.748722465450163e-13
	7.303107968463840e-10,2.928310103485134e-13
	4.059181287380457e-04,-6.310250985337786e-13
	1.811821732426417e-07,1.492683744463030e-12
	-3.874695012820709e-10,-9.832965520391062e-14
	-4.060989234417871e-04,-7.633289907253412e-13
	-4.059181287380457e-04,6.310250985337787e-13
	-1.811821732644603e-07,-1.492683744463030e-12
	-4.059181287380457e-04,6.310250985337787e-13
17		1.479108388168207e+00,0.000000000000000e+00
	-4.059181287380457e+00,6.457235612828882e-09
	1.000000000000000e+00,0.000000000000000e+00
	0.000000000000000e+00,0.000000000000000e+00
	6.998669369362475e-10,-5.882627413462091e-13
	7.303107968463751e-10,2.996519208121266e-13
	4.059181287380457e-04,-6.457235612828880e-13
	1.811821732426417e-07,1.527452815400415e-12
	-3.874695012820618e-10,-1.006200471035445e-13
	-4.060989234417871e-04,-7.811092070139823e-13
	-4.059181287380457e-04,6.457235612828882e-13
	-1.811821732644603e-07,-1.527452815400415e-12
	-4.059181287380457e-04,6.457235612828882e-13
18		1.513561248436208e+00,0.000000000000000e+00
	-4.059181287380457e+00,6.607643952113516e-09
	1.000000000000000e+00,0.000000000000000e+00
	0.000000000000000e+00,0.000000000000000e+00
	6.998669369361716e-10,-6.019651408394417e-13
	7.303107968463657e-10,3.066317106905168e-13
	4.059181287380457e-04,-6.607643952113514e-13
	1.811821732426417e-07,1.563031762038753e-12
	-3.874695012820524e-10,-1.029637890840165e-13
	-4.060989234417871e-04,-7.993035777433852e-13
	-4.059181287380457e-04,6.607643952113517e-13
	-1.811821732644603e-07,-1.563031762038753e-12
	-4.059181287380457e-04,6.607643952113517e-13
19		1.548816618912481e+00,0.000000000000000e+00
	-4.059181287380457e+00,6.761555751684066e-09
	1.000000000000000e+00,0.000000000000000e+00
	0.000000000000000e+00,0.000000000000000e+00
	6.998669369360920e-10,-6.159867102182978e-13
	7.303107968463559e-10,3.137740807606653e-13
	4.059181287380457e-04,-6.761555751684066e-13
	1.811821732426417e-07,1.599439448806495e-12
	-3.874695012820425e-10,-1.053621238283477e-13
	-4.060989234417871e-04,-8.179217498097408e-13
	-4.059181287380457e-04,6.761555751684067e-13
	-1.811821732644603e-07,-1.599439448806495e-12
	-4.059181287380457e-04,6.761555751684067e-13
20		1.584893192461113e+00,0.000000000000000e+00
	-4.059181287380457e+00,6.919052617613934e-09
	1.000000000000000e+00,0.000000000000000e+00
	0.000000000000000e+00,0.000000000000000e+00
	6.998669369360088e-10,-6.303348839044598e-13
	7.303107968463456e-10,3.210828180017242e-13
	4.059181287380457e-04,-6.919052617613931e-13
	1.811821732426417e-07,1.636695179541079e-12
	-3.874695012820321e-10,-1.078163229653652e-13
	-4.060989234417871e-04,-8.369735948143202e-13
	-4.059181287380457e-04,6.919052617613934e-13
	-1.811821732644603e-07,-1.636695179541078e-12
	-4.059181287380457e-04,6.919052617613934e-13
21		1.621810097358929e+00,0.000000000000000e+00
	-4.059181287380457e+00,7.080218056826145e-09
	1.000000000000000e+00,0.000000000000000e+00
	0.000000000000000e+00,0.000000000000000e+00
	6.998669369359215e-10,-6.450172694895363e-13
	7.303107968463348e-10,3.285617976029213e-13
	4.059181287380457e-04,-7.080218056826145e-13
	1.811821732426416e-07,1.674818707724076e-12
	-3.874695012820213e-10,-1.103276877439368e-13
	-4.060989234417871e-04,-8.564692142975251e-13
	-4.059181287380457e-04,7.080218056826146e-13
	-1.811821732644603e-07,-1.674818707724076e-12
	-4.059181287380457e-04,7.080218056826146e-13
22		1.659586907437560e+00,0.000000000000000e+00
	-4.059181287380457e+00,7.245137521369854e-09
	1.000000000000000e+00,0.000000000000000e+00
	0.000000000000000e+00,0.000000000000000e+00
	6.998669369358301e-10,-6.600416517687091e-13
	7.303107968463234e-10,3.362149850182368e-13
	4.059181287380457e-04,-7.245137521369852e-13
	1.811821732426416e-07,1.713830246954756e-12
	-3.874695012820099e-10,-1.128975497229098e-13
	-4.060989234417871e-04,-8.764189450948610e-13
	-4.059181287380457e-04,7.245137521369854e-13
	-1.811821732644603e-07,-1.713830246954755e-12
	-4.059181287380457e-04,7.245137521369854e-13
23		1.698243652461743e+00,0.000000000000000e+00
	-4.059181287380457e+00,7.413898453728123e-09
	1.000000000000000e+00,0.000000000000000e+00
	0.000000000000000e+00,0.000000000000000e+00
	6.998669369357347e-10,-6.754159968683339e-13
	7.303107968463119e-10,3.440464380689404e-13
	4.059181287380457e-04,-7.413898453728123e-13
	1.811821732426416e-07,1.753750481667596e-12
	-3.874695012819981e-10,-1.155272714771216e-13
	-4.060989234417871e-04,-8.968333648176622e-13
	-4.059181287380457e-04,7.413898453728123e-13
	-1.811821732644603e-07,-1.753750481667596e-12
	-4.059181287380457e-04,7.413898453728123e-13
24		1.737800828749374e+00,0.000000000000000e+00
	-4.059181287380457e+00,7.586590333181105e-09
	1.000000000000000e+00,0.000000000000000e+00
	0.000000000000000e+00,0.000000000000000e+00
	6.998669369356344e-10,-6.911484564696858e-13
	7.303107968462993e-10,3.520603090951011e-13
	4.059181287380457e-04,-7.586590333181105e-13
	1.811821732426416e-07,1.794600578099448e-12
	-3.874695012819856e-10,-1.182182473198547e-13
	-4.060989234417871e-04,-9.177232974614826e-13
	-4.059181287380457e-04,7.586590333181105e-13
	-1.811821732644603e-07,-1.794600578099448e-12
	-4.059181287380457e-04,7.586590333181105e-13
25		1.778279410038922e+00,0.000000000000000e+00
	-4.059181287380457e+00,7.763304723249136e-09
	1.000000000000000e+00,0.000000000000000e+00
	0.000000000000000e+00,0.000000000000000e+00
	6.998669369355294e-10,-7.072473721310894e-13
	7.303107968462864e-10,3.602608471572132e-13
	4.059181287380457e-04,-7.763304723249136e-13
	1.811821732426416e-07,1.836402195512155e-12
	-3.874695012819725e-10,-1.209719040421203e-13
	-4.060989234417871e-04,-9.390998191451211e-13
	-4.059181287380457e-04,7.763304723249137e-13
	-1.811821732644603e-07,-1.836402195512154e-12
	-4.059181287380457e-04,7.763304723249137e-13
26		1.819700858609982e+00,0.000000000000000e+00
	-4.059181287380457e+00,7.944135320240921e-09
	1.000000000000000e+00,0.000000000000000e+00
	0.000000000000000e+00,0.000000000000000e+00
	6.998669369354196e-10,-7.237212797107227e-13
	7.303107968462728e-10,3.686524002891040e-13
	4.059181287380457e-04,-7.944135320240921e-13
	1.811821732426416e-07,1.879177497676580e-12
	-3.874695012819588e-10,-1.237897016691616e-13
	-4.060989234417871e-04,-9.609742639833260e-13
	-4.059181287380457e-04,7.944135320240922e-13
	-1.811821732644603e-07,-1.879177497676580e-12
	-4.059181287380457e-04,7.944135320240922e-13
27		1.862087136662866e+00,0.000000000000000e+00
	-4.059181287380457e+00,8.129178002932559e-09
	1.000000000000000e+00,0.000000000000000e+00
	0.000000000000000e+00,0.000000000000000e+00
	6.998669369353045e-10,-7.405789138924415e-13
	7.303107968462585e-10,3.772394178033196e-13
	4.059181287380457e-04,-8.129178002932560e-13
	1.811821732426416e-07,1.922949164624127e-12
	-3.874695012819445e-10,-1.266731342345783e-13
	-4.060989234417871e-04,-9.833582300962930e-13
	-4.059181287380457e-04,8.129178002932559e-13
	-1.811821732644603e-07,-1.922949164624126e-12
	-4.059181287380457e-04,8.129178002932559e-13
28		1.905460717963246e+00,0.000000000000000e+00
	-4.059181287380457e+00,8.318530883403744e-09
	1.000000000000000e+00,0.000000000000000e+00
	0.000000000000000e+00,0.000000000000000e+00
	6.998669369351843e-10,-7.578292128170276e-13
	7.303107968462437e-10,3.860264526502086e-13
	4.059181287380457e-04,-8.318530883403740e-13
	1.811821732426416e-07,1.967740404671999e-12
	-3.874695012819296e-10,-1.296237305724832e-13
	-4.060989234417871e-04,-1.006263585759142e-12
	-4.059181287380457e-04,8.318530883403744e-13
	-1.811821732644603e-07,-1.967740404671999e-12
	-4.059181287380457e-04,8.318530883403744e-13
29		1.949844599758044e+00,0.000000000000000e+00
	-4.059181287380457e+00,8.512294359058082e-09
	1.000000000000000e+00,0.000000000000000e+00
	0.000000000000000e+00,0.000000000000000e+00
	6.998669369350581e-10,-7.754813228213050e-13
	7.303107968462280e-10,3.950181638319567e-13
	4.059181287380457e-04,-8.512294359058080e-13
	1.811821732426415e-07,2.013574966728552e-12
	-3.874695012819139e-10,-1.326430551281105e-13
	-4.060989234417871e-04,-1.029702475694634e-12
	-4.059181287380457e-04,8.512294359058083e-13
	-1.811821732644603e-07,-2.013574966728552e-12
	-4.059181287380457e-04,8.512294359058083e-13
30		1.995262314968878e+00,0.000000000000000e+00
	-4.059181287380457e+00,8.710571165855129e-09
	1.000000000000000e+00,0.000000000000000e+00
	0.000000000000000e+00,0.000000000000000e+00
	6.998669369349261e-10,-7.935446032876502e-13
	7.303107968462117e-10,4.042193188728522e-13
	4.059181287380457e-04,-8.710571165855126e-13
	1.811821732426415e-07,2.060477152885280e-12
	-3.874695012818974e-10,-1.357327087873053e-13
	-4.060989234417871e-04,-1.053687327512462e-12
	-4.059181287380457e-04,8.710571165855130e-13
	-1.811821732644603e-07,-2.060477152885280e-12
	-4.059181287380457e-04,8.710571165855130e-13
31		2.041737944669527e+00,0.000000000000000e+00
	-4.059181287380457e+00,8.913466432782350e-09
	1.000000000000000e+00,0.000000000000000e+00
	0.000000000000000e+00,0.000000000000000e+00
	6.998669369347879e-10,-8.120286316064637e-13
	7.303107968461947e-10,4.136347963470891e-13
	4.059181287380457e-04,-8.913466432782348e-13
	1.811821732426415e-07,2.108471831302107e-12
	-3.874695012818803e-10,-1.388943297253338e-13
	-4.060989234417871e-04,-1.078230858298538e-12
	-4.059181287380457e-04,8.913466432782350e-13
	-1.811821732644603e-07,-2.108471831302106e-12
	-4.059181287380457e-04,8.913466432782350e-13
32		2.089296130854037e+00,0.000000000000000e+00
	-4.059181287380457e+00,9.121087737595911e-09
	1.000000000000000e+00,0.000000000000000e+00
	0.000000000000000e+00,0.000000000000000e+00
