Title: * GA CMOS Amp | W=1.905121523171657e-06 L=9.010682315282064e-07 Vbias=0.7451662359551341
Date: Mon Sep  8 18:46:11 2025
Plotname: AC Analysis
Flags: complex forward log
No. Variables: 11
No. Points:          901
Offset:    0.0000000000000000e+00
Command: Linear Technology Corporation LTspice
Variables:
	0	frequency	frequency
	1	V(out)	voltage
	2	V(g)	voltage
	3	V(vdd)	voltage
	4	Id(M1)	device_current
	5	Ig(M1)	device_current
	6	Ib(M1)	device_current
	7	Is(M1)	device_current
	8	I(Rload)	device_current
	9	I(Vg)	device_current
	10	I(Vdd)	device_current
Values:
0		1.000000000000000e+00,0.000000000000000e+00
	-5.500310169576965e-03,2.407167428957454e-11
	1.000000000000000e+00,0.000000000000000e+00
	0.000000000000000e+00,0.000000000000000e+00
	5.500310169576965e-07,-2.407167428957453e-15
	5.762870307002303e-26,1.528075675086342e-14
	5.500310192828588e-15,-8.199605166349429e-16
	-5.500310224580067e-07,-1.205362880527103e-14
	-5.500310169576965e-07,2.407167428957454e-15
	-5.762870307002303e-26,-1.528075675086342e-14
	-5.500310169576965e-07,2.407167428957454e-15
1		1.023292992280754e+00,0.000000000000000e+00
	-5.500310169576965e-03,2.463237561298642e-11
	1.000000000000000e+00,0.000000000000000e+00
	0.000000000000000e+00,0.000000000000000e+00
	5.500310169576965e-07,-2.463237561298642e-15
	6.034466017176963e-26,1.563669129990537e-14
	5.500310192828588e-15,-8.390598506194435e-16
	-5.500310224580067e-07,-1.233439388798728e-14
	-5.500310169576965e-07,2.463237561298642e-15
	-6.034466017176963e-26,-1.563669129990537e-14
	-5.500310169576965e-07,2.463237561298642e-15
2		1.047128548050899e+00,0.000000000000000e+00
	-5.500310169576965e-03,2.520613734799635e-11
	1.000000000000000e+00,0.000000000000000e+00
	0.000000000000000e+00,0.000000000000000e+00
	5.500310169576965e-07,-2.520613734799635e-15
	6.318861638829007e-26,1.600091662965060e-14
	5.500310192828588e-15,-8.586040652430116e-16
	-5.500310224580067e-07,-1.262169882960795e-14
	-5.500310169576965e-07,2.520613734799635e-15
	-6.318861638829007e-26,-1.600091662965059e-14
	-5.500310169576965e-07,2.520613734799635e-15
3		1.071519305237606e+00,0.000000000000000e+00
	-5.500310169576965e-03,2.579326371067085e-11
	1.000000000000000e+00,0.000000000000000e+00
	0.000000000000000e+00,0.000000000000000e+00
	5.500310169576965e-07,-2.579326371067085e-15
	6.616660413201543e-26,1.637362585719004e-14
	5.500310192828588e-15,-8.786035231069424e-16
	-5.500310224580067e-07,-1.291569596301601e-14
	-5.500310169576965e-07,2.579326371067085e-15
	-6.616660413201543e-26,-1.637362585719003e-14
	-5.500310169576965e-07,2.579326371067085e-15
4		1.096478196143185e+00,0.000000000000000e+00
	-5.500310169576965e-03,2.639406600317896e-11
	1.000000000000000e+00,0.000000000000000e+00
	0.000000000000000e+00,0.000000000000000e+00
	5.500310169576965e-07,-2.639406600317896e-15
	6.928494011421594e-26,1.675501659788952e-14
	5.500310192828588e-15,-8.990688281885139e-16
	-5.500310224580067e-07,-1.321654116938311e-14
	-5.500310169576965e-07,2.639406600317896e-15
	-6.928494011421594e-26,-1.675501659788951e-14
	-5.500310169576965e-07,2.639406600317896e-15
5		1.122018454301963e+00,0.000000000000000e+00
	-5.500310169576965e-03,2.700886277884873e-11
	1.000000000000000e+00,0.000000000000000e+00
	0.000000000000000e+00,0.000000000000000e+00
	5.500310169576965e-07,-2.700886277884873e-15
	7.255023874359250e-26,1.714529107016807e-14
	5.500310192828588e-15,-9.200108314633756e-16
	-5.500310224580067e-07,-1.352439396081982e-14
	-5.500310169576965e-07,2.700886277884873e-15
	-7.255023874359250e-26,-1.714529107016806e-14
	-5.500310169576965e-07,2.700886277884873e-15
6		1.148153621496882e+00,0.000000000000000e+00
	-5.500310169576965e-03,2.763798001106839e-11
	1.000000000000000e+00,0.000000000000000e+00
	0.000000000000000e+00,0.000000000000000e+00
	5.500310169576965e-07,-2.763798001106839e-15
	7.596942615632410e-26,1.754465620271678e-14
	5.500310192828588e-15,-9.414406366588649e-16
	-5.500310224580067e-07,-1.383941756495107e-14
	-5.500310169576965e-07,2.763798001106839e-15
	-7.596942615632410e-26,-1.754465620271677e-14
	-5.500310169576965e-07,2.763798001106839e-15
7		1.174897554939529e+00,0.000000000000000e+00
	-5.500310169576965e-03,2.828175126612185e-11
	1.000000000000000e+00,0.000000000000000e+00
	0.000000000000000e+00,0.000000000000000e+00
	5.500310169576965e-07,-2.828175126612185e-15
	7.954975490733169e-26,1.795332374421514e-14
	5.500310192828588e-15,-9.633696061413502e-16
	-5.500310224580067e-07,-1.416177901146161e-14
	-5.500310169576965e-07,2.828175126612185e-15
	-7.954975490733169e-26,-1.795332374421514e-14
	-5.500310169576965e-07,2.828175126612185e-15
8		1.202264434617413e+00,0.000000000000000e+00
	-5.500310169576965e-03,2.894051788004983e-11
	1.000000000000000e+00,0.000000000000000e+00
	0.000000000000000e+00,0.000000000000000e+00
	5.500310169576965e-07,-2.894051788004984e-15
	8.329881935391916e-26,1.837151037560303e-14
	5.500310192828588e-15,-9.858093669407133e-16
	-5.500310224580067e-07,-1.449164922065733e-14
	-5.500310169576965e-07,2.894051788004983e-15
	-8.329881935391916e-26,-1.837151037560302e-14
	-5.500310169576965e-07,2.894051788004983e-15
9		1.230268770812381e+00,0.000000000000000e+00
	-5.500310169576965e-03,2.961462913963086e-11
	1.000000000000000e+00,0.000000000000000e+00
	0.000000000000000e+00,0.000000000000000e+00
	5.500310169576965e-07,-2.961462913963086e-15
	8.722457176442353e-26,1.879943782496774e-14
	5.500310192828588e-15,-1.008771816915157e-15
	-5.500310224580067e-07,-1.482920309408950e-14
	-5.500310169576965e-07,2.961462913963086e-15
	-8.722457176442353e-26,-1.879943782496774e-14
	-5.500310169576965e-07,2.961462913963086e-15
10		1.258925411794167e+00,0.000000000000000e+00
	-5.500310169576965e-03,3.030444246757768e-11
	1.000000000000000e+00,0.000000000000000e+00
	0.000000000000000e+00,0.000000000000000e+00
	5.500310169576965e-07,-3.030444246757768e-15
	9.133533918604233e-26,1.923733298510723e-14
	5.500310192828588e-15,-1.032269131059607e-15
	-5.500310224580067e-07,-1.517461960728986e-14
	-5.500310169576965e-07,3.030444246757769e-15
	-9.133533918604233e-26,-1.923733298510723e-14
	-5.500310169576965e-07,3.030444246757769e-15
11		1.288249551693134e+00,0.000000000000000e+00
	-5.500310169576965e-03,3.101032361204753e-11
	1.000000000000000e+00,0.000000000000000e+00
	0.000000000000000e+00,0.000000000000000e+00
	5.500310169576965e-07,-3.101032361204753e-15
	9.563984110761693e-26,1.968542803383163e-14
	5.500310192828588e-15,-1.056313767961037e-15
	-5.500310224580067e-07,-1.552808190466584e-14
	-5.500310169576965e-07,3.101032361204753e-15
	-9.563984110761693e-26,-1.968542803383163e-14
	-5.500310169576965e-07,3.101032361204753e-15
12		1.318256738556407e+00,0.000000000000000e+00
	-5.500310169576965e-03,3.173264684056664e-11
	1.000000000000000e+00,0.000000000000000e+00
	0.000000000000000e+00,0.000000000000000e+00
	5.500310169576965e-07,-3.173264684056664e-15
	1.001472079548377e-25,2.014396055706702e-14
	5.500310192828588e-15,-1.080918476404210e-15
	-5.500310224580067e-07,-1.588977739660614e-14
	-5.500310169576965e-07,3.173264684056664e-15
	-1.001472079548377e-25,-2.014396055706701e-14
	-5.500310169576965e-07,3.173264684056664e-15
13		1.348962882591653e+00,0.000000000000000e+00
	-5.500310169576965e-03,3.247179513847185e-11
	1.000000000000000e+00,0.000000000000000e+00
	0.000000000000000e+00,0.000000000000000e+00
	5.500310169576965e-07,-3.247179513847185e-15
	1.048670004571006e-25,2.061317367482659e-14
	5.500310192828588e-15,-1.106096302131216e-15
	-5.500310224580067e-07,-1.625989785884819e-14
	-5.500310169576965e-07,3.247179513847185e-15
	-1.048670004571006e-25,-2.061317367482659e-14
	-5.500310169576965e-07,3.247179513847185e-15
14		1.380384264602885e+00,0.000000000000000e+00
	-5.500310169576965e-03,3.322816041197451e-11
	1.000000000000000e+00,0.000000000000000e+00
	0.000000000000000e+00,0.000000000000000e+00
	5.500310169576965e-07,-3.322816041197451e-15
	1.098092299270968e-25,2.109331617011617e-14
	5.500310192828588e-15,-1.131860594758526e-15
	-5.500310224580067e-07,-1.663863953416020e-14
	-5.500310169576965e-07,3.322816041197451e-15
	-1.098092299270968e-25,-2.109331617011617e-14
	-5.500310169576965e-07,3.322816041197451e-15
15		1.412537544622754e+00,0.000000000000000e+00
	-5.500310169576965e-03,3.400214369595428e-11
	1.000000000000000e+00,0.000000000000000e+00
	0.000000000000000e+00,0.000000000000000e+00
	5.500310169576965e-07,-3.400214369595429e-15
	1.149843794961483e-25,2.158464262084220e-14
	5.500310192828588e-15,-1.158225014855127e-15
	-5.500310224580067e-07,-1.702620323639164e-14
	-5.500310169576965e-07,3.400214369595428e-15
	-1.149843794961483e-25,-2.158464262084219e-14
	-5.500310169576965e-07,3.400214369595428e-15
16		1.445439770745927e+00,0.000000000000000e+00
	-5.500310169576965e-03,3.479415536659324e-11
	1.000000000000000e+00,0.000000000000000e+00
	0.000000000000000e+00,0.000000000000000e+00
	5.500310169576965e-07,-3.479415536659324e-15
	1.204034263503353e-25,2.208741353479230e-14
	5.500310192828588e-15,-1.185203541185521e-15
	-5.500310224580067e-07,-1.742279445694746e-14
	-5.500310169576965e-07,3.479415536659324e-15
	-1.204034263503353e-25,-2.208741353479230e-14
	-5.500310169576965e-07,3.479415536659324e-15
17		1.479108388168207e+00,0.000000000000000e+00
	-5.500310169576965e-03,3.560461535896265e-11
	1.000000000000000e+00,0.000000000000000e+00
	0.000000000000000e+00,0.000000000000000e+00
	5.500310169576965e-07,-3.560461535896266e-15
	1.260778650145800e-25,2.260189548776005e-14
	5.500310192828588e-15,-1.212810478121482e-15
	-5.500310224580067e-07,-1.782862347374230e-14
	-5.500310169576965e-07,3.560461535896265e-15
	-1.260778650145800e-25,-2.260189548776004e-14
	-5.500310169576965e-07,3.560461535896265e-15
18		1.513561248436208e+00,0.000000000000000e+00
	-5.500310169576965e-03,3.643395338967819e-11
	1.000000000000000e+00,0.000000000000000e+00
	0.000000000000000e+00,0.000000000000000e+00
	5.500310169576965e-07,-3.643395338967819e-15
	1.320197317340745e-25,2.312836126488685e-14
	5.500310192828588e-15,-1.241060463226385e-15
	-5.500310224580067e-07,-1.824390546269265e-14
	-5.500310169576965e-07,3.643395338967819e-15
	-1.320197317340745e-25,-2.312836126488685e-14
	-5.500310169576965e-07,3.643395338967819e-15
19		1.548816618912481e+00,0.000000000000000e+00
	-5.500310169576965e-03,3.728260918474132e-11
	1.000000000000000e+00,0.000000000000000e+00
	0.000000000000000e+00,0.000000000000000e+00
	5.500310169576965e-07,-3.728260918474132e-15
	1.382416300047707e-25,2.366709000529635e-14
	5.500310192828588e-15,-1.269968475016265e-15
	-5.500310224580067e-07,-1.866886061180596e-14
	-5.500310169576965e-07,3.728260918474132e-15
	-1.382416300047707e-25,-2.366709000529635e-14
	-5.500310169576965e-07,3.728260918474132e-15
20		1.584893192461113e+00,0.000000000000000e+00
	-5.500310169576965e-03,3.815103271268788e-11
	1.000000000000000e+00,0.000000000000000e+00
	0.000000000000000e+00,0.000000000000000e+00
	5.500310169576965e-07,-3.815103271268788e-15
	1.447567573070852e-25,2.421836735009763e-14
	5.500310192828588e-15,-1.299549840901618e-15
	-5.500310224580067e-07,-1.910371423792723e-14
	-5.500310169576965e-07,3.815103271268788e-15
	-1.447567573070852e-25,-2.421836735009763e-14
	-5.500310169576965e-07,3.815103271268788e-15
21		1.621810097358929e+00,0.000000000000000e+00
	-5.500310169576965e-03,3.903968442316730e-11
	1.000000000000000e+00,0.000000000000000e+00
	0.000000000000000e+00,0.000000000000000e+00
	5.500310169576965e-07,-3.903968442316730e-15
	1.515789330995245e-25,2.478248559383592e-14
	5.500310192828588e-15,-1.329820245314195e-15
	-5.500310224580067e-07,-1.954869690620500e-14
	-5.500310169576965e-07,3.903968442316730e-15
	-1.515789330995245e-25,-2.478248559383592e-14
	-5.500310169576965e-07,3.903968442316730e-15
22		1.659586907437560e+00,0.000000000000000e+00
	-5.500310169576965e-03,3.994903549107922e-11
	1.000000000000000e+00,0.000000000000000e+00
	0.000000000000000e+00,0.000000000000000e+00
	5.500310169576965e-07,-3.994903549107922e-15
	1.587226281316096e-25,2.535974383947104e-14
	5.500310192828588e-15,-1.360795738023090e-15
	-5.500310224580067e-07,-2.000404455234003e-14
	-5.500310169576965e-07,3.994903549107922e-15
	-1.587226281316096e-25,-2.535974383947104e-14
	-5.500310169576965e-07,3.994903549107922e-15
23		1.698243652461743e+00,0.000000000000000e+00
	-5.500310169576965e-03,4.087956806639650e-11
	1.000000000000000e+00,0.000000000000000e+00
	0.000000000000000e+00,0.000000000000000e+00
	5.500310169576965e-07,-4.087956806639650e-15
	1.662029951382752e-25,2.595044815696575e-14
	5.500310192828588e-15,-1.392492742644546e-15
	-5.500310224580067e-07,-2.046999860768155e-14
	-5.500310169576965e-07,4.087956806639651e-15
	-1.662029951382752e-25,-2.595044815696574e-14
	-5.500310169576965e-07,4.087956806639651e-15
24		1.737800828749374e+00,0.000000000000000e+00
	-5.500310169576965e-03,4.183177552980763e-11
	1.000000000000000e+00,0.000000000000000e+00
	0.000000000000000e+00,0.000000000000000e+00
	5.500310169576965e-07,-4.183177552980764e-15
	1.740359009808528e-25,2.655491174556806e-14
	5.500310192828588e-15,-1.424928065349970e-15
	-5.500310224580067e-07,-2.094680612723732e-14
	-5.500310169576965e-07,4.183177552980764e-15
	-1.740359009808528e-25,-2.655491174556805e-14
	-5.500310169576965e-07,4.183177552980764e-15
25		1.778279410038922e+00,0.000000000000000e+00
	-5.500310169576965e-03,4.280616275431368e-11
	1.000000000000000e+00,0.000000000000000e+00
	0.000000000000000e+00,0.000000000000000e+00
	5.500310169576965e-07,-4.280616275431369e-15
	1.822379603028105e-25,2.717345509987368e-14
	5.500310192828588e-15,-1.458118903776797e-15
	-5.500310224580067e-07,-2.143471992066551e-14
	-5.500310169576965e-07,4.280616275431368e-15
	-1.822379603028105e-25,-2.717345509987368e-14
	-5.500310169576965e-07,4.280616275431368e-15
26		1.819700858609982e+00,0.000000000000000e+00
	-5.500310169576965e-03,4.380324637291861e-11
	1.000000000000000e+00,0.000000000000000e+00
	0.000000000000000e+00,0.000000000000000e+00
	5.500310169576965e-07,-4.380324637291862e-15
	1.908265707716394e-25,2.780640617975645e-14
	5.500310192828588e-15,-1.492082856146892e-15
	-5.500310224580067e-07,-2.193399868631770e-14
	-5.500310169576965e-07,4.380324637291861e-15
	-1.908265707716394e-25,-2.780640617975645e-14
	-5.500310169576965e-07,4.380324637291861e-15
27		1.862087136662866e+00,0.000000000000000e+00
	-5.500310169576965e-03,4.482355505255497e-11
	1.000000000000000e+00,0.000000000000000e+00
	0.000000000000000e+00,0.000000000000000e+00
	5.500310169576965e-07,-4.482355505255497e-15
	1.998199499816389e-25,2.845410058425704e-14
	5.500310192828588e-15,-1.526837930597371e-15
	-5.500310224580067e-07,-2.244490714840417e-14
	-5.500310169576965e-07,4.482355505255497e-15
	-1.998199499816389e-25,-2.845410058425703e-14
	-5.500310169576965e-07,4.482355505255497e-15
28		1.905460717963246e+00,0.000000000000000e+00
	-5.500310169576965e-03,4.586762977439009e-11
	1.000000000000000e+00,0.000000000000000e+00
	0.000000000000000e+00,0.000000000000000e+00
	5.500310169576965e-07,-4.586762977439009e-15
	2.092371740958769e-25,2.911688172952194e-14
	5.500310192828588e-15,-1.562402554728737e-15
	-5.500310224580067e-07,-2.296771619735419e-14
	-5.500310169576965e-07,4.586762977439009e-15
	-2.092371740958769e-25,-2.911688172952193e-14
	-5.500310169576965e-07,4.586762977439009e-15
29		1.949844599758044e+00,0.000000000000000e+00
	-5.500310169576965e-03,4.693602412066145e-11
	1.000000000000000e+00,0.000000000000000e+00
	0.000000000000000e+00,0.000000000000000e+00
	5.500310169576965e-07,-4.693602412066146e-15
	2.190982183092889e-25,2.979510103088732e-14
	5.500310192828588e-15,-1.598795585375457e-15
	-5.500310224580067e-07,-2.350270303344572e-14
	-5.500310169576965e-07,4.693602412066145e-15
	-2.190982183092889e-25,-2.979510103088731e-14
	-5.500310169576965e-07,4.693602412066145e-15
30		1.995262314968878e+00,0.000000000000000e+00
	-5.500310169576965e-03,4.802930456819330e-11
	1.000000000000000e+00,0.000000000000000e+00
	0.000000000000000e+00,0.000000000000000e+00
	5.500310169576965e-07,-4.802930456819330e-15
	2.294239992187447e-25,3.048911808920406e-14
	5.500310192828588e-15,-1.636036318604111e-15
	-5.500310224580067e-07,-2.405015131378062e-14
	-5.500310169576965e-07,4.802930456819330e-15
	-2.294239992187447e-25,-3.048911808920406e-14
	-5.500310169576965e-07,4.802930456819330e-15
31		2.041737944669527e+00,0.000000000000000e+00
	-5.500310169576965e-03,4.914805078875021e-11
	1.000000000000000e+00,0.000000000000000e+00
	0.000000000000000e+00,0.000000000000000e+00
	5.500310169576965e-07,-4.914805078875021e-15
	2.402364191899547e-25,3.119930088150289e-14
	5.500310192828588e-15,-1.674144499944388e-15
	-5.500310224580067e-07,-2.461035130268348e-14
	-5.500310169576965e-07,4.914805078875021e-15
	-2.402364191899547e-25,-3.119930088150289e-14
	-5.500310169576965e-07,4.914805078875021e-15
32		2.089296130854037e+00,0.000000000000000e+00
	-5.500310169576965e-03,5.029285595638669e-11
	1.000000000000000e+00,0.000000000000000e+00
	0.000000000000000e+00,0.000000000000000e+00
	5.500310169576965e-07,-5.029285595638669e-15
	2.515584128153247e-25,3.192602595610067e-14
	5.500310192828588e-15,-1.713140334858463e-15
	-5.500310224580067e-07,-2.518360002560353e-14
	-5.500310169576965e-07,5.029285595638669e-15
	-2.515584128153247e-25,-3.192602595610067e-14
	-5.500310169576965e-07,5.029285595638669e-15
33		2.137962089502230e+00,0.000000000000000e+00
	-5.500310169576965e-03,5.146432706195587e-11
	1.000000000000000e+00,0.000000000000000e+00
	0.000000000000000e+00,0.000000000000000e+00
	5.500310169576965e-07,-5.146432706195588e-15
	2.634139955612996e-25,3.266967863225127e-14
	5.500310192828588e-15,-1.753044499454171e-15
	-5.500310224580067e-07,-2.577020142660151e-14
	-5.500310169576965e-07,5.146432706195587e-15
	-2.634139955612996e-25,-3.266967863225127e-14
	-5.500310169576965e-07,5.146432706195587e-15
34		2.187761623949550e+00,0.000000000000000e+00
	-5.500310169576965e-03,5.266308523494422e-11
	1.000000000000000e+00,0.000000000000000e+00
	0.000000000000000e+00,0.000000000000000e+00
	5.500310169576965e-07,-5.266308523494422e-15
	2.758283147083898e-25,3.343065320444702e-14
	5.500310192828588e-15,-1.793878151447772e-15
	-5.500310224580067e-07,-2.637046652950482e-14
	-5.500310169576965e-07,5.266308523494422e-15
	-2.758283147083898e-25,-3.343065320444702e-14
	-5.500310169576965e-07,5.266308523494422e-15
35		2.238721138568337e+00,0.000000000000000e+00
	-5.500310169576965e-03,5.388976607280247e-11
	1.000000000000000e+00,0.000000000000000e+00
	0.000000000000000e+00,0.000000000000000e+00
	5.500310169576965e-07,-5.388976607280247e-15
	2.888277026919227e-25,3.420935315147877e-14
	5.500310192828588e-15,-1.835662941382061e-15
	-5.500310224580067e-07,-2.698471360281646e-14
	-5.500310169576965e-07,5.388976607280247e-15
	-2.888277026919227e-25,-3.420935315147877e-14
	-5.500310169576965e-07,5.388976607280247e-15
36		2.290867652767770e+00,0.000000000000000e+00
	-5.500310169576965e-03,5.514501997794791e-11
	1.000000000000000e+00,0.000000000000000e+00
	0.000000000000000e+00,0.000000000000000e+00
	5.500310169576965e-07,-5.514501997794791e-15
	3.024397329566699e-25,3.500619135036576e-14
	5.500310192828588e-15,-1.878421024105743e-15
	-5.500310224580067e-07,-2.761326832846523e-14
	-5.500310169576965e-07,5.514501997794791e-15
	-3.024397329566699e-25,-3.500619135036575e-14
	-5.500310169576965e-07,5.514501997794791e-15
37		2.344228815319919e+00,0.000000000000000e+00
	-5.500310169576965e-03,5.642951250261627e-11
	1.000000000000000e+00,0.000000000000000e+00
	0.000000000000000e+00,0.000000000000000e+00
	5.500310169576965e-07,-5.642951250261627e-15
	3.166932784438195e-25,3.582159029526843e-14
	5.500310192828588e-15,-1.922175070520248e-15
	-5.500310224580067e-07,-2.825646397448656e-14
	-5.500310169576965e-07,5.642951250261628e-15
	-3.166932784438195e-25,-3.582159029526842e-14
	-5.500310169576965e-07,5.642951250261628e-15
38		2.398832919019488e+00,0.000000000000000e+00
	-5.500310169576965e-03,5.774392470174643e-11
	1.000000000000000e+00,0.000000000000000e+00
