LTspice 24.0.9 for Windows
Circuit: * GA CMOS Amp | W=4.2484656948684514e-05 L=1e-06 Vbias=0.7944211169501001
Start Time: Mon Sep  8 18:46:14 2025
solver = Normal
Maximum thread count: 2
tnom = 27
temp = 27
method = modified trap
AsciiRawFile = 1
Direct Newton iteration for .op point succeeded.
Semiconductor Device Operating Points:
                        --- MOSFET Transistors ---
Name:          m1
Model:        n_1u
Id:          7.27e-06
Vgs:         7.94e-01
Vds:         1.73e+00
Vbs:         0.00e+00
Vth:         8.06e-01
Vdsat:       4.89e-02
Gm:          1.32e-04
Gds:         3.86e-07
Gmb:         3.11e-05
Cbd:         0.00e+00
Cbs:         0.00e+00
Cgsov:       8.50e-15
Cgdov:       8.50e-15
Cgbov:       8.00e-17
Cgs:         3.78e-14
Cgd:         0.00e+00
Cgb:         1.01e-15



gain_db: MAX(db(v(out)/v(g)))=(28.752dB,85.0304°) FROM 1 TO 1e+09
gain_lin: MAX(mag(v(out)/v(g)))=(2.37275dB,0°) FROM 1 TO 1e+09

Measurement "fc" FAIL'ed

Total elapsed time: 0.425 seconds.

