LTspice 24.0.9 for Windows
Circuit: * GA CMOS Amp | W=1.0045510731045425e-05 L=5.825982678478871e-07 Vbias=0.9988204944950657
Start Time: Sat Sep  6 22:35:22 2025
solver = Normal
Maximum thread count: 2
tnom = 27
temp = 27
method = modified trap
AsciiRawFile = 1
Direct Newton iteration for .op point succeeded.
Semiconductor Device Operating Points:
                        --- BSIM4 MOSFETS ---
Name:      m1
Model:      n
Id:      1.69e-04
Vgs:     9.99e-01
Vds:     1.10e-01
Vbs:     0.00e+00
Vth:     2.46e-01
Vdsat:   5.41e-01
Gm:      3.36e-05
Gds:     1.36e-03
Gmb      1.18e-04
Cbd:     4.85e-15
Cbs:     8.04e-15


.measure op idd find i(vdd)
  Error: FIND can not be evaluated over an interval.

gain_db: MAX(db(v(out)/v(g)))=(32.6413dB,140.458°) FROM 1 TO 1e+09
gain_lin: MAX(mag(v(out)/v(g)))=(-7.17346dB,0°) FROM 1 TO 1e+09

Measurement "fc" FAIL'ed

Total elapsed time: 0.463 seconds.

