Title: * GA CMOS Amp | W=3.529187679023303e-05 L=6.599791529835382e-07 Vbias=0.6276645492558446
Date: Mon Sep  8 18:44:34 2025
Plotname: AC Analysis
Flags: complex forward log
No. Variables: 11
No. Points:          901
Offset:    0.0000000000000000e+00
Command: Linear Technology Corporation LTspice
Variables:
	0	frequency	frequency
	1	V(out)	voltage
	2	V(g)	voltage
	3	V(vdd)	voltage
	4	Id(M1)	device_current
	5	Ig(M1)	device_current
	6	Ib(M1)	device_current
	7	Is(M1)	device_current
	8	I(Rload)	device_current
	9	I(Vg)	device_current
	10	I(Vdd)	device_current
Values:
0		1.000000000000000e+00,0.000000000000000e+00
	-2.098362530738310e-01,5.357190370495379e-10
	1.000000000000000e+00,0.000000000000000e+00
	0.000000000000000e+00,0.000000000000000e+00
	2.098362530738310e-05,-5.357190370495379e-14
	2.375864661497573e-23,2.203102551158271e-13
	2.098362546817511e-13,-4.901161386904425e-15
	-2.098362551721936e-05,-1.618371900239689e-13
	-2.098362530738310e-05,5.357190370495379e-14
	-2.375864661497573e-23,-2.203102551158271e-13
	-2.098362530738310e-05,5.357190370495379e-14
1		1.023292992280754e+00,0.000000000000000e+00
	-2.098362530738310e-01,5.481975364441859e-10
	1.000000000000000e+00,0.000000000000000e+00
	0.000000000000000e+00,0.000000000000000e+00
	2.098362530738310e-05,-5.481975364441859e-14
	2.487835713359396e-23,2.254419401876110e-13
	2.098362546817511e-13,-5.015324101256327e-15
	-2.098362551721936e-05,-1.656068624419361e-13
	-2.098362530738310e-05,5.481975364441859e-14
	-2.487835713359396e-23,-2.254419401876110e-13
	-2.098362530738310e-05,5.481975364441859e-14
2		1.047128548050899e+00,0.000000000000000e+00
	-2.098362530738310e-01,5.609666974289087e-10
	1.000000000000000e+00,0.000000000000000e+00
	0.000000000000000e+00,0.000000000000000e+00
	2.098362530738310e-05,-5.609666974289087e-14
	2.605083798319198e-23,2.306931575601593e-13
	2.098362546817511e-13,-5.132146006832360e-15
	-2.098362551721936e-05,-1.694643418104360e-13
	-2.098362530738310e-05,5.609666974289087e-14
	-2.605083798319198e-23,-2.306931575601592e-13
	-2.098362530738310e-05,5.609666974289087e-14
3		1.071519305237606e+00,0.000000000000000e+00
	-2.098362530738310e-01,5.740332903818802e-10
	1.000000000000000e+00,0.000000000000000e+00
	0.000000000000000e+00,0.000000000000000e+00
	2.098362530738310e-05,-5.740332903818804e-14
	2.727857615284903e-23,2.360666914984308e-13
	2.098362546817511e-13,-5.251689044153197e-15
	-2.098362551721936e-05,-1.734116734160896e-13
	-2.098362530738310e-05,5.740332903818802e-14
	-2.727857615284903e-23,-2.360666914984308e-13
	-2.098362530738310e-05,5.740332903818802e-14
4		1.096478196143185e+00,0.000000000000000e+00
	-2.098362530738310e-01,5.874042433836413e-10
	1.000000000000000e+00,0.000000000000000e+00
	0.000000000000000e+00,0.000000000000000e+00
	2.098362530738310e-05,-5.874042433836412e-14
	2.856417583982869e-23,2.415653911212469e-13
	2.098362546817511e-13,-5.374016596519580e-15
	-2.098362551721936e-05,-1.774509501863632e-13
	-2.098362530738310e-05,5.874042433836412e-14
	-2.856417583982869e-23,-2.415653911212468e-13
	-2.098362530738310e-05,5.874042433836412e-14
5		1.122018454301963e+00,0.000000000000000e+00
	-2.098362530738310e-01,6.010866458904587e-10
	1.000000000000000e+00,0.000000000000000e+00
	0.000000000000000e+00,0.000000000000000e+00
	2.098362530738310e-05,-6.010866458904587e-14
	2.991036397343041e-23,2.471921719119315e-13
	2.098362546817511e-13,-5.499193523618949e-15
	-2.098362551721936e-05,-1.815843137992667e-13
	-2.098362530738310e-05,6.010866458904587e-14
	-2.991036397343041e-23,-2.471921719119315e-13
	-2.098362530738310e-05,6.010866458904587e-14
6		1.148153621496882e+00,0.000000000000000e+00
	-2.098362530738310e-01,6.150877524932495e-10
	1.000000000000000e+00,0.000000000000000e+00
	0.000000000000000e+00,0.000000000000000e+00
	2.098362530738310e-05,-6.150877524932495e-14
	3.131999599917212e-23,2.529500172641390e-13
	2.098362546817511e-13,-5.627286195915013e-15
	-2.098362551721936e-05,-1.858139558188990e-13
	-2.098362530738310e-05,6.150877524932496e-14
	-3.131999599917212e-23,-2.529500172641389e-13
	-2.098362530738310e-05,6.150877524932496e-14
7		1.174897554939529e+00,0.000000000000000e+00
	-2.098362530738310e-01,6.294149867640611e-10
	1.000000000000000e+00,0.000000000000000e+00
	0.000000000000000e+00,0.000000000000000e+00
	2.098362530738310e-05,-6.294149867640612e-14
	3.279606193557307e-23,2.588419800636891e-13
	2.098362546817511e-13,-5.758362529838008e-15
	-2.098362551721936e-05,-1.901421188574450e-13
	-2.098362530738310e-05,6.294149867640611e-14
	-3.279606193557307e-23,-2.588419800636891e-13
	-2.098362530738310e-05,6.294149867640611e-14
8		1.202264434617413e+00,0.000000000000000e+00
	-2.098362530738310e-01,6.440759451921474e-10
	1.000000000000000e+00,0.000000000000000e+00
	0.000000000000000e+00,0.000000000000000e+00
	2.098362530738310e-05,-6.440759451921475e-14
	3.434169271638401e-23,2.648711843072478e-13
	2.098362546817511e-13,-5.892492023795358e-15
	-2.098362551721936e-05,-1.945710977642377e-13
	-2.098362530738310e-05,6.440759451921475e-14
	-3.434169271638401e-23,-2.648711843072478e-13
	-2.098362530738310e-05,6.440759451921475e-14
9		1.230268770812381e+00,0.000000000000000e+00
	-2.098362530738310e-01,6.590784012117275e-10
	1.000000000000000e+00,0.000000000000000e+00
	0.000000000000000e+00,0.000000000000000e+00
	2.098362530738310e-05,-6.590784012117275e-14
	3.596016683171734e-23,2.710408267587107e-13
	2.098362546817511e-13,-6.029745795019993e-15
	-2.098362551721936e-05,-1.991032408425179e-13
	-2.098362530738310e-05,6.590784012117276e-14
	-3.596016683171734e-23,-2.710408267587106e-13
	-2.098362530738310e-05,6.590784012117276e-14
10		1.258925411794167e+00,0.000000000000000e+00
	-2.098362530738310e-01,6.744303093235640e-10
	1.000000000000000e+00,0.000000000000000e+00
	0.000000000000000e+00,0.000000000000000e+00
	2.098362530738310e-05,-6.744303093235642e-14
	3.765491728216429e-23,2.773541786441706e-13
	2.098362546817511e-13,-6.170196617278272e-15
	-2.098362551721936e-05,-2.037409510945359e-13
	-2.098362530738310e-05,6.744303093235641e-14
	-3.765491728216429e-23,-2.773541786441705e-13
	-2.098362530738310e-05,6.744303093235641e-14
11		1.288249551693134e+00,0.000000000000000e+00
	-2.098362530738310e-01,6.901398093125445e-10
	1.000000000000000e+00,0.000000000000000e+00
	0.000000000000000e+00,0.000000000000000e+00
	2.098362530738310e-05,-6.901398093125445e-14
	3.942953886064943e-23,2.838145873863642e-13
	2.098362546817511e-13,-6.313918959455309e-15
	-2.098362551721936e-05,-2.084866874956544e-13
	-2.098362530738310e-05,6.901398093125445e-14
	-3.942953886064943e-23,-2.838145873863641e-13
	-2.098362530738310e-05,6.901398093125445e-14
12		1.318256738556407e+00,0.000000000000000e+00
	-2.098362530738310e-01,7.062152305635026e-10
	1.000000000000000e+00,0.000000000000000e+00
	0.000000000000000e+00,0.000000000000000e+00
	2.098362530738310e-05,-7.062152305635027e-14
	4.128779577746835e-23,2.904254783795202e-13
	2.098362546817511e-13,-6.460989025039237e-15
	-2.098362551721936e-05,-2.133429662981307e-13
	-2.098362530738310e-05,7.062152305635027e-14
	-4.128779577746835e-23,-2.904254783795201e-13
	-2.098362530738310e-05,7.062152305635027e-14
13		1.348962882591653e+00,0.000000000000000e+00
	-2.098362530738310e-01,7.226650964775695e-10
	1.000000000000000e+00,0.000000000000000e+00
	0.000000000000000e+00,0.000000000000000e+00
	2.098362530738310e-05,-7.226650964775695e-14
	4.323362964468251e-23,2.971903568055486e-13
	2.098362546817511e-13,-6.611484792525468e-15
	-2.098362551721936e-05,-2.183123623652662e-13
	-2.098362530738310e-05,7.226650964775695e-14
	-4.323362964468251e-23,-2.971903568055486e-13
	-2.098362530738310e-05,7.226650964775695e-14
14		1.380384264602885e+00,0.000000000000000e+00
	-2.098362530738310e-01,7.394981289913919e-10
	1.000000000000000e+00,0.000000000000000e+00
	0.000000000000000e+00,0.000000000000000e+00
	2.098362530738310e-05,-7.394981289913920e-14
	4.527116783680672e-23,3.041128094925349e-13
	2.098362546817511e-13,-6.765486056762162e-15
	-2.098362551721936e-05,-2.233975105366336e-13
	-2.098362530738310e-05,7.394981289913919e-14
	-4.527116783680672e-23,-3.041128094925348e-13
	-2.098362530738310e-05,7.394981289913919e-14
15		1.412537544622754e+00,0.000000000000000e+00
	-2.098362530738310e-01,7.567232532016204e-10
	1.000000000000000e+00,0.000000000000000e+00
	0.000000000000000e+00,0.000000000000000e+00
	2.098362530738310e-05,-7.567232532016205e-14
	4.740473224552399e-23,3.111965068165230e-13
	2.098362546817511e-13,-6.923074471257817e-15
	-2.098362551721936e-05,-2.286011070251031e-13
	-2.098362530738310e-05,7.567232532016204e-14
	-4.740473224552399e-23,-3.111965068165229e-13
	-2.098362530738310e-05,7.567232532016204e-14
16		1.445439770745927e+00,0.000000000000000e+00
	-2.098362530738310e-01,7.743496020971128e-10
	1.000000000000000e+00,0.000000000000000e+00
	0.000000000000000e+00,0.000000000000000e+00
	2.098362530738310e-05,-7.743496020971128e-14
	4.963884844699718e-23,3.184452046475979e-13
	2.098362546817511e-13,-7.084333591475944e-15
	-2.098362551721936e-05,-2.339259108464106e-13
	-2.098362530738310e-05,7.743496020971128e-14
	-4.963884844699718e-23,-3.184452046475978e-13
	-2.098362530738310e-05,7.743496020971128e-14
17		1.479108388168207e+00,0.000000000000000e+00
	-2.098362530738310e-01,7.923865214013659e-10
	1.000000000000000e+00,0.000000000000000e+00
	0.000000000000000e+00,0.000000000000000e+00
	2.098362530738310e-05,-7.923865214013660e-14
	5.197825530122281e-23,3.258627463412975e-13
	2.098362546817511e-13,-7.249348919136460e-15
	-2.098362551721936e-05,-2.393747452820244e-13
	-2.098362530738310e-05,7.923865214013658e-14
	-5.197825530122281e-23,-3.258627463412974e-13
	-2.098362530738310e-05,7.923865214013658e-14
18		1.513561248436208e+00,0.000000000000000e+00
	-2.098362530738310e-01,8.108435745277416e-10
	1.000000000000000e+00,0.000000000000000e+00
	0.000000000000000e+00,0.000000000000000e+00
	2.098362530738310e-05,-8.108435745277416e-14
	5.442791500378841e-23,3.334530647764106e-13
	2.098362546817511e-13,-7.418207947550420e-15
	-2.098362551721936e-05,-2.449504993760861e-13
	-2.098362530738310e-05,8.108435745277416e-14
	-5.442791500378841e-23,-3.334530647764106e-13
	-2.098362530738310e-05,8.108435745277416e-14
19		1.548816618912481e+00,0.000000000000000e+00
	-2.098362530738310e-01,8.297305476501153e-10
	1.000000000000000e+00,0.000000000000000e+00
	0.000000000000000e+00,0.000000000000000e+00
	2.098362530738310e-05,-8.297305476501154e-14
	5.699302361135473e-23,3.412201844402414e-13
	2.098362546817511e-13,-7.591000208009701e-15
	-2.098362551721936e-05,-2.506561294672201e-13
	-2.098362530738310e-05,8.297305476501154e-14
	-5.699302361135473e-23,-3.412201844402413e-13
	-2.098362530738310e-05,8.297305476501154e-14
20		1.584893192461113e+00,0.000000000000000e+00
	-2.098362530738310e-01,8.490574548916353e-10
	1.000000000000000e+00,0.000000000000000e+00
	0.000000000000000e+00,0.000000000000000e+00
	2.098362530738310e-05,-8.490574548916354e-14
	5.967902206318850e-23,3.491682235624454e-13
	2.098362546817511e-13,-7.767817317258093e-15
	-2.098362551721936e-05,-2.564946607560238e-13
	-2.098362530738310e-05,8.490574548916354e-14
	-5.967902206318850e-23,-3.491682235624453e-13
	-2.098362530738310e-05,8.490574548916354e-14
21		1.621810097358929e+00,0.000000000000000e+00
	-2.098362530738310e-01,8.688345436343429e-10
	1.000000000000000e+00,0.000000000000000e+00
	0.000000000000000e+00,0.000000000000000e+00
	2.098362530738310e-05,-8.688345436343429e-14
	6.249160772212418e-23,3.573013962985701e-13
	2.098362546817511e-13,-7.948753026067307e-15
	-2.098362551721936e-05,-2.624691889090685e-13
	-2.098362530738310e-05,8.688345436343429e-14
	-6.249160772212418e-23,-3.573013962985700e-13
	-2.098362530738310e-05,8.688345436343429e-14
22		1.659586907437560e+00,0.000000000000000e+00
	-2.098362530738310e-01,8.890722999524701e-10
	1.000000000000000e+00,0.000000000000000e+00
	0.000000000000000e+00,0.000000000000000e+00
	2.098362530738310e-05,-8.890722999524703e-14
	6.543674645943427e-23,3.656240149644553e-13
	2.098362546817511e-13,-8.133903268945083e-15
	-2.098362551721936e-05,-2.685828817002632e-13
	-2.098362530738310e-05,8.890722999524702e-14
	-6.543674645943427e-23,-3.656240149644553e-13
	-2.098362530738310e-05,8.890722999524702e-14
23		1.698243652461743e+00,0.000000000000000e+00
	-2.098362530738310e-01,9.097814541722955e-10
	1.000000000000000e+00,0.000000000000000e+00
	0.000000000000000e+00,0.000000000000000e+00
	2.098362530738310e-05,-9.097814541722955e-14
	6.852068530924226e-23,3.741404923226807e-13
	2.098362546817511e-13,-8.323366215000994e-15
	-2.098362551721936e-05,-2.748389806904502e-13
	-2.098362530738310e-05,9.097814541722955e-14
	-6.852068530924226e-23,-3.741404923226807e-13
	-2.098362530738310e-05,9.097814541722955e-14
24		1.737800828749374e+00,0.000000000000000e+00
	-2.098362530738310e-01,9.309729865615039e-10
	1.000000000000000e+00,0.000000000000000e+00
	0.000000000000000e+00,0.000000000000000e+00
	2.098362530738310e-05,-9.309729865615039e-14
	7.174996571931942e-23,3.828553439222704e-13
	2.098362546817511e-13,-8.517242319996923e-15
	-2.098362551721936e-05,-2.812408029461231e-13
	-2.098362530738310e-05,9.309729865615039e-14
	-7.174996571931942e-23,-3.828553439222704e-13
	-2.098362530738310e-05,9.309729865615039e-14
25		1.778279410038922e+00,0.000000000000000e+00
	-2.098362530738310e-01,9.526581331510716e-10
	1.000000000000000e+00,0.000000000000000e+00
	0.000000000000000e+00,0.000000000000000e+00
	2.098362530738310e-05,-9.526581331510717e-14
	7.513143742637277e-23,3.917731904928974e-13
	2.098362546817511e-13,-8.715634379609943e-15
	-2.098362551721936e-05,-2.877917427981802e-13
	-2.098362530738310e-05,9.526581331510717e-14
	-7.513143742637277e-23,-3.917731904928973e-13
	-2.098362530738310e-05,9.526581331510717e-14
26		1.819700858609982e+00,0.000000000000000e+00
	-2.098362530738310e-01,9.748483916927572e-10
	1.000000000000000e+00,0.000000000000000e+00
	0.000000000000000e+00,0.000000000000000e+00
	2.098362530738310e-05,-9.748483916927571e-14
	7.867227298525472e-23,4.008987603948548e-13
	2.098362546817511e-13,-8.918647583936121e-15
	-2.098362551721936e-05,-2.944952736416430e-13
	-2.098362530738310e-05,9.748483916927571e-14
	-7.867227298525472e-23,-4.008987603948547e-13
	-2.098362530738310e-05,9.748483916927571e-14
27		1.862087136662866e+00,0.000000000000000e+00
	-2.098362530738310e-01,9.975555277553618e-10
	1.000000000000000e+00,0.000000000000000e+00
	0.000000000000000e+00,0.000000000000000e+00
	2.098362530738310e-05,-9.975555277553619e-14
	8.237998298291375e-23,4.102368921260960e-13
	2.098362546817511e-13,-9.126389573263423e-15
	-2.098362551721936e-05,-3.013549497772964e-13
	-2.098362530738310e-05,9.975555277553619e-14
	-8.237998298291375e-23,-4.102368921260960e-13
	-2.098362530738310e-05,9.975555277553619e-14
28		1.905460717963246e+00,0.000000000000000e+00
	-2.098362530738310e-01,1.020791580962991e-09
	1.000000000000000e+00,0.000000000000000e+00
	0.000000000000000e+00,0.000000000000000e+00
	2.098362530738310e-05,-1.020791580962991e-13
	8.626243196935627e-23,4.197925368876697e-13
	2.098362546817511e-13,-9.338970495144587e-15
	-2.098362551721936e-05,-3.083744082962260e-13
	-2.098362530738310e-05,1.020791580962991e-13
	-8.626243196935627e-23,-4.197925368876697e-13
	-2.098362530738310e-05,1.020791580962991e-13
29		1.949844599758044e+00,0.000000000000000e+00
	-2.098362530738310e-01,1.044568871378621e-09
	1.000000000000000e+00,0.000000000000000e+00
	0.000000000000000e+00,0.000000000000000e+00
	2.098362530738310e-05,-1.044568871378621e-13
	9.032785513941156e-23,4.295707612089125e-13
	2.098362546817511e-13,-9.556503062798255e-15
	-2.098362551721936e-05,-3.155573710082521e-13
	-2.098362530738310e-05,1.044568871378621e-13
	-9.032785513941156e-23,-4.295707612089124e-13
	-2.098362530738310e-05,1.044568871378621e-13
30		1.995262314968878e+00,0.000000000000000e+00
	-2.098362530738310e-01,1.068900006036359e-09
	1.000000000000000e+00,0.000000000000000e+00
	0.000000000000000e+00,0.000000000000000e+00
	2.098362530738310e-05,-1.068900006036359e-13
	9.458487580068398e-23,4.395767496337893e-13
	2.098362546817511e-13,-9.779102614871026e-15
	-2.098362551721936e-05,-3.229076464152823e-13
	-2.098362530738310e-05,1.068900006036359e-13
	-9.458487580068398e-23,-4.395767496337892e-13
	-2.098362530738310e-05,1.068900006036359e-13
31		2.041737944669527e+00,0.000000000000000e+00
	-2.098362530738310e-01,1.093797885625862e-09
	1.000000000000000e+00,0.000000000000000e+00
	0.000000000000000e+00,0.000000000000000e+00
	2.098362530738310e-05,-1.093797885625862e-13
	9.904252366474486e-23,4.498158074698081e-13
	2.098362546817511e-13,-1.000688717659188e-14
	-2.098362551721936e-05,-3.304291317306300e-13
	-2.098362530738310e-05,1.093797885625862e-13
	-9.904252366474486e-23,-4.498158074698080e-13
	-2.098362530738310e-05,1.093797885625862e-13
32		2.089296130854037e+00,0.000000000000000e+00
	-2.098362530738310e-01,1.119275711332450e-09
	1.000000000000000e+00,0.000000000000000e+00
	0.000000000000000e+00,0.000000000000000e+00
	2.098362530738310e-05,-1.119275711332450e-13
	1.037102540003611e-22,4.602933636009635e-13
	2.098362546817511e-13,-1.023997752235066e-14
	-2.098362551721936e-05,-3.381258149453678e-13
	-2.098362530738310e-05,1.119275711332450e-13
	-1.037102540003611e-22,-4.602933636009634e-13
	-2.098362530738310e-05,1.119275711332450e-13
33		2.137962089502230e+00,0.000000000000000e+00
	-2.098362530738310e-01,1.145346991836553e-09
	1.000000000000000e+00,0.000000000000000e+00
	0.000000000000000e+00,0.000000000000000e+00
	2.098362530738310e-05,-1.145346991836553e-13
	1.085979676893882e-22,4.710149733662031e-13
	2.098362546817511e-13,-1.047849723973383e-14
	-2.098362551721936e-05,-3.460017769428140e-13
	-2.098362530738310e-05,1.145346991836553e-13
	-1.085979676893882e-22,-4.710149733662030e-13
	-2.098362530738310e-05,1.145346991836553e-13
34		2.187761623949550e+00,0.000000000000000e+00
	-2.098362530738310e-01,1.172025550476186e-09
	1.000000000000000e+00,0.000000000000000e+00
	0.000000000000000e+00,0.000000000000000e+00
	2.098362530738310e-05,-1.172025550476186e-13
	1.137160322278675e-22,4.819863215049416e-13
	2.098362546817511e-13,-1.072257279505287e-14
	-2.098362551721936e-05,-3.540611936622701e-13
	-2.098362530738310e-05,1.172025550476186e-13
	-1.137160322278675e-22,-4.819863215049415e-13
	-2.098362530738310e-05,1.172025550476186e-13
35		2.238721138568337e+00,0.000000000000000e+00
	-2.098362530738310e-01,1.199325532576275e-09
	1.000000000000000e+00,0.000000000000000e+00
	0.000000000000000e+00,0.000000000000000e+00
	2.098362530738310e-05,-1.199325532576275e-13
	1.190753037168762e-22,4.932132251711853e-13
	2.098362546817511e-13,-1.097233360039785e-14
	-2.098362551721936e-05,-3.623083383131600e-13
	-2.098362530738310e-05,1.199325532576275e-13
	-1.190753037168762e-22,-4.932132251711852e-13
	-2.098362530738310e-05,1.199325532576275e-13
36		2.290867652767770e+00,0.000000000000000e+00
	-2.098362530738310e-01,1.227261412948685e-09
	1.000000000000000e+00,0.000000000000000e+00
	0.000000000000000e+00,0.000000000000000e+00
	2.098362530738310e-05,-1.227261412948685e-13
	1.246871498897724e-22,5.047016370178636e-13
	2.098362546817511e-13,-1.122791208225380e-14
	-2.098362551721936e-05,-3.707475836407412e-13
	-2.098362530738310e-05,1.227261412948685e-13
	-1.246871498897724e-22,-5.047016370178635e-13
	-2.098362530738310e-05,1.227261412948685e-13
37		2.344228815319919e+00,0.000000000000000e+00
	-2.098362530738310e-01,1.255848003566966e-09
	1.000000000000000e+00,0.000000000000000e+00
	0.000000000000000e+00,0.000000000000000e+00
	2.098362530738310e-05,-1.255848003566966e-13
	1.305634742246823e-22,5.164576483530046e-13
	2.098362546817511e-13,-1.148944375171474e-14
	-2.098362551721936e-05,-3.793834042445932e-13
	-2.098362530738310e-05,1.255848003566966e-13
	-1.305634742246823e-22,-5.164576483530045e-13
	-2.098362530738310e-05,1.255848003566966e-13
38		2.398832919019488e+00,0.000000000000000e+00
	-2.098362530738310e-01,1.285100461419852e-09
	1.000000000000000e+00,0.000000000000000e+00
