Title: * GA CMOS Amp | W=2.8766677418363795e-06 L=6.598211442644933e-07 Vbias=0.8052213300371053
Date: Mon Sep  8 18:47:01 2025
Plotname: AC Analysis
Flags: complex forward log
No. Variables: 11
No. Points:          901
Offset:    0.0000000000000000e+00
Command: Linear Technology Corporation LTspice
Variables:
	0	frequency	frequency
	1	V(out)	voltage
	2	V(g)	voltage
	3	V(vdd)	voltage
	4	Id(M1)	device_current
	5	Ig(M1)	device_current
	6	Ib(M1)	device_current
	7	Is(M1)	device_current
	8	I(Rload)	device_current
	9	I(Vg)	device_current
	10	I(Vdd)	device_current
Values:
0		1.000000000000000e+00,0.000000000000000e+00
	-1.238302373777436e-01,4.058915664357789e-11
	1.000000000000000e+00,0.000000000000000e+00
	0.000000000000000e+00,0.000000000000000e+00
	1.238302373777436e-05,-4.058915664357789e-15
	1.467268503467175e-25,1.790869106962179e-14
	1.238302385300370e-13,-6.647246937646717e-16
	-1.238302386160460e-05,-1.318505071149933e-14
	-1.238302373777436e-05,4.058915664357789e-15
	-1.467268503467175e-25,-1.790869106962179e-14
	-1.238302373777436e-05,4.058915664357789e-15
1		1.023292992280754e+00,0.000000000000000e+00
	-1.238302373777436e-01,4.153459955595907e-11
	1.000000000000000e+00,0.000000000000000e+00
	0.000000000000000e+00,0.000000000000000e+00
	1.238302373777436e-05,-4.153459955595908e-15
	1.536418737636399e-25,1.832583807246490e-14
	1.238302385300370e-13,-6.802081209253595e-16
	-1.238302386160460e-05,-1.349216999594363e-14
	-1.238302373777436e-05,4.153459955595907e-15
	-1.536418737636399e-25,-1.832583807246490e-14
	-1.238302373777436e-05,4.153459955595907e-15
2		1.047128548050899e+00,0.000000000000000e+00
	-1.238302373777436e-01,4.250206466280023e-11
	1.000000000000000e+00,0.000000000000000e+00
	0.000000000000000e+00,0.000000000000000e+00
	1.238302373777436e-05,-4.250206466280024e-15
	1.608827921939398e-25,1.875270167722517e-14
	1.238302385300370e-13,-6.960522034353807e-16
	-1.238302386160460e-05,-1.380644300750977e-14
	-1.238302373777436e-05,4.250206466280023e-15
	-1.608827921939398e-25,-1.875270167722517e-14
	-1.238302373777436e-05,4.250206466280023e-15
3		1.071519305237606e+00,0.000000000000000e+00
	-1.238302373777436e-01,4.349206492690695e-11
	1.000000000000000e+00,0.000000000000000e+00
	0.000000000000000e+00,0.000000000000000e+00
	1.238302373777436e-05,-4.349206492690695e-15
	1.684649645964147e-25,1.918950821263606e-14
	1.238302385300370e-13,-7.122653420370030e-16
	-1.238302386160460e-05,-1.412803637790837e-14
	-1.238302373777436e-05,4.349206492690695e-15
	-1.684649645964147e-25,-1.918950821263606e-14
	-1.238302373777436e-05,4.349206492690695e-15
4		1.096478196143185e+00,0.000000000000000e+00
	-1.238302373777436e-01,4.450512525952345e-11
	1.000000000000000e+00,0.000000000000000e+00
	0.000000000000000e+00,0.000000000000000e+00
	1.238302373777436e-05,-4.450512525952345e-15
	1.764044737752899e-25,1.963648927930446e-14
	1.238302385300370e-13,-7.288561331509223e-16
	-1.238302386160460e-05,-1.445712062020119e-14
	-1.238302373777436e-05,4.450512525952345e-15
	-1.764044737752899e-25,-1.963648927930446e-14
	-1.238302373777436e-05,4.450512525952345e-15
5		1.122018454301963e+00,0.000000000000000e+00
	-1.238302373777436e-01,4.554178279864753e-11
	1.000000000000000e+00,0.000000000000000e+00
	0.000000000000000e+00,0.000000000000000e+00
	1.238302373777436e-05,-4.554178279864753e-15
	1.847181604940024e-25,2.009388187250841e-14
	1.238302385300370e-13,-7.458333734341868e-16
	-1.238302386160460e-05,-1.479387021920947e-14
	-1.238302373777436e-05,4.554178279864753e-15
	-1.847181604940024e-25,-2.009388187250841e-14
	-1.238302373777436e-05,4.554178279864753e-15
6		1.148153621496882e+00,0.000000000000000e+00
	-1.238302373777436e-01,4.660258719382821e-11
	1.000000000000000e+00,0.000000000000000e+00
	0.000000000000000e+00,0.000000000000000e+00
	1.238302373777436e-05,-4.660258719382820e-15
	1.934236591967177e-25,2.056192850785514e-14
	1.238302385300370e-13,-7.632060644443145e-16
	-1.238302386160460e-05,-1.513846372402800e-14
	-1.238302373777436e-05,4.660258719382820e-15
	-1.934236591967177e-25,-2.056192850785514e-14
	-1.238302373777436e-05,4.660258719382820e-15
7		1.174897554939529e+00,0.000000000000000e+00
	-1.238302373777436e-01,4.768810089759721e-11
	1.000000000000000e+00,0.000000000000000e+00
	0.000000000000000e+00,0.000000000000000e+00
	1.238302373777436e-05,-4.768810089759721e-15
	2.025394354133510e-25,2.104087734986602e-14
	1.238302385300370e-13,-7.809834174120421e-16
	-1.238302386160460e-05,-1.549108384269426e-14
	-1.238302373777436e-05,4.768810089759722e-15
	-2.025394354133510e-25,-2.104087734986602e-14
	-1.238302373777436e-05,4.768810089759722e-15
8		1.202264434617413e+00,0.000000000000000e+00
	-1.238302373777436e-01,4.879889946368876e-11
	1.000000000000000e+00,0.000000000000000e+00
	0.000000000000000e+00,0.000000000000000e+00
	1.238302373777436e-05,-4.879889946368877e-15
	2.120848249274312e-25,2.153098234355675e-14
	1.238302385300370e-13,-7.991748581252151e-16
	-1.238302386160460e-05,-1.585191753906266e-14
	-1.238302373777436e-05,4.879889946368877e-15
	-2.120848249274312e-25,-2.153098234355675e-14
	-1.238302373777436e-05,4.879889946368877e-15
9		1.230268770812381e+00,0.000000000000000e+00
	-1.238302373777436e-01,4.993557185220576e-11
	1.000000000000000e+00,0.000000000000000e+00
	0.000000000000000e+00,0.000000000000000e+00
	1.238302373777436e-05,-4.993557185220576e-15
	2.220800747898902e-25,2.203250334908227e-14
	1.238302385300370e-13,-8.177900319265019e-16
	-1.238302386160460e-05,-1.622115613193519e-14
	-1.238302373777436e-05,4.993557185220576e-15
	-2.220800747898902e-25,-2.203250334908227e-14
	-1.238302373777436e-05,4.993557185220576e-15
10		1.258925411794167e+00,0.000000000000000e+00
	-1.238302373777436e-01,5.109872074189423e-11
	1.000000000000000e+00,0.000000000000000e+00
	0.000000000000000e+00,0.000000000000000e+00
	1.238302373777436e-05,-5.109872074189425e-15
	2.325463862657729e-25,2.254570627951813e-14
	1.238302385300370e-13,-8.368388088274425e-16
	-1.238302386160460e-05,-1.659899539650126e-14
	-1.238302373777436e-05,5.109872074189423e-15
	-2.325463862657729e-25,-2.254570627951813e-14
	-1.238302373777436e-05,5.109872074189423e-15
11		1.288249551693134e+00,0.000000000000000e+00
	-1.238302373777436e-01,5.228896284969159e-11
	1.000000000000000e+00,0.000000000000000e+00
	0.000000000000000e+00,0.000000000000000e+00
	1.238302373777436e-05,-5.228896284969160e-15
	2.435059598049625e-25,2.307086324185110e-14
	1.238302385300370e-13,-8.563312887416967e-16
	-1.238302386160460e-05,-1.698563566814024e-14
	-1.238302373777436e-05,5.228896284969160e-15
	-2.435059598049625e-25,-2.307086324185110e-14
	-1.238302373777436e-05,5.228896284969160e-15
12		1.318256738556407e+00,0.000000000000000e+00
	-1.238302373777436e-01,5.350692925771810e-11
	1.000000000000000e+00,0.000000000000000e+00
	0.000000000000000e+00,0.000000000000000e+00
	1.238302373777436e-05,-5.350692925771810e-15
	2.549820421323111e-25,2.360825268125387e-14
	1.238302385300370e-13,-8.762778068401211e-16
	-1.238302386160460e-05,-1.738128194864194e-14
	-1.238302373777436e-05,5.350692925771810e-15
	-2.549820421323111e-25,-2.360825268125387e-14
	-1.238302373777436e-05,5.350692925771810e-15
13		1.348962882591653e+00,0.000000000000000e+00
	-1.238302373777436e-01,5.475326574788499e-11
	1.000000000000000e+00,0.000000000000000e+00
	0.000000000000000e+00,0.000000000000000e+00
	1.238302373777436e-05,-5.475326574788500e-15
	2.669989755570602e-25,2.415815952872041e-14
	1.238302385300370e-13,-8.966889390306479e-16
	-1.238302386160460e-05,-1.778614401490126e-14
	-1.238302373777436e-05,5.475326574788499e-15
	-2.669989755570602e-25,-2.415815952872041e-14
	-1.238302373777436e-05,5.475326574788499e-15
14		1.380384264602885e+00,0.000000000000000e+00
	-1.238302373777436e-01,5.602863314429655e-11
	1.000000000000000e+00,0.000000000000000e+00
	0.000000000000000e+00,0.000000000000000e+00
	1.238302373777436e-05,-5.602863314429657e-15
	2.795822496061421e-25,2.472087535214012e-14
	1.238302385300370e-13,-9.175755075657261e-16
	-1.238302386160460e-05,-1.820043653014474e-14
	-1.238302373777436e-05,5.602863314429655e-15
	-2.795822496061421e-25,-2.472087535214012e-14
	-1.238302373777436e-05,5.602863314429655e-15
15		1.412537544622754e+00,0.000000000000000e+00
	-1.238302373777436e-01,5.733370766362786e-11
	1.000000000000000e+00,0.000000000000000e+00
	0.000000000000000e+00,0.000000000000000e+00
	1.238302373777436e-05,-5.733370766362787e-15
	2.927585550908838e-25,2.529669851089101e-14
	1.238302385300370e-13,-9.389485867804633e-16
	-1.238302386160460e-05,-1.862437915774776e-14
	-1.238302373777436e-05,5.733370766362787e-15
	-2.927585550908838e-25,-2.529669851089101e-14
	-1.238302373777436e-05,5.733370766362787e-15
16		1.445439770745927e+00,0.000000000000000e+00
	-1.238302373777436e-01,5.866918127366375e-11
	1.000000000000000e+00,0.000000000000000e+00
	0.000000000000000e+00,0.000000000000000e+00
	1.238302373777436e-05,-5.866918127366376e-15
	3.065558407217963e-25,2.588593431403375e-14
	1.238302385300370e-13,-9.608195089643651e-16
	-1.238302386160460e-05,-1.905819667770301e-14
	-1.238302373777436e-05,5.866918127366375e-15
	-3.065558407217963e-25,-2.588593431403375e-14
	-1.238302373777436e-05,5.866918127366375e-15
17		1.479108388168207e+00,0.000000000000000e+00
	-1.238302373777436e-01,6.003576206018935e-11
	1.000000000000000e+00,0.000000000000000e+00
	0.000000000000000e+00,0.000000000000000e+00
	1.238302373777436e-05,-6.003576206018936e-15
	3.210033723915372e-25,2.648889518219064e-14
	1.238302385300370e-13,-9.831998703698708e-16
	-1.238302386160460e-05,-1.950211910580184e-14
	-1.238302373777436e-05,6.003576206018935e-15
	-3.210033723915372e-25,-2.648889518219064e-14
	-1.238302373777436e-05,6.003576206018935e-15
18		1.513561248436208e+00,0.000000000000000e+00
	-1.238302373777436e-01,6.143417460242655e-11
	1.000000000000000e+00,0.000000000000000e+00
	0.000000000000000e+00,0.000000000000000e+00
	1.238302373777436e-05,-6.143417460242655e-15
	3.361317952517927e-25,2.710590081319512e-14
	1.238302385300370e-13,-1.006101537360834e-15
	-1.238302386160460e-05,-1.995638181559163e-14
	-1.238302373777436e-05,6.143417460242655e-15
	-3.361317952517927e-25,-2.710590081319512e-14
	-1.238302373777436e-05,6.143417460242655e-15
19		1.548816618912481e+00,0.000000000000000e+00
	-1.238302373777436e-01,6.286516035721536e-11
	1.000000000000000e+00,0.000000000000000e+00
	0.000000000000000e+00,0.000000000000000e+00
	1.238302373777436e-05,-6.286516035721537e-15
	3.519731987157519e-25,2.773727835159976e-14
	1.238302385300370e-13,-1.029536652704234e-15
	-1.238302386160460e-05,-2.042122566317399e-14
	-1.238302373777436e-05,6.286516035721537e-15
	-3.519731987157519e-25,-2.773727835159976e-14
	-1.238302373777436e-05,6.286516035721537e-15
20		1.584893192461113e+00,0.000000000000000e+00
	-1.238302373777436e-01,6.432947805214435e-11
	1.000000000000000e+00,0.000000000000000e+00
	0.000000000000000e+00,0.000000000000000e+00
	1.238302373777436e-05,-6.432947805214435e-15
	3.685611845240560e-25,2.838336256213270e-14
	1.238302385300370e-13,-1.053517642008432e-15
	-1.238302386160460e-05,-2.089689711490984e-14
	-1.238302373777436e-05,6.432947805214435e-15
	-3.685611845240560e-25,-2.838336256213270e-14
	-1.238302373777436e-05,6.432947805214435e-15
21		1.621810097358929e+00,0.000000000000000e+00
	-1.238302373777436e-01,6.582790408783788e-11
	1.000000000000000e+00,0.000000000000000e+00
	0.000000000000000e+00,0.000000000000000e+00
	1.238302373777436e-05,-6.582790408783789e-15
	3.859309380185943e-25,2.904449600719430e-14
	1.238302385300370e-13,-1.078057220311365e-15
	-1.238302386160460e-05,-2.138364837809914e-14
	-1.238302373777436e-05,6.582790408783788e-15
	-3.859309380185943e-25,-2.904449600719430e-14
	-1.238302373777436e-05,6.582790408783788e-15
22		1.659586907437560e+00,0.000000000000000e+00
	-1.238302373777436e-01,6.736123294961411e-11
	1.000000000000000e+00,0.000000000000000e+00
	0.000000000000000e+00,0.000000000000000e+00
	1.238302373777436e-05,-6.736123294961413e-15
	4.041193027753324e-25,2.972102922848827e-14
	1.238302385300370e-13,-1.103168398822287e-15
	-1.238302386160460e-05,-2.188173753470457e-14
	-1.238302373777436e-05,6.736123294961411e-15
	-4.041193027753324e-25,-2.972102922848827e-14
	-1.238302373777436e-05,6.736123294961411e-15
23		1.698243652461743e+00,0.000000000000000e+00
	-1.238302373777436e-01,6.893027762873156e-11
	1.000000000000000e+00,0.000000000000000e+00
	0.000000000000000e+00,0.000000000000000e+00
	1.238302373777436e-05,-6.893027762873157e-15
	4.231648587544758e-25,3.041332093288352e-14
	1.238302385300370e-13,-1.128864491820435e-15
	-1.238302386160460e-05,-2.239142867818993e-14
	-1.238302373777436e-05,6.893027762873156e-15
	-4.231648587544758e-25,-3.041332093288352e-14
	-1.238302373777436e-05,6.893027762873156e-15
24		1.737800828749374e+00,0.000000000000000e+00
	-1.238302373777436e-01,7.053587005344783e-11
	1.000000000000000e+00,0.000000000000000e+00
	0.000000000000000e+00,0.000000000000000e+00
	1.238302373777436e-05,-7.053587005344784e-15
	4.431080041337380e-25,3.112173818260527e-14
	1.238302385300370e-13,-1.155159123714427e-15
	-1.238302386160460e-05,-2.291299205354606e-14
	-1.238302373777436e-05,7.053587005344783e-15
	-4.431080041337380e-25,-3.112173818260527e-14
	-1.238302373777436e-05,7.053587005344783e-15
25		1.778279410038922e+00,0.000000000000000e+00
	-1.238302373777436e-01,7.217886153011908e-11
	1.000000000000000e+00,0.000000000000000e+00
	0.000000000000000e+00,0.000000000000000e+00
	1.238302373777436e-05,-7.217886153011907e-15
	4.639910409982931e-25,3.184665658985635e-14
	1.238302385300370e-13,-1.182066236266151e-15
	-1.238302386160460e-05,-2.344670420057829e-14
	-1.238302373777436e-05,7.217886153011907e-15
	-4.639910409982931e-25,-3.184665658985635e-14
	-1.238302373777436e-05,7.217886153011907e-15
26		1.819700858609982e+00,0.000000000000000e+00
	-1.238302373777436e-01,7.386012319457374e-11
	1.000000000000000e+00,0.000000000000000e+00
	0.000000000000000e+00,0.000000000000000e+00
	1.238302373777436e-05,-7.386012319457376e-15
	4.858582650691679e-25,3.258846051597169e-14
	1.238302385300370e-13,-1.209600095982834e-15
	-1.238302386160460e-05,-2.399284810053148e-14
	-1.238302373777436e-05,7.386012319457375e-15
	-4.858582650691679e-25,-3.258846051597169e-14
	-1.238302373777436e-05,7.386012319457375e-15
27		1.862087136662866e+00,0.000000000000000e+00
	-1.238302373777436e-01,7.558054647400051e-11
	1.000000000000000e+00,0.000000000000000e+00
	0.000000000000000e+00,0.000000000000000e+00
	1.238302373777436e-05,-7.558054647400051e-15
	5.087560596604070e-25,3.334754327521188e-14
	1.238302385300370e-13,-1.237775301681363e-15
	-1.238302386160460e-05,-2.455171332613047e-14
	-1.238302373777436e-05,7.558054647400051e-15
	-5.087560596604070e-25,-3.334754327521188e-14
	-1.238302373777436e-05,7.558054647400051e-15
28		1.905460717963246e+00,0.000000000000000e+00
	-1.238302373777436e-01,7.734104355959456e-11
	1.000000000000000e+00,0.000000000000000e+00
	0.000000000000000e+00,0.000000000000000e+00
	1.238302373777436e-05,-7.734104355959458e-15
	5.327329940642986e-25,3.412430734330350e-14
	1.238302385300370e-13,-1.266606792228736e-15
	-1.238302386160460e-05,-2.512359619511531e-14
	-1.238302373777436e-05,7.734104355959456e-15
	-5.327329940642986e-25,-3.412430734330350e-14
	-1.238302373777436e-05,7.734104355959456e-15
29		1.949844599758044e+00,0.000000000000000e+00
	-1.238302373777436e-01,7.914254789021369e-11
	1.000000000000000e+00,0.000000000000000e+00
	0.000000000000000e+00,0.000000000000000e+00
	1.238302373777436e-05,-7.914254789021369e-15
	5.578399265733576e-25,3.491916457083716e-14
	1.238302385300370e-13,-1.296109854462871e-15
	-1.238302386160460e-05,-2.570879992735292e-14
	-1.238302373777436e-05,7.914254789021369e-15
	-5.578399265733576e-25,-3.491916457083716e-14
	-1.238302373777436e-05,7.914254789021369e-15
30		1.995262314968878e+00,0.000000000000000e+00
	-1.238302373777436e-01,8.098601464729964e-11
	1.000000000000000e+00,0.000000000000000e+00
	0.000000000000000e+00,0.000000000000000e+00
	1.238302373777436e-05,-8.098601464729965e-15
	5.841301123575803e-25,3.573253640163604e-14
	1.238302385300370e-13,-1.326300131297874e-15
	-1.238302386160460e-05,-2.630763480560820e-14
	-1.238302373777436e-05,8.098601464729963e-15
	-5.841301123575803e-25,-3.573253640163604e-14
	-1.238302373777436e-05,8.098601464729963e-15
31		2.041737944669527e+00,0.000000000000000e+00
	-1.238302373777436e-01,8.287242126132821e-11
	1.000000000000000e+00,0.000000000000000e+00
	0.000000000000000e+00,0.000000000000000e+00
	1.238302373777436e-05,-8.287242126132821e-15
	6.116593164258015e-25,3.656485409621111e-14
	1.238302385300370e-13,-1.357193630018163e-15
	-1.238302386160460e-05,-2.692041834006013e-14
	-1.238302373777436e-05,8.287242126132822e-15
	-6.116593164258015e-25,-3.656485409621111e-14
	-1.238302373777436e-05,8.287242126132822e-15
32		2.089296130854037e+00,0.000000000000000e+00
	-1.238302373777436e-01,8.480276793005574e-11
	1.000000000000000e+00,0.000000000000000e+00
	0.000000000000000e+00,0.000000000000000e+00
	1.238302373777436e-05,-8.480276793005575e-15
	6.404859319107555e-25,3.741655896042106e-14
	1.238302385300370e-13,-1.388806730765666e-15
	-1.238302386160460e-05,-2.754747543664982e-14
	-1.238302373777436e-05,8.480276793005574e-15
	-6.404859319107555e-25,-3.741655896042106e-14
	-1.238302373777436e-05,8.480276793005574e-15
33		2.137962089502230e+00,0.000000000000000e+00
	-1.238302373777436e-01,8.677807814883711e-11
	1.000000000000000e+00,0.000000000000000e+00
	0.000000000000000e+00,0.000000000000000e+00
	1.238302373777436e-05,-8.677807814883713e-15
	6.706711039287367e-25,3.828810257945853e-14
	1.238302385300370e-13,-1.421156195224852e-15
	-1.238302386160460e-05,-2.818913856934997e-14
	-1.238302373777436e-05,8.677807814883713e-15
	-6.706711039287367e-25,-3.828810257945853e-14
	-1.238302373777436e-05,8.677807814883713e-15
34		2.187761623949550e+00,0.000000000000000e+00
	-1.238302373777436e-01,8.879939925329664e-11
	1.000000000000000e+00,0.000000000000000e+00
	0.000000000000000e+00,0.000000000000000e+00
	1.238302373777436e-05,-8.879939925329666e-15
	7.022788592765917e-25,3.917994705728658e-14
	1.238302385300370e-13,-1.454259175509975e-15
	-1.238302386160460e-05,-2.884574795644694e-14
	-1.238302373777436e-05,8.879939925329665e-15
	-7.022788592765917e-25,-3.917994705728658e-14
	-1.238302373777436e-05,8.879939925329665e-15
35		2.238721138568337e+00,0.000000000000000e+00
	-1.238302373777436e-01,9.086780297463927e-11
	1.000000000000000e+00,0.000000000000000e+00
	0.000000000000000e+00,0.000000000000000e+00
	1.238302373777436e-05,-9.086780297463929e-15
	7.353762422411394e-25,4.009256526165231e-14
	1.238302385300370e-13,-1.488133223259335e-15
	-1.238302386160460e-05,-2.951765174092904e-14
	-1.238302373777436e-05,9.086780297463927e-15
	-7.353762422411394e-25,-4.009256526165231e-14
	-1.238302373777436e-05,9.086780297463927e-15
36		2.290867652767770e+00,0.000000000000000e+00
	-1.238302373777436e-01,9.298438600789664e-11
	1.000000000000000e+00,0.000000000000000e+00
	0.000000000000000e+00,0.000000000000000e+00
	1.238302373777436e-05,-9.298438600789666e-15
	7.700334568090909e-25,4.102644107480760e-14
	1.238302385300370e-13,-1.522796298941452e-15
	-1.238302386160460e-05,-3.020520617507649e-14
	-1.238302373777436e-05,9.298438600789665e-15
	-7.700334568090909e-25,-4.102644107480760e-14
	-1.238302373777436e-05,9.298438600789665e-15
37		2.344228815319919e+00,0.000000000000000e+00
	-1.238302373777436e-01,9.515027059340923e-11
	1.000000000000000e+00,0.000000000000000e+00
	0.000000000000000e+00,0.000000000000000e+00
	1.238302373777436e-05,-9.515027059340925e-15
	8.063240155791183e-25,4.198206965006991e-14
	1.238302385300370e-13,-1.558266781377857e-15
	-1.238302386160460e-05,-3.090877580935113e-14
	-1.238302373777436e-05,9.515027059340923e-15
	-8.063240155791183e-25,-4.198206965006991e-14
	-1.238302373777436e-05,9.515027059340923e-15
38		2.398832919019488e+00,0.000000000000000e+00
	-1.238302373777436e-01,9.736660511185318e-11
	1.000000000000000e+00,0.000000000000000e+00
