LTspice 24.0.9 for Windows
Circuit: * GA CMOS Amp | W=2.521458186358844e-06 L=9.281433710232714e-07 Vbias=1.4598960906633918
Start Time: Sat Sep  6 22:13:33 2025
solver = Normal
Maximum thread count: 2
tnom = 27
temp = 27
method = modified trap
AsciiRawFile = 1
Direct Newton iteration for .op point succeeded.
Semiconductor Device Operating Points:
                        --- BSIM4 MOSFETS ---
Name:      m1
Model:      n
Id:      1.08e-04
Vgs:     1.46e+00
Vds:     7.22e-01
Vbs:     0.00e+00
Vth:     2.37e-01
Vdsat:   8.44e-01
Gm:      3.85e-05
Gds:     4.26e-05
Gmb      5.83e-05
Cbd:     1.05e-15
Cbs:     2.02e-15


.measure op idd find i(vdd)
  Error: FIND can not be evaluated over an interval.

gain_db: MAX(db(v(out)/v(g)))=(29.4719dB,113.509°) FROM 1 TO 1e+09
gain_lin: MAX(mag(v(out)/v(g)))=(1.91618dB,0°) FROM 1 TO 1e+09
fc: mag(v(out)/v(g))=1 AT 7.80617e+08

Total elapsed time: 4.186 seconds.

