Title: * GA CMOS Amp | W=1.4724320483210626e-05 L=9.082689514684641e-07 Vbias=1.4236177854222876
Date: Sat Sep  6 22:12:11 2025
Plotname: AC Analysis
Flags: complex forward log
No. Variables: 13
No. Points:          901
Offset:    0.0000000000000000e+00
Command: Linear Technology Corporation LTspice
Variables:
	0	frequency	frequency
	1	V(out)	voltage
	2	V(g)	voltage
	3	V(vdd)	voltage
	4	V(m1#dbody)	voltage
	5	V(m1#sbody)	voltage
	6	Id(M1)	device_current
	7	Ig(M1)	device_current
	8	Ib(M1)	device_current
	9	Is(M1)	device_current
	10	I(Rload)	device_current
	11	I(Vg)	device_current
	12	I(Vdd)	device_current
Values:
0		1.000000000000000e+00,0.000000000000000e+00
	2.440778822681593e-02,1.158771832250650e-09
	1.000000000000000e+00,0.000000000000000e+00
	0.000000000000000e+00,0.000000000000000e+00
	2.871264599713170e-04,1.235368639057901e-13
	2.871264597873867e-04,1.153110647016588e-13
	-2.440778822681596e-06,-1.158771832250651e-13
	1.838558194671423e-04,3.456319005111604e-12
	-1.531341120146343e-04,-6.211137475225467e-14
	-2.828092862982642e-05,-3.278330447134285e-12
	2.440778822681593e-06,1.158771832250650e-13
	-1.838558194671713e-04,-3.456319005111604e-12
	2.440778822681593e-06,1.158771832250650e-13
1		1.023292992280754e+00,0.000000000000000e+00
	2.440778822681594e-02,1.185763095594420e-09
	1.000000000000000e+00,0.000000000000000e+00
	0.000000000000000e+00,0.000000000000000e+00
	2.871264599713170e-04,1.264144071231363e-13
	2.871264597873867e-04,1.179970044416401e-13
	-2.440778822681589e-06,-1.185763095594420e-13
	1.838558194671423e-04,3.536827017017493e-12
	-1.531341120146343e-04,-6.355813452490597e-14
	-2.828092862982643e-05,-3.354692572933145e-12
	2.440778822681594e-06,1.185763095594420e-13
	-1.838558194671713e-04,-3.536827017017493e-12
	2.440778822681594e-06,1.185763095594420e-13
2		1.047128548050899e+00,0.000000000000000e+00
	2.440778822681594e-02,1.213383066226903e-09
	1.000000000000000e+00,0.000000000000000e+00
	0.000000000000000e+00,0.000000000000000e+00
	2.871264599713170e-04,1.293589769324316e-13
	2.871264597873867e-04,1.207455077552513e-13
	-2.440778822681589e-06,-1.213383066226907e-13
	1.838558194671423e-04,3.619210301423243e-12
	-1.531341120146343e-04,-6.503859366177374e-14
	-2.828092862982643e-05,-3.432833401138779e-12
	2.440778822681594e-06,1.213383066226904e-13
	-1.838558194671713e-04,-3.619210301423243e-12
	2.440778822681594e-06,1.213383066226904e-13
3		1.071519305237606e+00,0.000000000000000e+00
	2.440778822681594e-02,1.241646388622124e-09
	1.000000000000000e+00,0.000000000000000e+00
	0.000000000000000e+00,0.000000000000000e+00
	2.871264599713170e-04,1.323721345835649e-13
	2.871264597873867e-04,1.235580319353301e-13
	-2.440778822681589e-06,-1.241646388622128e-13
	1.838558194671423e-04,3.703512539036720e-12
	-1.531341120146343e-04,-6.655353712188852e-14
	-2.828092862982643e-05,-3.512794363052619e-12
	2.440778822681594e-06,1.241646388622124e-13
	-1.838558194671713e-04,-3.703512539036720e-12
	2.440778822681594e-06,1.241646388622124e-13
4		1.096478196143185e+00,0.000000000000000e+00
	2.440778822681594e-02,1.270568048367726e-09
	1.000000000000000e+00,0.000000000000000e+00
	0.000000000000000e+00,0.000000000000000e+00
	2.871264599713170e-04,1.354554776926069e-13
	2.871264597873867e-04,1.264360682194248e-13
	-2.440778822681589e-06,-1.270568048367725e-13
	1.838558194671423e-04,3.789778428020178e-12
	-1.531341120146343e-04,-6.810376814832554e-14
	-2.828092862982643e-05,-3.594617855035080e-12
	2.440778822681594e-06,1.270568048367726e-13
	-1.838558194671713e-04,-3.789778428020177e-12
	2.440778822681594e-06,1.270568048367726e-13
5		1.122018454301963e+00,0.000000000000000e+00
	2.440778822681594e-02,1.300163380110528e-09
	1.000000000000000e+00,0.000000000000000e+00
	0.000000000000000e+00,0.000000000000000e+00
	2.871264599713170e-04,1.386106410888866e-13
	2.871264597873867e-04,1.293811425804688e-13
	-2.440778822681589e-06,-1.300163380110532e-13
	1.838558194671423e-04,3.878053707689821e-12
	-1.531341120146343e-04,-6.969010869409476e-14
	-2.828092862982643e-05,-3.678347260984674e-12
	2.440778822681594e-06,1.300163380110528e-13
	-1.838558194671713e-04,-3.878053707689821e-12
	2.440778822681594e-06,1.300163380110528e-13
6		1.148153621496882e+00,0.000000000000000e+00
	2.440778822681594e-02,1.330448075687162e-09
	1.000000000000000e+00,0.000000000000000e+00
	0.000000000000000e+00,0.000000000000000e+00
	2.871264599713170e-04,1.418392976818004e-13
	2.871264597873867e-04,1.323948165358708e-13
	-2.440778822681589e-06,-1.330448075687163e-13
	1.838558194671423e-04,3.968385182767390e-12
	-1.531341120146343e-04,-7.131339985795121e-14
	-2.828092862982643e-05,-3.764026975340723e-12
	2.440778822681594e-06,1.330448075687162e-13
	-1.838558194671713e-04,-3.968385182767390e-12
	2.440778822681594e-06,1.330448075687162e-13
7		1.174897554939529e+00,0.000000000000000e+00
	2.440778822681594e-02,1.361438192444086e-09
	1.000000000000000e+00,0.000000000000000e+00
	0.000000000000000e+00,0.000000000000000e+00
	2.871264599713170e-04,1.451431593478102e-13
	2.871264597873867e-04,1.354786879754527e-13
	-2.440778822681589e-06,-1.361438192444087e-13
	1.838558194671423e-04,4.060820748196650e-12
	-1.531341120146343e-04,-7.297450233035682e-14
	-2.828092862982643e-05,-3.851702426621884e-12
	2.440778822681594e-06,1.361438192444087e-13
	-1.838558194671713e-04,-4.060820748196650e-12
	2.440778822681594e-06,1.361438192444087e-13
8		1.202264434617413e+00,0.000000000000000e+00
	2.440778822681594e-02,1.393150161751411e-09
	1.000000000000000e+00,0.000000000000000e+00
	0.000000000000000e+00,0.000000000000000e+00
	2.871264599713170e-04,1.485239778381030e-13
	2.871264597873867e-04,1.386343920086717e-13
	-2.440778822681589e-06,-1.393150161751411e-13
	1.838558194671423e-04,4.155409414537920e-12
	-1.531341120146343e-04,-7.467429684982969e-14
	-2.828092862982643e-05,-3.941420101512950e-12
	2.440778822681594e-06,1.393150161751411e-13
	-1.838558194671713e-04,-4.155409414537921e-12
	2.440778822681594e-06,1.393150161751411e-13
9		1.230268770812381e+00,0.000000000000000e+00
	2.440778822681594e-02,1.425600797715018e-09
	1.000000000000000e+00,0.000000000000000e+00
	0.000000000000000e+00,0.000000000000000e+00
	2.871264599713170e-04,1.519835457073928e-13
	2.871264597873867e-04,1.418636018315767e-13
	-2.440778822681596e-06,-1.425600797715015e-13
	1.838558194671423e-04,4.252201333954125e-12
	-1.531341120146343e-04,-7.641368466992351e-14
	-2.828092862982643e-05,-4.033227569512699e-12
	2.440778822681594e-06,1.425600797715018e-13
	-1.838558194671713e-04,-4.252201333954125e-12
	2.440778822681594e-06,1.425600797715018e-13
10		1.258925411794167e+00,0.000000000000000e+00
	2.440778822681594e-02,1.458807306091631e-09
	1.000000000000000e+00,0.000000000000000e+00
	0.000000000000000e+00,0.000000000000000e+00
	2.871264599713170e-04,1.555236972643568e-13
	2.871264597873867e-04,1.451680296139596e-13
	-2.440778822681596e-06,-1.458807306091636e-13
	1.838558194671423e-04,4.351247826802132e-12
	-1.531341120146343e-04,-7.819358803708403e-14
	-2.828092862982643e-05,-4.127173508155884e-12
	2.440778822681594e-06,1.458807306091631e-13
	-1.838558194671713e-04,-4.351247826802131e-12
	2.440778822681594e-06,1.458807306091631e-13
11		1.288249551693134e+00,0.000000000000000e+00
	2.440778822681594e-02,1.492787293411531e-09
	1.000000000000000e+00,0.000000000000000e+00
	0.000000000000000e+00,0.000000000000000e+00
	2.871264599713170e-04,1.591463095442098e-13
	2.871264597873867e-04,1.485494274071699e-13
	-2.440778822681596e-06,-1.492787293411541e-13
	1.838558194671423e-04,4.452601408843482e-12
	-1.531341120146343e-04,-8.001495067963631e-14
	-2.828092862982643e-05,-4.223307728822692e-12
	2.440778822681594e-06,1.492787293411531e-13
	-1.838558194671713e-04,-4.452601408843481e-12
	2.440778822681594e-06,1.492787293411531e-13
12		1.318256738556407e+00,0.000000000000000e+00
	2.440778822681594e-02,1.527558776313773e-09
	1.000000000000000e+00,0.000000000000000e+00
	0.000000000000000e+00,0.000000000000000e+00
	2.871264599713170e-04,1.628533033039336e-13
	2.871264597873867e-04,1.520095880730755e-13
	-2.440778822681596e-06,-1.527558776313773e-13
	1.838558194671423e-04,4.556315819088947e-12
	-1.531341120146343e-04,-8.187873830816201e-14
	-2.828092862982643e-05,-4.321681203149408e-12
	2.440778822681594e-06,1.527558776313773e-13
	-1.838558194671713e-04,-4.556315819088948e-12
	2.440778822681594e-06,1.527558776313773e-13
13		1.348962882591653e+00,0.000000000000000e+00
	2.440778822681594e-02,1.563140191098849e-09
	1.000000000000000e+00,0.000000000000000e+00
	0.000000000000000e+00,0.000000000000000e+00
	2.871264599713170e-04,1.666466440406874e-13
	2.871264597873867e-04,1.555503462346623e-13
	-2.440778822681596e-06,-1.563140191098848e-13
	1.838558194671423e-04,4.662446048291663e-12
	-1.531341120146343e-04,-8.378593912753191e-14
	-2.828092862982643e-05,-4.422346090054247e-12
	2.440778822681594e-06,1.563140191098848e-13
	-1.838558194671713e-04,-4.662446048291665e-12
	2.440778822681594e-06,1.563140191098848e-13
14		1.380384264602885e+00,0.000000000000000e+00
	2.440778822681594e-02,1.599550403503851e-09
	1.000000000000000e+00,0.000000000000000e+00
	0.000000000000000e+00,0.000000000000000e+00
	2.871264599713170e-04,1.705283430339407e-13
	2.871264597873867e-04,1.591735792487749e-13
	-2.440778822681596e-06,-1.599550403503857e-13
	1.838558194671423e-04,4.771048368103956e-12
	-1.531341120146343e-04,-8.573756436086525e-14
	-2.828092862982643e-05,-4.525355763392706e-12
	2.440778822681594e-06,1.599550403503851e-13
	-1.838558194671713e-04,-4.771048368103955e-12
	2.440778822681594e-06,1.599550403503851e-13
15		1.412537544622754e+00,0.000000000000000e+00
	2.440778822681594e-02,1.636808718705343e-09
	1.000000000000000e+00,0.000000000000000e+00
	0.000000000000000e+00,0.000000000000000e+00
	2.871264599713170e-04,1.745004584118801e-13
	2.871264597873867e-04,1.628812082015166e-13
	-2.440778822681596e-06,-1.636808718705351e-13
	1.838558194671423e-04,4.882180360913307e-12
	-1.531341120146343e-04,-8.773464878569355e-14
	-2.828092862982643e-05,-4.630764840257077e-12
	2.440778822681594e-06,1.636808718705343e-13
	-1.838558194671713e-04,-4.882180360913306e-12
	2.440778822681594e-06,1.636808718705343e-13
16		1.445439770745927e+00,0.000000000000000e+00
	2.440778822681594e-02,1.674934891555217e-09
	1.000000000000000e+00,0.000000000000000e+00
	0.000000000000000e+00,0.000000000000000e+00
	2.871264599713170e-04,1.785650962426561e-13
	2.871264597873867e-04,1.666751989268345e-13
	-2.440778822681596e-06,-1.674934891555225e-13
	1.838558194671423e-04,4.995900950373308e-12
	-1.531341120146343e-04,-8.977825128261339e-14
	-2.828092862982643e-05,-4.738629209935172e-12
	2.440778822681594e-06,1.674934891555217e-13
	-1.838558194671713e-04,-4.995900950373307e-12
	2.440778822681594e-06,1.674934891555217e-13
17		1.479108388168207e+00,0.000000000000000e+00
	2.440778822681594e-02,1.713949137054978e-09
	1.000000000000000e+00,0.000000000000000e+00
	0.000000000000000e+00,0.000000000000000e+00
	2.871264599713170e-04,1.827244116510483e-13
	2.871264597873867e-04,1.705575630488303e-13
	-2.440778822681596e-06,-1.713949137054980e-13
	1.838558194671423e-04,5.112270432645764e-12
	-1.531341120146343e-04,-9.186945539671886e-14
	-2.828092862982643e-05,-4.849006063543547e-12
	2.440778822681594e-06,1.713949137054979e-13
	-1.838558194671713e-04,-5.112270432645765e-12
	2.440778822681594e-06,1.713949137054979e-13
18		1.513561248436208e+00,0.000000000000000e+00
	2.440778822681594e-02,1.753872141074005e-09
	1.000000000000000e+00,0.000000000000000e+00
	0.000000000000000e+00,0.000000000000000e+00
	2.871264599713170e-04,1.869806099611416e-13
	2.871264597873867e-04,1.745303590483510e-13
	-2.440778822681596e-06,-1.753872141074011e-13
	1.838558194671423e-04,5.231350508370510e-12
	-1.531341120146343e-04,-9.400936991211173e-14
	-2.828092862982643e-05,-4.961953924350997e-12
	2.440778822681594e-06,1.753872141074005e-13
	-1.838558194671713e-04,-5.231350508370511e-12
	2.440778822681594e-06,1.753872141074005e-13
19		1.548816618912481e+00,0.000000000000000e+00
	2.440778822681594e-02,1.794725071317472e-09
	1.000000000000000e+00,0.000000000000000e+00
	0.000000000000000e+00,0.000000000000000e+00
	2.871264599713170e-04,1.913359478656171e-13
	2.871264597873867e-04,1.785956933544215e-13
	-2.440778822681596e-06,-1.794725071317482e-13
	1.838558194671423e-04,5.353204315379904e-12
	-1.531341120146343e-04,-9.619912943979311e-14
	-2.828092862982643e-05,-5.077532678808363e-12
	2.440778822681594e-06,1.794725071317472e-13
	-1.838558194671713e-04,-5.353204315379904e-12
	2.440778822681594e-06,1.794725071317472e-13
20		1.584893192461113e+00,0.000000000000000e+00
	2.440778822681594e-02,1.836529588549745e-09
	1.000000000000000e+00,0.000000000000000e+00
	0.000000000000000e+00,0.000000000000000e+00
	2.871264599713170e-04,1.957927346222817e-13
	2.871264597873867e-04,1.827557214611019e-13
	-2.440778822681596e-06,-1.836529588549745e-13
	1.838558194671423e-04,5.477896462175346e-12
	-1.531341120146343e-04,-9.843989501924946e-14
	-2.828092862982643e-05,-5.195803608301122e-12
	2.440778822681594e-06,1.836529588549746e-13
	-1.838558194671713e-04,-5.477896462175347e-12
	2.440778822681594e-06,1.836529588549746e-13
21		1.621810097358929e+00,0.000000000000000e+00
	2.440778822681594e-02,1.879307858079211e-09
	1.000000000000000e+00,0.000000000000000e+00
	0.000000000000000e+00,0.000000000000000e+00
	2.871264599713170e-04,2.003533332784662e-13
	2.871264597873867e-04,1.870126490703590e-13
	-2.440778822681596e-06,-1.879307858079225e-13
	1.838558194671423e-04,5.605493062183569e-12
	-1.531341120146343e-04,-1.007328547340511e-13
	-2.828092862982643e-05,-5.316829421641595e-12
	2.440778822681594e-06,1.879307858079211e-13
	-1.838558194671713e-04,-5.605493062183569e-12
	2.440778822681594e-06,1.879307858079211e-13
22		1.659586907437560e+00,0.000000000000000e+00
	2.440778822681594e-02,1.923082561510611e-09
	1.000000000000000e+00,0.000000000000000e+00
	0.000000000000000e+00,0.000000000000000e+00
	2.871264599713170e-04,2.050201619239449e-13
	2.871264597873867e-04,1.913687332615583e-13
	-2.440778822681596e-06,-1.923082561510615e-13
	1.838558194671423e-04,5.736061768810831e-12
	-1.531341120146343e-04,-1.030792243417897e-13
	-2.828092862982643e-05,-5.440674288317980e-12
	2.440778822681594e-06,1.923082561510611e-13
	-1.838558194671713e-04,-5.736061768810831e-12
	2.440778822681594e-06,1.923082561510611e-13
23		1.698243652461743e+00,0.000000000000000e+00
	2.440778822681594e-02,1.967876908771131e-09
	1.000000000000000e+00,0.000000000000000e+00
	0.000000000000000e+00,0.000000000000000e+00
	2.871264599713170e-04,2.097956949730383e-13
	2.871264597873867e-04,1.958262836881974e-13
	-2.440778822681596e-06,-1.967876908771134e-13
	1.838558194671423e-04,5.869671811313671e-12
	-1.531341120146343e-04,-1.054802479186891e-13
	-2.828092862982643e-05,-5.567403872517868e-12
	2.440778822681594e-06,1.967876908771131e-13
	-1.838558194671713e-04,-5.869671811313670e-12
	2.440778822681594e-06,1.967876908771131e-13
24		1.737800828749374e+00,0.000000000000000e+00
	2.440778822681594e-02,2.013714650416610e-09
	1.000000000000000e+00,0.000000000000000e+00
	0.000000000000000e+00,0.000000000000000e+00
	2.871264599713170e-04,2.146824644765808e-13
	2.871264597873867e-04,2.003876638025154e-13
	-2.440778822681596e-06,-2.013714650416619e-13
	1.838558194671423e-04,6.006394031505160e-12
	-1.531341120146343e-04,-1.079371985192312e-13
	-2.828092862982643e-05,-5.697085367944266e-12
	2.440778822681594e-06,2.013714650416610e-13
	-1.838558194671713e-04,-6.006394031505158e-12
	2.440778822681594e-06,2.013714650416610e-13
25		1.778279410038922e+00,0.000000000000000e+00
	2.440778822681594e-02,2.060620090224406e-09
	1.000000000000000e+00,0.000000000000000e+00
	0.000000000000000e+00,0.000000000000000e+00
	2.871264599713170e-04,2.196830614644470e-13
	2.871264597873867e-04,2.050552921086257e-13
	-2.440778822681589e-06,-2.060620090224414e-13
	1.838558194671423e-04,6.146300921316176e-12
	-1.531341120146343e-04,-1.104513788511458e-13
	-2.828092862982644e-05,-5.829787533442588e-12
	2.440778822681594e-06,2.060620090224406e-13
	-1.838558194671713e-04,-6.146300921316176e-12
	2.440778822681594e-06,2.060620090224406e-13
26		1.819700858609982e+00,0.000000000000000e+00
	2.440778822681594e-02,2.108618098079570e-09
	1.000000000000000e+00,0.000000000000000e+00
	0.000000000000000e+00,0.000000000000000e+00
	2.871264599713170e-04,2.248001373193508e-13
	2.871264597873867e-04,2.098316434448397e-13
	-2.440778822681589e-06,-2.108618098079577e-13
	1.838558194671423e-04,6.289466661231586e-12
	-1.531341120146343e-04,-1.130241219661242e-13
	-2.828092862982644e-05,-5.965580729457504e-12
	2.440778822681594e-06,2.108618098079570e-13
	-1.838558194671713e-04,-6.289466661231584e-12
	2.440778822681594e-06,2.108618098079570e-13
27		1.862087136662866e+00,0.000000000000000e+00
	2.440778822681594e-02,2.157734123161196e-09
	1.000000000000000e+00,0.000000000000000e+00
	0.000000000000000e+00,0.000000000000000e+00
	2.871264599713170e-04,2.300364051826430e-13
	2.871264597873867e-04,2.147192502958583e-13
	-2.440778822681589e-06,-2.157734123161207e-13
	1.838558194671423e-04,6.435967159621713e-12
	-1.531341120146343e-04,-1.156567919666202e-13
	-2.828092862982644e-05,-6.104536955338972e-12
	2.440778822681594e-06,2.157734123161196e-13
	-1.838558194671713e-04,-6.435967159621712e-12
	2.440778822681594e-06,2.157734123161196e-13
28		1.905460717963246e+00,0.000000000000000e+00
	2.440778822681594e-02,2.207994207435909e-09
	1.000000000000000e+00,0.000000000000000e+00
	0.000000000000000e+00,0.000000000000000e+00
	2.871264599713170e-04,2.353946413928546e-13
	2.871264597873867e-04,2.197207041355290e-13
	-2.440778822681589e-06,-2.207994207435912e-13
	1.838558194671423e-04,6.585880092989968e-12
	-1.531341120146343e-04,-1.183507847291154e-13
	-2.828092862982644e-05,-6.246729887517262e-12
	2.440778822681594e-06,2.207994207435909e-13
	-1.838558194671713e-04,-6.585880092989967e-12
	2.440778822681594e-06,2.207994207435909e-13
29		1.949844599758044e+00,0.000000000000000e+00
	2.440778822681594e-02,2.259424999465664e-09
	1.000000000000000e+00,0.000000000000000e+00
	0.000000000000000e+00,0.000000000000000e+00
	2.871264599713170e-04,2.408776869577493e-13
	2.871264597873867e-04,2.248386568008798e-13
	-2.440778822681589e-06,-2.259424999465669e-13
	1.838558194671423e-04,6.739284947157956e-12
	-1.531341120146343e-04,-1.211075286442319e-13
	-2.828092862982644e-05,-6.392234918567157e-12
	2.440778822681594e-06,2.259424999465664e-13
	-1.838558194671713e-04,-6.739284947157957e-12
	2.440778822681594e-06,2.259424999465664e-13
30		1.995262314968878e+00,0.000000000000000e+00
	2.440778822681594e-02,2.312053768537160e-09
	1.000000000000000e+00,0.000000000000000e+00
	0.000000000000000e+00,0.000000000000000e+00
	2.871264599713170e-04,2.464884490606620e-13
	2.871264597873867e-04,2.300758218981578e-13
	-2.440778822681589e-06,-2.312053768537169e-13
	1.838558194671423e-04,6.896263059409908e-12
	-1.531341120146343e-04,-1.239284853740832e-13
	-2.828092862982644e-05,-6.541129197182107e-12
	2.440778822681594e-06,2.312053768537160e-13
	-1.838558194671713e-04,-6.896263059409908e-12
	2.440778822681594e-06,2.312053768537160e-13
31		2.041737944669527e+00,0.000000000000000e+00
	2.440778822681594e-02,2.365908419120385e-09
	1.000000000000000e+00,0.000000000000000e+00
	0.000000000000000e+00,0.000000000000000e+00
	2.871264599713170e-04,2.522299026019270e-13
	2.871264597873867e-04,2.354349762416197e-13
	-2.440778822681589e-06,-2.365908419120392e-13
	1.838558194671423e-04,7.056897661618792e-12
	-1.531341120146343e-04,-1.268151506272672e-13
	-2.828092862982644e-05,-6.693491669079486e-12
	2.440778822681594e-06,2.365908419120385e-13
	-1.838558194671713e-04,-7.056897661618792e-12
	2.440778822681594e-06,2.365908419120385e-13
32		2.089296130854037e+00,0.000000000000000e+00
	2.440778822681594e-02,2.421017505663927e-09
	1.000000000000000e+00,0.000000000000000e+00
	0.000000000000000e+00,0.000000000000000e+00
	2.871264599713170e-04,2.581050917762091e-13
	2.871264597873867e-04,2.409189613258353e-13
