Title: * GA CMOS Amp | W=3.6116760685012814e-05 L=7.142572690813112e-07 Vbias=1.3519446336757888
Date: Sat Sep  6 22:02:15 2025
Plotname: AC Analysis
Flags: complex forward log
No. Variables: 13
No. Points:          901
Offset:    0.0000000000000000e+00
Command: Linear Technology Corporation LTspice
Variables:
	0	frequency	frequency
	1	V(out)	voltage
	2	V(g)	voltage
	3	V(vdd)	voltage
	4	V(m1#dbody)	voltage
	5	V(m1#sbody)	voltage
	6	Id(M1)	device_current
	7	Ig(M1)	device_current
	8	Ib(M1)	device_current
	9	Is(M1)	device_current
	10	I(Rload)	device_current
	11	I(Vg)	device_current
	12	I(Vdd)	device_current
Values:
0		1.000000000000000e+00,0.000000000000000e+00
	9.855492945811247e-03,6.990712474815651e-10
	1.000000000000000e+00,0.000000000000000e+00
	0.000000000000000e+00,0.000000000000000e+00
	3.087023230035997e-04,9.960114971233322e-14
	3.087023229228887e-04,9.115534991810150e-14
	-9.855492945811184e-07,-6.990712474815623e-14
	2.108149229142905e-04,6.780456521919400e-12
	-1.646412390221375e-04,-4.934736983488456e-14
	-4.518813459757191e-05,-6.661202027336359e-12
	9.855492945811248e-07,6.990712474815652e-14
	-2.108149229143041e-04,-6.780456521919399e-12
	9.855492945811248e-07,6.990712474815652e-14
1		1.023292992280754e+00,0.000000000000000e+00
	9.855492945811247e-03,7.153547086528506e-10
	1.000000000000000e+00,0.000000000000000e+00
	0.000000000000000e+00,0.000000000000000e+00
	3.087023230035997e-04,1.019211585237368e-13
	3.087023229228887e-04,9.327863078009328e-14
	-9.855492945811184e-07,-7.153547086528412e-14
	2.108149229142905e-04,6.938393643344458e-12
	-1.646412390221375e-04,-5.049681773952405e-14
	-4.518813459757191e-05,-6.816361354739650e-12
	9.855492945811248e-07,7.153547086528505e-14
	-2.108149229143041e-04,-6.938393643344459e-12
	9.855492945811248e-07,7.153547086528505e-14
2		1.047128548050899e+00,0.000000000000000e+00
	9.855492945811247e-03,7.320174603595023e-10
	1.000000000000000e+00,0.000000000000000e+00
	0.000000000000000e+00,0.000000000000000e+00
	3.087023230035997e-04,1.042952072824757e-13
	3.087023229228887e-04,9.545136920681330e-14
	-9.855492945811184e-07,-7.320174603595010e-14
	2.108149229142905e-04,7.100009592919713e-12
	-1.646412390221375e-04,-5.167303972533342e-14
	-4.518813459757191e-05,-6.975134807158430e-12
	9.855492945811248e-07,7.320174603595023e-14
	-2.108149229143041e-04,-7.100009592919713e-12
	9.855492945811248e-07,7.320174603595023e-14
3		1.071519305237606e+00,0.000000000000000e+00
	9.855492945811247e-03,7.490683374130334e-10
	1.000000000000000e+00,0.000000000000000e+00
	0.000000000000000e+00,0.000000000000000e+00
	3.087023230035997e-04,1.067245547406261e-13
	3.087023229228887e-04,9.767471721293501e-14
	-9.855492945811252e-07,-7.490683374130293e-14
	2.108149229142905e-04,7.265390061560871e-12
	-1.646412390221375e-04,-5.287665944077871e-14
	-4.518813459757191e-05,-7.137606568378790e-12
	9.855492945811248e-07,7.490683374130335e-14
	-2.108149229143041e-04,-7.265390061560870e-12
	9.855492945811248e-07,7.490683374130335e-14
4		1.096478196143185e+00,0.000000000000000e+00
	9.855492945811247e-03,7.665163804141524e-10
	1.000000000000000e+00,0.000000000000000e+00
	0.000000000000000e+00,0.000000000000000e+00
	3.087023230035997e-04,1.092104889703664e-13
	3.087023229228887e-04,9.994985364700072e-14
	-9.855492945811252e-07,-7.665163804141578e-14
	2.108149229142905e-04,7.434622736181478e-12
	-1.646412390221375e-04,-5.410831506096482e-14
	-4.518813459757191e-05,-7.303862783079097e-12
	9.855492945811248e-07,7.665163804141525e-14
	-2.108149229143041e-04,-7.434622736181475e-12
	9.855492945811248e-07,7.665163804141525e-14
5		1.122018454301963e+00,0.000000000000000e+00
	9.855492945811247e-03,7.843708405462108e-10
	1.000000000000000e+00,0.000000000000000e+00
	0.000000000000000e+00,0.000000000000000e+00
	3.087023230035997e-04,1.117543280469306e-13
	3.087023229228887e-04,1.022779848164628e-13
	-9.855492945811252e-07,-7.843708405462084e-14
	2.108149229142905e-04,7.607797346185668e-12
	-1.646412390221375e-04,-5.536865962600451e-14
	-4.518813459757191e-05,-7.473991602505044e-12
	9.855492945811248e-07,7.843708405462108e-14
	-2.108149229143041e-04,-7.607797346185670e-12
	9.855492945811248e-07,7.843708405462108e-14
6		1.148153621496882e+00,0.000000000000000e+00
	9.855492945811247e-03,8.026411844803025e-10
	1.000000000000000e+00,0.000000000000000e+00
	0.000000000000000e+00,0.000000000000000e+00
	3.087023230035997e-04,1.143574207474686e-13
	3.087023229228887e-04,1.046603451272838e-13
	-9.855492945811252e-07,-8.026411844802946e-14
	2.108149229142905e-04,7.785005711043913e-12
	-1.646412390221375e-04,-5.665836138726873e-14
	-4.518813459757191e-05,-7.648083231208616e-12
	9.855492945811248e-07,8.026411844803025e-14
	-2.108149229143041e-04,-7.785005711043917e-12
	9.855492945811248e-07,8.026411844803025e-14
7		1.174897554939529e+00,0.000000000000000e+00
	9.855492945811247e-03,8.213370993946174e-10
	1.000000000000000e+00,0.000000000000000e+00
	0.000000000000000e+00,0.000000000000000e+00
	3.087023230035997e-04,1.170211472661863e-13
	3.087023229228887e-04,1.070981977384347e-13
	-9.855492945811252e-07,-8.213370993946069e-14
	2.108149229142905e-04,7.966341788976885e-12
	-1.646412390221375e-04,-5.797810416170255e-14
	-4.518813459757191e-05,-7.826229974875722e-12
	9.855492945811248e-07,8.213370993946174e-14
	-2.108149229143041e-04,-7.966341788976885e-12
	9.855492945811248e-07,8.213370993946174e-14
8		1.202264434617413e+00,0.000000000000000e+00
	9.855492945811249e-03,8.404684981107133e-10
	1.000000000000000e+00,0.000000000000000e+00
	0.000000000000000e+00,0.000000000000000e+00
	3.087023230035997e-04,1.197469199461426e-13
	3.087023229228887e-04,1.095928352316387e-13
	-9.855492945811184e-07,-8.404684981107125e-14
	2.108149229142906e-04,8.151901726773376e-12
	-1.646412390221375e-04,-5.932858769439386e-14
	-4.518813459757193e-05,-8.008526289267911e-12
	9.855492945811250e-07,8.404684981107134e-14
	-2.108149229143041e-04,-8.151901726773374e-12
	9.855492945811250e-07,8.404684981107134e-14
9		1.230268770812381e+00,0.000000000000000e+00
	9.855492945811249e-03,8.600455243494230e-10
	1.000000000000000e+00,0.000000000000000e+00
	0.000000000000000e+00,0.000000000000000e+00
	3.087023230035997e-04,1.225361840280922e-13
	3.087023229228887e-04,1.121455802967153e-13
	-9.855492945811184e-07,-8.600455243494228e-14
	2.108149229142906e-04,8.341783910768573e-12
	-1.646412390221375e-04,-6.071052802958742e-14
	-4.518813459757193e-05,-8.195068830304043e-12
	9.855492945811250e-07,8.600455243494231e-14
	-2.108149229143041e-04,-8.341783910768573e-12
	9.855492945811250e-07,8.600455243494231e-14
10		1.258925411794167e+00,0.000000000000000e+00
	9.855492945811249e-03,8.800785581091913e-10
	1.000000000000000e+00,0.000000000000000e+00
	0.000000000000000e+00,0.000000000000000e+00
	3.087023230035997e-04,1.253904184167716e-13
	3.087023229228887e-04,1.147577864328873e-13
	-9.855492945811184e-07,-8.800785581091888e-14
	2.108149229142906e-04,8.536089019009827e-12
	-1.646412390221375e-04,-6.212465789034111e-14
	-4.518813459757193e-05,-8.385956505308566e-12
	9.855492945811250e-07,8.800785581091913e-14
	-2.108149229143041e-04,-8.536089019009823e-12
	9.855492945811250e-07,8.800785581091913e-14
11		1.288249551693134e+00,0.000000000000000e+00
	9.855492945811249e-03,9.005782211696860e-10
	1.000000000000000e+00,0.000000000000000e+00
	0.000000000000000e+00,0.000000000000000e+00
	3.087023230035997e-04,1.283111364650340e-13
	3.087023229228887e-04,1.174308386664250e-13
	-9.855492945811184e-07,-9.005782211696868e-14
	2.108149229142906e-04,8.734920074637452e-12
	-1.646412390221375e-04,-6.357172706702532e-14
	-4.518813459757193e-05,-8.581290525453459e-12
	9.855492945811250e-07,9.005782211696859e-14
	-2.108149229143041e-04,-8.734920074637454e-12
	9.855492945811250e-07,9.005782211696859e-14
12		1.318256738556407e+00,0.000000000000000e+00
	9.855492945811249e-03,9.215553827236068e-10
	1.000000000000000e+00,0.000000000000000e+00
	0.000000000000000e+00,0.000000000000000e+00
	3.087023230035997e-04,1.312998867762488e-13
	3.087023229228887e-04,1.201661542850045e-13
	-9.855492945811184e-07,-9.215553827236105e-14
	2.108149229142906e-04,8.938382500508986e-12
	-1.646412390221375e-04,-6.505250281487173e-14
	-4.518813459757193e-05,-8.781174459421754e-12
	9.855492945811250e-07,9.215553827236068e-14
	-2.108149229143041e-04,-8.938382500508985e-12
	9.855492945811250e-07,9.215553827236068e-14
13		1.348962882591653e+00,0.000000000000000e+00
	9.855492945811249e-03,9.430211651396753e-10
	1.000000000000000e+00,0.000000000000000e+00
	0.000000000000000e+00,0.000000000000000e+00
	3.087023230035997e-04,1.343582540253918e-13
	3.087023229228887e-04,1.229651835891731e-13
	-9.855492945811184e-07,-9.430211651396634e-14
	2.108149229142906e-04,9.146584175095769e-12
	-1.646412390221375e-04,-6.656777026078228e-14
	-4.518813459757193e-05,-8.985714288321021e-12
	9.855492945811250e-07,9.430211651396753e-14
	-2.108149229143041e-04,-9.146584175095769e-12
	9.855492945811250e-07,9.430211651396753e-14
14		1.380384264602885e+00,0.000000000000000e+00
	9.855492945811249e-03,9.649869498598614e-10
	1.000000000000000e+00,0.000000000000000e+00
	0.000000000000000e+00,0.000000000000000e+00
	3.087023230035997e-04,1.374878597992609e-13
	3.087023229228887e-04,1.258294106613172e-13
	-9.855492945811184e-07,-9.649869498598645e-14
	2.108149229142906e-04,9.359635489681546e-12
	-1.646412390221375e-04,-6.811833281961371e-14
	-4.518813459757193e-05,-9.195018461875945e-12
	9.855492945811250e-07,9.649869498598614e-14
	-2.108149229143041e-04,-9.359635489681544e-12
	9.855492945811250e-07,9.649869498598614e-14
15		1.412537544622754e+00,0.000000000000000e+00
	9.855492945811249e-03,9.874643834339757e-10
	1.000000000000000e+00,0.000000000000000e+00
	0.000000000000000e+00,0.000000000000000e+00
	3.087023230035997e-04,1.406903634562625e-13
	3.087023229228887e-04,1.287603541525431e-13
	-9.855492945811184e-07,-9.874643834339840e-14
	2.108149229142906e-04,9.577649406893370e-12
	-1.646412390221375e-04,-6.970501262015881e-14
	-4.518813459757193e-05,-9.409197955929813e-12
	9.855492945811250e-07,9.874643834339757e-14
	-2.108149229143041e-04,-9.577649406893366e-12
	9.855492945811250e-07,9.874643834339757e-14
16		1.445439770745927e+00,0.000000000000000e+00
	9.855492945811249e-03,1.010465383694823e-09
	1.000000000000000e+00,0.000000000000000e+00
	0.000000000000000e+00,0.000000000000000e+00
	3.087023230035997e-04,1.439674630062257e-13
	3.087023229228887e-04,1.317595680878854e-13
	-9.855492945811184e-07,-1.010465383694826e-13
	2.108149229142906e-04,9.800741520595902e-12
	-1.646412390221375e-04,-7.132865094105002e-14
	-4.518813459757193e-05,-9.628366331285370e-12
	9.855492945811250e-07,1.010465383694823e-13
	-2.108149229143041e-04,-9.800741520595903e-12
	9.855492945811250e-07,1.010465383694823e-13
17		1.479108388168207e+00,0.000000000000000e+00
	9.855492945811249e-03,1.034002146077195e-09
	1.000000000000000e+00,0.000000000000000e+00
	0.000000000000000e+00,0.000000000000000e+00
	3.087023230035997e-04,1.473208960107095e-13
	3.087023229228887e-04,1.348286426902720e-13
	-9.855492945811184e-07,-1.034002146077187e-13
	2.108149229142906e-04,1.002903011718081e-11
	-1.646412390221375e-04,-7.299010865681653e-14
	-4.518813459757193e-05,-9.852639793916273e-12
	9.855492945811250e-07,1.034002146077196e-13
	-2.108149229143041e-04,-1.002903011718081e-11
	9.855492945811250e-07,1.034002146077196e-13
18		1.513561248436208e+00,0.000000000000000e+00
	9.855492945811249e-03,1.058087150084055e-09
	1.000000000000000e+00,0.000000000000000e+00
	0.000000000000000e+00,0.000000000000000e+00
	3.087023230035997e-04,1.507524405042807e-13
	3.087023229228887e-04,1.379692052236810e-13
	-9.855492945811184e-07,-1.058087150084054e-13
	2.108149229142906e-04,1.026263623828375e-11
	-1.646412390221375e-04,-7.469026669433112e-14
	-4.518813459757193e-05,-1.008213725658102e-11
	9.855492945811250e-07,1.058087150084055e-13
	-2.108149229143041e-04,-1.026263623828375e-11
	9.855492945811250e-07,1.058087150084055e-13
19		1.548816618912481e+00,0.000000000000000e+00
	9.855492945811249e-03,1.082733165903328e-09
	1.000000000000000e+00,0.000000000000000e+00
	0.000000000000000e+00,0.000000000000000e+00
	3.087023230035997e-04,1.542639159372517e-13
	3.087023229228887e-04,1.411829208559381e-13
	-9.855492945811184e-07,-1.082733165903328e-13
	2.108149229142906e-04,1.050168374496228e-11
	-1.646412390221375e-04,-7.643002649988965e-14
	-4.518813459757193e-05,-1.031698040187206e-11
	9.855492945811250e-07,1.082733165903328e-13
	-2.108149229143041e-04,-1.050168374496228e-11
	9.855492945811250e-07,1.082733165903328e-13
20		1.584893192461113e+00,0.000000000000000e+00
	9.855492945811249e-03,1.107953261178830e-09
	1.000000000000000e+00,0.000000000000000e+00
	0.000000000000000e+00,0.000000000000000e+00
	3.087023230035997e-04,1.578571841403771e-13
	3.087023229228887e-04,1.444714935416098e-13
	-9.855492945811184e-07,-1.107953261178833e-13
	2.108149229142906e-04,1.074629938336861e-11
	-1.646412390221375e-04,-7.821031051716943e-14
	-4.518813459757193e-05,-1.055729374673356e-11
	9.855492945811250e-07,1.107953261178830e-13
	-2.108149229143041e-04,-1.074629938336861e-11
	9.855492945811250e-07,1.107953261178830e-13
21		1.621810097358929e+00,0.000000000000000e+00
	9.855492945811249e-03,1.133760807938905e-09
	1.000000000000000e+00,0.000000000000000e+00
	0.000000000000000e+00,0.000000000000000e+00
	3.087023230035997e-04,1.615341503120204e-13
	3.087023229228887e-04,1.478366669254634e-13
	-9.855492945811184e-07,-1.133760807938895e-13
	2.108149229142906e-04,1.099661285195209e-11
	-1.646412390221375e-04,-8.003206267632121e-14
	-4.518813459757193e-05,-1.080320470848188e-11
	9.855492945811250e-07,1.133760807938906e-13
	-2.108149229143041e-04,-1.099661285195209e-11
	9.855492945811250e-07,1.133760807938906e-13
22		1.659586907437560e+00,0.000000000000000e+00
	9.855492945811249e-03,1.160169489686448e-09
	1.000000000000000e+00,0.000000000000000e+00
	0.000000000000000e+00,0.000000000000000e+00
	3.087023230035997e-04,1.652967640283165e-13
	3.087023229228887e-04,1.512802252669707e-13
	-9.855492945811184e-07,-1.160169489686447e-13
	2.108149229142906e-04,1.125275687022705e-11
	-1.646412390221375e-04,-8.189624889445360e-14
	-4.518813459757193e-05,-1.105484367236395e-11
	9.855492945811250e-07,1.160169489686448e-13
	-2.108149229143041e-04,-1.125275687022705e-11
	9.855492945811250e-07,1.160169489686448e-13
23		1.698243652461743e+00,0.000000000000000e+00
	9.855492945811249e-03,1.187193308654081e-09
	1.000000000000000e+00,0.000000000000000e+00
	0.000000000000000e+00,0.000000000000000e+00
	3.087023230035997e-04,1.691470202768617e-13
	3.087023229228887e-04,1.548039943863450e-13
	-9.855492945811184e-07,-1.187193308654070e-13
	2.108149229142906e-04,1.151486724914245e-11
	-1.646412390221375e-04,-8.380385758777483e-14
	-4.518813459757193e-05,-1.131234406068927e-11
	9.855492945811250e-07,1.187193308654081e-13
	-2.108149229143041e-04,-1.151486724914245e-11
	9.855492945811250e-07,1.187193308654081e-13
24		1.737800828749374e+00,0.000000000000000e+00
	9.855492945811249e-03,1.214846593228323e-09
	1.000000000000000e+00,0.000000000000000e+00
	0.000000000000000e+00,0.000000000000000e+00
	3.087023230035997e-04,1.730869605144832e-13
	3.087023229228887e-04,1.584098426326160e-13
	-9.855492945811184e-07,-1.214846593228331e-13
	2.108149229142906e-04,1.178308296309063e-11
	-1.646412390221375e-04,-8.575590019566427e-14
	-4.518813459757193e-05,-1.157584240357214e-11
	9.855492945811250e-07,1.214846593228323e-13
	-2.108149229143041e-04,-1.178308296309063e-11
	9.855492945811250e-07,1.214846593228323e-13
25		1.778279410038922e+00,0.000000000000000e+00
	9.855492945811249e-03,1.243144005546691e-09
	1.000000000000000e+00,0.000000000000000e+00
	0.000000000000000e+00,0.000000000000000e+00
	3.087023230035997e-04,1.771186737496463e-13
	3.087023229228887e-04,1.620996818742531e-13
	-9.855492945811184e-07,-1.243144005546678e-13
	2.108149229142906e-04,1.205754622359339e-11
	-1.646412390221375e-04,-8.775341171695102e-14
	-4.518813459757193e-05,-1.184547841132177e-11
	9.855492945811250e-07,1.243144005546691e-13
	-2.108149229143041e-04,-1.205754622359339e-11
	9.855492945811250e-07,1.243144005546691e-13
26		1.819700858609982e+00,0.000000000000000e+00
	9.855492945811249e-03,1.272100549271755e-09
	1.000000000000000e+00,0.000000000000000e+00
	0.000000000000000e+00,0.000000000000000e+00
	3.087023230035997e-04,1.812442976500742e-13
	3.087023229228887e-04,1.658754685128627e-13
	-9.855492945811184e-07,-1.272100549271747e-13
	2.108149229142906e-04,1.233840255470438e-11
	-1.646412390221375e-04,-8.979745125868379e-14
	-4.518813459757193e-05,-1.212139504851852e-11
	9.855492945811250e-07,1.272100549271755e-13
	-2.108149229143041e-04,-1.233840255470438e-11
	9.855492945811250e-07,1.272100549271755e-13
27		1.862087136662866e+00,0.000000000000000e+00
	9.855492945811249e-03,1.301731577546285e-09
	1.000000000000000e+00,0.000000000000000e+00
	0.000000000000000e+00,0.000000000000000e+00
	3.087023230035997e-04,1.854660196761680e-13
	3.087023229228887e-04,1.697392045204993e-13
	-9.855492945811252e-07,-1.301731577546287e-13
	2.108149229142906e-04,1.262580087016795e-11
	-1.646412390221375e-04,-9.188910259768371e-14
	-4.518813459757193e-05,-1.240373860981564e-11
	9.855492945811250e-07,1.301731577546286e-13
	-2.108149229143041e-04,-1.262580087016795e-11
	9.855492945811250e-07,1.301731577546286e-13
28		1.905460717963246e+00,0.000000000000000e+00
	9.855492945811249e-03,1.332052801133685e-09
	1.000000000000000e+00,0.000000000000000e+00
	0.000000000000000e+00,0.000000000000000e+00
	3.087023230035997e-04,1.897860782408272e-13
	3.087023229228887e-04,1.736929385011366e-13
	-9.855492945811252e-07,-1.332052801133697e-13
	2.108149229142906e-04,1.291989355237511e-11
	-1.646412390221375e-04,-9.402947475517697e-14
	-4.518813459757193e-05,-1.269265879750657e-11
	9.855492945811250e-07,1.332052801133685e-13
	-2.108149229143041e-04,-1.291989355237511e-11
	9.855492945811250e-07,1.332052801133685e-13
29		1.949844599758044e+00,0.000000000000000e+00
	9.855492945811249e-03,1.363080296748049e-09
	1.000000000000000e+00,0.000000000000000e+00
	0.000000000000000e+00,0.000000000000000e+00
	3.087023230035997e-04,1.942067638962854e-13
	3.087023229228887e-04,1.777387667768651e-13
	-9.855492945811252e-07,-1.363080296748059e-13
	2.108149229142906e-04,1.322083653315875e-11
	-1.646412390221375e-04,-9.621970258481266e-14
	-4.518813459757193e-05,-1.298830880089913e-11
	9.855492945811250e-07,1.363080296748049e-13
	-2.108149229143041e-04,-1.322083653315875e-11
	9.855492945811250e-07,1.363080296748049e-13
30		1.995262314968878e+00,0.000000000000000e+00
	9.855492945811249e-03,1.394830515578249e-09
	1.000000000000000e+00,0.000000000000000e+00
	0.000000000000000e+00,0.000000000000000e+00
	3.087023230035997e-04,1.987304205485918e-13
	3.087023229228887e-04,1.818788344993894e-13
	-9.855492945811252e-07,-1.394830515578245e-13
	2.108149229142906e-04,1.352878937647073e-11
	-1.646412390221375e-04,-9.846094737437717e-14
	-4.518813459757193e-05,-1.329084537753853e-11
	9.855492945811250e-07,1.394830515578249e-13
	-2.108149229143041e-04,-1.352878937647073e-11
	9.855492945811250e-07,1.394830515578249e-13
31		2.041737944669527e+00,0.000000000000000e+00
	9.855492945811251e-03,1.427320292010573e-09
	1.000000000000000e+00,0.000000000000000e+00
	0.000000000000000e+00,0.000000000000000e+00
	3.087023230035997e-04,2.033594467003811e-13
	3.087023229228887e-04,1.861153367874162e-13
	-9.855492945811184e-07,-1.427320292010566e-13
	2.108149229142906e-04,1.384391536298481e-11
	-1.646412390221375e-04,-1.007543974615243e-13
	-4.518813459757194e-05,-1.360042893632223e-11
	9.855492945811252e-07,1.427320292010573e-13
	-2.108149229143041e-04,-1.384391536298480e-11
	9.855492945811252e-07,1.427320292010573e-13
32		2.089296130854037e+00,0.000000000000000e+00
	9.855492945811251e-03,1.460566852554540e-09
	1.000000000000000e+00,0.000000000000000e+00
	0.000000000000000e+00,0.000000000000000e+00
	3.087023230035997e-04,2.080962967225916e-13
	3.087023229228887e-04,1.904505198905355e-13
