Title: * GA CMOS Amp | W=9.636096490958214e-06 L=6.023763710816115e-07 Vbias=0.8312866823986261
Date: Mon Sep  8 18:45:46 2025
Plotname: AC Analysis
Flags: complex forward log
No. Variables: 11
No. Points:          901
Offset:    0.0000000000000000e+00
Command: Linear Technology Corporation LTspice
Variables:
	0	frequency	frequency
	1	V(out)	voltage
	2	V(g)	voltage
	3	V(vdd)	voltage
	4	Id(M1)	device_current
	5	Ig(M1)	device_current
	6	Ib(M1)	device_current
	7	Is(M1)	device_current
	8	I(Rload)	device_current
	9	I(Vg)	device_current
	10	I(Vdd)	device_current
Values:
0		1.000000000000000e+00,0.000000000000000e+00
	-2.662248616931185e+00,4.219666210009161e-10
	1.000000000000000e+00,0.000000000000000e+00
	0.000000000000000e+00,0.000000000000000e+00
	2.662248616931185e-04,-4.219666210009161e-14
	5.109625873926728e-24,8.585180772365807e-14
	2.662248622508495e-12,-1.354420850282134e-15
	-2.662248643553671e-04,-4.230072477328433e-14
	-2.662248616931185e-04,4.219666210009161e-14
	-5.109625873926728e-24,-8.585180772365807e-14
	-2.662248616931185e-04,4.219666210009161e-14
1		1.023292992280754e+00,0.000000000000000e+00
	-2.662248616931185e+00,4.317954862466263e-10
	1.000000000000000e+00,0.000000000000000e+00
	0.000000000000000e+00,0.000000000000000e+00
	2.662248616931185e-04,-4.317954862466264e-14
	5.350435122448202e-24,8.785155321825402e-14
	2.662248622508495e-12,-1.385969364692644e-15
	-2.662248643553671e-04,-4.328603522889874e-14
	-2.662248616931185e-04,4.317954862466264e-14
	-5.350435122448202e-24,-8.785155321825402e-14
	-2.662248616931185e-04,4.317954862466264e-14
2		1.047128548050899e+00,0.000000000000000e+00
	-2.662248616931185e+00,4.418532951746334e-10
	1.000000000000000e+00,0.000000000000000e+00
	0.000000000000000e+00,0.000000000000000e+00
	2.662248616931185e-04,-4.418532951746335e-14
	5.602593361209721e-24,8.989787876921907e-14
	2.662248622508495e-12,-1.418252738405798e-15
	-2.662248643553671e-04,-4.429429651334992e-14
	-2.662248616931185e-04,4.418532951746334e-14
	-5.602593361209721e-24,-8.989787876921907e-14
	-2.662248616931185e-04,4.418532951746334e-14
3		1.071519305237606e+00,0.000000000000000e+00
	-2.662248616931185e+00,4.521453805683619e-10
	1.000000000000000e+00,0.000000000000000e+00
	0.000000000000000e+00,0.000000000000000e+00
	2.662248616931185e-04,-4.521453805683620e-14
	5.866635451643144e-24,9.199186936544665e-14
	2.662248622508495e-12,-1.451288088493632e-15
	-2.662248643553671e-04,-4.532604322011682e-14
	-2.662248616931185e-04,4.521453805683619e-14
	-5.866635451643144e-24,-9.199186936544665e-14
	-2.662248616931185e-04,4.521453805683619e-14
4		1.096478196143185e+00,0.000000000000000e+00
	-2.662248616931185e+00,4.626771994277193e-10
	1.000000000000000e+00,0.000000000000000e+00
	0.000000000000000e+00,0.000000000000000e+00
	2.662248616931185e-04,-4.626771994277193e-14
	6.143121462423015e-24,9.413463526846813e-14
	2.662248622508495e-12,-1.485092930736077e-15
	-2.662248643553671e-04,-4.638182239496012e-14
	-2.662248616931185e-04,4.626771994277193e-14
	-6.143121462423015e-24,-9.413463526846813e-14
	-2.662248616931185e-04,4.626771994277193e-14
5		1.122018454301963e+00,0.000000000000000e+00
	-2.662248616931185e+00,4.734543358624702e-10
	1.000000000000000e+00,0.000000000000000e+00
	0.000000000000000e+00,0.000000000000000e+00
	2.662248616931185e-04,-4.734543358624703e-14
	6.432637857447334e-24,9.632731260112817e-14
	2.662248622508495e-12,-1.519685188907905e-15
	-2.662248643553671e-04,-4.746219382597324e-14
	-2.662248616931185e-04,4.734543358624703e-14
	-6.432637857447334e-24,-9.632731260112817e-14
	-2.662248616931185e-04,4.734543358624703e-14
6		1.148153621496882e+00,0.000000000000000e+00
	-2.662248616931185e+00,4.844825040530043e-10
	1.000000000000000e+00,0.000000000000000e+00
	0.000000000000000e+00,0.000000000000000e+00
	2.662248616931185e-04,-4.844825040530043e-14
	6.735798739806076e-24,9.857106394997205e-14
	2.662248622508495e-12,-1.555083204282325e-15
	-2.662248643553671e-04,-4.856773034038929e-14
	-2.662248616931185e-04,4.844825040530043e-14
	-6.735798739806076e-24,-9.857106394997205e-14
	-2.662248616931185e-04,4.844825040530043e-14
7		1.174897554939529e+00,0.000000000000000e+00
	-2.662248616931185e+00,4.957675512800713e-10
	1.000000000000000e+00,0.000000000000000e+00
	0.000000000000000e+00,0.000000000000000e+00
	2.662248616931185e-04,-4.957675512800713e-14
	7.053247154376213e-24,1.008670789816645e-13
	2.662248622508495e-12,-1.591305745355600e-15
	-2.662248643553671e-04,-4.969901810830172e-14
	-2.662248616931185e-04,4.957675512800713e-14
	-7.053247154376213e-24,-1.008670789816645e-13
	-2.662248616931185e-04,4.957675512800713e-14
8		1.202264434617413e+00,0.000000000000000e+00
	-2.662248616931185e+00,5.073154610250864e-10
	1.000000000000000e+00,0.000000000000000e+00
	0.000000000000000e+00,0.000000000000000e+00
	2.662248616931185e-04,-5.073154610250864e-14
	7.385656451806104e-24,1.032165750737666e-13
	2.662248622508495e-12,-1.628372017798480e-15
	-2.662248643553671e-04,-5.085665695345946e-14
	-2.662248616931185e-04,5.073154610250864e-14
	-7.385656451806104e-24,-1.032165750737666e-13
	-2.662248616931185e-04,5.073154610250864e-14
9		1.230268770812381e+00,0.000000000000000e+00
	-2.662248616931185e+00,5.191323561426510e-10
	1.000000000000000e+00,0.000000000000000e+00
	0.000000000000000e+00,0.000000000000000e+00
	2.662248616931185e-04,-5.191323561426510e-14
	7.733731716782484e-24,1.056207979602057e-13
	2.662248622508495e-12,-1.666301674639265e-15
	-2.662248643553671e-04,-5.204126067130134e-14
	-2.662248616931185e-04,5.191323561426510e-14
	-7.733731716782484e-24,-1.056207979602057e-13
	-2.662248616931185e-04,5.191323561426510e-14
10		1.258925411794167e+00,0.000000000000000e+00
	-2.662248616931185e+00,5.312245021069713e-10
	1.000000000000000e+00,0.000000000000000e+00
	0.000000000000000e+00,0.000000000000000e+00
	2.662248616931185e-04,-5.312245021069714e-14
	8.098211263609630e-24,1.080810223917799e-13
	2.662248622508495e-12,-1.705114826684036e-15
	-2.662248643553671e-04,-5.325345735439869e-14
	-2.662248616931185e-04,5.312245021069714e-14
	-8.098211263609630e-24,-1.080810223917799e-13
	-2.662248616931185e-04,5.312245021069714e-14
11		1.288249551693134e+00,0.000000000000000e+00
	-2.662248616931185e+00,5.435983103338966e-10
	1.000000000000000e+00,0.000000000000000e+00
	0.000000000000000e+00,0.000000000000000e+00
	2.662248616931185e-04,-5.435983103338967e-14
	8.479868202272998e-24,1.105985528120476e-13
	2.662248622508495e-12,-1.744832053179778e-15
	-2.662248643553671e-04,-5.449388972547817e-14
	-2.662248616931185e-04,5.435983103338966e-14
	-8.479868202272998e-24,-1.105985528120476e-13
	-2.662248616931185e-04,5.435983103338966e-14
12		1.318256738556407e+00,0.000000000000000e+00
	-2.662248616931185e+00,5.562603415803349e-10
	1.000000000000000e+00,0.000000000000000e+00
	0.000000000000000e+00,0.000000000000000e+00
	2.662248616931185e-04,-5.562603415803351e-14
	8.879512078309112e-24,1.131747240489612e-13
	2.662248622508495e-12,-1.785474412725720e-15
	-2.662248643553671e-04,-5.576321547820199e-14
	-2.662248616931185e-04,5.562603415803350e-14
	-8.879512078309112e-24,-1.131747240489612e-13
	-2.662248616931185e-04,5.562603415803350e-14
13		1.348962882591653e+00,0.000000000000000e+00
	-2.662248616931185e+00,5.692173094228554e-10
	1.000000000000000e+00,0.000000000000000e+00
	0.000000000000000e+00,0.000000000000000e+00
	2.662248616931185e-04,-5.692173094228554e-14
	9.297990589960249e-24,1.158109020226102e-13
	2.662248622508495e-12,-1.827063454438832e-15
	-2.662248643553671e-04,-5.706210762588578e-14
	-2.662248616931185e-04,5.692173094228554e-14
	-9.297990589960249e-24,-1.158109020226102e-13
	-2.662248616931185e-04,5.692173094228554e-14
14		1.380384264602885e+00,0.000000000000000e+00
	-2.662248616931185e+00,5.824760838173137e-10
	1.000000000000000e+00,0.000000000000000e+00
	0.000000000000000e+00,0.000000000000000e+00
	2.662248616931185e-04,-5.824760838173138e-14
	9.736191386256002e-24,1.185084844694500e-13
	2.662248622508495e-12,-1.869621229379516e-15
	-2.662248643553671e-04,-5.839125485833911e-14
	-2.662248616931185e-04,5.824760838173138e-14
	-9.736191386256002e-24,-1.185084844694500e-13
	-2.662248616931185e-04,5.824760838173138e-14
15		1.412537544622754e+00,0.000000000000000e+00
	-2.662248616931185e+00,5.960436947413942e-10
	1.000000000000000e+00,0.000000000000000e+00
	0.000000000000000e+00,0.000000000000000e+00
	2.662248616931185e-04,-5.960436947413943e-14
	1.019504394983592e-23,1.212689016834008e-13
	2.662248622508495e-12,-1.913170302243383e-15
	-2.662248643553671e-04,-5.975136190701795e-14
	-2.662248616931185e-04,5.960436947413943e-14
	-1.019504394983592e-23,-1.212689016834008e-13
	-2.662248616931185e-04,5.960436947413943e-14
16		1.445439770745927e+00,0.000000000000000e+00
	-2.662248616931185e+00,6.099273359219976e-10
	1.000000000000000e+00,0.000000000000000e+00
	0.000000000000000e+00,0.000000000000000e+00
	2.662248616931185e-04,-6.099273359219977e-14
	1.067552156850679e-23,1.240936172742077e-13
	2.662248622508495e-12,-1.957733763325310e-15
	-2.662248643553671e-04,-6.114314991868265e-14
	-2.662248616931185e-04,6.099273359219977e-14
	-1.067552156850679e-23,-1.240936172742077e-13
	-2.662248616931185e-04,6.099273359219977e-14
17		1.479108388168207e+00,0.000000000000000e+00
	-2.662248616931185e+00,6.241343686494496e-10
	1.000000000000000e+00,0.000000000000000e+00
	0.000000000000000e+00,0.000000000000000e+00
	2.662248616931185e-04,-6.241343686494496e-14
	1.117864339971658e-23,1.269841289434667e-13
	2.662248622508495e-12,-2.003335240762219e-15
	-2.662248643553671e-04,-6.256735683775950e-14
	-2.662248616931185e-04,6.241343686494497e-14
	-1.117864339971658e-23,-1.269841289434667e-13
	-2.662248616931185e-04,6.241343686494497e-14
18		1.513561248436208e+00,0.000000000000000e+00
	-2.662248616931185e+00,6.386723256805546e-10
	1.000000000000000e+00,0.000000000000000e+00
	0.000000000000000e+00,0.000000000000000e+00
	2.662248616931185e-04,-6.386723256805546e-14
	1.170547663232399e-23,1.299419692787251e-13
	2.662248622508495e-12,-2.049998913061049e-15
	-2.662248643553671e-04,-6.402473779760864e-14
	-2.662248616931185e-04,6.386723256805546e-14
	-1.170547663232399e-23,-1.299419692787251e-13
	-2.662248616931185e-04,6.386723256805546e-14
19		1.548816618912481e+00,0.000000000000000e+00
	-2.662248616931185e+00,6.535489152325632e-10
	1.000000000000000e+00,0.000000000000000e+00
	0.000000000000000e+00,0.000000000000000e+00
	2.662248616931185e-04,-6.535489152325631e-14
	1.225713875024916e-23,1.329687065660805e-13
	2.662248622508495e-12,-2.097749521918522e-15
	-2.662248643553671e-04,-6.551606552090565e-14
	-2.662248616931185e-04,6.535489152325633e-14
	-1.225713875024916e-23,-1.329687065660805e-13
	-2.662248616931185e-04,6.535489152325633e-14
20		1.584893192461113e+00,0.000000000000000e+00
	-2.662248616931185e+00,6.687720250701703e-10
	1.000000000000000e+00,0.000000000000000e+00
	0.000000000000000e+00,0.000000000000000e+00
	2.662248616931185e-04,-6.687720250701705e-14
	1.283479990280682e-23,1.360659456217061e-13
	2.662248622508495e-12,-2.146612385339531e-15
	-2.662248643553671e-04,-6.704213072934948e-14
	-2.662248616931185e-04,6.687720250701703e-14
	-1.283479990280682e-23,-1.360659456217061e-13
	-2.662248616931185e-04,6.687720250701703e-14
21		1.621810097358929e+00,0.000000000000000e+00
	-2.662248616931185e+00,6.843497266877141e-10
	1.000000000000000e+00,0.000000000000000e+00
	0.000000000000000e+00,0.000000000000000e+00
	2.662248616931185e-04,-6.843497266877142e-14
	1.343968538674993e-23,1.392353286427460e-13
	2.662248622508495e-12,-2.196613411061032e-15
	-2.662248643553671e-04,-6.860374256291352e-14
	-2.662248616931185e-04,6.843497266877142e-14
	-1.343968538674993e-23,-1.392353286427460e-13
	-2.662248616931185e-04,6.843497266877142e-14
22		1.659586907437560e+00,0.000000000000000e+00
	-2.662248616931185e+00,7.002902795887872e-10
	1.000000000000000e+00,0.000000000000000e+00
	0.000000000000000e+00,0.000000000000000e+00
	2.662248616931185e-04,-7.002902795887873e-14
	1.407307824528834e-23,1.424785360780297e-13
	2.662248622508495e-12,-2.247779110288667e-15
	-2.662248643553671e-04,-7.020172900886231e-14
	-2.662248616931185e-04,7.002902795887872e-14
	-1.407307824528834e-23,-1.424785360780297e-13
	-2.662248616931185e-04,7.002902795887872e-14
23		1.698243652461743e+00,0.000000000000000e+00
	-2.662248616931185e+00,7.166021356655361e-10
	1.000000000000000e+00,0.000000000000000e+00
	0.000000000000000e+00,0.000000000000000e+00
	2.662248616931185e-04,-7.166021356655362e-14
	1.473632198959548e-23,1.457972875190684e-13
	2.662248622508495e-12,-2.300136611753467e-15
	-2.662248643553671e-04,-7.183693734076133e-14
	-2.662248616931185e-04,7.166021356655360e-14
	-1.473632198959548e-23,-1.457972875190684e-13
	-2.662248616931185e-04,7.166021356655360e-14
24		1.737800828749374e+00,0.000000000000000e+00
	-2.662248616931185e+00,7.332939436799651e-10
	1.000000000000000e+00,0.000000000000000e+00
	0.000000000000000e+00,0.000000000000000e+00
	2.662248616931185e-04,-7.332939436799650e-14
	1.543082344857565e-23,1.491933426118049e-13
	2.662248622508495e-12,-2.353713676095742e-15
	-2.662248643553671e-04,-7.351023456771269e-14
	-2.662248616931185e-04,7.332939436799652e-14
	-1.543082344857565e-23,-1.491933426118049e-13
	-2.662248616931185e-04,7.332939436799652e-14
25		1.778279410038922e+00,0.000000000000000e+00
	-2.662248616931185e+00,7.503745538496265e-10
	1.000000000000000e+00,0.000000000000000e+00
	0.000000000000000e+00,0.000000000000000e+00
	2.662248616931185e-04,-7.503745538496264e-14
	1.615805575293680e-23,1.526685019896016e-13
	2.662248622508495e-12,-2.408538710584128e-15
	-2.662248643553671e-04,-7.522250789405485e-14
	-2.662248616931185e-04,7.503745538496266e-14
	-1.615805575293680e-23,-1.526685019896016e-13
	-2.662248616931185e-04,7.503745538496266e-14
26		1.819700858609982e+00,0.000000000000000e+00
	-2.662248616931185e+00,7.678530225401199e-10
	1.000000000000000e+00,0.000000000000000e+00
	0.000000000000000e+00,0.000000000000000e+00
	2.662248616931185e-04,-7.678530225401199e-14
	1.691956145989819e-23,1.562246082279597e-13
	2.662248622508495e-12,-2.464640784177666e-15
	-2.662248643553671e-04,-7.697466518977003e-14
	-2.662248616931185e-04,7.678530225401199e-14
	-1.691956145989819e-23,-1.562246082279597e-13
	-2.662248616931185e-04,7.678530225401199e-14
27		1.862087136662866e+00,0.000000000000000e+00
	-2.662248616931185e+00,7.857386170669008e-10
	1.000000000000000e+00,0.000000000000000e+00
	0.000000000000000e+00,0.000000000000000e+00
	2.662248616931185e-04,-7.857386170669007e-14
	1.771695582516115e-23,1.598635468214774e-13
	2.662248622508495e-12,-2.522049642938338e-15
	-2.662248643553671e-04,-7.876763547184898e-14
	-2.662248616931185e-04,7.857386170669008e-14
	-1.771695582516115e-23,-1.598635468214774e-13
	-2.662248616931185e-04,7.857386170669008e-14
28		1.905460717963246e+00,0.000000000000000e+00
	-2.662248616931185e+00,8.040408206089304e-10
	1.000000000000000e+00,0.000000000000000e+00
	0.000000000000000e+00,0.000000000000000e+00
	2.662248616931185e-04,-8.040408206089304e-14
	1.855193022908293e-23,1.635872471835640e-13
	2.662248622508495e-12,-2.580795725802989e-15
	-2.662248643553671e-04,-8.060236939686800e-14
	-2.662248616931185e-04,8.040408206089304e-14
	-1.855193022908293e-23,-1.635872471835640e-13
	-2.662248616931185e-04,8.040408206089304e-14
29		1.949844599758044e+00,0.000000000000000e+00
	-2.662248616931185e+00,8.227693372367854e-10
	1.000000000000000e+00,0.000000000000000e+00
	0.000000000000000e+00,0.000000000000000e+00
	2.662248616931185e-04,-8.227693372367856e-14
	1.942625576432119e-23,1.673976836694406e-13
	2.662248622508495e-12,-2.640910180722330e-15
	-2.662248643553671e-04,-8.247983976503974e-14
	-2.662248616931185e-04,8.227693372367855e-14
	-1.942625576432119e-23,-1.673976836694406e-13
	-2.662248616931185e-04,8.227693372367855e-14
30		1.995262314968878e+00,0.000000000000000e+00
	-2.662248616931185e+00,8.419340970578829e-10
	1.000000000000000e+00,0.000000000000000e+00
	0.000000000000000e+00,0.000000000000000e+00
	2.662248616931185e-04,-8.419340970578829e-14
	2.034178699255906e-23,1.712968766229690e-13
	2.662248622508495e-12,-2.702424881176068e-15
	-2.662248643553671e-04,-8.440104203600465e-14
	-2.662248616931185e-04,8.419340970578830e-14
	-2.034178699255906e-23,-1.712968766229690e-13
	-2.662248616931185e-04,8.419340970578830e-14
31		2.041737944669527e+00,0.000000000000000e+00
	-2.662248616931185e+00,8.615452614815559e-10
	1.000000000000000e+00,0.000000000000000e+00
	0.000000000000000e+00,0.000000000000000e+00
	2.662248616931185e-04,-8.615452614815558e-14
	2.130046587827904e-23,1.752868934478651e-13
	2.662248622508495e-12,-2.765372443072611e-15
	-2.662248643553671e-04,-8.636699485663689e-14
	-2.662248616931185e-04,8.615452614815560e-14
	-2.130046587827904e-23,-1.752868934478651e-13
	-2.662248616931185e-04,8.615452614815560e-14
32		2.089296130854037e+00,0.000000000000000e+00
	-2.662248616931185e+00,8.816132286067661e-10
	1.000000000000000e+00,0.000000000000000e+00
	0.000000000000000e+00,0.000000000000000e+00
	2.662248616931185e-04,-8.816132286067661e-14
	2.230432590793007e-23,1.793698497038636e-13
	2.662248622508495e-12,-2.829786242042480e-15
	-2.662248643553671e-04,-8.837874060114448e-14
	-2.662248616931185e-04,8.816132286067661e-14
	-2.230432590793007e-23,-1.793698497038636e-13
	-2.662248616931185e-04,8.816132286067661e-14
33		2.137962089502230e+00,0.000000000000000e+00
	-2.662248616931185e+00,9.021486387353140e-10
	1.000000000000000e+00,0.000000000000000e+00
	0.000000000000000e+00,0.000000000000000e+00
	2.662248616931185e-04,-9.021486387353142e-14
	2.335549640322486e-23,1.835479102284157e-13
	2.662248622508495e-12,-2.895700431134570e-15
	-2.662248643553671e-04,-9.043734592374970e-14
	-2.662248616931185e-04,9.021486387353141e-14
	-2.335549640322486e-23,-1.835479102284157e-13
	-2.662248616931185e-04,9.021486387353141e-14
34		2.187761623949550e+00,0.000000000000000e+00
	-2.662248616931185e+00,9.231623800134687e-10
	1.000000000000000e+00,0.000000000000000e+00
	0.000000000000000e+00,0.000000000000000e+00
	2.662248616931185e-04,-9.231623800134688e-14
	2.445620703771686e-23,1.878232902845147e-13
	2.662248622508495e-12,-2.963149958924374e-15
	-2.662248643553671e-04,-9.254390232424349e-14
	-2.662248616931185e-04,9.231623800134687e-14
	-2.445620703771686e-23,-1.878232902845147e-13
	-2.662248616931185e-04,9.231623800134687e-14
35		2.238721138568337e+00,0.000000000000000e+00
	-2.662248616931185e+00,9.446655942050049e-10
	1.000000000000000e+00,0.000000000000000e+00
	0.000000000000000e+00,0.000000000000000e+00
	2.662248616931185e-04,-9.446655942050050e-14
	2.560879256623664e-23,1.921982567352578e-13
	2.662248622508495e-12,-3.032170588044297e-15
	-2.662248643553671e-04,-9.469952672671297e-14
	-2.662248616931185e-04,9.446655942050050e-14
	-2.560879256623664e-23,-1.921982567352578e-13
	-2.662248616931185e-04,9.446655942050050e-14
36		2.290867652767770e+00,0.000000000000000e+00
	-2.662248616931185e+00,9.666696825987161e-10
	1.000000000000000e+00,0.000000000000000e+00
	0.000000000000000e+00,0.000000000000000e+00
	2.662248616931185e-04,-9.666696825987162e-14
	2.681569777722005e-23,1.966751292457665e-13
	2.662248622508495e-12,-3.102798914145556e-15
	-2.662248643553671e-04,-9.690536207174934e-14
	-2.662248616931185e-04,9.666696825987160e-14
	-2.681569777722005e-23,-1.966751292457665e-13
	-2.662248616931185e-04,9.666696825987160e-14
37		2.344228815319919e+00,0.000000000000000e+00
	-2.662248616931185e+00,9.891863120535270e-10
	1.000000000000000e+00,0.000000000000000e+00
	0.000000000000000e+00,0.000000000000000e+00
	2.662248616931185e-04,-9.891863120535271e-14
	2.807948267843216e-23,2.012562815131045e-13
	2.662248622508495e-12,-3.175072385301473e-15
	-2.662248643553671e-04,-9.916257792245028e-14
	-2.662248616931185e-04,9.891863120535271e-14
	-2.807948267843216e-23,-2.012562815131045e-13
	-2.662248616931185e-04,9.891863120535271e-14
38		2.398832919019488e+00,0.000000000000000e+00
	-2.662248616931185e+00,1.012227421184417e-09
	1.000000000000000e+00,0.000000000000000e+00
