Title: * GA CMOS Amp | W=3.553796071781789e-06 L=4.823894324110507e-07 Vbias=1.4920463761223635
Date: Sat Sep  6 22:07:27 2025
Plotname: AC Analysis
Flags: complex forward log
No. Variables: 13
No. Points:          901
Offset:    0.0000000000000000e+00
Command: Linear Technology Corporation LTspice
Variables:
	0	frequency	frequency
	1	V(out)	voltage
	2	V(g)	voltage
	3	V(vdd)	voltage
	4	V(m1#dbody)	voltage
	5	V(m1#sbody)	voltage
	6	Id(M1)	device_current
	7	Ig(M1)	device_current
	8	Ib(M1)	device_current
	9	Is(M1)	device_current
	10	I(Rload)	device_current
	11	I(Vg)	device_current
	12	I(Vdd)	device_current
Values:
0		1.000000000000000e+00,0.000000000000000e+00
	1.310897994517014e-02,3.640405241937450e-10
	1.000000000000000e+00,0.000000000000000e+00
	0.000000000000000e+00,0.000000000000000e+00
	5.347737306708845e-05,3.045717224380001e-14
	5.347737296876362e-05,2.943800540389233e-14
	-1.310897994517014e-06,-3.640405241937447e-14
	3.307159220366594e-05,4.469237269523852e-13
	-2.852126561144939e-05,-1.577107987458743e-14
	-3.239428597699533e-06,-3.947485946584232e-13
	1.310897994517014e-06,3.640405241937450e-14
	-3.307159220367062e-05,-4.469237269523852e-13
	1.310897994517014e-06,3.640405241937450e-14
1		1.023292992280754e+00,0.000000000000000e+00
	1.310897994517014e-02,3.725201173136716e-10
	1.000000000000000e+00,0.000000000000000e+00
	0.000000000000000e+00,0.000000000000000e+00
	5.347737306708845e-05,3.116661092176845e-14
	5.347737296876362e-05,3.012370463652599e-14
	-1.310897994517014e-06,-3.725201173136712e-14
	3.307159220366594e-05,4.573339178743729e-13
	-2.852126561144939e-05,-1.613843551636535e-14
	-3.239428597699533e-06,-4.039434706266404e-13
	1.310897994517014e-06,3.725201173136716e-14
	-3.307159220367062e-05,-4.573339178743729e-13
	1.310897994517014e-06,3.725201173136716e-14
2		1.047128548050899e+00,0.000000000000000e+00
	1.310897994517014e-02,3.811972255306845e-10
	1.000000000000000e+00,0.000000000000000e+00
	0.000000000000000e+00,0.000000000000000e+00
	5.347737306708845e-05,3.189257454938646e-14
	5.347737296876362e-05,3.082537585609231e-14
	-1.310897994517014e-06,-3.811972255306842e-14
	3.307159220366594e-05,4.679865932931477e-13
	-2.852126561144939e-05,-1.651434797027150e-14
	-3.239428597699533e-06,-4.133525227698078e-13
	1.310897994517014e-06,3.811972255306845e-14
	-3.307159220367062e-05,-4.679865932931477e-13
	1.310897994517014e-06,3.811972255306845e-14
3		1.071519305237606e+00,0.000000000000000e+00
	1.310897994517014e-02,3.900764495624156e-10
	1.000000000000000e+00,0.000000000000000e+00
	0.000000000000000e+00,0.000000000000000e+00
	5.347737306708845e-05,3.263544804217869e-14
	5.347737296876362e-05,3.154339109795961e-14
	-1.310897994517014e-06,-3.900764495624154e-14
	3.307159220366594e-05,4.788874013982213e-13
	-2.852126561144939e-05,-1.689901655006472e-14
	-3.239428597699533e-06,-4.229807398919151e-13
	1.310897994517014e-06,3.900764495624157e-14
	-3.307159220367062e-05,-4.788874013982214e-13
	1.310897994517014e-06,3.900764495624157e-14
4		1.096478196143185e+00,0.000000000000000e+00
	1.310897994517014e-02,3.991624972909768e-10
	1.000000000000000e+00,0.000000000000000e+00
	0.000000000000000e+00,0.000000000000000e+00
	5.347737306708845e-05,3.339562528150411e-14
	5.347737296876362e-05,3.227813106331319e-14
	-1.310897994517014e-06,-3.991624972909769e-14
	3.307159220366594e-05,4.900421219423405e-13
	-2.852126561144939e-05,-1.729264521211770e-14
	-3.239428597699533e-06,-4.328332270011251e-13
	1.310897994517014e-06,3.991624972909769e-14
	-3.307159220367062e-05,-4.900421219423404e-13
	1.310897994517014e-06,3.991624972909769e-14
5		1.122018454301963e+00,0.000000000000000e+00
	1.310897994517014e-02,4.084601862591421e-10
	1.000000000000000e+00,0.000000000000000e+00
	0.000000000000000e+00,0.000000000000000e+00
	5.347737306708845e-05,3.417350932339715e-14
	5.347737296876362e-05,3.302998532100812e-14
	-1.310897994517014e-06,-4.084601862591425e-14
	3.307159220366594e-05,5.014566693059878e-13
	-2.852126561144939e-05,-1.769544266355739e-14
	-3.239428597699533e-06,-4.429152080165162e-13
	1.310897994517014e-06,4.084601862591421e-14
	-3.307159220367062e-05,-5.014566693059878e-13
	1.310897994517014e-06,4.084601862591421e-14
6		1.148153621496882e+00,0.000000000000000e+00
	1.310897994517014e-02,4.179744462246718e-10
	1.000000000000000e+00,0.000000000000000e+00
	0.000000000000000e+00,0.000000000000000e+00
	5.347737306708845e-05,3.496951261227331e-14
	5.347737296876362e-05,3.379935251412377e-14
	-1.310897994517014e-06,-4.179744462246718e-14
	3.307159220366594e-05,5.131370956332649e-13
	-2.852126561144939e-05,-1.810762247292415e-14
	-3.239428597699533e-06,-4.532320285378736e-13
	1.310897994517014e-06,4.179744462246718e-14
	-3.307159220367062e-05,-5.131370956332650e-13
	1.310897994517014e-06,4.179744462246718e-14
7		1.174897554939529e+00,0.000000000000000e+00
	1.310897994517014e-02,4.277103217741355e-10
	1.000000000000000e+00,0.000000000000000e+00
	0.000000000000000e+00,0.000000000000000e+00
	5.347737306708845e-05,3.578405719961273e-14
	5.347737296876362e-05,3.458664057132975e-14
	-1.310897994517014e-06,-4.277103217741352e-14
	3.307159220366594e-05,5.250895940408191e-13
	-2.852126561144939e-05,-1.852940318340879e-14
	-3.239428597699533e-06,-4.637891586799967e-13
	1.310897994517014e-06,4.277103217741355e-14
	-3.307159220367062e-05,-5.250895940408190e-13
	1.310897994517014e-06,4.277103217741355e-14
8		1.202264434617413e+00,0.000000000000000e+00
	1.310897994517014e-02,4.376729749976193e-10
	1.000000000000000e+00,0.000000000000000e+00
	0.000000000000000e+00,0.000000000000000e+00
	5.347737306708845e-05,3.661757496773739e-14
	5.347737296876362e-05,3.539226692317496e-14
	-1.310897994517014e-06,-4.376729749976194e-14
	3.307159220366594e-05,5.373205019015163e-13
	-2.852126561144939e-05,-1.896100842872691e-14
	-3.239428597699533e-06,-4.745921959730275e-13
	1.310897994517014e-06,4.376729749976194e-14
	-3.307159220367062e-05,-5.373205019015163e-13
	1.310897994517014e-06,4.376729749976194e-14
9		1.230268770812381e+00,0.000000000000000e+00
	1.310897994517014e-02,4.478676882257335e-10
	1.000000000000000e+00,0.000000000000000e+00
	0.000000000000000e+00,0.000000000000000e+00
	5.347737306708845e-05,3.747050785880082e-14
	5.347737296876362e-05,3.621665872341486e-14
	-1.310897994517014e-06,-4.478676882257332e-14
	3.307159220366594e-05,5.498363042045991e-13
	-2.852126561144939e-05,-1.940266705169256e-14
	-3.239428597699533e-06,-4.856468683303332e-13
	1.310897994517014e-06,4.478676882257335e-14
	-3.307159220367062e-05,-5.498363042045991e-13
	1.310897994517014e-06,4.478676882257335e-14
10		1.258925411794167e+00,0.000000000000000e+00
	1.310897994517014e-02,4.582998668303747e-10
	1.000000000000000e+00,0.000000000000000e+00
	0.000000000000000e+00,0.000000000000000e+00
	5.347737306708845e-05,3.834330810911180e-14
	5.347737296876362e-05,3.706025307549407e-14
	-1.310897994517014e-06,-4.582998668303748e-14
	3.307159220366594e-05,5.626436369941152e-13
	-2.852126561144939e-05,-1.985461322555368e-14
	-3.239428597699533e-06,-4.969590370855240e-13
	1.310897994517014e-06,4.582998668303747e-14
	-3.307159220367062e-05,-5.626436369941152e-13
	1.310897994517014e-06,4.582998668303747e-14
11		1.288249551693134e+00,0.000000000000000e+00
	1.310897994517014e-02,4.689750420907255e-10
	1.000000000000000e+00,0.000000000000000e+00
	0.000000000000000e+00,0.000000000000000e+00
	5.347737306708845e-05,3.923643848891592e-14
	5.347737296876362e-05,3.792349726430435e-14
	-1.310897994517014e-06,-4.689750420907245e-14
	3.307159220366594e-05,5.757492908874347e-13
	-2.852126561144939e-05,-2.031708657815386e-14
	-3.239428597699533e-06,-5.085347001002083e-13
	1.310897994517014e-06,4.689750420907255e-14
	-3.307159220367062e-05,-5.757492908874347e-13
	1.310897994517014e-06,4.689750420907255e-14
12		1.318256738556407e+00,0.000000000000000e+00
	1.310897994517014e-02,4.798988741260110e-10
	1.000000000000000e+00,0.000000000000000e+00
	0.000000000000000e+00,0.000000000000000e+00
	5.347737306708845e-05,4.015037254776252e-14
	5.347737296876362e-05,3.880684899334099e-14
	-1.310897994517014e-06,-4.798988741260109e-14
	3.307159220366594e-05,5.891602146757253e-13
	-2.852126561144939e-05,-2.079033231898621e-14
	-3.239428597699533e-06,-5.203799949441381e-13
	1.310897994517014e-06,4.798988741260111e-14
	-3.307159220367062e-05,-5.891602146757253e-13
	1.310897994517014e-06,4.798988741260111e-14
13		1.348962882591653e+00,0.000000000000000e+00
	1.310897994517014e-02,4.910771548965706e-10
	1.000000000000000e+00,0.000000000000000e+00
	0.000000000000000e+00,0.000000000000000e+00
	5.347737306708845e-05,4.108559486558696e-14
	5.347737296876362e-05,3.971077662738328e-14
	-1.310897994517014e-06,-4.910771548965704e-14
	3.307159220366594e-05,6.028835190082944e-13
	-2.852126561144939e-05,-2.127460136920667e-14
	-3.239428597699533e-06,-5.325012021494306e-13
	1.310897994517014e-06,4.910771548965706e-14
	-3.307159220367062e-05,-6.028835190082945e-13
	1.310897994517014e-06,4.910771548965706e-14
14		1.380384264602885e+00,0.000000000000000e+00
	1.310897994517014e-02,5.025158112748314e-10
	1.000000000000000e+00,0.000000000000000e+00
	0.000000000000000e+00,0.000000000000000e+00
	5.347737306708845e-05,4.204260130964127e-14
	5.347737296876362e-05,4.063575944082768e-14
	-1.310897994517014e-06,-5.025158112748313e-14
	3.307159220366594e-05,6.169264801627487e-13
	-2.852126561144939e-05,-2.177015049467573e-14
	-3.239428597699533e-06,-5.449047485405898e-13
	1.310897994517014e-06,5.025158112748314e-14
	-3.307159220367062e-05,-6.169264801627487e-13
	1.310897994517014e-06,5.025158112748314e-14
15		1.412537544622754e+00,0.000000000000000e+00
	1.310897994517014e-02,5.142209081878130e-10
	1.000000000000000e+00,0.000000000000000e+00
	0.000000000000000e+00,0.000000000000000e+00
	5.347737306708845e-05,4.302189929740957e-14
	5.347737296876362e-05,4.158228787180545e-14
	-1.310897994517014e-06,-5.142209081878119e-14
	3.307159220366594e-05,6.312965439029723e-13
	-2.852126561144939e-05,-2.227724244209906e-14
	-3.239428597699533e-06,-5.575972106420921e-13
	1.310897994517014e-06,5.142209081878130e-14
	-3.307159220367062e-05,-6.312965439029723e-13
	1.310897994517014e-06,5.142209081878130e-14
16		1.445439770745927e+00,0.000000000000000e+00
	1.310897994517014e-02,5.261986518328338e-10
	1.000000000000000e+00,0.000000000000000e+00
	0.000000000000000e+00,0.000000000000000e+00
	5.347737306708845e-05,4.402400806564750e-14
	5.347737296876362e-05,4.255086378221949e-14
	-1.310897994517014e-06,-5.261986518328344e-14
	3.307159220366594e-05,6.460013294269709e-13
	-2.852126561144939e-05,-2.279614607833936e-14
	-3.239428597699533e-06,-5.705853181653481e-13
	1.310897994517014e-06,5.261986518328338e-14
	-3.307159220367062e-05,-6.460013294269708e-13
	1.310897994517014e-06,5.261986518328338e-14
17		1.479108388168207e+00,0.000000000000000e+00
	1.310897994517014e-02,5.384553929681192e-10
	1.000000000000000e+00,0.000000000000000e+00
	0.000000000000000e+00,0.000000000000000e+00
	5.347737306708845e-05,4.504945894568849e-14
	5.347737296876362e-05,4.354200072383815e-14
	-1.310897994517014e-06,-5.384553929681190e-14
	3.307159220366594e-05,6.610486334066701e-13
	-2.852126561144939e-05,-2.332713653297306e-14
	-3.239428597699533e-06,-5.838759575768852e-13
	1.310897994517014e-06,5.384553929681193e-14
	-3.307159220367062e-05,-6.610486334066702e-13
	1.310897994517014e-06,5.384553929681193e-14
18		1.513561248436208e+00,0.000000000000000e+00
	1.310897994517014e-02,5.509976302800562e-10
	1.000000000000000e+00,0.000000000000000e+00
	0.000000000000000e+00,0.000000000000000e+00
	5.347737306708845e-05,4.609879564516255e-14
	5.347737296876362e-05,4.455622421058710e-14
	-1.310897994517014e-06,-5.509976302800553e-14
	3.307159220366594e-05,6.764464341218147e-13
	-2.852126561144939e-05,-2.387049534416769e-14
	-3.239428597699533e-06,-5.974761757496415e-13
	1.310897994517014e-06,5.509976302800562e-14
	-3.307159220367062e-05,-6.764464341218148e-13
	1.310897994517014e-06,5.509976302800562e-14
19		1.548816618912481e+00,0.000000000000000e+00
	1.310897994517014e-02,5.638320138288833e-10
	1.000000000000000e+00,0.000000000000000e+00
	0.000000000000000e+00,0.000000000000000e+00
	5.347737306708845e-05,4.717257453627738e-14
	5.347737296876362e-05,4.559407199718386e-14
	-1.310897994517014e-06,-5.638320138288830e-14
	3.307159220366594e-05,6.922028956901580e-13
	-2.852126561144939e-05,-2.442651060795717e-14
	-3.239428597699533e-06,-6.113931836993125e-13
	1.310897994517014e-06,5.638320138288833e-14
	-3.307159220367062e-05,-6.922028956901579e-13
	1.310897994517014e-06,5.638320138288833e-14
20		1.584893192461113e+00,0.000000000000000e+00
	1.310897994517014e-02,5.769653485746414e-10
	1.000000000000000e+00,0.000000000000000e+00
	0.000000000000000e+00,0.000000000000000e+00
	5.347737306708845e-05,4.827136495081420e-14
	5.347737296876362e-05,4.665609436426241e-14
	-1.310897994517014e-06,-5.769653485746416e-14
	3.307159220366594e-05,7.083263723961845e-13
	-2.852126561144939e-05,-2.499547713099408e-14
	-3.239428597699533e-06,-6.256343604077262e-13
	1.310897994517014e-06,5.769653485746415e-14
	-3.307159220367062e-05,-7.083263723961843e-13
	1.310897994517014e-06,5.769653485746415e-14
21		1.621810097358929e+00,0.000000000000000e+00
	1.310897994517014e-02,5.904045979852531e-10
	1.000000000000000e+00,0.000000000000000e+00
	0.000000000000000e+00,0.000000000000000e+00
	5.347737306708845e-05,4.939574948199497e-14
	5.347737296876362e-05,4.774285441013930e-14
	-1.310897994517014e-06,-5.904045979852529e-14
	3.307159220366594e-05,7.248254131206631e-13
	-2.852126561144939e-05,-2.557769658686008e-14
	-3.239428597699533e-06,-6.402072567352777e-13
	1.310897994517014e-06,5.904045979852532e-14
	-3.307159220367062e-05,-7.248254131206633e-13
	1.310897994517014e-06,5.904045979852532e-14
22		1.659586907437560e+00,0.000000000000000e+00
	1.310897994517014e-02,6.041568877286454e-10
	1.000000000000000e+00,0.000000000000000e+00
	0.000000000000000e+00,0.000000000000000e+00
	5.347737306708845e-05,5.054632429338115e-14
	5.347737296876362e-05,4.885492834937585e-14
	-1.310897994517014e-06,-6.041568877286445e-14
	3.307159220366594e-05,7.417087658733772e-13
	-2.852126561144939e-05,-2.617347767601729e-14
	-3.239428597699533e-06,-6.551195994244955e-13
	1.310897994517014e-06,6.041568877286454e-14
	-3.307159220367062e-05,-7.417087658733773e-13
	1.310897994517014e-06,6.041568877286454e-14
23		1.698243652461743e+00,0.000000000000000e+00
	1.310897994517014e-02,6.182295094508733e-10
	1.000000000000000e+00,0.000000000000000e+00
	0.000000000000000e+00,0.000000000000000e+00
	5.347737306708845e-05,5.172369943496737e-14
	5.347737296876362e-05,4.999290581829466e-14
	-1.310897994517014e-06,-6.182295094508729e-14
	3.307159220366594e-05,7.589853824314336e-13
	-2.852126561144939e-05,-2.678313628948525e-14
	-3.239428597699533e-06,-6.703792951968611e-13
	1.310897994517014e-06,6.182295094508733e-14
	-3.307159220367062e-05,-7.589853824314336e-13
	1.310897994517014e-06,6.182295094508733e-14
24		1.737800828749374e+00,0.000000000000000e+00
	1.310897994517014e-02,6.326299246422467e-10
	1.000000000000000e+00,0.000000000000000e+00
	0.000000000000000e+00,0.000000000000000e+00
	5.347737306708845e-05,5.292849916663811e-14
	5.347737296876362e-05,5.115739018761267e-14
	-1.310897994517014e-06,-6.326299246422467e-14
	3.307159220366594e-05,7.766644230856141e-13
	-2.852126561144939e-05,-2.740699567633061e-14
	-3.239428597699533e-06,-6.859944349450588e-13
	1.310897994517014e-06,6.326299246422467e-14
	-3.307159220367062e-05,-7.766644230856141e-13
	1.310897994517014e-06,6.326299246422467e-14
25		1.778279410038922e+00,0.000000000000000e+00
	1.310897994517014e-02,6.473657685935126e-10
	1.000000000000000e+00,0.000000000000000e+00
	0.000000000000000e+00,0.000000000000000e+00
	5.347737306708845e-05,5.416136228915851e-14
	5.347737296876362e-05,5.234899888235625e-14
	-1.310897994517014e-06,-6.473657685935129e-14
	3.307159220366594e-05,7.947552614972837e-13
	-2.852126561144939e-05,-2.804538661505804e-14
	-3.239428597699533e-06,-7.019732980228743e-13
	1.310897994517014e-06,6.473657685935126e-14
	-3.307159220367062e-05,-7.947552614972838e-13
	1.310897994517014e-06,6.473657685935126e-14
26		1.819700858609982e+00,0.000000000000000e+00
	1.310897994517014e-02,6.624448544441857e-10
	1.000000000000000e+00,0.000000000000000e+00
	0.000000000000000e+00,0.000000000000000e+00
	5.347737306708845e-05,5.542294248287500e-14
	5.347737296876362e-05,5.356836370922818e-14
	-1.310897994517014e-06,-6.624448544441856e-14
	3.307159220366594e-05,8.132674896684285e-13
	-2.852126561144939e-05,-2.869864758899336e-14
	-3.239428597699533e-06,-7.183243566350166e-13
	1.310897994517014e-06,6.624448544441857e-14
	-3.307159220367062e-05,-8.132674896684284e-13
	1.310897994517014e-06,6.624448544441857e-14
27		1.862087136662866e+00,0.000000000000000e+00
	1.310897994517014e-02,6.778751773251794e-10
	1.000000000000000e+00,0.000000000000000e+00
	0.000000000000000e+00,0.000000000000000e+00
	5.347737306708845e-05,5.671390865430529e-14
	5.347737296876362e-05,5.481613119159986e-14
	-1.310897994517014e-06,-6.778751773251795e-14
	3.307159220366594e-05,8.322109230274635e-13
	-2.852126561144939e-05,-2.936712496575186e-14
	-3.239428597699533e-06,-7.350562803291938e-13
	1.310897994517014e-06,6.778751773251794e-14
	-3.307159220367062e-05,-8.322109230274635e-13
	1.310897994517014e-06,6.778751773251794e-14
28		1.905460717963246e+00,0.000000000000000e+00
	1.310897994517014e-02,6.936649185979295e-10
	1.000000000000000e+00,0.000000000000000e+00
	0.000000000000000e+00,0.000000000000000e+00
	5.347737306708845e-05,5.803494529080141e-14
	5.347737296876362e-05,5.609296291230659e-14
	-1.310897994517014e-06,-6.936649185979297e-14
	3.307159220366594e-05,8.515956056335015e-13
	-2.852126561144939e-05,-3.005117318088706e-14
	-3.239428597699533e-06,-7.521779405928214e-13
	1.310897994517014e-06,6.936649185979296e-14
	-3.307159220367062e-05,-8.515956056335014e-13
	1.310897994517014e-06,6.936649185979296e-14
29		1.949844599758044e+00,0.000000000000000e+00
	1.310897994517014e-02,7.098224501922613e-10
	1.000000000000000e+00,0.000000000000000e+00
	0.000000000000000e+00,0.000000000000000e+00
	5.347737306708845e-05,5.938675282347404e-14
	5.347737296876362e-05,5.739953586442760e-14
	-1.310897994517014e-06,-7.098224501922615e-14
	3.307159220366594e-05,8.714318155018468e-13
	-2.852126561144939e-05,-3.075115492581707e-14
	-3.239428597699533e-06,-7.696984155568037e-13
	1.310897994517014e-06,7.098224501922613e-14
	-3.307159220367062e-05,-8.714318155018468e-13
	1.310897994517014e-06,7.098224501922613e-14
30		1.995262314968878e+00,0.000000000000000e+00
	1.310897994517014e-02,7.263563390452954e-10
	1.000000000000000e+00,0.000000000000000e+00
	0.000000000000000e+00,0.000000000000000e+00
	5.347737306708845e-05,6.077004799857028e-14
	5.347737296876362e-05,5.873654281023655e-14
	-1.310897994517014e-06,-7.263563390452950e-14
	3.307159220366594e-05,8.917300700535348e-13
	-2.852126561144939e-05,-3.146744134012840e-14
	-3.239428597699533e-06,-7.876269948088768e-13
	1.310897994517014e-06,7.263563390452955e-14
	-3.307159220367062e-05,-8.917300700535346e-13
	1.310897994517014e-06,7.263563390452955e-14
31		2.041737944669527e+00,0.000000000000000e+00
	1.310897994517014e-02,7.432753516437542e-10
	1.000000000000000e+00,0.000000000000000e+00
	0.000000000000000e+00,0.000000000000000e+00
	5.347737306708845e-05,6.218556425750202e-14
	5.347737296876362e-05,6.010469264851358e-14
	-1.310897994517014e-06,-7.432753516437541e-14
	3.307159220366594e-05,9.125011316918078e-13
	-2.852126561144939e-05,-3.220041220835909e-14
	-3.239428597699533e-06,-8.059731843190734e-13
	1.310897994517014e-06,7.432753516437542e-14
	-3.307159220367062e-05,-9.125011316918080e-13
	1.310897994517014e-06,7.432753516437542e-14
32		2.089296130854037e+00,0.000000000000000e+00
	1.310897994517014e-02,7.605884586720670e-10
	1.000000000000000e+00,0.000000000000000e+00
	0.000000000000000e+00,0.000000000000000e+00
	5.347737306708845e-05,6.363405212572636e-14
	5.347737296876362e-05,6.150471079041250e-14
