Title: * GA CMOS Amp | W=1e-06 L=5.551115570601029e-07 Vbias=0.9543624366307063
Date: Mon Sep  8 18:43:55 2025
Plotname: AC Analysis
Flags: complex forward log
No. Variables: 11
No. Points:          901
Offset:    0.0000000000000000e+00
Command: Linear Technology Corporation LTspice
Variables:
	0	frequency	frequency
	1	V(out)	voltage
	2	V(g)	voltage
	3	V(vdd)	voltage
	4	Id(M1)	device_current
	5	Ig(M1)	device_current
	6	Ib(M1)	device_current
	7	Is(M1)	device_current
	8	I(Rload)	device_current
	9	I(Vg)	device_current
	10	I(Vdd)	device_current
Values:
0		1.000000000000000e+00,0.000000000000000e+00
	-2.021264955035607e-01,1.507649622467933e-11
	1.000000000000000e+00,0.000000000000000e+00
	0.000000000000000e+00,0.000000000000000e+00
	2.021264955035607e-05,-1.507649622467933e-15
	1.894568391253073e-26,5.659543214563937e-15
	2.021264964213385e-13,-3.240148041706666e-16
	-2.021264975248256e-05,-3.827878787925338e-15
	-2.021264955035607e-05,1.507649622467933e-15
	-1.894568391253073e-26,-5.659543214563937e-15
	-2.021264955035607e-05,1.507649622467933e-15
1		1.023292992280754e+00,0.000000000000000e+00
	-2.021264955035607e-01,1.542767293486160e-11
	1.000000000000000e+00,0.000000000000000e+00
	0.000000000000000e+00,0.000000000000000e+00
	2.021264955035607e-05,-1.542767293486160e-15
	1.983856648715959e-26,5.791370910973370e-15
	2.021264964213385e-13,-3.315620785030647e-16
	-2.021264975248256e-05,-3.917041538984145e-15
	-2.021264955035607e-05,1.542767293486160e-15
	-1.983856648715959e-26,-5.791370910973370e-15
	-2.021264955035607e-05,1.542767293486160e-15
2		1.047128548050899e+00,0.000000000000000e+00
	-2.021264955035607e-01,1.578702960144333e-11
	1.000000000000000e+00,0.000000000000000e+00
	0.000000000000000e+00,0.000000000000000e+00
	2.021264955035607e-05,-1.578702960144333e-15
	2.077352932111065e-26,5.926269268897656e-15
	2.021264964213385e-13,-3.392851514382275e-16
	-2.021264975248256e-05,-4.008281157315096e-15
	-2.021264955035607e-05,1.578702960144333e-15
	-2.077352932111065e-26,-5.926269268897656e-15
	-2.021264955035607e-05,1.578702960144333e-15
3		1.071519305237606e+00,0.000000000000000e+00
	-2.021264955035607e-01,1.615475676008578e-11
	1.000000000000000e+00,0.000000000000000e+00
	0.000000000000000e+00,0.000000000000000e+00
	2.021264955035607e-05,-1.615475676008578e-15
	2.175255559590737e-26,6.064309813231759e-15
	2.021264964213385e-13,-3.471881178516529e-16
	-2.021264975248256e-05,-4.101646019371528e-15
	-2.021264955035607e-05,1.615475676008578e-15
	-2.175255559590737e-26,-6.064309813231759e-15
	-2.021264955035607e-05,1.615475676008578e-15
4		1.096478196143185e+00,0.000000000000000e+00
	-2.021264955035607e-01,1.653104938459592e-11
	1.000000000000000e+00,0.000000000000000e+00
	0.000000000000000e+00,0.000000000000000e+00
	2.021264955035607e-05,-1.653104938459592e-15
	2.277772195753896e-26,6.205565734899466e-15
	2.021264964213385e-13,-3.552751680007399e-16
	-2.021264975248256e-05,-4.197185628439134e-15
	-2.021264955035607e-05,1.653104938459592e-15
	-2.277772195753896e-26,-6.205565734899466e-15
	-2.021264955035607e-05,1.653104938459592e-15
5		1.122018454301963e+00,0.000000000000000e+00
	-2.021264955035607e-01,1.691610699030408e-11
	1.000000000000000e+00,0.000000000000000e+00
	0.000000000000000e+00,0.000000000000000e+00
	2.021264955035607e-05,-1.691610699030408e-15
	2.385120292130487e-26,6.350111929660193e-15
	2.021264964213385e-13,-3.635505897465250e-16
	-2.021264975248256e-05,-4.294950640883260e-15
	-2.021264955035607e-05,1.691610699030408e-15
	-2.385120292130487e-26,-6.350111929660193e-15
	-2.021264955035607e-05,1.691610699030408e-15
6		1.148153621496882e+00,0.000000000000000e+00
	-2.021264955035607e-01,1.731013373984964e-11
	1.000000000000000e+00,0.000000000000000e+00
	0.000000000000000e+00,0.000000000000000e+00
	2.021264955035607e-05,-1.731013373984965e-15
	2.497527548425334e-26,6.498025037819692e-15
	2.021264964213385e-13,-3.720187708271533e-16
	-2.021264975248256e-05,-4.394992893007574e-15
	-2.021264955035607e-05,1.731013373984965e-15
	-2.497527548425334e-26,-6.498025037819692e-15
	-2.021264955035607e-05,1.731013373984965e-15
7		1.174897554939529e+00,0.000000000000000e+00
	-2.021264955035607e-01,1.771333855143078e-11
	1.000000000000000e+00,0.000000000000000e+00
	0.000000000000000e+00,0.000000000000000e+00
	2.021264955035607e-05,-1.771333855143078e-15
	2.615232395499742e-26,6.649383484865772e-15
	2.021264964213385e-13,-3.806842011843255e-16
	-2.021264975248256e-05,-4.497365428538369e-15
	-2.021264955035607e-05,1.771333855143078e-15
	-2.615232395499742e-26,-6.649383484865772e-15
	-2.021264955035607e-05,1.771333855143078e-15
8		1.202264434617413e+00,0.000000000000000e+00
	-2.021264955035607e-01,1.812593520957564e-11
	1.000000000000000e+00,0.000000000000000e+00
	0.000000000000000e+00,0.000000000000000e+00
	2.021264955035607e-05,-1.812593520957565e-15
	2.738484501115320e-26,6.804267523050526e-15
	2.021264964213385e-13,-3.895514753439184e-16
	-2.021264975248256e-05,-4.602122526749043e-15
	-2.021264955035607e-05,1.812593520957564e-15
	-2.738484501115320e-26,-6.804267523050526e-15
	-2.021264955035607e-05,1.812593520957564e-15
9		1.230268770812381e+00,0.000000000000000e+00
	-2.021264955035607e-01,1.854814247849374e-11
	1.000000000000000e+00,0.000000000000000e+00
	0.000000000000000e+00,0.000000000000000e+00
	2.021264955035607e-05,-1.854814247849374e-15
	2.867545299512777e-26,6.962759273941127e-15
	2.021264964213385e-13,-3.986252948520602e-16
	-2.021264975248256e-05,-4.709319731239693e-15
	-2.021264955035607e-05,1.854814247849374e-15
	-2.867545299512777e-26,-6.962759273941127e-15
	-2.021264955035607e-05,1.854814247849374e-15
10		1.258925411794167e+00,0.000000000000000e+00
	-2.021264955035607e-01,1.898018421806762e-11
	1.000000000000000e+00,0.000000000000000e+00
	0.000000000000000e+00,0.000000000000000e+00
	2.021264955035607e-05,-1.898018421806762e-15
	3.002688545948997e-26,7.124942771961787e-15
	2.021264964213385e-13,-4.079104707679615e-16
	-2.021264975248256e-05,-4.819013879387063e-15
	-2.021264955035607e-05,1.898018421806762e-15
	-3.002688545948997e-26,-7.124942771961787e-15
	-2.021264955035607e-05,1.898018421806762e-15
11		1.288249551693134e+00,0.000000000000000e+00
	-2.021264955035607e-01,1.942228950254636e-11
	1.000000000000000e+00,0.000000000000000e+00
	0.000000000000000e+00,0.000000000000000e+00
	2.021264955035607e-05,-1.942228950254637e-15
	3.144200897368640e-26,7.290904008949909e-15
	2.021264964213385e-13,-4.174119262147995e-16
	-2.021264975248256e-05,-4.931263132480473e-15
	-2.021264955035607e-05,1.942228950254637e-15
	-3.144200897368640e-26,-7.290904008949909e-15
	-2.021264955035607e-05,1.942228950254637e-15
12		1.318256738556407e+00,0.000000000000000e+00
	-2.021264955035607e-01,1.987469274200375e-11
	1.000000000000000e+00,0.000000000000000e+00
	0.000000000000000e+00,0.000000000000000e+00
	2.021264955035607e-05,-1.987469274200375e-15
	3.292382520441959e-26,7.460730979750098e-15
	2.021264964213385e-13,-4.271346989900157e-16
	-2.021264975248256e-05,-5.046127006559708e-15
	-2.021264955035607e-05,1.987469274200375e-15
	-3.292382520441959e-26,-7.460730979750098e-15
	-2.021264955035607e-05,1.987469274200375e-15
13		1.348962882591653e+00,0.000000000000000e+00
	-2.021264955035607e-01,2.033763380662560e-11
	1.000000000000000e+00,0.000000000000000e+00
	0.000000000000000e+00,0.000000000000000e+00
	2.021264955035607e-05,-2.033763380662560e-15
	3.447547728258550e-26,7.634513728870201e-15
	2.021264964213385e-13,-4.370839442364324e-16
	-2.021264975248256e-05,-5.163666403971208e-15
	-2.021264955035607e-05,2.033763380662560e-15
	-3.447547728258550e-26,-7.634513728870201e-15
	-2.021264955035607e-05,2.033763380662560e-15
14		1.380384264602885e+00,0.000000000000000e+00
	-2.021264955035607e-01,2.081135815389214e-11
	1.000000000000000e+00,0.000000000000000e+00
	0.000000000000000e+00,0.000000000000000e+00
	2.021264955035607e-05,-2.081135815389214e-15
	3.610025647027553e-26,7.812344398224087e-15
	2.021264964213385e-13,-4.472649371755738e-16
	-2.021264975248256e-05,-5.283943645659300e-15
	-2.021264955035607e-05,2.081135815389214e-15
	-3.610025647027553e-26,-7.812344398224087e-15
	-2.021264955035607e-05,2.081135815389214e-15
15		1.412537544622754e+00,0.000000000000000e+00
	-2.021264955035607e-01,2.129611695872276e-11
	1.000000000000000e+00,0.000000000000000e+00
	0.000000000000000e+00,0.000000000000000e+00
	2.021264955035607e-05,-2.129611695872276e-15
	3.780160914198471e-26,7.994317275986514e-15
	2.021264964213385e-13,-4.576830759046572e-16
	-2.021264975248256e-05,-5.407022504209581e-15
	-2.021264955035607e-05,2.129611695872276e-15
	-3.780160914198471e-26,-7.994317275986514e-15
	-2.021264955035607e-05,2.129611695872276e-15
16		1.445439770745927e+00,0.000000000000000e+00
	-2.021264955035607e-01,2.179216724665231e-11
	1.000000000000000e+00,0.000000000000000e+00
	0.000000000000000e+00,0.000000000000000e+00
	2.021264955035607e-05,-2.179216724665232e-15
	3.958314409483403e-26,8.180528846585964e-15
	2.021264964213385e-13,-4.683438842587347e-16
	-2.021264975248256e-05,-5.532968237661997e-15
	-2.021264955035607e-05,2.179216724665232e-15
	-3.958314409483403e-26,-8.180528846585964e-15
	-2.021264955035607e-05,2.179216724665232e-15
17		1.479108388168207e+00,0.000000000000000e+00
	-2.021264955035607e-01,2.229977203010949e-11
	1.000000000000000e+00,0.000000000000000e+00
	0.000000000000000e+00,0.000000000000000e+00
	2.021264955035607e-05,-2.229977203010949e-15
	4.144864020331310e-26,8.371077841861977e-15
	2.021264964213385e-13,-4.792530147395121e-16
	-2.021264975248256e-05,-5.661847624111515e-15
	-2.021264955035607e-05,2.229977203010949e-15
	-4.144864020331310e-26,-8.371077841861977e-15
	-2.021264955035607e-05,2.229977203010949e-15
18		1.513561248436208e+00,0.000000000000000e+00
	-2.021264955035607e-01,2.281920044786941e-11
	1.000000000000000e+00,0.000000000000000e+00
	0.000000000000000e+00,0.000000000000000e+00
	2.021264955035607e-05,-2.281920044786941e-15
	4.340205443477940e-26,8.566065293414061e-15
	2.021264964213385e-13,-4.904162515123679e-16
	-2.021264975248256e-05,-5.793728997114751e-15
	-2.021264955035607e-05,2.281920044786941e-15
	-4.340205443477940e-26,-8.566065293414061e-15
	-2.021264955035607e-05,2.281920044786941e-15
19		1.548816618912481e+00,0.000000000000000e+00
	-2.021264955035607e-01,2.335072790775461e-11
	1.000000000000000e+00,0.000000000000000e+00
	0.000000000000000e+00,0.000000000000000e+00
	2.021264955035607e-05,-2.335072790775461e-15
	4.544753024271664e-26,8.765594586169990e-15
	2.021264964213385e-13,-5.018395134732019e-16
	-2.021264975248256e-05,-5.928682281921327e-15
	-2.021264955035607e-05,2.335072790775461e-15
	-4.544753024271664e-26,-8.765594586169990e-15
	-2.021264955035607e-05,2.335072790775461e-15
20		1.584893192461113e+00,0.000000000000000e+00
	-2.021264955035607e-01,2.389463623265993e-11
	1.000000000000000e+00,0.000000000000000e+00
	0.000000000000000e+00,0.000000000000000e+00
	2.021264955035607e-05,-2.389463623265994e-15
	4.758940635555524e-26,8.969771513201867e-15
	2.021264964213385e-13,-5.135288573867090e-16
	-2.021264975248256e-05,-6.066779032549164e-15
	-2.021264955035607e-05,2.389463623265994e-15
	-4.758940635555524e-26,-8.969771513201867e-15
	-2.021264955035607e-05,2.389463623265994e-15
21		1.621810097358929e+00,0.000000000000000e+00
	-2.021264955035607e-01,2.445121380997870e-11
	1.000000000000000e+00,0.000000000000000e+00
	0.000000000000000e+00,0.000000000000000e+00
	2.021264955035607e-05,-2.445121380997871e-15
	4.983222597969678e-26,9.178704331819006e-15
	2.021264964213385e-13,-5.254904810977635e-16
	-2.021264975248256e-05,-6.208092469723372e-15
	-2.021264955035607e-05,2.445121380997870e-15
	-4.983222597969678e-26,-9.178704331819006e-15
	-2.021264955035607e-05,2.445121380997870e-15
22		1.659586907437560e+00,0.000000000000000e+00
	-2.021264955035607e-01,2.502075574450961e-11
	1.000000000000000e+00,0.000000000000000e+00
	0.000000000000000e+00,0.000000000000000e+00
	2.021264955035607e-05,-2.502075574450961e-15
	5.218074643626421e-26,9.392503820967392e-15
	2.021264964213385e-13,-5.377307268175833e-16
	-2.021264975248256e-05,-6.352697519698847e-15
	-2.021264955035607e-05,2.502075574450961e-15
	-5.218074643626421e-26,-9.392503820967392e-15
	-2.021264955035607e-05,2.502075574450961e-15
23		1.698243652461743e+00,0.000000000000000e+00
	-2.021264955035607e-01,2.560356401492510e-11
	1.000000000000000e+00,0.000000000000000e+00
	0.000000000000000e+00,0.000000000000000e+00
	2.021264955035607e-05,-2.560356401492511e-15
	5.463994925201749e-26,9.611283339966138e-15
	2.021264964213385e-13,-5.502560844864696e-16
	-2.021264975248256e-05,-6.500670853987158e-15
	-2.021264955035607e-05,2.560356401492511e-15
	-5.463994925201749e-26,-9.611283339966138e-15
	-2.021264955035607e-05,2.560356401492511e-15
24		1.737800828749374e+00,0.000000000000000e+00
	-2.021264955035607e-01,2.619994763388455e-11
	1.000000000000000e+00,0.000000000000000e+00
	0.000000000000000e+00,0.000000000000000e+00
	2.021264955035607e-05,-2.619994763388455e-15
	5.721505072583991e-26,9.835158888612109e-15
	2.021264964213385e-13,-5.630731952148511e-16
	-2.021264975248256e-05,-6.652090930008803e-15
	-2.021264955035607e-05,2.619994763388455e-15
	-5.721505072583991e-26,-9.835158888612109e-15
	-2.021264955035607e-05,2.619994763388455e-15
25		1.778279410038922e+00,0.000000000000000e+00
	-2.021264955035607e-01,2.681022281187678e-11
	1.000000000000000e+00,0.000000000000000e+00
	0.000000000000000e+00,0.000000000000000e+00
	2.021264955035607e-05,-2.681022281187679e-15
	5.991151299320731e-26,1.006424916868454e-14
	2.021264964213385e-13,-5.761888548044881e-16
	-2.021264975248256e-05,-6.807038032692373e-15
	-2.021264955035607e-05,2.681022281187679e-15
	-5.991151299320731e-26,-1.006424916868454e-14
	-2.021264955035607e-05,2.681022281187679e-15
26		1.819700858609982e+00,0.000000000000000e+00
	-2.021264955035607e-01,2.743471312487912e-11
	1.000000000000000e+00,0.000000000000000e+00
	0.000000000000000e+00,0.000000000000000e+00
	2.021264955035607e-05,-2.743471312487912e-15
	6.273505561210975e-26,1.029867564688230e-14
	2.021264964213385e-13,-5.896100173517065e-16
	-2.021264975248256e-05,-6.965594317042676e-15
	-2.021264955035607e-05,2.743471312487912e-15
	-6.273505561210975e-26,-1.029867564688230e-14
	-2.021264955035607e-05,2.743471312487912e-15
27		1.862087136662866e+00,0.000000000000000e+00
	-2.021264955035607e-01,2.807374968592164e-11
	1.000000000000000e+00,0.000000000000000e+00
	0.000000000000000e+00,0.000000000000000e+00
	2.021264955035607e-05,-2.807374968592164e-15
	6.569166769500093e-26,1.053856261922712e-14
	2.021264964213385e-13,-6.033437989345362e-16
	-2.021264975248256e-05,-7.127843851700415e-15
	-2.021264955035607e-05,2.807374968592164e-15
	-6.569166769500093e-26,-1.053856261922712e-14
	-2.021264955035607e-05,2.807374968592164e-15
28		1.905460717963246e+00,0.000000000000000e+00
	-2.021264955035607e-01,2.872767132064763e-11
	1.000000000000000e+00,0.000000000000000e+00
	0.000000000000000e+00,0.000000000000000e+00
	2.021264955035607e-05,-2.872767132064763e-15
	6.878762061250847e-26,1.078403727696701e-14
	2.021264964213385e-13,-6.173974813857586e-16
	-2.021264975248256e-05,-7.293872663516492e-15
	-2.021264955035607e-05,2.872767132064763e-15
	-6.878762061250847e-26,-1.078403727696701e-14
	-2.021264955035607e-05,2.872767132064763e-15
29		1.949844599758044e+00,0.000000000000000e+00
	-2.021264955035607e-01,2.939682474696352e-11
	1.000000000000000e+00,0.000000000000000e+00
	0.000000000000000e+00,0.000000000000000e+00
	2.021264955035607e-05,-2.939682474696352e-15
	7.202948129585214e-26,1.103522977401477e-14
	2.021264964213385e-13,-6.317785161538346e-16
	-2.021264975248256e-05,-7.463768783164587e-15
	-2.021264955035607e-05,2.939682474696352e-15
	-7.202948129585214e-26,-1.103522977401477e-14
	-2.021264955035607e-05,2.939682474696352e-15
30		1.995262314968878e+00,0.000000000000000e+00
	-2.021264955035607e-01,3.008156475887322e-11
	1.000000000000000e+00,0.000000000000000e+00
	0.000000000000000e+00,0.000000000000000e+00
	2.021264955035607e-05,-3.008156475887322e-15
	7.542412616618507e-26,1.129227329595725e-14
	2.021264964213385e-13,-6.464945282537522e-16
	-2.021264975248256e-05,-7.637622291816172e-15
	-2.021264955035607e-05,3.008156475887322e-15
	-7.542412616618507e-26,-1.129227329595725e-14
	-2.021264955035607e-05,3.008156475887322e-15
31		2.041737944669527e+00,0.000000000000000e+00
	-2.021264955035607e-01,3.078225441459465e-11
	1.000000000000000e+00,0.000000000000000e+00
	0.000000000000000e+00,0.000000000000000e+00
	2.021264955035607e-05,-3.078225441459465e-15
	7.897875572040519e-26,1.155530413067214e-14
	2.021264964213385e-13,-6.615533203099155e-16
	-2.021264975248256e-05,-7.815525368902762e-15
	-2.021264955035607e-05,3.078225441459465e-15
	-7.897875572040519e-26,-1.155530413067214e-14
	-2.021264955035607e-05,3.078225441459465e-15
32		2.089296130854037e+00,0.000000000000000e+00
	-2.021264955035607e-01,3.149926522905802e-11
	1.000000000000000e+00,0.000000000000000e+00
	0.000000000000000e+00,0.000000000000000e+00
	2.021264955035607e-05,-3.149926522905802e-15
	8.270090980437461e-26,1.182446174058966e-14
	2.021264964213385e-13,-6.769628766932037e-16
	-2.021264975248256e-05,-7.997572340990651e-15
	-2.021264955035607e-05,3.149926522905803e-15
	-8.270090980437461e-26,-1.182446174058966e-14
	-2.021264955035607e-05,3.149926522905803e-15
33		2.137962089502230e+00,0.000000000000000e+00
	-2.021264955035607e-01,3.223297737088790e-11
	1.000000000000000e+00,0.000000000000000e+00
	0.000000000000000e+00,0.000000000000000e+00
	2.021264955035607e-05,-3.223297737088790e-15
	8.659848360594316e-26,1.209988883663728e-14
	2.021264964213385e-13,-6.927313677543736e-16
	-2.021264975248256e-05,-8.183859731794119e-15
	-2.021264955035607e-05,3.223297737088790e-15
	-8.659848360594316e-26,-1.209988883663728e-14
	-2.021264955035607e-05,3.223297737088790e-15
34		2.187761623949550e+00,0.000000000000000e+00
	-2.021264955035607e-01,3.298377986397371e-11
	1.000000000000000e+00,0.000000000000000e+00
	0.000000000000000e+00,0.000000000000000e+00
	2.021264955035607e-05,-3.298377986397371e-15
	9.067974440170087e-26,1.238173145390706e-14
	2.021264964213385e-13,-7.088671541561138e-16
	-2.021264975248256e-05,-8.374486313353574e-15
	-2.021264955035607e-05,3.298377986397371e-15
	-9.067974440170087e-26,-1.238173145390706e-14
	-2.021264955035607e-05,3.298377986397371e-15
35		2.238721138568337e+00,0.000000000000000e+00
	-2.021264955035607e-01,3.375207079373534e-11
	1.000000000000000e+00,0.000000000000000e+00
	0.000000000000000e+00,0.000000000000000e+00
	2.021264955035607e-05,-3.375207079373534e-15
	9.495334909297972e-26,1.267013902908529e-14
	2.021264964213385e-13,-7.253787913059511e-16
	-2.021264975248256e-05,-8.569553158405800e-15
	-2.021264955035607e-05,3.375207079373534e-15
	-9.495334909297972e-26,-1.267013902908529e-14
	-2.021264955035607e-05,3.375207079373534e-15
36		2.290867652767770e+00,0.000000000000000e+00
	-2.021264955035607e-01,3.453825751819329e-11
	1.000000000000000e+00,0.000000000000000e+00
	0.000000000000000e+00,0.000000000000000e+00
	2.021264955035607e-05,-3.453825751819329e-15
	9.942836256830205e-26,1.296526447968585e-14
	2.021264964213385e-13,-7.422750338924634e-16
	-2.021264975248256e-05,-8.769163693974058e-15
	-2.021264955035607e-05,3.453825751819329e-15
	-9.942836256830205e-26,-1.296526447968585e-14
	-2.021264955035607e-05,3.453825751819329e-15
37		2.344228815319919e+00,0.000000000000000e+00
	-2.021264955035607e-01,3.534275688395526e-11
	1.000000000000000e+00,0.000000000000000e+00
	0.000000000000000e+00,0.000000000000000e+00
	2.021264955035607e-05,-3.534275688395525e-15
	1.041142769312245e-25,1.326726428512911e-14
	2.021264964213385e-13,-7.595648405271172e-16
	-2.021264975248256e-05,-8.973423756206465e-15
	-2.021264955035607e-05,3.534275688395526e-15
	-1.041142769312245e-25,-1.326726428512911e-14
	-2.021264955035607e-05,3.534275688395526e-15
38		2.398832919019488e+00,0.000000000000000e+00
	-2.021264955035607e-01,3.616599544723379e-11
	1.000000000000000e+00,0.000000000000000e+00
	0.000000000000000e+00,0.000000000000000e+00
