Title: * GA CMOS Amp | W=4.309492407703547e-06 L=6.17426835095903e-07 Vbias=0.8580955833894373
Date: Mon Sep  8 18:46:48 2025
Plotname: AC Analysis
Flags: complex forward log
No. Variables: 11
No. Points:          901
Offset:    0.0000000000000000e+00
Command: Linear Technology Corporation LTspice
Variables:
	0	frequency	frequency
	1	V(out)	voltage
	2	V(g)	voltage
	3	V(vdd)	voltage
	4	Id(M1)	device_current
	5	Ig(M1)	device_current
	6	Ib(M1)	device_current
	7	Is(M1)	device_current
	8	I(Rload)	device_current
	9	I(Vg)	device_current
	10	I(Vdd)	device_current
Values:
0		1.000000000000000e+00,0.000000000000000e+00
	-1.142287091788537e+00,1.138944997961260e-10
	1.000000000000000e+00,0.000000000000000e+00
	0.000000000000000e+00,0.000000000000000e+00
	1.142287091788537e-04,-1.138944997961260e-14
	6.167920048417179e-25,3.080039496500069e-14
	1.142287097701498e-12,-7.733663985117043e-16
	-1.142287103211408e-04,-1.863757858687639e-14
	-1.142287091788537e-04,1.138944997961260e-14
	-6.167920048417179e-25,-3.080039496500069e-14
	-1.142287091788537e-04,1.138944997961260e-14
1		1.023292992280754e+00,0.000000000000000e+00
	-1.142287091788537e+00,1.165474435006975e-10
	1.000000000000000e+00,0.000000000000000e+00
	0.000000000000000e+00,0.000000000000000e+00
	1.142287091788537e-04,-1.165474435006975e-14
	6.458605164793113e-25,3.151782832716463e-14
	1.142287097701498e-12,-7.913804160624321e-16
	-1.142287103211408e-04,-1.907170356103245e-14
	-1.142287091788537e-04,1.165474435006975e-14
	-6.458605164793113e-25,-3.151782832716463e-14
	-1.142287091788537e-04,1.165474435006975e-14
2		1.047128548050899e+00,0.000000000000000e+00
	-1.142287091788537e+00,1.192621822025009e-10
	1.000000000000000e+00,0.000000000000000e+00
	0.000000000000000e+00,0.000000000000000e+00
	1.142287091788537e-04,-1.192621822025009e-14
	6.762989848643852e-25,3.225197285909541e-14
	1.142287097701498e-12,-8.098140339849140e-16
	-1.142287103211408e-04,-1.951594060486040e-14
	-1.142287091788537e-04,1.192621822025009e-14
	-6.762989848643852e-25,-3.225197285909541e-14
	-1.142287091788537e-04,1.192621822025009e-14
3		1.071519305237606e+00,0.000000000000000e+00
	-1.142287091788537e+00,1.220401552919296e-10
	1.000000000000000e+00,0.000000000000000e+00
	0.000000000000000e+00,0.000000000000000e+00
	1.142287091788537e-04,-1.220401552919296e-14
	7.081719740693407e-25,3.300321781394141e-14
	1.142287097701498e-12,-8.286770260273734e-16
	-1.142287103211408e-04,-1.997052525872107e-14
	-1.142287091788537e-04,1.220401552919296e-14
	-7.081719740693407e-25,-3.300321781394141e-14
	-1.142287091788537e-04,1.220401552919296e-14
4		1.096478196143185e+00,0.000000000000000e+00
	-1.142287091788537e+00,1.248828356870866e-10
	1.000000000000000e+00,0.000000000000000e+00
	0.000000000000000e+00,0.000000000000000e+00
	1.142287091788537e-04,-1.248828356870866e-14
	7.415470909775679e-25,3.377196151172158e-14
	1.142287097701498e-12,-8.479793935978669e-16
	-1.142287103211408e-04,-2.043569854941506e-14
	-1.142287091788537e-04,1.248828356870866e-14
	-7.415470909775679e-25,-3.377196151172158e-14
	-1.142287091788537e-04,1.248828356870866e-14
5		1.122018454301963e+00,0.000000000000000e+00
	-1.142287091788537e+00,1.277917306147446e-10
	1.000000000000000e+00,0.000000000000000e+00
	0.000000000000000e+00,0.000000000000000e+00
	1.142287091788537e-04,-1.277917306147446e-14
	7.764951286867093e-25,3.455861155052005e-14
	1.142287097701498e-12,-8.677313710671806e-16
	-1.142287103211408e-04,-2.091170711797841e-14
	-1.142287091788537e-04,1.277917306147446e-14
	-7.764951286867093e-25,-3.455861155052005e-14
	-1.142287091788537e-04,1.277917306147446e-14
6		1.148153621496882e+00,0.000000000000000e+00
	-1.142287091788537e+00,1.307683824094980e-10
	1.000000000000000e+00,0.000000000000000e+00
	0.000000000000000e+00,0.000000000000000e+00
	1.142287091788537e-04,-1.307683824094980e-14
	8.130902166703102e-25,3.536358502259989e-14
	1.142287097701498e-12,-8.879434311952152e-16
	-1.142287103211408e-04,-2.139880335045487e-14
	-1.142287091788537e-04,1.307683824094980e-14
	-8.130902166703102e-25,-3.536358502259989e-14
	-1.142287091788537e-04,1.307683824094980e-14
7		1.174897554939529e+00,0.000000000000000e+00
	-1.142287091788537e+00,1.338143693315291e-10
	1.000000000000000e+00,0.000000000000000e+00
	0.000000000000000e+00,0.000000000000000e+00
	1.142287091788537e-04,-1.338143693315292e-14
	8.514099780163729e-25,3.618730873555109e-14
	1.142287097701498e-12,-9.086262906837884e-16
	-1.142287103211408e-04,-2.189724551171439e-14
	-1.142287091788537e-04,1.338143693315292e-14
	-8.514099780163729e-25,-3.618730873555109e-14
	-1.142287091788537e-04,1.338143693315292e-14
8		1.202264434617413e+00,0.000000000000000e+00
	-1.142287091788537e+00,1.369313064034225e-10
	1.000000000000000e+00,0.000000000000000e+00
	0.000000000000000e+00,0.000000000000000e+00
	1.142287091788537e-04,-1.369313064034225e-14
	8.915356940763332e-25,3.703021943858956e-14
	1.142287097701498e-12,-9.297909158587819e-16
	-1.142287103211408e-04,-2.240729788238853e-14
	-1.142287091788537e-04,1.369313064034225e-14
	-8.915356940763332e-25,-3.703021943858956e-14
	-1.142287091788537e-04,1.369313064034225e-14
9		1.230268770812381e+00,0.000000000000000e+00
	-1.142287091788537e+00,1.401208462664709e-10
	1.000000000000000e+00,0.000000000000000e+00
	0.000000000000000e+00,0.000000000000000e+00
	1.142287091788537e-04,-1.401208462664710e-14
	9.335524768737013e-25,3.789276405412725e-14
	1.142287097701498e-12,-9.514485284845915e-16
	-1.142287103211408e-04,-2.292923089899556e-14
	-1.142287091788537e-04,1.401208462664709e-14
	-9.335524768737013e-25,-3.789276405412725e-14
	-1.142287091788537e-04,1.401208462664709e-14
10		1.258925411794167e+00,0.000000000000000e+00
	-1.142287091788537e+00,1.433846800569286e-10
	1.000000000000000e+00,0.000000000000000e+00
	0.000000000000000e+00,0.000000000000000e+00
	1.142287091788537e-04,-1.433846800569286e-14
	9.775494496380801e-25,3.877539991473648e-14
	1.142287097701498e-12,-9.736106117141154e-16
	-1.142287103211408e-04,-2.346332129732950e-14
	-1.142287091788537e-04,1.433846800569286e-14
	-9.775494496380801e-25,-3.877539991473648e-14
	-1.142287091788537e-04,1.433846800569286e-14
11		1.288249551693134e+00,0.000000000000000e+00
	-1.142287091788537e+00,1.467245383026730e-10
	1.000000000000000e+00,0.000000000000000e+00
	0.000000000000000e+00,0.000000000000000e+00
	1.142287091788537e-04,-1.467245383026730e-14
	1.023619935847479e-24,3.967859500563360e-14
	1.142287097701498e-12,-9.962889161772413e-16
	-1.142287103211408e-04,-2.400985225918905e-14
	-1.142287091788537e-04,1.467245383026730e-14
	-1.023619935847479e-24,-3.967859500563360e-14
	-1.142287091788537e-04,1.467245383026730e-14
12		1.318256738556407e+00,0.000000000000000e+00
	-1.142287091788537e+00,1.501421918407544e-10
	1.000000000000000e+00,0.000000000000000e+00
	0.000000000000000e+00,0.000000000000000e+00
	1.142287091788537e-04,-1.501421918407544e-14
	1.071861657179925e-24,4.060282821281098e-14
	1.142287097701498e-12,-1.019495466211148e-15
	-1.142287103211408e-04,-2.456911356252439e-14
	-1.142287091788537e-04,1.501421918407544e-14
	-1.071861657179925e-24,-4.060282821281098e-14
	-1.142287091788537e-04,1.501421918407544e-14
13		1.348962882591653e+00,0.000000000000000e+00
	-1.142287091788537e+00,1.536394527563166e-10
	1.000000000000000e+00,0.000000000000000e+00
	0.000000000000000e+00,0.000000000000000e+00
	1.142287091788537e-04,-1.536394527563166e-14
	1.122376940794246e-24,4.154858957694878e-14
	1.142287097701498e-12,-1.043242566235871e-15
	-1.142287103211408e-04,-2.514140173508124e-14
	-1.142287091788537e-04,1.536394527563166e-14
	-1.122376940794246e-24,-4.154858957694878e-14
	-1.142287091788537e-04,1.536394527563166e-14
14		1.380384264602885e+00,0.000000000000000e+00
	-1.142287091788537e+00,1.572181753433888e-10
	1.000000000000000e+00,0.000000000000000e+00
	0.000000000000000e+00,0.000000000000000e+00
	1.142287091788537e-04,-1.572181753433888e-14
	1.175272936379690e-24,4.251638055324088e-14
	1.142287097701498e-12,-1.067542807278166e-15
	-1.142287103211408e-04,-2.572702021162383e-14
	-1.142287091788537e-04,1.572181753433888e-14
	-1.175272936379690e-24,-4.251638055324088e-14
	-1.142287091788537e-04,1.572181753433888e-14
15		1.412537544622754e+00,0.000000000000000e+00
	-1.142287091788537e+00,1.608802570880566e-10
	1.000000000000000e+00,0.000000000000000e+00
	0.000000000000000e+00,0.000000000000000e+00
	1.142287091788537e-04,-1.608802570880567e-14
	1.230661843434782e-24,4.350671427727312e-14
	1.142287097701498e-12,-1.092409073647461e-15
	-1.142287103211408e-04,-2.632627949481999e-14
	-1.142287091788537e-04,1.608802570880567e-14
	-1.230661843434782e-24,-4.350671427727312e-14
	-1.142287091788537e-04,1.608802570880567e-14
16		1.445439770745927e+00,0.000000000000000e+00
	-1.142287091788537e+00,1.646276396745344e-10
	1.000000000000000e+00,0.000000000000000e+00
	0.000000000000000e+00,0.000000000000000e+00
	1.142287091788537e-04,-1.646276396745344e-14
	1.288661149257506e-24,4.452011583709460e-14
	1.142287097701498e-12,-1.117854549767358e-15
	-1.142287103211408e-04,-2.693949731987380e-14
	-1.142287091788537e-04,1.646276396745344e-14
	-1.288661149257506e-24,-4.452011583709460e-14
	-1.142287091788537e-04,1.646276396745344e-14
17		1.479108388168207e+00,0.000000000000000e+00
	-1.142287091788537e+00,1.684623100146721e-10
	1.000000000000000e+00,0.000000000000000e+00
	0.000000000000000e+00,0.000000000000000e+00
	1.142287091788537e-04,-1.684623100146721e-14
	1.349393878151615e-24,4.555712255162632e-14
	1.142287097701498e-12,-1.143892727166096e-15
	-1.142287103211408e-04,-2.756699882299301e-14
	-1.142287091788537e-04,1.684623100146721e-14
	-1.349393878151615e-24,-4.555712255162632e-14
	-1.142287091788537e-04,1.684623100146721e-14
18		1.513561248436208e+00,0.000000000000000e+00
	-1.142287091788537e+00,1.723863013014419e-10
	1.000000000000000e+00,0.000000000000000e+00
	0.000000000000000e+00,0.000000000000000e+00
	1.142287091788537e-04,-1.723863013014419e-14
	1.412988852377674e-24,4.661828425555473e-14
	1.142287097701498e-12,-1.170537411629988e-15
	-1.142287103211408e-04,-2.820911671378055e-14
	-1.142287091788537e-04,1.723863013014419e-14
	-1.412988852377674e-24,-4.661828425555473e-14
	-1.142287091788537e-04,1.723863013014419e-14
19		1.548816618912481e+00,0.000000000000000e+00
	-1.142287091788537e+00,1.764016940869641e-10
	1.000000000000000e+00,0.000000000000000e+00
	0.000000000000000e+00,0.000000000000000e+00
	1.142287091788537e-04,-1.764016940869641e-14
	1.479580965402341e-24,4.770416359086136e-14
	1.142287097701498e-12,-1.197802730523416e-15
	-1.142287103211408e-04,-2.886619145164153e-14
	-1.142287091788537e-04,1.764016940869641e-14
	-1.479580965402341e-24,-4.770416359086136e-14
	-1.142287091788537e-04,1.764016940869641e-14
20		1.584893192461113e+00,0.000000000000000e+00
	-1.142287091788537e+00,1.805106173856437e-10
	1.000000000000000e+00,0.000000000000000e+00
	0.000000000000000e+00,0.000000000000000e+00
	1.142287091788537e-04,-1.805106173856437e-14
	1.549311468025501e-24,4.881533630514313e-14
	1.142287097701498e-12,-1.225703140279369e-15
	-1.142287103211408e-04,-2.953857142629939e-14
	-1.142287091788537e-04,1.805106173856437e-14
	-1.549311468025501e-24,-4.881533630514313e-14
	-1.142287091788537e-04,1.805106173856437e-14
21		1.621810097358929e+00,0.000000000000000e+00
	-1.142287091788537e+00,1.847152498030017e-10
	1.000000000000000e+00,0.000000000000000e+00
	0.000000000000000e+00,0.000000000000000e+00
	1.142287091788537e-04,-1.847152498030017e-14
	1.622328267992150e-24,4.995239155688124e-14
	1.142287097701498e-12,-1.254253434064395e-15
	-1.142287103211408e-04,-3.022661314251668e-14
	-1.142287091788537e-04,1.847152498030017e-14
	-1.622328267992150e-24,-4.995239155688124e-14
	-1.142287091788537e-04,1.847152498030017e-14
22		1.659586907437560e+00,0.000000000000000e+00
	-1.142287091788537e+00,1.890178206908005e-10
	1.000000000000000e+00,0.000000000000000e+00
	0.000000000000000e+00,0.000000000000000e+00
	1.142287091788537e-04,-1.890178206908006e-14
	1.698786243724551e-24,5.111593222782089e-14
	1.142287097701498e-12,-1.283468749622168e-15
	-1.142287103211408e-04,-3.093068140911867e-14
	-1.142287091788537e-04,1.890178206908006e-14
	-1.698786243724551e-24,-5.111593222782089e-14
	-1.142287091788537e-04,1.890178206908006e-14
23		1.698243652461743e+00,0.000000000000000e+00
	-1.142287091788537e+00,1.934206113290763e-10
	1.000000000000000e+00,0.000000000000000e+00
	0.000000000000000e+00,0.000000000000000e+00
	1.142287091788537e-04,-1.934206113290763e-14
	1.778847572840131e-24,5.230657524262708e-14
	1.142287097701498e-12,-1.313364577299707e-15
	-1.142287103211408e-04,-3.165114953241974e-14
	-1.142287091788537e-04,1.934206113290764e-14
	-1.778847572840131e-24,-5.230657524262708e-14
	-1.142287091788537e-04,1.934206113290764e-14
24		1.737800828749374e+00,0.000000000000000e+00
	-1.142287091788537e+00,1.979259561357032e-10
	1.000000000000000e+00,0.000000000000000e+00
	0.000000000000000e+00,0.000000000000000e+00
	1.142287091788537e-04,-1.979259561357033e-14
	1.862682076151952e-24,5.352495189598626e-14
	1.142287097701498e-12,-1.343956768260555e-15
	-1.142287103211408e-04,-3.238839951415538e-14
	-1.142287091788537e-04,1.979259561357032e-14
	-1.862682076151952e-24,-5.352495189598626e-14
	-1.142287091788537e-04,1.979259561357032e-14
25		1.778279410038922e+00,0.000000000000000e+00
	-1.142287091788537e+00,2.025362439041331e-10
	1.000000000000000e+00,0.000000000000000e+00
	0.000000000000000e+00,0.000000000000000e+00
	1.142287091788537e-04,-2.025362439041331e-14
	1.950467577881429e-24,5.477170818732721e-14
	1.142287097701498e-12,-1.375261542889321e-15
	-1.142287103211408e-04,-3.314282225402458e-14
	-1.142287091788537e-04,2.025362439041331e-14
	-1.950467577881429e-24,-5.477170818732721e-14
	-1.142287091788537e-04,2.025362439041331e-14
26		1.819700858609982e+00,0.000000000000000e+00
	-1.142287091788537e+00,2.072539190699649e-10
	1.000000000000000e+00,0.000000000000000e+00
	0.000000000000000e+00,0.000000000000000e+00
	1.142287091788537e-04,-2.072539190699650e-14
	2.042390282847335e-24,5.604750516333833e-14
	1.142287097701498e-12,-1.407295499391862e-15
	-1.142287103211408e-04,-3.391481775694997e-14
	-1.142287091788537e-04,2.072539190699649e-14
	-2.042390282847335e-24,-5.604750516333833e-14
	-1.142287091788537e-04,2.072539190699649e-14
27		1.862087136662866e+00,0.000000000000000e+00
	-1.142287091788537e+00,2.120814830070177e-10
	1.000000000000000e+00,0.000000000000000e+00
	0.000000000000000e+00,0.000000000000000e+00
	1.142287091788537e-04,-2.120814830070177e-14
	2.138645171431195e-24,5.735301926846350e-14
	1.142287097701498e-12,-1.440075622595936e-15
	-1.142287103211408e-04,-3.470479534516579e-14
	-1.142287091788537e-04,2.120814830070177e-14
	-2.138645171431195e-24,-5.735301926846350e-14
	-1.142287091788537e-04,2.120814830070177e-14
28		1.905460717963246e+00,0.000000000000000e+00
	-1.142287091788537e+00,2.170214953535910e-10
	1.000000000000000e+00,0.000000000000000e+00
	0.000000000000000e+00,0.000000000000000e+00
	1.142287091788537e-04,-2.170214953535910e-14
	2.239436413156815e-24,5.868894270356176e-14
	1.142287097701498e-12,-1.473619292956763e-15
	-1.142287103211408e-04,-3.551317387524589e-14
	-1.142287091788537e-04,2.170214953535910e-14
	-2.239436413156815e-24,-5.868894270356176e-14
	-1.142287091788537e-04,2.170214953535910e-14
29		1.949844599758044e+00,0.000000000000000e+00
	-1.142287091788537e+00,2.220765753696199e-10
	1.000000000000000e+00,0.000000000000000e+00
	0.000000000000000e+00,0.000000000000000e+00
	1.142287091788537e-04,-2.220765753696199e-14
	2.344977799761210e-24,6.005598379292145e-14
	1.142287097701498e-12,-1.507944295772386e-15
	-1.142287103211408e-04,-3.634038196018707e-14
	-1.142287091788537e-04,2.220765753696200e-14
	-2.344977799761210e-24,-6.005598379292145e-14
	-1.142287091788537e-04,2.220765753696200e-14
30		1.995262314968878e+00,0.000000000000000e+00
	-1.142287091788537e+00,2.272494033254408e-10
	1.000000000000000e+00,0.000000000000000e+00
	0.000000000000000e+00,0.000000000000000e+00
	1.142287091788537e-04,-2.272494033254408e-14
	2.455493198675548e-24,6.145486735982304e-14
	1.142287097701498e-12,-1.543068830613598e-15
	-1.142287103211408e-04,-3.718685819666537e-14
	-1.142287091788537e-04,2.272494033254408e-14
	-2.455493198675548e-24,-6.145486735982304e-14
	-1.142287091788537e-04,2.272494033254408e-14
31		2.041737944669527e+00,0.000000000000000e+00
	-1.142287091788537e+00,2.325427219229062e-10
	1.000000000000000e+00,0.000000000000000e+00
	0.000000000000000e+00,0.000000000000000e+00
	1.142287091788537e-04,-2.325427219229063e-14
	2.571217027877985e-24,6.288633511085017e-14
	1.142287097701498e-12,-1.579011520973766e-15
	-1.142287103211408e-04,-3.805305139758578e-14
	-1.142287091788537e-04,2.325427219229062e-14
	-2.571217027877985e-24,-6.288633511085017e-14
	-1.142287091788537e-04,2.325427219229062e-14
32		2.089296130854037e+00,0.000000000000000e+00
	-1.142287091788537e+00,2.379593377496020e-10
	1.000000000000000e+00,0.000000000000000e+00
	0.000000000000000e+00,0.000000000000000e+00
	1.142287091788537e-04,-2.379593377496021e-14
	2.692394753125624e-24,6.435114602915213e-14
	1.142287097701498e-12,-1.615791424143029e-15
	-1.142287103211408e-04,-3.893942083004889e-14
	-1.142287091788537e-04,2.379593377496020e-14
	-2.692394753125624e-24,-6.435114602915213e-14
	-1.142287091788537e-04,2.379593377496020e-14
33		2.137962089502230e+00,0.000000000000000e+00
	-1.142287091788537e+00,2.435021227669369e-10
	1.000000000000000e+00,0.000000000000000e+00
	0.000000000000000e+00,0.000000000000000e+00
	1.142287091788537e-04,-2.435021227669369e-14
	2.819283408620295e-24,6.585007677686684e-14
	1.142287097701498e-12,-1.653428041312891e-15
	-1.142287103211408e-04,-3.984643645886026e-14
	-1.142287091788537e-04,2.435021227669369e-14
	-2.819283408620295e-24,-6.585007677686684e-14
	-1.142287091788537e-04,2.435021227669369e-14
34		2.187761623949550e+00,0.000000000000000e+00
	-1.142287091788537e+00,2.491740158328944e-10
	1.000000000000000e+00,0.000000000000000e+00
	0.000000000000000e+00,0.000000000000000e+00
	1.142287091788537e-04,-2.491740158328944e-14
	2.952152142212560e-24,6.738392210691746e-14
	1.142287097701498e-12,-1.691941327915977e-15
	-1.142287103211408e-04,-4.077457919571204e-14
	-1.142287091788537e-04,2.491740158328944e-14
	-2.952152142212560e-24,-6.738392210691746e-14
	-1.142287091788537e-04,2.491740158328944e-14
35		2.238721138568337e+00,0.000000000000000e+00
	-1.142287091788537e+00,2.549780242602545e-10
	1.000000000000000e+00,0.000000000000000e+00
	0.000000000000000e+00,0.000000000000000e+00
	1.142287091788537e-04,-2.549780242602545e-14
	3.091282786300390e-24,6.895349528440083e-14
	1.142287097701498e-12,-1.731351704206622e-15
	-1.142287103211408e-04,-4.172434115416876e-14
	-1.142287091788537e-04,2.549780242602545e-14
	-3.091282786300390e-24,-6.895349528440083e-14
	-1.142287091788537e-04,2.549780242602545e-14
36		2.290867652767770e+00,0.000000000000000e+00
	-1.142287091788537e+00,2.609172254111105e-10
	1.000000000000000e+00,0.000000000000000e+00
	0.000000000000000e+00,0.000000000000000e+00
	1.142287091788537e-04,-2.609172254111105e-14
	3.236970455633466e-24,7.055962851779139e-14
	1.142287097701498e-12,-1.771680066087979e-15
	-1.142287103211408e-04,-4.269622591059236e-14
	-1.142287091788537e-04,2.609172254111105e-14
	-3.236970455633466e-24,-7.055962851779139e-14
	-1.142287091788537e-04,2.609172254111105e-14
37		2.344228815319919e+00,0.000000000000000e+00
	-1.142287091788537e+00,2.669947683285273e-10
	1.000000000000000e+00,0.000000000000000e+00
	0.000000000000000e+00,0.000000000000000e+00
	1.142287091788537e-04,-2.669947683285273e-14
	3.389524173291130e-24,7.220317340018919e-14
	1.142287097701498e-12,-1.812947796191329e-15
	-1.142287103211408e-04,-4.369074877114513e-14
	-1.142287091788537e-04,2.669947683285273e-14
	-3.389524173291130e-24,-7.220317340018919e-14
	-1.142287091788537e-04,2.669947683285273e-14
38		2.398832919019488e+00,0.000000000000000e+00
	-1.142287091788537e+00,2.732138754062055e-10
	1.000000000000000e+00,0.000000000000000e+00
