LTspice 24.0.9 for Windows
Circuit: * GA CMOS Amp | W=1.536061346739322e-05 L=8.49984121226275e-07 Vbias=1.3236076000319765
Start Time: Sat Sep  6 22:12:58 2025
solver = Normal
Maximum thread count: 2
tnom = 27
temp = 27
method = modified trap
AsciiRawFile = 1
Direct Newton iteration for .op point succeeded.
Semiconductor Device Operating Points:
                        --- BSIM4 MOSFETS ---
Name:      m1
Model:      n
Id:      1.70e-04
Vgs:     1.32e+00
Vds:     1.04e-01
Vbs:     0.00e+00
Vth:     2.38e-01
Vdsat:   7.56e-01
Gm:     -1.54e-05
Gds:     1.53e-03
Gmb      9.05e-05
Cbd:     7.43e-15
Cbs:     1.23e-14


.measure op idd find i(vdd)
  Error: FIND can not be evaluated over an interval.

gain_db: MAX(db(v(out)/v(g)))=(31.1697dB,180°) FROM 1 TO 1e+09
gain_lin: MAX(mag(v(out)/v(g)))=(-3.64759dB,0°) FROM 1 TO 1e+09

Measurement "fc" FAIL'ed

Total elapsed time: 2.549 seconds.

