LTspice 24.0.9 for Windows
Circuit: * GA CMOS Amp | W=1.2194148773395845e-05 L=8.934653062874317e-07 Vbias=1.104205963751409
Start Time: Sat Sep  6 22:02:41 2025
solver = Normal
Maximum thread count: 2
tnom = 27
temp = 27
method = modified trap
AsciiRawFile = 1
Direct Newton iteration for .op point succeeded.
Semiconductor Device Operating Points:
                        --- BSIM4 MOSFETS ---
Name:      m1
Model:      n
Id:      1.66e-04
Vgs:     1.10e+00
Vds:     1.36e-01
Vbs:     0.00e+00
Vth:     2.37e-01
Vdsat:   6.15e-01
Gm:      1.33e-05
Gds:     1.07e-03
Gmb      1.06e-04
Cbd:     5.85e-15
Cbs:     9.76e-15


.measure op idd find i(vdd)
  Error: FIND can not be evaluated over an interval.

gain_db: MAX(db(v(out)/v(g)))=(33.9043dB,146.599°) FROM 1 TO 1e+09
gain_lin: MAX(mag(v(out)/v(g)))=(-2.80529dB,0°) FROM 1 TO 1e+09

Measurement "fc" FAIL'ed

Total elapsed time: 0.487 seconds.

