LTspice 24.0.9 for Windows
Circuit: * GA CMOS Amp | W=9.707056112004151e-06 L=5.562890199988281e-07 Vbias=1.09654503581918
Start Time: Mon Sep  8 18:46:12 2025
solver = Normal
Maximum thread count: 2
tnom = 27
temp = 27
method = modified trap
AsciiRawFile = 1
Instance "m1": Length shorter than recommended for a level 3 MOSFET.
Direct Newton iteration for .op point succeeded.
Semiconductor Device Operating Points:
                        --- MOSFET Transistors ---
Name:          m1
Model:        n_1u
Id:          1.46e-04
Vgs:         1.10e+00
Vds:         3.45e-01
Vbs:         0.00e+00
Vth:         7.53e-01
Vdsat:       2.52e-01
Gm:          5.44e-04
Gds:         1.16e-04
Gmb:         9.45e-05
Cbd:         0.00e+00
Cbs:         0.00e+00
Cgsov:       1.94e-15
Cgdov:       1.94e-15
Cgbov:       3.56e-17
Cgs:         3.98e-15
Cgd:         0.00e+00
Cgb:         0.00e+00



gain_db: MAX(db(v(out)/v(g)))=(29.0781dB,73.6449°) FROM 1 TO 1e+09
gain_lin: MAX(mag(v(out)/v(g)))=(8.00791dB,0°) FROM 1 TO 1e+09

Measurement "fc" FAIL'ed

Total elapsed time: 0.449 seconds.

