Title: * GA CMOS Amp | W=1.467586564567461e-05 L=7.012834405768384e-07 Vbias=1.0032976472966348
Date: Mon Sep  8 18:44:08 2025
Plotname: AC Analysis
Flags: complex forward log
No. Variables: 11
No. Points:          901
Offset:    0.0000000000000000e+00
Command: Linear Technology Corporation LTspice
Variables:
	0	frequency	frequency
	1	V(out)	voltage
	2	V(g)	voltage
	3	V(vdd)	voltage
	4	Id(M1)	device_current
	5	Ig(M1)	device_current
	6	Ib(M1)	device_current
	7	Is(M1)	device_current
	8	I(Rload)	device_current
	9	I(Vg)	device_current
	10	I(Vdd)	device_current
Values:
0		1.000000000000000e+00,0.000000000000000e+00
	-4.494545772418326e+00,1.712695254895965e-09
	1.000000000000000e+00,0.000000000000000e+00
	0.000000000000000e+00,0.000000000000000e+00
	4.494545772418325e-04,-1.712695254895965e-13
	5.653095241680757e-23,2.531966732621832e-13
	4.494545794569982e-12,4.229691257016497e-15
	-4.494545817363783e-04,-8.615683902960321e-14
	-4.494545772418326e-04,1.712695254895965e-13
	-5.653095241680757e-23,-2.531966732621832e-13
	-4.494545772418326e-04,1.712695254895965e-13
1		1.023292992280754e+00,0.000000000000000e+00
	-4.494545772418326e+00,1.752589052247541e-09
	1.000000000000000e+00,0.000000000000000e+00
	0.000000000000000e+00,0.000000000000000e+00
	4.494545772418325e-04,-1.752589052247541e-13
	5.919517412414621e-23,2.590943814179918e-13
	4.494545794569982e-12,4.328213422816248e-15
	-4.494545817363783e-04,-8.816368961605396e-14
	-4.494545772418326e-04,1.752589052247541e-13
	-5.919517412414621e-23,-2.590943814179918e-13
	-4.494545772418326e-04,1.752589052247541e-13
2		1.047128548050899e+00,0.000000000000000e+00
	-4.494545772418326e+00,1.793412095512877e-09
	1.000000000000000e+00,0.000000000000000e+00
	0.000000000000000e+00,0.000000000000000e+00
	4.494545772418325e-04,-1.793412095512877e-13
	6.198495673223739e-23,2.651294648443479e-13
	4.494545794569982e-12,4.429030464663229e-15
	-4.494545817363783e-04,-9.021728575772346e-14
	-4.494545772418326e-04,1.793412095512877e-13
	-6.198495673223739e-23,-2.651294648443479e-13
	-4.494545772418326e-04,1.793412095512877e-13
3		1.071519305237606e+00,0.000000000000000e+00
	-4.494545772418326e+00,1.835186029609869e-09
	1.000000000000000e+00,0.000000000000000e+00
	0.000000000000000e+00,0.000000000000000e+00
	4.494545772418325e-04,-1.835186029609869e-13
	6.490621774402555e-23,2.713051234223677e-13
	4.494545794569982e-12,4.532195837087869e-15
	-4.494545817363783e-04,-9.231871629846870e-14
	-4.494545772418326e-04,1.835186029609869e-13
	-6.490621774402555e-23,-2.713051234223677e-13
	-4.494545772418326e-04,1.835186029609869e-13
4		1.096478196143185e+00,0.000000000000000e+00
	-4.494545772418326e+00,1.877933003631320e-09
	1.000000000000000e+00,0.000000000000000e+00
	0.000000000000000e+00,0.000000000000000e+00
	4.494545772418325e-04,-1.877933003631319e-13
	6.796515354577699e-23,2.776246315679739e-13
	4.494545794569982e-12,4.637764239736058e-15
	-4.494545817363783e-04,-9.446909544457806e-14
	-4.494545772418326e-04,1.877933003631320e-13
	-6.796515354577699e-23,-2.776246315679739e-13
	-4.494545772418326e-04,1.877933003631320e-13
5		1.122018454301963e+00,0.000000000000000e+00
	-4.494545772418326e+00,1.921675682588678e-09
	1.000000000000000e+00,0.000000000000000e+00
	0.000000000000000e+00,0.000000000000000e+00
	4.494545772418325e-04,-1.921675682588678e-13
	7.116825255044594e-23,2.840913399680340e-13
	4.494545794569982e-12,4.745791646372190e-15
	-4.494545817363783e-04,-9.666956335553846e-14
	-4.494545772418326e-04,1.921675682588678e-13
	-7.116825255044594e-23,-2.840913399680340e-13
	-4.494545772418326e-04,1.921675682588678e-13
6		1.148153621496882e+00,0.000000000000000e+00
	-4.494545772418326e+00,1.966437259429328e-09
	1.000000000000000e+00,0.000000000000000e+00
	0.000000000000000e+00,0.000000000000000e+00
	4.494545772418325e-04,-1.966437259429329e-13
	7.452230896046815e-23,2.907086773569385e-13
	4.494545794569982e-12,4.856335334557249e-15
	-4.494545817363783e-04,-9.892128674856287e-14
	-4.494545772418326e-04,1.966437259429328e-13
	-7.452230896046815e-23,-2.907086773569385e-13
	-4.494545772418326e-04,1.966437259429328e-13
7		1.174897554939529e+00,0.000000000000000e+00
	-4.494545772418326e+00,2.012241467333803e-09
	1.000000000000000e+00,0.000000000000000e+00
	0.000000000000000e+00,0.000000000000000e+00
	4.494545772418325e-04,-2.012241467333804e-13
	7.803443717917554e-23,2.974801523345619e-13
	4.494545794569982e-12,4.969453916017831e-15
	-4.494545817363783e-04,-1.012254595171994e-13
	-4.494545772418326e-04,2.012241467333803e-13
	-7.803443717917554e-23,-2.974801523345619e-13
	-4.494545772418326e-04,2.012241467333803e-13
8		1.202264434617413e+00,0.000000000000000e+00
	-4.494545772418326e+00,2.059112592299423e-09
	1.000000000000000e+00,0.000000000000000e+00
	0.000000000000000e+00,0.000000000000000e+00
	4.494545772418325e-04,-2.059112592299423e-13
	8.171208690139923e-23,3.044093552265684e-13
	4.494545794569982e-12,5.085207367723250e-15
	-4.494545817363783e-04,-1.035833033643493e-13
	-4.494545772418326e-04,2.059112592299423e-13
	-8.171208690139923e-23,-3.044093552265684e-13
	-4.494545772418326e-04,2.059112592299423e-13
9		1.230268770812381e+00,0.000000000000000e+00
	-4.494545772418326e+00,2.107075486017057e-09
	1.000000000000000e+00,0.000000000000000e+00
	0.000000000000000e+00,0.000000000000000e+00
	4.494545772418325e-04,-2.107075486017057e-13
	8.556305891527110e-23,3.114999599880502e-13
	4.494545794569982e-12,5.203657063685596e-15
	-4.494545817363783e-04,-1.059960684500301e-13
	-4.494545772418326e-04,2.107075486017057e-13
	-8.556305891527110e-23,-3.114999599880502e-13
	-4.494545772418326e-04,2.107075486017057e-13
10		1.258925411794167e+00,0.000000000000000e+00
	-4.494545772418326e+00,2.156155579047818e-09
	1.000000000000000e+00,0.000000000000000e+00
	0.000000000000000e+00,0.000000000000000e+00
	4.494545772418325e-04,-2.156155579047818e-13
	8.959552164874139e-23,3.187557261515071e-13
	4.494545794569982e-12,5.324865807501699e-15
	-4.494545817363783e-04,-1.084650340542270e-13
	-4.494545772418326e-04,2.156155579047818e-13
	-8.959552164874139e-23,-3.187557261515071e-13
	-4.494545772418326e-04,2.156155579047818e-13
11		1.288249551693134e+00,0.000000000000000e+00
	-4.494545772418326e+00,2.206378894306684e-09
	1.000000000000000e+00,0.000000000000000e+00
	0.000000000000000e+00,0.000000000000000e+00
	4.494545772418325e-04,-2.206378894306684e-13
	9.381802849590954e-23,3.261805008202004e-13
	4.494545794569982e-12,5.448897865651864e-15
	-4.494545817363783e-04,-1.109915092551838e-13
	-4.494545772418326e-04,2.206378894306684e-13
	-9.381802849590954e-23,-3.261805008202004e-13
	-4.494545772418326e-04,2.206378894306684e-13
12		1.318256738556407e+00,0.000000000000000e+00
	-4.494545772418326e+00,2.257772060860189e-09
	1.000000000000000e+00,0.000000000000000e+00
	0.000000000000000e+00,0.000000000000000e+00
	4.494545772418325e-04,-2.257772060860189e-13
	9.823953595991966e-23,3.337782207079378e-13
	4.494545794569982e-12,5.575819001575111e-15
	-4.494545817363783e-04,-1.135768336234941e-13
	-4.494545772418326e-04,2.257772060860189e-13
	-9.823953595991966e-23,-3.337782207079378e-13
	-4.494545772418326e-04,2.257772060860189e-13
13		1.348962882591653e+00,0.000000000000000e+00
	-4.494545772418326e+00,2.310362328045508e-09
	1.000000000000000e+00,0.000000000000000e+00
	0.000000000000000e+00,0.000000000000000e+00
	4.494545772418325e-04,-2.310362328045507e-13
	1.028694226509048e-22,3.415529142263716e-13
	4.494545794569982e-12,5.705696510537677e-15
	-4.494545817363783e-04,-1.162223779323586e-13
	-4.494545772418326e-04,2.310362328045507e-13
	-1.028694226509048e-22,-3.415529142263716e-13
	-4.494545772418326e-04,2.310362328045507e-13
14		1.380384264602885e+00,0.000000000000000e+00
	-4.494545772418326e+00,2.364177579918417e-09
	1.000000000000000e+00,0.000000000000000e+00
	0.000000000000000e+00,0.000000000000000e+00
	4.494545772418325e-04,-2.364177579918417e-13
	1.077175091792763e-22,3.495087036209156e-13
	4.494545794569982e-12,5.838599255313996e-15
	-4.494545817363783e-04,-1.189295448843879e-13
	-4.494545772418326e-04,2.364177579918417e-13
	-1.077175091792763e-22,-3.495087036209156e-13
	-4.494545772418326e-04,2.364177579918417e-13
15		1.412537544622754e+00,0.000000000000000e+00
	-4.494545772418326e+00,2.419246350037788e-09
	1.000000000000000e+00,0.000000000000000e+00
	0.000000000000000e+00,0.000000000000000e+00
	4.494545772418325e-04,-2.419246350037789e-13
	1.127940789865550e-22,3.576498071564140e-13
	4.494545794569982e-12,5.974597702698410e-15
	-4.494545817363783e-04,-1.216997698553336e-13
	-4.494545772418326e-04,2.419246350037789e-13
	-1.127940789865550e-22,-3.576498071564140e-13
	-4.494545772418326e-04,2.419246350037789e-13
16		1.445439770745927e+00,0.000000000000000e+00
	-4.494545772418326e+00,2.475597836594461e-09
	1.000000000000000e+00,0.000000000000000e+00
	0.000000000000000e+00,0.000000000000000e+00
	4.494545772418325e-04,-2.475597836594460e-13
	1.181099001579298e-22,3.659805413537215e-13
	4.494545794569982e-12,6.113763960867920e-15
	-4.494545817363783e-04,-1.245345216551434e-13
	-4.494545772418326e-04,2.475597836594460e-13
	-1.181099001579298e-22,-3.659805413537214e-13
	-4.494545772418326e-04,2.475597836594460e-13
17		1.479108388168207e+00,0.000000000000000e+00
	-4.494545772418326e+00,2.533261917892507e-09
	1.000000000000000e+00,0.000000000000000e+00
	0.000000000000000e+00,0.000000000000000e+00
	4.494545772418325e-04,-2.533261917892507e-13
	1.236762482628097e-22,3.745053232783799e-13
	4.494545794569982e-12,6.256171817614877e-15
	-4.494545817363783e-04,-1.274353033067441e-13
	-4.494545772418326e-04,2.533261917892507e-13
	-1.236762482628097e-22,-3.745053232783799e-13
	-4.494545772418326e-04,2.533261917892507e-13
18		1.513561248436208e+00,0.000000000000000e+00
	-4.494545772418326e+00,2.592269168191106e-09
	1.000000000000000e+00,0.000000000000000e+00
	0.000000000000000e+00,0.000000000000000e+00
	4.494545772418325e-04,-2.592269168191106e-13
	1.295049302718185e-22,3.832286728826046e-13
	4.494545794569982e-12,6.401896779469664e-15
	-4.494545817363783e-04,-1.304036528429636e-13
	-4.494545772418326e-04,2.592269168191106e-13
	-1.295049302718185e-22,-3.832286728826045e-13
	-4.494545772418326e-04,2.592269168191106e-13
19		1.548816618912481e+00,0.000000000000000e+00
	-4.494545772418326e+00,2.652650873915418e-09
	1.000000000000000e+00,0.000000000000000e+00
	0.000000000000000e+00,0.000000000000000e+00
	4.494545772418325e-04,-2.652650873915418e-13
	1.356083096009623e-22,3.921552154018227e-13
	4.494545794569982e-12,6.551016111736002e-15
	-4.494545817363783e-04,-1.334411441220169e-13
	-4.494545772418326e-04,2.652650873915418e-13
	-1.356083096009623e-22,-3.921552154018227e-13
	-4.494545772418326e-04,2.652650873915418e-13
20		1.584893192461113e+00,0.000000000000000e+00
	-4.494545772418326e+00,2.714439050245066e-09
	1.000000000000000e+00,0.000000000000000e+00
	0.000000000000000e+00,0.000000000000000e+00
	4.494545772418325e-04,-2.714439050245066e-13
	1.419993323360925e-22,4.012896838070348e-13
	4.494545794569982e-12,6.703608879457800e-15
	-4.494545817363783e-04,-1.365493876619860e-13
	-4.494545772418326e-04,2.714439050245066e-13
	-1.419993323360925e-22,-4.012896838070348e-13
	-4.494545772418326e-04,2.714439050245066e-13
21		1.621810097358929e+00,0.000000000000000e+00
	-4.494545772418326e+00,2.777666458089001e-09
	1.000000000000000e+00,0.000000000000000e+00
	0.000000000000000e+00,0.000000000000000e+00
	4.494545772418325e-04,-2.777666458089001e-13
	1.486915546932897e-22,4.106369213142983e-13
	4.494545794569982e-12,6.859755989340156e-15
	-4.494545817363783e-04,-1.397300314947384e-13
	-4.494545772418326e-04,2.777666458089001e-13
	-1.486915546932897e-22,-4.106369213142983e-13
	-4.494545772418326e-04,2.777666458089001e-13
22		1.659586907437560e+00,0.000000000000000e+00
	-4.494545772418326e+00,2.842366621455778e-09
	1.000000000000000e+00,0.000000000000000e+00
	0.000000000000000e+00,0.000000000000000e+00
	4.494545772418325e-04,-2.842366621455778e-13
	1.556991717734154e-22,4.202018839526650e-13
	4.494545794569982e-12,7.019540232647689e-15
	-4.494545817363783e-04,-1.429847620397349e-13
	-4.494545772418326e-04,2.842366621455778e-13
	-1.556991717734154e-22,-4.202018839526649e-13
	-4.494545772418326e-04,2.842366621455778e-13
23		1.698243652461743e+00,0.000000000000000e+00
	-4.494545772418326e+00,2.908573845228421e-09
	1.000000000000000e+00,0.000000000000000e+00
	0.000000000000000e+00,0.000000000000000e+00
	4.494545772418325e-04,-2.908573845228420e-13
	1.630370476718241e-22,4.299896431919327e-13
	4.494545794569982e-12,7.183046329101203e-15
	-4.494545817363783e-04,-1.463153049981919e-13
	-4.494545772418326e-04,2.908573845228421e-13
	-1.630370476718241e-22,-4.299896431919326e-13
	-4.494545772418326e-04,2.908573845228421e-13
24		1.737800828749374e+00,0.000000000000000e+00
	-4.494545772418326e+00,2.976323233353329e-09
	1.000000000000000e+00,0.000000000000000e+00
	0.000000000000000e+00,0.000000000000000e+00
	4.494545772418325e-04,-2.976323233353329e-13
	1.707207470071023e-22,4.400053886316065e-13
	4.494545794569982e-12,7.350360971797269e-15
	-4.494545817363783e-04,-1.497234262680709e-13
	-4.494545772418326e-04,2.976323233353329e-13
	-1.707207470071023e-22,-4.400053886316065e-13
	-4.494545772418326e-04,2.976323233353329e-13
25		1.778279410038922e+00,0.000000000000000e+00
	-4.494545772418326e+00,3.045650707452858e-09
	1.000000000000000e+00,0.000000000000000e+00
	0.000000000000000e+00,0.000000000000000e+00
	4.494545772418325e-04,-3.045650707452857e-13
	1.787665679357120e-22,4.502544307524928e-13
	4.494545794569982e-12,7.521572873174002e-15
	-4.494545817363783e-04,-1.532109328803811e-13
	-4.494545772418326e-04,3.045650707452858e-13
	-1.787665679357120e-22,-4.502544307524928e-13
	-4.494545772418326e-04,3.045650707452858e-13
26		1.819700858609982e+00,0.000000000000000e+00
	-4.494545772418326e+00,3.116593025871430e-09
	1.000000000000000e+00,0.000000000000000e+00
	0.000000000000000e+00,0.000000000000000e+00
	4.494545772418325e-04,-3.116593025871430e-13
	1.871915767225646e-22,4.607422037323859e-13
	4.494545794569982e-12,7.696772812048072e-15
	-4.494545817363783e-04,-1.567796739572910e-13
	-4.494545772418326e-04,3.116593025871430e-13
	-1.871915767225646e-22,-4.607422037323859e-13
	-4.494545772418326e-04,3.116593025871430e-13
27		1.862087136662866e+00,0.000000000000000e+00
	-4.494545772418326e+00,3.189187803165305e-09
	1.000000000000000e+00,0.000000000000000e+00
	0.000000000000000e+00,0.000000000000000e+00
	4.494545772418325e-04,-3.189187803165305e-13
	1.960136439408576e-22,4.714742683273420e-13
	4.494545794569982e-12,7.876053681745873e-15
	-4.494545817363783e-04,-1.604315416925573e-13
	-4.494545772418326e-04,3.189187803165305e-13
	-1.960136439408576e-22,-4.714742683273420e-13
	-4.494545772418326e-04,3.189187803165305e-13
28		1.905460717963246e+00,0.000000000000000e+00
	-4.494545772418326e+00,3.263473530046310e-09
	1.000000000000000e+00,0.000000000000000e+00
	0.000000000000000e+00,0.000000000000000e+00
	4.494545772418325e-04,-3.263473530046309e-13
	2.052514823779562e-22,4.824563148200650e-13
	4.494545794569982e-12,8.059510539357522e-15
	-4.494545817363783e-04,-1.641684723547915e-13
	-4.494545772418326e-04,3.263473530046310e-13
	-2.052514823779562e-22,-4.824563148200650e-13
	-4.494545772418326e-04,3.263473530046310e-13
29		1.949844599758044e+00,0.000000000000000e+00
	-4.494545772418326e+00,3.339489593790125e-09
	1.000000000000000e+00,0.000000000000000e+00
	0.000000000000000e+00,0.000000000000000e+00
	4.494545772418325e-04,-3.339489593790124e-13
	2.149246867277242e-22,4.936941660369698e-13
	4.494545794569982e-12,8.247240656137426e-15
	-4.494545817363783e-04,-1.679924473140949e-13
	-4.494545772418326e-04,3.339489593790125e-13
	-2.149246867277242e-22,-4.936941660369698e-13
	-4.494545772418326e-04,3.339489593790125e-13
30		1.995262314968878e+00,0.000000000000000e+00
	-4.494545772418326e+00,3.417276299119936e-09
	1.000000000000000e+00,0.000000000000000e+00
	0.000000000000000e+00,0.000000000000000e+00
	4.494545772418325e-04,-3.417276299119936e-13
	2.250537751534961e-22,5.051937804355223e-13
	4.494545794569982e-12,8.439343569078361e-15
	-4.494545817363783e-04,-1.719054940926071e-13
	-4.494545772418326e-04,3.417276299119936e-13
	-2.250537751534961e-22,-5.051937804355223e-13
	-4.494545772418326e-04,3.417276299119936e-13
31		2.041737944669527e+00,0.000000000000000e+00
	-4.494545772418326e+00,3.496874889576540e-09
	1.000000000000000e+00,0.000000000000000e+00
	0.000000000000000e+00,0.000000000000000e+00
	4.494545772418325e-04,-3.496874889576540e-13
	2.356602328098539e-22,5.169612552634918e-13
	4.494545794569982e-12,8.635921133687611e-15
	-4.494545817363783e-04,-1.759096874395254e-13
	-4.494545772418326e-04,3.496874889576540e-13
	-2.356602328098539e-22,-5.169612552634918e-13
	-4.494545772418326e-04,3.496874889576540e-13
32		2.089296130854037e+00,0.000000000000000e+00
	-4.494545772418326e+00,3.578327569386209e-09
	1.000000000000000e+00,0.000000000000000e+00
	0.000000000000000e+00,0.000000000000000e+00
	4.494545772418325e-04,-3.578327569386209e-13
	2.467665574155194e-22,5.290028297917934e-13
	4.494545794569982e-12,8.837077577991701e-15
	-4.494545817363783e-04,-1.800071504311641e-13
	-4.494545772418326e-04,3.578327569386210e-13
	-2.467665574155194e-22,-5.290028297917933e-13
	-4.494545772418326e-04,3.578327569386210e-13
33		2.137962089502230e+00,0.000000000000000e+00
	-4.494545772418326e+00,3.661677525837932e-09
	1.000000000000000e+00,0.000000000000000e+00
	0.000000000000000e+00,0.000000000000000e+00
	4.494545772418325e-04,-3.661677525837933e-13
	2.583963069740317e-22,5.413248886226307e-13
	4.494545794569982e-12,9.042919557800432e-15
	-4.494545817363783e-04,-1.842000555966378e-13
	-4.494545772418326e-04,3.661677525837932e-13
	-2.583963069740317e-22,-5.413248886226307e-13
	-4.494545772418326e-04,3.661677525837932e-13
34		2.187761623949550e+00,0.000000000000000e+00
	-4.494545772418326e+00,3.746968952181885e-09
	1.000000000000000e+00,0.000000000000000e+00
	0.000000000000000e+00,0.000000000000000e+00
	4.494545772418325e-04,-3.746968952181886e-13
	2.705741497434323e-22,5.539339650746975e-13
	4.494545794569982e-12,9.253556213255812e-15
	-4.494545817363783e-04,-1.884906260697648e-13
	-4.494545772418326e-04,3.746968952181886e-13
	-2.705741497434323e-22,-5.539339650746975e-13
	-4.494545772418326e-04,3.746968952181886e-13
35		2.238721138568337e+00,0.000000000000000e+00
	-4.494545772418326e+00,3.834247071061284e-09
	1.000000000000000e+00,0.000000000000000e+00
	0.000000000000000e+00,0.000000000000000e+00
	4.494545772418325e-04,-3.834247071061284e-13
	2.833259165609469e-22,5.668367446472300e-13
	4.494545794569982e-12,9.469099226700626e-15
	-4.494545817363783e-04,-1.928811367678023e-13
	-4.494545772418326e-04,3.834247071061284e-13
	-2.833259165609469e-22,-5.668367446472300e-13
	-4.494545772418326e-04,3.834247071061284e-13
36		2.290867652767770e+00,0.000000000000000e+00
	-4.494545772418326e+00,3.923558158490018e-09
	1.000000000000000e+00,0.000000000000000e+00
	0.000000000000000e+00,0.000000000000000e+00
	4.494545772418325e-04,-3.923558158490018e-13
	2.966786556336546e-22,5.800400685647457e-13
	4.494545794569982e-12,9.689662881893839e-15
	-4.494545817363783e-04,-1.973739155976377e-13
	-4.494545772418326e-04,3.923558158490018e-13
	-2.966786556336546e-22,-5.800400685647457e-13
	-4.494545772418326e-04,3.923558158490018e-13
37		2.344228815319919e+00,0.000000000000000e+00
	-4.494545772418326e+00,4.014949568388815e-09
	1.000000000000000e+00,0.000000000000000e+00
	0.000000000000000e+00,0.000000000000000e+00
	4.494545772418325e-04,-4.014949568388815e-13
	3.106606899113616e-22,5.935509374043525e-13
	4.494545794569982e-12,9.915364124604807e-15
	-4.494545817363783e-04,-2.019713446900757e-13
	-4.494545772418326e-04,4.014949568388815e-13
	-3.106606899113616e-22,-5.935509374043524e-13
	-4.494545772418326e-04,4.014949568388815e-13
38		2.398832919019488e+00,0.000000000000000e+00
	-4.494545772418326e+00,4.108469757692914e-09
	1.000000000000000e+00,0.000000000000000e+00
	0.000000000000000e+00,0.000000000000000e+00
