Title: * GA CMOS Amp | W=1e-06 L=3.749897452131284e-07 Vbias=0.6179302026955689
Date: Sat Sep  6 22:38:09 2025
Plotname: AC Analysis
Flags: complex forward log
No. Variables: 13
No. Points:          901
Offset:    0.0000000000000000e+00
Command: Linear Technology Corporation LTspice
Variables:
	0	frequency	frequency
	1	V(out)	voltage
	2	V(g)	voltage
	3	V(vdd)	voltage
	4	V(m1#dbody)	voltage
	5	V(m1#sbody)	voltage
	6	Id(M1)	device_current
	7	Ig(M1)	device_current
	8	Ib(M1)	device_current
	9	Is(M1)	device_current
	10	I(Rload)	device_current
	11	I(Vg)	device_current
	12	I(Vdd)	device_current
Values:
0		1.000000000000000e+00,0.000000000000000e+00
	-1.153168328420580e+00,3.269049362772227e-10
	1.000000000000000e+00,0.000000000000000e+00
	0.000000000000000e+00,0.000000000000000e+00
	-2.958478723286776e-09,4.342398677811158e-15
	-2.949829960836560e-09,2.462278428851047e-14
	1.153168328420581e-04,-3.269049362772227e-14
	2.400635245890919e-08,8.454507981248774e-14
	1.573819231132530e-09,-1.178012587657183e-14
	-1.153424130137481e-04,-4.007446030819363e-14
	-1.153168328420581e-04,3.269049362772227e-14
	-2.400635290555897e-08,-8.454507981248774e-14
	-1.153168328420581e-04,3.269049362772227e-14
1		1.023292992280754e+00,0.000000000000000e+00
	-1.153168328420580e+00,3.345195304344685e-10
	1.000000000000000e+00,0.000000000000000e+00
	0.000000000000000e+00,0.000000000000000e+00
	-2.958478723286776e-09,4.443546136693373e-15
	-2.949829960836560e-09,2.519632261287342e-14
	1.153168328420581e-04,-3.345195304344686e-14
	2.400635245890919e-08,8.651438770393576e-14
	1.573819231132530e-09,-1.205452025768113e-14
	-1.153424130137481e-04,-4.100791440280778e-14
	-1.153168328420581e-04,3.345195304344686e-14
	-2.400635290555897e-08,-8.651438770393576e-14
	-1.153168328420581e-04,3.345195304344686e-14
2		1.047128548050899e+00,0.000000000000000e+00
	-1.153168328420580e+00,3.423114912746400e-10
	1.000000000000000e+00,0.000000000000000e+00
	0.000000000000000e+00,0.000000000000000e+00
	-2.958478723286776e-09,4.547049622554551e-15
	-2.949829960836560e-09,2.578322036099847e-14
	1.153168328420581e-04,-3.423114912746401e-14
	2.400635245890919e-08,8.852956666889771e-14
	1.573819231132530e-09,-1.233530610499149e-14
	-1.153424130137481e-04,-4.196311143644220e-14
	-1.153168328420581e-04,3.423114912746400e-14
	-2.400635290555897e-08,-8.852956666889771e-14
	-1.153168328420581e-04,3.423114912746400e-14
3		1.071519305237606e+00,0.000000000000000e+00
	-1.153168328420580e+00,3.502849501985136e-10
	1.000000000000000e+00,0.000000000000000e+00
	0.000000000000000e+00,0.000000000000000e+00
	-2.958478723286777e-09,4.652964014312913e-15
	-2.949829960836560e-09,2.638378871384018e-14
	1.153168328420581e-04,-3.502849501985137e-14
	2.400635245890919e-08,9.059168518193483e-14
	1.573819231132530e-09,-1.262263229487579e-14
	-1.153424130137481e-04,-4.294055786720767e-14
	-1.153168328420581e-04,3.502849501985136e-14
	-2.400635290555897e-08,-9.059168518193483e-14
	-1.153168328420581e-04,3.502849501985136e-14
4		1.096478196143185e+00,0.000000000000000e+00
	-1.153168328420580e+00,3.584441348395518e-10
	1.000000000000000e+00,0.000000000000000e+00
	0.000000000000000e+00,0.000000000000000e+00
	-2.958478723286777e-09,4.761345469180928e-15
	-2.949829960836560e-09,2.699834610068870e-14
	1.153168328420581e-04,-3.584441348395519e-14
	2.400635245890919e-08,9.270183660557812e-14
	1.573819231132530e-09,-1.291665117148313e-14
	-1.153424130137481e-04,-4.394077195013981e-14
	-1.153168328420581e-04,3.584441348395518e-14
	-2.400635290555897e-08,-9.270183660557813e-14
	-1.153168328420581e-04,3.584441348395518e-14
5		1.122018454301963e+00,0.000000000000000e+00
	-1.153168328420580e+00,3.667933713054511e-10
	1.000000000000000e+00,0.000000000000000e+00
	0.000000000000000e+00,0.000000000000000e+00
	-2.958478723286777e-09,4.872251452440568e-15
	-2.949829960836560e-09,2.762721836800518e-14
	1.153168328420581e-04,-3.667933713054512e-14
	2.400635245890919e-08,9.486113977004360e-14
	1.573819231132530e-09,-1.321751862751369e-14
	-1.153424130137481e-04,-4.496428401198480e-14
	-1.153168328420581e-04,3.667933713054511e-14
	-2.400635290555897e-08,-9.486113977004361e-14
	-1.153168328420581e-04,3.667933713054511e-14
6		1.148153621496882e+00,0.000000000000000e+00
	-1.153168328420580e+00,3.753370864719009e-10
	1.000000000000000e+00,0.000000000000000e+00
	0.000000000000000e+00,0.000000000000000e+00
	-2.958478723286777e-09,4.985740767912164e-15
	-2.949829960836560e-09,2.827073895218984e-14
	1.153168328420581e-04,-3.753370864719009e-14
	2.400635245890919e-08,9.707073956645078e-14
	1.573819231132530e-09,-1.352539418687509e-14
	-1.153424130137481e-04,-4.601163673238560e-14
	-1.153168328420581e-04,3.753370864719009e-14
	-2.400635290555897e-08,-9.707073956645077e-14
	-1.153168328420581e-04,3.753370864719009e-14
7		1.174897554939529e+00,0.000000000000000e+00
	-1.153168328420580e+00,3.840798103297715e-10
	1.000000000000000e+00,0.000000000000000e+00
	0.000000000000000e+00,0.000000000000000e+00
	-2.958478723286778e-09,5.101873589132979e-15
	-2.949829960836560e-09,2.892924905637440e-14
	1.153168328420581e-04,-3.840798103297716e-14
	2.400635245890919e-08,9.933180755385920e-14
	1.573819231132530e-09,-1.384044108926412e-14
	-1.153424130137481e-04,-4.708338543161791e-14
	-1.153168328420581e-04,3.840798103297716e-14
	-2.400635290555897e-08,-9.933180755385919e-14
	-1.153168328420581e-04,3.840798103297716e-14
8		1.202264434617413e+00,0.000000000000000e+00
	-1.153168328420580e+00,3.930261783869764e-10
	1.000000000000000e+00,0.000000000000000e+00
	0.000000000000000e+00,0.000000000000000e+00
	-2.958478723286779e-09,5.220711491262031e-15
	-2.949829960836560e-09,2.960309783133254e-14
	1.153168328420581e-04,-3.930261783869765e-14
	2.400635245890919e-08,1.016455425804446e-13
	1.573819231132531e-09,-1.416282637671858e-14
	-1.153424130137481e-04,-4.818009836502836e-14
	-1.153168328420581e-04,3.930261783869764e-14
	-2.400635290555897e-08,-1.016455425804446e-13
	-1.153168328420581e-04,3.930261783869764e-14
9		1.230268770812381e+00,0.000000000000000e+00
	-1.153168328420580e+00,4.021809341262786e-10
	1.000000000000000e+00,0.000000000000000e+00
	0.000000000000000e+00,0.000000000000000e+00
	-2.958478723286779e-09,5.342317483728048e-15
	-2.949829960836560e-09,3.029264256060419e-14
	1.153168328420581e-04,-4.021809341262786e-14
	2.400635245890919e-08,1.040131714191440e-13
	1.573819231132531e-09,-1.449272098218515e-14
	-1.153424130137481e-04,-4.930235702433094e-14
	-1.153168328420581e-04,4.021809341262786e-14
	-2.400635290555897e-08,-1.040131714191439e-13
	-1.153168328420581e-04,4.021809341262786e-14
10		1.258925411794167e+00,0.000000000000000e+00
	-1.153168328420580e+00,4.115489315203484e-10
	1.000000000000000e+00,0.000000000000000e+00
	0.000000000000000e+00,0.000000000000000e+00
	-2.958478723286779e-09,5.466756043637859e-15
	-2.949829960836560e-09,3.099824884993198e-14
	1.153168328420581e-04,-4.115489315203485e-14
	2.400635245890919e-08,1.064359494181068e-13
	1.573819231132531e-09,-1.483029982015031e-14
	-1.153424130137481e-04,-5.045075644592167e-14
	-1.153168328420581e-04,4.115489315203484e-14
	-2.400635290555897e-08,-1.064359494181068e-13
	-1.153168328420581e-04,4.115489315203484e-14
11		1.288249551693134e+00,0.000000000000000e+00
	-1.153168328420580e+00,4.211351376054046e-10
	1.000000000000000e+00,0.000000000000000e+00
	0.000000000000000e+00,0.000000000000000e+00
	-2.958478723286780e-09,5.594093149963082e-15
	-2.949829960836560e-09,3.172029082111035e-14
	1.153168328420581e-04,-4.211351376054047e-14
	2.400635245890919e-08,1.089151611662975e-13
	1.573819231132531e-09,-1.517574187938235e-14
	-1.153424130137481e-04,-5.162590552637473e-14
	-1.153168328420581e-04,4.211351376054046e-14
	-2.400635290555897e-08,-1.089151611662976e-13
	-1.153168328420581e-04,4.211351376054046e-14
12		1.318256738556407e+00,0.000000000000000e+00
	-1.153168328420580e+00,4.309446351148016e-10
	1.000000000000000e+00,0.000000000000000e+00
	0.000000000000000e+00,0.000000000000000e+00
	-2.958478723286780e-09,5.724396318522994e-15
	-2.949829960836560e-09,3.245915131034974e-14
	1.153168328420581e-04,-4.309446351148016e-14
	2.400635245890919e-08,1.114521211746012e-13
	1.573819231132531e-09,-1.552923031783352e-14
	-1.153424130137481e-04,-5.282842734528752e-14
	-1.153168328420581e-04,4.309446351148016e-14
	-2.400635290555897e-08,-1.114521211746012e-13
	-1.153168328420581e-04,4.309446351148016e-14
13		1.348962882591653e+00,0.000000000000000e+00
	-1.153168328420580e+00,4.409826251739631e-10
	1.000000000000000e+00,0.000000000000000e+00
	0.000000000000000e+00,0.000000000000000e+00
	-2.958478723286781e-09,5.857734637782323e-15
	-2.949829960836560e-09,3.321522207126155e-14
	1.153168328420581e-04,-4.409826251739632e-14
	2.400635245890919e-08,1.140481745727948e-13
	1.573819231132531e-09,-1.589095255975286e-14
	-1.153424130137481e-04,-5.405895949564568e-14
	-1.153168328420581e-04,4.409826251739631e-14
	-2.400635290555897e-08,-1.140481745727949e-13
	-1.153168328420581e-04,4.409826251739631e-14
14		1.380384264602885e+00,0.000000000000000e+00
	-1.153168328420580e+00,4.512544300580870e-10
	1.000000000000000e+00,0.000000000000000e+00
	0.000000000000000e+00,0.000000000000000e+00
	-2.958478723286781e-09,5.994178805482893e-15
	-2.949829960836560e-09,3.398890398257097e-14
	1.153168328420581e-04,-4.512544300580870e-14
	2.400635245890919e-08,1.167046978227531e-13
	1.573819231132531e-09,-1.626110039506102e-14
	-1.153424130137481e-04,-5.531815442188336e-14
	-1.153168328420581e-04,4.512544300580870e-14
	-2.400635290555897e-08,-1.167046978227531e-13
	-1.153168328420581e-04,4.512544300580870e-14
15		1.412537544622754e+00,0.000000000000000e+00
	-1.153168328420580e+00,4.617654960140861e-10
	1.000000000000000e+00,0.000000000000000e+00
	0.000000000000000e+00,0.000000000000000e+00
	-2.958478723286782e-09,6.133801166128470e-15
	-2.949829960836560e-09,3.478060726066830e-14
	1.153168328420581e-04,-4.617654960140862e-14
	2.400635245890919e-08,1.194230994482662e-13
	1.573819231132531e-09,-1.663987008103974e-14
	-1.153424130137481e-04,-5.660667976581786e-14
	-1.153168328420581e-04,4.617654960140861e-14
	-2.400635290555897e-08,-1.194230994482662e-13
	-1.153168328420581e-04,4.617654960140861e-14
16		1.445439770745927e+00,0.000000000000000e+00
	-1.153168328420580e+00,4.725213961482606e-10
	1.000000000000000e+00,0.000000000000000e+00
	0.000000000000000e+00,0.000000000000000e+00
	-2.958478723286783e-09,6.276675749342784e-15
	-2.949829960836561e-09,3.559075167711098e-14
	1.153168328420581e-04,-4.725213961482607e-14
	2.400635245890919e-08,1.222048207818584e-13
	1.573819231132531e-09,-1.702746244639015e-14
	-1.153424130137481e-04,-5.792521872064216e-14
	-1.153168328420581e-04,4.725213961482607e-14
	-2.400635290555897e-08,-1.222048207818584e-13
	-1.153168328420581e-04,4.725213961482607e-14
17		1.479108388168207e+00,0.000000000000000e+00
	-1.153168328420580e+00,4.835278333812332e-10
	1.000000000000000e+00,0.000000000000000e+00
	0.000000000000000e+00,0.000000000000000e+00
	-2.958478723286783e-09,6.422878309121020e-15
	-2.949829960836561e-09,3.641976678119216e-14
	1.153168328420581e-04,-4.835278333812332e-14
	2.400635245890919e-08,1.250513367290011e-13
	1.573819231132531e-09,-1.742408299771475e-14
	-1.153424130137481e-04,-5.927447039316306e-14
	-1.153168328420581e-04,4.835278333812333e-14
	-2.400635290555897e-08,-1.250513367290012e-13
	-1.153168328420581e-04,4.835278333812333e-14
18		1.513561248436208e+00,0.000000000000000e+00
	-1.153168328420580e+00,4.947906434717121e-10
	1.000000000000000e+00,0.000000000000000e+00
	0.000000000000000e+00,0.000000000000000e+00
	-2.958478723286784e-09,6.572486363995597e-15
	-2.949829960836561e-09,3.726809212769334e-14
	1.153168328420581e-04,-4.947906434717122e-14
	2.400635245890919e-08,1.279641565501278e-13
	1.573819231132531e-09,-1.782994202847974e-14
	-1.153424130137481e-04,-6.065515017447680e-14
	-1.153168328420581e-04,4.947906434717121e-14
	-2.400635290555897e-08,-1.279641565501278e-13
	-1.153168328420581e-04,4.947906434717121e-14
19		1.548816618912481e+00,0.000000000000000e+00
	-1.153168328420580e+00,5.063157981106880e-10
	1.000000000000000e+00,0.000000000000000e+00
	0.000000000000000e+00,0.000000000000000e+00
	-2.958478723286784e-09,6.725579238137507e-15
	-2.949829960836561e-09,3.813617750994214e-14
	1.153168328420581e-04,-5.063157981106881e-14
	2.400635245890919e-08,1.309448246608631e-13
	1.573819231132531e-09,-1.824525473051541e-14
	-1.153424130137481e-04,-6.206799011927889e-14
	-1.153168328420581e-04,5.063157981106880e-14
	-2.400635290555897e-08,-1.309448246608631e-13
	-1.153168328420581e-04,5.063157981106880e-14
20		1.584893192461113e+00,0.000000000000000e+00
	-1.153168328420580e+00,5.181094080877042e-10
	1.000000000000000e+00,0.000000000000000e+00
	0.000000000000000e+00,0.000000000000000e+00
	-2.958478723286785e-09,6.882238103415044e-15
	-2.949829960836561e-09,3.902448319829868e-14
	1.153168328420581e-04,-5.181094080877041e-14
	2.400635245890919e-08,1.339949214508933e-13
	1.573819231132531e-09,-1.867024130811370e-14
	-1.153424130137481e-04,-6.351373933400916e-14
	-1.153168328420581e-04,5.181094080877042e-14
	-2.400635290555897e-08,-1.339949214508933e-13
	-1.153168328420581e-04,5.181094080877042e-14
21		1.621810097358929e+00,0.000000000000000e+00
	-1.153168328420580e+00,5.301777265308771e-10
	1.000000000000000e+00,0.000000000000000e+00
	0.000000000000000e+00,0.000000000000000e+00
	-2.958478723286786e-09,7.042546022432197e-15
	-2.949829960836561e-09,3.993348018419707e-14
	1.153168328420581e-04,-5.301777265308771e-14
	2.400635245890919e-08,1.371160641219092e-13
	1.573819231132532e-09,-1.910512709478340e-14
	-1.153424130137481e-04,-6.499316437403806e-14
	-1.153168328420581e-04,5.301777265308771e-14
	-2.400635290555897e-08,-1.371160641219092e-13
	-1.153168328420581e-04,5.301777265308771e-14
22		1.659586907437560e+00,0.000000000000000e+00
	-1.153168328420580e+00,5.425271522223886e-10
	1.000000000000000e+00,0.000000000000000e+00
	0.000000000000000e+00,0.000000000000000e+00
	-2.958478723286787e-09,7.206587992569584e-15
	-2.949829960836561e-09,4.086365042987123e-14
	1.153168328420581e-04,-5.425271522223887e-14
	2.400635245890919e-08,1.403099075450682e-13
	1.573819231132532e-09,-1.955014267272503e-14
	-1.153424130137481e-04,-6.650704965010432e-14
	-1.153168328420581e-04,5.425271522223887e-14
	-2.400635290555897e-08,-1.403099075450682e-13
	-1.153168328420581e-04,5.425271522223887e-14
23		1.698243652461743e+00,0.000000000000000e+00
	-1.153168328420580e+00,5.551642329912042e-10
	1.000000000000000e+00,0.000000000000000e+00
	0.000000000000000e+00,0.000000000000000e+00
	-2.958478723286788e-09,7.374450991051072e-15
	-2.949829960836561e-09,4.181548712389765e-14
	1.153168328420581e-04,-5.551642329912043e-14
	2.400635245890919e-08,1.435781451384288e-13
	1.573819231132532e-09,-2.000552399508844e-14
	-1.153424130137481e-04,-6.805619784421993e-14
	-1.153168328420581e-04,5.551642329912042e-14
	-2.400635290555897e-08,-1.435781451384288e-13
	-1.153168328420581e-04,5.551642329912042e-14
24		1.737800828749374e+00,0.000000000000000e+00
	-1.153168328420580e+00,5.680956691848191e-10
	1.000000000000000e+00,0.000000000000000e+00
	0.000000000000000e+00,0.000000000000000e+00
	-2.958478723286789e-09,7.546224021060429e-15
	-2.949829960836561e-09,4.278949494269056e-14
	1.153168328420581e-04,-5.680956691848191e-14
	2.400635245890919e-08,1.469225097648232e-13
	1.573819231132532e-09,-2.047151251107848e-14
	-1.153424130137481e-04,-6.964143033526279e-14
	-1.153168328420581e-04,5.680956691848191e-14
	-2.400635290555897e-08,-1.469225097648232e-13
	-1.153168328420581e-04,5.680956691848191e-14
25		1.778279410038922e+00,0.000000000000000e+00
	-1.153168328420580e+00,5.813283172218710e-10
	1.000000000000000e+00,0.000000000000000e+00
	0.000000000000000e+00,0.000000000000000e+00
	-2.958478723286790e-09,7.721998158931829e-15
	-2.949829960836561e-09,4.378619031808802e-14
	1.153168328420581e-04,-5.813283172218710e-14
	2.400635245890919e-08,1.503447746506443e-13
	1.573819231132532e-09,-2.094835529397439e-14
	-1.153424130137481e-04,-7.126358763448277e-14
	-1.153168328420581e-04,5.813283172218710e-14
	-2.400635290555897e-08,-1.503447746506443e-13
	-1.153168328420581e-04,5.813283172218710e-14
26		1.819700858609982e+00,0.000000000000000e+00
	-1.153168328420580e+00,5.948691932275037e-10
	1.000000000000000e+00,0.000000000000000e+00
	0.000000000000000e+00,0.000000000000000e+00
	-2.958478723286791e-09,7.901866602439816e-15
	-2.949829960836561e-09,4.480610171117087e-14
	1.153168328420581e-04,-5.948691932275037e-14
	2.400635245890919e-08,1.538467543260334e-13
	1.573819231132532e-09,-2.143630517213143e-14
	-1.153424130137481e-04,-7.292352983115161e-14
	-1.153168328420581e-04,5.948691932275037e-14
	-2.400635290555897e-08,-1.538467543260334e-13
	-1.153168328420581e-04,5.948691932275037e-14
27		1.862087136662866e+00,0.000000000000000e+00
	-1.153168328420580e+00,6.087254767534102e-10
	1.000000000000000e+00,0.000000000000000e+00
	0.000000000000000e+00,0.000000000000000e+00
	-2.958478723286791e-09,8.085924720213991e-15
	-2.949829960836561e-09,4.584976989245986e-14
	1.153168328420581e-04,-6.087254767534104e-14
	2.400635245890919e-08,1.574303055869688e-13
	1.573819231132532e-09,-2.193562086303378e-14
	-1.153424130137481e-04,-7.462213704859396e-14
	-1.153168328420581e-04,6.087254767534103e-14
	-2.400635290555897e-08,-1.574303055869688e-13
	-1.153168328420581e-04,6.087254767534103e-14
28		1.905460717963246e+00,0.000000000000000e+00
	-1.153168328420580e+00,6.229045145845259e-10
	1.000000000000000e+00,0.000000000000000e+00
	0.000000000000000e+00,0.000000000000000e+00
	-2.958478723286792e-09,8.274270102304708e-15
	-2.949829960836561e-09,4.691774822863928e-14
	1.153168328420581e-04,-6.229045145845259e-14
	2.400635245890919e-08,1.610973284797628e-13
	1.573819231132532e-09,-2.244656711046997e-14
	-1.153424130137481e-04,-7.636030991084024e-14
	-1.153168328420581e-04,6.229045145845259e-14
	-2.400635290555897e-08,-1.610973284797628e-13
	-1.153168328420581e-04,6.229045145845259e-14
29		1.949844599758044e+00,0.000000000000000e+00
	-1.153168328420580e+00,6.374138246343903e-10
	1.000000000000000e+00,0.000000000000000e+00
	0.000000000000000e+00,0.000000000000000e+00
	-2.958478723286794e-09,8.467002611926559e-15
	-2.949829960836562e-09,4.801060297595934e-14
	1.153168328420581e-04,-6.374138246343903e-14
	2.400635245890919e-08,1.648497673084920e-13
	1.573819231132532e-09,-2.296941482490358e-14
	-1.153424130137481e-04,-7.813897002014944e-14
	-1.153168328420581e-04,6.374138246343903e-14
	-2.400635290555897e-08,-1.648497673084920e-13
	-1.153168328420581e-04,6.374138246343903e-14
30		1.995262314968878e+00,0.000000000000000e+00
	-1.153168328420580e+00,6.522610999312449e-10
	1.000000000000000e+00,0.000000000000000e+00
	0.000000000000000e+00,0.000000000000000e+00
	-2.958478723286795e-09,8.664224438407297e-15
	-2.949829960836562e-09,4.912891358047272e-14
	1.153168328420581e-04,-6.522610999312450e-14
	2.400635245890919e-08,1.686896116658929e-13
	1.573819231132532e-09,-2.350444122711350e-14
	-1.153424130137481e-04,-7.995906044565485e-14
	-1.153168328420581e-04,6.522610999312449e-14
	-2.400635290555897e-08,-1.686896116658928e-13
	-1.153168328420581e-04,6.522610999312449e-14
31		2.041737944669527e+00,0.000000000000000e+00
	-1.153168328420580e+00,6.674542126969795e-10
	1.000000000000000e+00,0.000000000000000e+00
	0.000000000000000e+00,0.000000000000000e+00
	-2.958478723286796e-09,8.866040151369821e-15
	-2.949829960836562e-09,5.027327298526449e-14
	1.153168328420581e-04,-6.674542126969795e-14
	2.400635245890919e-08,1.726188974882699e-13
	1.573819231132533e-09,-2.405192999518009e-14
	-1.153424130137481e-04,-8.182154622339183e-14
	-1.153168328420581e-04,6.674542126969795e-14
	-2.400635290555897e-08,-1.726188974882699e-13
	-1.153168328420581e-04,6.674542126969795e-14
32		2.089296130854037e+00,0.000000000000000e+00
	-1.153168328420580e+00,6.830012185210872e-10
	1.000000000000000e+00,0.000000000000000e+00
	0.000000000000000e+00,0.000000000000000e+00
	-2.958478723286798e-09,9.072556756176530e-15
