Title: * GA CMOS Amp | W=7.918335190035595e-06 L=5.154105926048669e-07 Vbias=1.2710634826982294
Date: Sat Sep  6 22:11:53 2025
Plotname: AC Analysis
Flags: complex forward log
No. Variables: 13
No. Points:          901
Offset:    0.0000000000000000e+00
Command: Linear Technology Corporation LTspice
Variables:
	0	frequency	frequency
	1	V(out)	voltage
	2	V(g)	voltage
	3	V(vdd)	voltage
	4	V(m1#dbody)	voltage
	5	V(m1#sbody)	voltage
	6	Id(M1)	device_current
	7	Ig(M1)	device_current
	8	Ib(M1)	device_current
	9	Is(M1)	device_current
	10	I(Rload)	device_current
	11	I(Vg)	device_current
	12	I(Vdd)	device_current
Values:
0		1.000000000000000e+00,0.000000000000000e+00
	5.490825590446236e-03,3.933774339406342e-10
	1.000000000000000e+00,0.000000000000000e+00
	0.000000000000000e+00,0.000000000000000e+00
	2.370035394371765e-05,3.321110331056729e-14
	2.370035390239501e-05,3.222237663018455e-14
	-5.490825590446229e-07,-3.933774339406336e-14
	1.758057841424621e-05,1.078832889948573e-12
	-1.264018876025249e-05,-1.725401262038403e-14
	-4.391307094949097e-06,-1.022241133934125e-12
	5.490825590446236e-07,3.933774339406342e-14
	-1.758057841427796e-05,-1.078832889948573e-12
	5.490825590446236e-07,3.933774339406342e-14
1		1.023292992280754e+00,0.000000000000000e+00
	5.490825590446236e-03,4.025403714728362e-10
	1.000000000000000e+00,0.000000000000000e+00
	0.000000000000000e+00,0.000000000000000e+00
	2.370035394371765e-05,3.398468928361567e-14
	2.370035390239501e-05,3.297293220029898e-14
	-5.490825590446229e-07,-4.025403714728357e-14
	1.758057841424621e-05,1.103962136126368e-12
	-1.264018876025249e-05,-1.765591020316267e-14
	-4.391307094949097e-06,-1.046052188775922e-12
	5.490825590446236e-07,4.025403714728362e-14
	-1.758057841427796e-05,-1.103962136126368e-12
	5.490825590446236e-07,4.025403714728362e-14
2		1.047128548050899e+00,0.000000000000000e+00
	5.490825590446236e-03,4.119167412382449e-10
	1.000000000000000e+00,0.000000000000000e+00
	0.000000000000000e+00,0.000000000000000e+00
	2.370035394371765e-05,3.477629438876276e-14
	2.370035390239501e-05,3.374097045551438e-14
	-5.490825590446229e-07,-4.119167412382449e-14
	1.758057841424621e-05,1.129676717641405e-12
	-1.264018876025249e-05,-1.806716918323463e-14
	-4.391307094949097e-06,-1.070417874334346e-12
	5.490825590446236e-07,4.119167412382449e-14
	-1.758057841427796e-05,-1.129676717641405e-12
	5.490825590446236e-07,4.119167412382449e-14
3		1.071519305237606e+00,0.000000000000000e+00
	5.490825590446236e-03,4.215115147122206e-10
	1.000000000000000e+00,0.000000000000000e+00
	0.000000000000000e+00,0.000000000000000e+00
	2.370035394371765e-05,3.558633834551341e-14
	2.370035390239501e-05,3.452689861987981e-14
	-5.490825590446229e-07,-4.215115147122214e-14
	1.758057841424621e-05,1.155990268705174e-12
	-1.264018876025249e-05,-1.848800761555478e-14
	-4.391307094949097e-06,-1.095351109618397e-12
	5.490825590446236e-07,4.215115147122206e-14
	-1.758057841427796e-05,-1.155990268705174e-12
	5.490825590446236e-07,4.215115147122206e-14
4		1.096478196143185e+00,0.000000000000000e+00
	5.490825590446236e-03,4.313297791706612e-10
	1.000000000000000e+00,0.000000000000000e+00
	0.000000000000000e+00,0.000000000000000e+00
	2.370035394371765e-05,3.641525064989577e-14
	2.370035390239501e-05,3.533113340291106e-14
	-5.490825590446229e-07,-4.313297791706610e-14
	1.758057841424621e-05,1.182916741110750e-12
	-1.264018876025249e-05,-1.891864863423043e-14
	-4.391307094949097e-06,-1.120865114559453e-12
	5.490825590446236e-07,4.313297791706613e-14
	-1.758057841427796e-05,-1.182916741110750e-12
	5.490825590446236e-07,4.313297791706613e-14
5		1.122018454301963e+00,0.000000000000000e+00
	5.490825590446236e-03,4.413767403873430e-10
	1.000000000000000e+00,0.000000000000000e+00
	0.000000000000000e+00,0.000000000000000e+00
	2.370035394371765e-05,3.726347080218553e-14
	2.370035390239501e-05,3.615410122053536e-14
	-5.490825590446229e-07,-4.413767403873426e-14
	1.758057841424621e-05,1.210470411630218e-12
	-1.264018876025249e-05,-1.935932057082986e-14
	-4.391307094949097e-06,-1.146973417020654e-12
	5.490825590446236e-07,4.413767403873431e-14
	-1.758057841427796e-05,-1.210470411630218e-12
	5.490825590446236e-07,4.413767403873431e-14
6		1.148153621496882e+00,0.000000000000000e+00
	5.490825590446236e-03,4.516577253940898e-10
	1.000000000000000e+00,0.000000000000000e+00
	0.000000000000000e+00,0.000000000000000e+00
	2.370035394371765e-05,3.813144853993493e-14
	2.370035390239501e-05,3.699623842118289e-14
	-5.490825590446229e-07,-4.516577253940898e-14
	1.758057841424621e-05,1.238665889584402e-12
	-1.264018876025249e-05,-1.981025707544684e-14
	-4.391307094949097e-06,-1.173689859969546e-12
	5.490825590446236e-07,4.516577253940898e-14
	-1.758057841427796e-05,-1.238665889584402e-12
	5.490825590446236e-07,4.516577253940898e-14
7		1.174897554939529e+00,0.000000000000000e+00
	5.490825590446236e-03,4.621781853052372e-10
	1.000000000000000e+00,0.000000000000000e+00
	0.000000000000000e+00,0.000000000000000e+00
	2.370035394371765e-05,3.901964407642962e-14
	2.370035390239501e-05,3.785799151714445e-14
	-5.490825590446229e-07,-4.621781853052383e-14
	1.758057841424621e-05,1.267518124588924e-12
	-1.264018876025249e-05,-2.027169724058498e-14
	-4.391307094949097e-06,-1.201028608817815e-12
	5.490825590446236e-07,4.621781853052373e-14
	-1.758057841427796e-05,-1.267518124588924e-12
	5.490825590446236e-07,4.621781853052373e-14
8		1.202264434617413e+00,0.000000000000000e+00
	5.490825590446236e-03,4.729436982078850e-10
	1.000000000000000e+00,0.000000000000000e+00
	0.000000000000000e+00,0.000000000000000e+00
	2.370035394371765e-05,3.992852834469968e-14
	2.370035390239501e-05,3.873981742131815e-14
	-5.490825590446229e-07,-4.729436982078853e-14
	1.758057841424621e-05,1.297042414480690e-12
	-1.264018876025249e-05,-2.074388572792771e-14
	-4.391307094949097e-06,-1.229004158931974e-12
	5.490825590446236e-07,4.729436982078851e-14
	-1.758057841427796e-05,-1.297042414480690e-12
	5.490825590446236e-07,4.729436982078851e-14
9		1.230268770812381e+00,0.000000000000000e+00
	5.490825590446236e-03,4.839599721194727e-10
	1.000000000000000e+00,0.000000000000000e+00
	0.000000000000000e+00,0.000000000000000e+00
	2.370035394371765e-05,4.085858324721463e-14
	2.370035390239501e-05,3.964218368947074e-14
	-5.490825590446229e-07,-4.839599721194724e-14
	1.758057841424621e-05,1.327254413429000e-12
	-1.264018876025249e-05,-2.122707289806118e-14
	-4.391307094949097e-06,-1.257631343318991e-12
	5.490825590446236e-07,4.839599721194728e-14
	-1.758057841427796e-05,-1.327254413428999e-12
	5.490825590446236e-07,4.839599721194728e-14
10		1.258925411794167e+00,0.000000000000000e+00
	5.490825590446236e-03,4.952328480142455e-10
	1.000000000000000e+00,0.000000000000000e+00
	0.000000000000000e+00,0.000000000000000e+00
	2.370035394371765e-05,4.181030191139455e-14
	2.370035390239501e-05,4.056556876814182e-14
	-5.490825590446229e-07,-4.952328480142448e-14
	1.758057841424621e-05,1.358170140235598e-12
	-1.264018876025249e-05,-2.172151494321872e-14
	-4.391307094949097e-06,-1.286925340490955e-12
	5.490825590446236e-07,4.952328480142456e-14
	-1.758057841427796e-05,-1.358170140235598e-12
	5.490825590446236e-07,4.952328480142456e-14
11		1.288249551693134e+00,0.000000000000000e+00
	5.490825590446236e-03,5.067683029202173e-10
	1.000000000000000e+00,0.000000000000000e+00
	0.000000000000000e+00,0.000000000000000e+00
	2.370035394371765e-05,4.278418895107267e-14
	2.370035390239501e-05,4.151046224832254e-14
	-5.490825590446229e-07,-5.067683029202179e-14
	1.758057841424621e-05,1.389805986828057e-12
	-1.264018876025249e-05,-2.222747402311740e-14
	-4.391307094949097e-06,-1.316901682512918e-12
	5.490825590446236e-07,5.067683029202173e-14
	-1.758057841427796e-05,-1.389805986828057e-12
	5.490825590446236e-07,5.067683029202173e-14
12		1.318256738556407e+00,0.000000000000000e+00
	5.490825590446236e-03,5.185724530882688e-10
	1.000000000000000e+00,0.000000000000000e+00
	0.000000000000000e+00,0.000000000000000e+00
	2.370035394371765e-05,4.378076073404832e-14
	2.370035390239501e-05,4.247736512504326e-14
	-5.490825590446237e-07,-5.185724530882668e-14
	1.758057841424621e-05,1.422178726950988e-12
	-1.264018876025249e-05,-2.274521840395854e-14
	-4.391307094949097e-06,-1.347576263238203e-12
	5.490825590446236e-07,5.185724530882689e-14
	-1.758057841427796e-05,-1.422178726950988e-12
	5.490825590446236e-07,5.185724530882689e-14
13		1.348962882591653e+00,0.000000000000000e+00
	5.490825590446236e-03,5.306515572350656e-10
	1.000000000000000e+00,0.000000000000000e+00
	0.000000000000000e+00,0.000000000000000e+00
	2.370035394371765e-05,4.480054565587206e-14
	2.370035390239501e-05,4.346679006300768e-14
	-5.490825590446237e-07,-5.306515572350653e-14
	1.758057841424621e-05,1.455305525059711e-12
	-1.264018876025249e-05,-2.327502260066602e-14
	-4.391307094949097e-06,-1.378965346735538e-12
	5.490825590446236e-07,5.306515572350657e-14
	-1.758057841427796e-05,-1.455305525059711e-12
	5.490825590446236e-07,5.306515572350657e-14
14		1.380384264602885e+00,0.000000000000000e+00
	5.490825590446236e-03,5.430120198615122e-10
	1.000000000000000e+00,0.000000000000000e+00
	0.000000000000000e+00,0.000000000000000e+00
	2.370035394371765e-05,4.584408442000787e-14
	2.370035390239501e-05,4.447926166841448e-14
	-5.490825590446237e-07,-5.430120198615109e-14
	1.758057841424621e-05,1.489203945421065e-12
	-1.264018876025249e-05,-2.381716752243770e-14
	-4.391307094949097e-06,-1.411085575912477e-12
	5.490825590446236e-07,5.430120198615122e-14
	-1.758057841427796e-05,-1.489203945421066e-12
	5.490825590446236e-07,5.430120198615122e-14
15		1.412537544622754e+00,0.000000000000000e+00
	5.490825590446236e-03,5.556603946485032e-10
	1.000000000000000e+00,0.000000000000000e+00
	0.000000000000000e+00,0.000000000000000e+00
	2.370035394371765e-05,4.691193032452135e-14
	2.370035390239501e-05,4.551531676711049e-14
	-5.490825590446237e-07,-5.556603946485018e-14
	1.758057841424621e-05,1.523891961426227e-12
	-1.264018876025249e-05,-2.437194062168727e-14
	-4.391307094949097e-06,-1.443953981339690e-12
	5.490825590446236e-07,5.556603946485032e-14
	-1.758057841427796e-05,-1.523891961426227e-12
	5.490825590446236e-07,5.556603946485032e-14
16		1.445439770745927e+00,0.000000000000000e+00
	5.490825590446236e-03,5.686033879317712e-10
	1.000000000000000e+00,0.000000000000000e+00
	0.000000000000000e+00,0.000000000000000e+00
	2.370035394371765e-05,4.800464955544570e-14
	2.370035390239501e-05,4.657550468922287e-14
	-5.490825590446237e-07,-5.686033879317705e-14
	1.758057841424621e-05,1.559387965120431e-12
	-1.264018876025249e-05,-2.493963604645523e-14
	-4.391307094949097e-06,-1.477587990280798e-12
	5.490825590446236e-07,5.686033879317712e-14
	-1.758057841427796e-05,-1.559387965120431e-12
	5.490825590446236e-07,5.686033879317712e-14
17		1.479108388168207e+00,0.000000000000000e+00
	5.490825590446236e-03,5.818478622576766e-10
	1.000000000000000e+00,0.000000000000000e+00
	0.000000000000000e+00,0.000000000000000e+00
	2.370035394371765e-05,4.912282148698099e-14
	2.370035390239501e-05,4.766038756042116e-14
	-5.490825590446237e-07,-5.818478622576774e-14
	1.758057841424621e-05,1.595710776954682e-12
	-1.264018876025249e-05,-2.552055479637013e-14
	-4.391307094949097e-06,-1.512005435932544e-12
	5.490825590446236e-07,5.818478622576766e-14
	-1.758057841427796e-05,-1.595710776954682e-12
	5.490825590446236e-07,5.818478622576766e-14
18		1.513561248436208e+00,0.000000000000000e+00
	5.490825590446237e-03,5.954008400218180e-10
	1.000000000000000e+00,0.000000000000000e+00
	0.000000000000000e+00,0.000000000000000e+00
	2.370035394371765e-05,5.026703898868610e-14
	2.370035390239501e-05,4.877054059996379e-14
	-5.490825590446229e-07,-5.954008400218178e-14
	1.758057841424621e-05,1.632879655764604e-12
	-1.264018876025249e-05,-2.611500488224254e-14
	-4.391307094949099e-06,-1.547224566880179e-12
	5.490825590446237e-07,5.954008400218180e-14
	-1.758057841427796e-05,-1.632879655764604e-12
	5.490825590446237e-07,5.954008400218180e-14
19		1.548816618912481e+00,0.000000000000000e+00
	5.490825590446237e-03,6.092695071924007e-10
	1.000000000000000e+00,0.000000000000000e+00
	0.000000000000000e+00,0.000000000000000e+00
	2.370035394371765e-05,5.143790873982593e-14
	2.370035390239501e-05,4.990655242568697e-14
	-5.490825590446229e-07,-6.092695071924009e-14
	1.758057841424621e-05,1.670914308981729e-12
	-1.264018876025249e-05,-2.672330148937647e-14
	-4.391307094949099e-06,-1.583264056773113e-12
	5.490825590446237e-07,6.092695071924007e-14
	-1.758057841427796e-05,-1.670914308981729e-12
	5.490825590446237e-07,6.092695071924007e-14
20		1.584893192461113e+00,0.000000000000000e+00
	5.490825590446237e-03,6.234612171203322e-10
	1.000000000000000e+00,0.000000000000000e+00
	0.000000000000000e+00,0.000000000000000e+00
	2.370035394371765e-05,5.263605155104084e-14
	2.370035390239501e-05,5.106902536609754e-14
	-5.490825590446229e-07,-6.234612171203322e-14
	1.758057841424621e-05,1.709834903082642e-12
	-1.264018876025249e-05,-2.734576714468478e-14
	-4.391307094949099e-06,-1.620143014225924e-12
	5.490825590446237e-07,6.234612171203322e-14
	-1.758057841427796e-05,-1.709834903082642e-12
	5.490825590446237e-07,6.234612171203322e-14
21		1.621810097358929e+00,0.000000000000000e+00
	5.490825590446237e-03,6.379834944380657e-10
	1.000000000000000e+00,0.000000000000000e+00
	0.000000000000000e+00,0.000000000000000e+00
	2.370035394371765e-05,5.386210269350860e-14
	2.370035390239501e-05,5.225857577973569e-14
	-5.490825590446229e-07,-6.379834944380651e-14
	1.758057841424621e-05,1.749662074281510e-12
	-1.264018876025249e-05,-2.798273188769722e-14
	-4.391307094949099e-06,-1.657880992950006e-12
	5.490825590446237e-07,6.379834944380657e-14
	-1.758057841427796e-05,-1.749662074281509e-12
	5.490825590446237e-07,6.379834944380657e-14
22		1.659586907437560e+00,0.000000000000000e+00
	5.490825590446237e-03,6.528440390492600e-10
	1.000000000000000e+00,0.000000000000000e+00
	0.000000000000000e+00,0.000000000000000e+00
	2.370035394371765e-05,5.511671223577369e-14
	2.370035390239501e-05,5.347583438197628e-14
	-5.490825590446229e-07,-6.528440390492602e-14
	1.758057841424621e-05,1.790416939471677e-12
	-1.264018876025249e-05,-2.863453344555177e-14
	-4.391307094949099e-06,-1.696498002121199e-12
	5.490825590446237e-07,6.528440390492601e-14
	-1.758057841427796e-05,-1.790416939471677e-12
	5.490825590446237e-07,6.528440390492601e-14
23		1.698243652461743e+00,0.000000000000000e+00
	5.490825590446237e-03,6.680507302113708e-10
	1.000000000000000e+00,0.000000000000000e+00
	0.000000000000000e+00,0.000000000000000e+00
	2.370035394371765e-05,5.640054538842211e-14
	2.370035390239501e-05,5.472144657944253e-14
	-5.490825590446229e-07,-6.680507302113687e-14
	1.758057841424621e-05,1.832121107422122e-12
	-1.264018876025249e-05,-2.930151741206200e-14
	-4.391307094949099e-06,-1.736014516988923e-12
	5.490825590446237e-07,6.680507302113708e-14
	-1.758057841427796e-05,-1.832121107422123e-12
	5.490825590446237e-07,6.680507302113708e-14
24		1.737800828749374e+00,0.000000000000000e+00
	5.490825590446237e-03,6.836116307133363e-10
	1.000000000000000e+00,0.000000000000000e+00
	0.000000000000000e+00,0.000000000000000e+00
	2.370035394371765e-05,5.771428285678495e-14
	2.370035390239501e-05,5.599607281220918e-14
	-5.490825590446229e-07,-6.836116307133339e-14
	1.758057841424621e-05,1.874796690234712e-12
	-1.264018876025249e-05,-2.998403743095554e-14
	-4.391307094949099e-06,-1.776451489732423e-12
	5.490825590446237e-07,6.836116307133363e-14
	-1.758057841427796e-05,-1.874796690234713e-12
	5.490825590446237e-07,6.836116307133363e-14
25		1.778279410038922e+00,0.000000000000000e+00
	5.490825590446237e-03,6.995349911505758e-10
	1.000000000000000e+00,0.000000000000000e+00
	0.000000000000000e+00,0.000000000000000e+00
	2.370035394371765e-05,5.905862120185728e-14
	2.370035390239501e-05,5.730038890397651e-14
	-5.490825590446229e-07,-6.995349911505773e-14
	1.758057841424621e-05,1.918466315068333e-12
	-1.264018876025249e-05,-3.068245538338063e-14
	-4.391307094949099e-06,-1.817830360569895e-12
	5.490825590446237e-07,6.995349911505759e-14
	-1.758057841427796e-05,-1.918466315068333e-12
	5.490825590446237e-07,6.995349911505759e-14
26		1.819700858609982e+00,0.000000000000000e+00
	5.490825590446237e-03,7.158292542995635e-10
	1.000000000000000e+00,0.000000000000000e+00
	0.000000000000000e+00,0.000000000000000e+00
	2.370035394371765e-05,6.043427320962413e-14
	2.370035390239501e-05,5.863508642040105e-14
	-5.490825590446229e-07,-7.158292542995636e-14
	1.758057841424621e-05,1.963153136136106e-12
	-1.264018876025249e-05,-3.139714157978029e-14
	-4.391307094949099e-06,-1.860173069126370e-12
	5.490825590446237e-07,7.158292542995635e-14
	-1.758057841427796e-05,-1.963153136136106e-12
	5.490825590446237e-07,7.158292542995635e-14
27		1.862087136662866e+00,0.000000000000000e+00
	5.490825590446237e-03,7.325030595943011e-10
	1.000000000000000e+00,0.000000000000000e+00
	0.000000000000000e+00,0.000000000000000e+00
	2.370035394371765e-05,6.184196826898890e-14
	2.370035390239501e-05,6.000087303577279e-14
	-5.490825590446229e-07,-7.325030595943049e-14
	1.758057841424621e-05,2.008880846982063e-12
	-1.264018876025249e-05,-3.212847495623586e-14
	-4.391307094949099e-06,-1.903502066066397e-12
	5.490825590446237e-07,7.325030595943011e-14
	-1.758057841427796e-05,-2.008880846982063e-12
	5.490825590446237e-07,7.325030595943011e-14
28		1.905460717963246e+00,0.000000000000000e+00
	5.490825590446237e-03,7.495652477070600e-10
	1.000000000000000e+00,0.000000000000000e+00
	0.000000000000000e+00,0.000000000000000e+00
	2.370035394371765e-05,6.328245275850508e-14
	2.370035390239501e-05,6.139847290823355e-14
	-5.490825590446229e-07,-7.495652477070591e-14
	1.758057841424621e-05,2.055673693043770e-12
	-1.264018876025249e-05,-3.287684327538386e-14
	-4.391307094949099e-06,-1.947840324997681e-12
	5.490825590446237e-07,7.495652477070600e-14
	-1.758057841427796e-05,-2.055673693043770e-12
	5.490825590446237e-07,7.495652477070600e-14
29		1.949844599758044e+00,0.000000000000000e+00
	5.490825590446237e-03,7.670248652358223e-10
	1.000000000000000e+00,0.000000000000000e+00
	0.000000000000000e+00,0.000000000000000e+00
	2.370035394371765e-05,6.475649044211614e-14
	2.370035390239501e-05,6.282862706373514e-14
	-5.490825590446229e-07,-7.670248652358184e-14
	1.758057841424621e-05,2.103556484507588e-12
	-1.264018876025249e-05,-3.364264333201294e-14
	-4.391307094949099e-06,-1.993211354651994e-12
	5.490825590446237e-07,7.670248652358224e-14
	-1.758057841427796e-05,-2.103556484507588e-12
	5.490825590446237e-07,7.670248652358224e-14
30		1.995262314968878e+00,0.000000000000000e+00
	5.490825590446237e-03,7.848911695009065e-10
	1.000000000000000e+00,0.000000000000000e+00
	0.000000000000000e+00,0.000000000000000e+00
	2.370035394371765e-05,6.626486287411307e-14
	2.370035390239501e-05,6.429209378894110e-14
	-5.490825590446229e-07,-7.848911695009083e-14
	1.758057841424621e-05,2.152554609463355e-12
	-1.264018876025249e-05,-3.442628116344969e-14
	-4.391307094949099e-06,-2.039639211349814e-12
	5.490825590446237e-07,7.848911695009065e-14
	-1.758057841427796e-05,-2.152554609463355e-12
	5.490825590446237e-07,7.848911695009065e-14
31		2.041737944669527e+00,0.000000000000000e+00
	5.490825590446237e-03,8.031736334533231e-10
	1.000000000000000e+00,0.000000000000000e+00
	0.000000000000000e+00,0.000000000000000e+00
	2.370035394371765e-05,6.780836981352501e-14
	2.370035390239501e-05,6.578964903328041e-14
	-5.490825590446229e-07,-8.031736334533203e-14
	1.758057841424621e-05,2.202694047365485e-12
	-1.264018876025249e-05,-3.522817226484498e-14
	-4.391307094949099e-06,-2.087148511755308e-12
	5.490825590446237e-07,8.031736334533231e-14
	-1.758057841427796e-05,-2.202694047365486e-12
	5.490825590446237e-07,8.031736334533231e-14
32		2.089296130854037e+00,0.000000000000000e+00
	5.490825590446237e-03,8.218819506974566e-10
	1.000000000000000e+00,0.000000000000000e+00
	0.000000000000000e+00,0.000000000000000e+00
	2.370035394371765e-05,6.938782964816198e-14
	2.370035390239501e-05,6.732208682036614e-14
