Title: * GA CMOS Amp | W=2.172759550948464e-05 L=6.644758077144996e-07 Vbias=0.9560240302663874
Date: Mon Sep  8 18:44:23 2025
Plotname: AC Analysis
Flags: complex forward log
No. Variables: 11
No. Points:          901
Offset:    0.0000000000000000e+00
Command: Linear Technology Corporation LTspice
Variables:
	0	frequency	frequency
	1	V(out)	voltage
	2	V(g)	voltage
	3	V(vdd)	voltage
	4	Id(M1)	device_current
	5	Ig(M1)	device_current
	6	Ib(M1)	device_current
	7	Is(M1)	device_current
	8	I(Rload)	device_current
	9	I(Vg)	device_current
	10	I(Vdd)	device_current
Values:
0		1.000000000000000e+00,0.000000000000000e+00
	-5.862850432154926e+00,3.805248419009353e-09
	1.000000000000000e+00,0.000000000000000e+00
	0.000000000000000e+00,0.000000000000000e+00
	5.862850432154926e-04,-3.805248419009354e-13
	2.312064894797478e-22,5.131185159636475e-13
	5.862850569610112e-12,1.579478707681857e-14
	-5.862850490783431e-04,-1.483884611395306e-13
	-5.862850432154926e-04,3.805248419009353e-13
	-2.312064894797478e-22,-5.131185159636475e-13
	-5.862850432154926e-04,3.805248419009353e-13
1		1.023292992280754e+00,0.000000000000000e+00
	-5.862850432154926e+00,3.893884041059691e-09
	1.000000000000000e+00,0.000000000000000e+00
	0.000000000000000e+00,0.000000000000000e+00
	5.862850432154926e-04,-3.893884041059692e-13
	2.421029156288739e-22,5.250705815951006e-13
	5.862850569610112e-12,1.616269493027530e-14
	-5.862850490783431e-04,-1.518448724194067e-13
	-5.862850432154926e-04,3.893884041059691e-13
	-2.421029156288739e-22,-5.250705815951007e-13
	-5.862850432154926e-04,3.893884041059691e-13
2		1.047128548050899e+00,0.000000000000000e+00
	-5.862850432154926e+00,3.984584251970245e-09
	1.000000000000000e+00,0.000000000000000e+00
	0.000000000000000e+00,0.000000000000000e+00
	5.862850432154926e-04,-3.984584251970245e-13
	2.535128745213522e-22,5.373010465990463e-13
	5.862850569610112e-12,1.653917245852218e-14
	-5.862850490783431e-04,-1.553817938605440e-13
	-5.862850432154926e-04,3.984584251970245e-13
	-2.535128745213522e-22,-5.373010465990463e-13
	-5.862850432154926e-04,3.984584251970245e-13
3		1.071519305237606e+00,0.000000000000000e+00
	-5.862850432154926e+00,4.077397142193403e-09
	1.000000000000000e+00,0.000000000000000e+00
	0.000000000000000e+00,0.000000000000000e+00
	5.862850432154926e-04,-4.077397142193403e-13
	2.654605682097533e-22,5.498163957299190e-13
	5.862850569610112e-12,1.692441927492871e-14
	-5.862850490783431e-04,-1.590011007855074e-13
	-5.862850432154926e-04,4.077397142193403e-13
	-2.654605682097533e-22,-5.498163957299190e-13
	-5.862850432154926e-04,4.077397142193403e-13
4		1.096478196143185e+00,0.000000000000000e+00
	-5.862850432154926e+00,4.172371922352081e-09
	1.000000000000000e+00,0.000000000000000e+00
	0.000000000000000e+00,0.000000000000000e+00
	5.862850432154926e-04,-4.172371922352081e-13
	2.779713393542456e-22,5.626232647914879e-13
	5.862850569610112e-12,1.731863964245574e-14
	-5.862850490783431e-04,-1.627047121987356e-13
	-5.862850432154926e-04,4.172371922352082e-13
	-2.779713393542456e-22,-5.626232647914879e-13
	-5.862850432154926e-04,4.172371922352082e-13
5		1.122018454301963e+00,0.000000000000000e+00
	-5.862850432154926e+00,4.269558949331864e-09
	1.000000000000000e+00,0.000000000000000e+00
	0.000000000000000e+00,0.000000000000000e+00
	5.862850432154926e-04,-4.269558949331865e-13
	2.910717249777752e-22,5.757284441552488e-13
	5.862850569610112e-12,1.772204258196071e-14
	-5.862850490783431e-04,-1.664945918040231e-13
	-5.862850432154926e-04,4.269558949331864e-13
	-2.910717249777752e-22,-5.757284441552488e-13
	-5.862850432154926e-04,4.269558949331864e-13
6		1.148153621496882e+00,0.000000000000000e+00
	-5.862850432154926e+00,4.369009752980876e-09
	1.000000000000000e+00,0.000000000000000e+00
	0.000000000000000e+00,0.000000000000000e+00
	5.862850432154926e-04,-4.369009752980876e-13
	3.047895127546485e-22,5.891388823607677e-13
	5.862850569610112e-12,1.813484198302141e-14
	-5.862850490783431e-04,-1.703727490457015e-13
	-5.862850432154926e-04,4.369009752980876e-13
	-3.047895127546485e-22,-5.891388823607677e-13
	-5.862850432154926e-04,4.369009752980876e-13
7		1.174897554939529e+00,0.000000000000000e+00
	-5.862850432154926e+00,4.470777063431599e-09
	1.000000000000000e+00,0.000000000000000e+00
	0.000000000000000e+00,0.000000000000000e+00
	5.862850432154926e-04,-4.470777063431598e-13
	3.191537999519162e-22,6.028616897998890e-13
	5.862850569610112e-12,1.855725671734468e-14
	-5.862850490783431e-04,-1.743412401740739e-13
	-5.862850432154926e-04,4.470777063431599e-13
	-3.191537999519162e-22,-6.028616897998891e-13
	-5.862850432154926e-04,4.470777063431599e-13
8		1.202264434617413e+00,0.000000000000000e+00
	-5.862850432154926e+00,4.574914839059084e-09
	1.000000000000000e+00,0.000000000000000e+00
	0.000000000000000e+00,0.000000000000000e+00
	5.862850432154926e-04,-4.574914839059084e-13
	3.341950551485772e-22,6.169041424867603e-13
	5.862850569610112e-12,1.898951075481377e-14
	-5.862850490783431e-04,-1.784021693356657e-13
	-5.862850432154926e-04,4.574914839059084e-13
	-3.341950551485772e-22,-6.169041424867604e-13
	-5.862850432154926e-04,4.574914839059084e-13
9		1.230268770812381e+00,0.000000000000000e+00
	-5.862850432154926e+00,4.681478295090395e-09
	1.000000000000000e+00,0.000000000000000e+00
	0.000000000000000e+00,0.000000000000000e+00
	5.862850432154926e-04,-4.681478295090394e-13
	3.499451828635199e-22,6.312736859156696e-13
	5.862850569610112e-12,1.943183328224089e-14
	-5.862850490783431e-04,-1.825576896888711e-13
	-5.862850432154926e-04,4.681478295090395e-13
	-3.499451828635199e-22,-6.312736859156696e-13
	-5.862850432154926e-04,4.681478295090395e-13
10		1.258925411794167e+00,0.000000000000000e+00
	-5.862850432154926e+00,4.790523932880453e-09
	1.000000000000000e+00,0.000000000000000e+00
	0.000000000000000e+00,0.000000000000000e+00
	5.862850432154926e-04,-4.790523932880453e-13
	3.664375912292842e-22,6.459779390087466e-13
	5.862850569610112e-12,1.988445882488507e-14
	-5.862850490783431e-04,-1.868100045455864e-13
	-5.862850432154926e-04,4.790523932880454e-13
	-3.664375912292842e-22,-6.459779390087466e-13
	-5.862850432154926e-04,4.790523932880454e-13
11		1.288249551693134e+00,0.000000000000000e+00
	-5.862850432154926e+00,4.902109569869806e-09
	1.000000000000000e+00,0.000000000000000e+00
	0.000000000000000e+00,0.000000000000000e+00
	5.862850432154926e-04,-4.902109569869806e-13
	3.837072628551895e-22,6.610246981556148e-13
	5.862850569610112e-12,2.034762737080016e-14
	-5.862850490783431e-04,-1.911613685394344e-13
	-5.862850432154926e-04,4.902109569869807e-13
	-3.837072628551895e-22,-6.610246981556149e-13
	-5.862850432154926e-04,4.902109569869807e-13
12		1.318256738556407e+00,0.000000000000000e+00
	-5.862850432154926e+00,5.016294370240194e-09
	1.000000000000000e+00,0.000000000000000e+00
	0.000000000000000e+00,0.000000000000000e+00
	5.862850432154926e-04,-5.016294370240194e-13
	4.017908290301394e-22,6.764219413471414e-13
	5.862850569610112e-12,2.082158449807978e-14
	-5.862850490783431e-04,-1.956140888212018e-13
	-5.862850432154926e-04,5.016294370240195e-13
	-4.017908290301394e-22,-6.764219413471414e-13
	-5.862850432154926e-04,5.016294370240195e-13
13		1.348962882591653e+00,0.000000000000000e+00
	-5.862850432154926e+00,5.133138876284190e-09
	1.000000000000000e+00,0.000000000000000e+00
	0.000000000000000e+00,0.000000000000000e+00
	5.862850432154926e-04,-5.133138876284189e-13
	4.207266474224971e-22,6.921778324054731e-13
	5.862850569610112e-12,2.130658150506656e-14
	-5.862850490783431e-04,-2.001705262821208e-13
	-5.862850432154926e-04,5.133138876284191e-13
	-4.207266474224971e-22,-6.921778324054731e-13
	-5.862850432154926e-04,5.133138876284191e-13
14		1.380384264602885e+00,0.000000000000000e+00
	-5.862850432154926e+00,5.252705040505516e-09
	1.000000000000000e+00,0.000000000000000e+00
	0.000000000000000e+00,0.000000000000000e+00
	5.862850432154926e-04,-5.252705040505517e-13
	4.405548834418422e-22,7.083007253126029e-13
	5.862850569610112e-12,2.180287554359348e-14
	-5.862850490783431e-04,-2.048330968056447e-13
	-5.862850432154926e-04,5.252705040505516e-13
	-4.405548834418422e-22,-7.083007253126030e-13
	-5.862850432154926e-04,5.252705040505516e-13
15		1.412537544622754e+00,0.000000000000000e+00
	-5.862850432154926e+00,5.375056258467088e-09
	1.000000000000000e+00,0.000000000000000e+00
	0.000000000000000e+00,0.000000000000000e+00
	5.862850432154926e-04,-5.375056258467090e-13
	4.613175954351893e-22,7.247991686397620e-13
	5.862850569610112e-12,2.231072975532861e-14
	-5.862850490783431e-04,-2.096042725483815e-13
	-5.862850432154926e-04,5.375056258467089e-13
	-4.613175954351893e-22,-7.247991686397620e-13
	-5.862850432154926e-04,5.375056258467089e-13
16		1.445439770745927e+00,0.000000000000000e+00
	-5.862850432154926e+00,5.500257402404182e-09
	1.000000000000000e+00,0.000000000000000e+00
	0.000000000000000e+00,0.000000000000000e+00
	5.862850432154926e-04,-5.500257402404181e-13
	4.830588238983821e-22,7.416819100799848e-13
	5.862850569610112e-12,2.283041341129732e-14
	-5.862850490783431e-04,-2.144865832508641e-13
	-5.862850432154926e-04,5.500257402404183e-13
	-4.830588238983821e-22,-7.416819100799848e-13
	-5.862850432154926e-04,5.500257402404183e-13
17		1.479108388168207e+00,0.000000000000000e+00
	-5.862850432154926e+00,5.628374855620542e-09
	1.000000000000000e+00,0.000000000000000e+00
	0.000000000000000e+00,0.000000000000000e+00
	5.862850432154926e-04,-5.628374855620544e-13
	5.058246848918877e-22,7.589579010862528e-13
	5.862850569610112e-12,2.336220205465330e-14
	-5.862850490783431e-04,-2.194826175788517e-13
	-5.862850432154926e-04,5.628374855620543e-13
	-5.058246848918877e-22,-7.589579010862528e-13
	-5.862850432154926e-04,5.628374855620543e-13
18		1.513561248436208e+00,0.000000000000000e+00
	-5.862850432154926e+00,5.759476547685703e-09
	1.000000000000000e+00,0.000000000000000e+00
	0.000000000000000e+00,0.000000000000000e+00
	5.862850432154926e-04,-5.759476547685703e-13
	5.296634678591463e-22,7.766363016176722e-13
	5.862850569610112e-12,2.390637764677366e-14
	-5.862850490783431e-04,-2.245950244958756e-13
	-5.862850432154926e-04,5.759476547685703e-13
	-5.296634678591463e-22,-7.766363016176722e-13
	-5.862850432154926e-04,5.759476547685703e-13
19		1.548816618912481e+00,0.000000000000000e+00
	-5.862850432154926e+00,5.893631990452129e-09
	1.000000000000000e+00,0.000000000000000e+00
	0.000000000000000e+00,0.000000000000000e+00
	5.862850432154926e-04,-5.893631990452129e-13
	5.546257380549521e-22,7.947264849962061e-13
	5.862850569610112e-12,2.446322871676071e-14
	-5.862850490783431e-04,-2.298265146677539e-13
	-5.862850432154926e-04,5.893631990452130e-13
	-5.546257380549521e-22,-7.947264849962061e-13
	-5.862850432154926e-04,5.893631990452130e-13
20		1.584893192461113e+00,0.000000000000000e+00
	-5.862850432154926e+00,6.030912314911337e-09
	1.000000000000000e+00,0.000000000000000e+00
	0.000000000000000e+00,0.000000000000000e+00
	5.862850432154926e-04,-6.030912314911338e-13
	5.807644438011406e-22,8.132380428765336e-13
	5.862850569610112e-12,2.503305051442272e-14
	-5.862850490783431e-04,-2.351798618998225e-13
	-5.862850432154926e-04,6.030912314911338e-13
	-5.807644438011406e-22,-8.132380428765336e-13
	-5.862850432154926e-04,6.030912314911338e-13
21		1.621810097358929e+00,0.000000000000000e+00
	-5.862850432154926e+00,6.171390308908470e-09
	1.000000000000000e+00,0.000000000000000e+00
	0.000000000000000e+00,0.000000000000000e+00
	5.862850432154926e-04,-6.171390308908471e-13
	6.081350287970763e-22,8.321807903316722e-13
	5.862850569610112e-12,2.561614516681866e-14
	-5.862850490783431e-04,-2.406579046076438e-13
	-5.862850432154926e-04,6.171390308908471e-13
	-6.081350287970763e-22,-8.321807903316723e-13
	-5.862850432154926e-04,6.171390308908471e-13
22		1.659586907437560e+00,0.000000000000000e+00
	-5.862850432154926e+00,6.315140455735397e-09
	1.000000000000000e+00,0.000000000000000e+00
	0.000000000000000e+00,0.000000000000000e+00
	5.862850432154926e-04,-6.315140455735399e-13
	6.367955497231747e-22,8.515647710570598e-13
	5.862850569610112e-12,2.621282183845225e-14
	-5.862850490783431e-04,-2.462635473219722e-13
	-5.862850432154926e-04,6.315140455735398e-13
	-6.367955497231747e-22,-8.515647710570598e-13
	-5.862850432154926e-04,6.315140455735398e-13
23		1.698243652461743e+00,0.000000000000000e+00
	-5.862850432154926e+00,6.462238973622721e-09
	1.000000000000000e+00,0.000000000000000e+00
	0.000000000000000e+00,0.000000000000000e+00
	5.862850432154926e-04,-6.462238973622719e-13
	6.668067993869024e-22,8.714002626958540e-13
	5.862850569610112e-12,2.682339689519183e-14
	-5.862850490783431e-04,-2.519997622287740e-13
	-5.862850432154926e-04,6.462238973622722e-13
	-6.668067993869024e-22,-8.714002626958540e-13
	-5.862850432154926e-04,6.462238973622722e-13
24		1.737800828749374e+00,0.000000000000000e+00
	-5.862850432154926e+00,6.612763856151702e-09
	1.000000000000000e+00,0.000000000000000e+00
	0.000000000000000e+00,0.000000000000000e+00
	5.862850432154926e-04,-6.612763856151703e-13
	6.982324356724742e-22,8.916977822882755e-13
	5.862850569610112e-12,2.744819407201551e-14
	-5.862850490783431e-04,-2.578695907451207e-13
	-5.862850432154926e-04,6.612763856151702e-13
	-6.982324356724742e-22,-8.916977822882755e-13
	-5.862850432154926e-04,6.612763856151702e-13
25		1.778279410038922e+00,0.000000000000000e+00
	-5.862850432154926e+00,6.766794913607493e-09
	1.000000000000000e+00,0.000000000000000e+00
	0.000000000000000e+00,0.000000000000000e+00
	5.862850432154926e-04,-6.766794913607494e-13
	7.311391165677610e-22,9.124680918478820e-13
	5.862850569610112e-12,2.808754464465534e-14
	-5.862850490783431e-04,-2.638761451317880e-13
	-5.862850432154926e-04,6.766794913607493e-13
	-7.311391165677610e-22,-9.124680918478820e-13
	-5.862850432154926e-04,6.766794913607493e-13
26		1.819700858609982e+00,0.000000000000000e+00
	-5.862850432154926e+00,6.924413815295598e-09
	1.000000000000000e+00,0.000000000000000e+00
	0.000000000000000e+00,0.000000000000000e+00
	5.862850432154926e-04,-6.924413815295600e-13
	7.655966415548168e-22,9.337222040677290e-13
	5.862850569610112e-12,2.874178760524880e-14
	-5.862850490783431e-04,-2.700226101434178e-13
	-5.862850432154926e-04,6.924413815295598e-13
	-7.655966415548168e-22,-9.337222040677290e-13
	-5.862850432154926e-04,6.924413815295598e-13
27		1.862087136662866e+00,0.000000000000000e+00
	-5.862850432154926e+00,7.085704132844026e-09
	1.000000000000000e+00,0.000000000000000e+00
	0.000000000000000e+00,0.000000000000000e+00
	5.862850432154926e-04,-7.085704132844026e-13
	8.016780996639404e-22,9.554713881594473e-13
	5.862850569610112e-12,2.941126984207288e-14
	-5.862850490783431e-04,-2.763122447171176e-13
	-5.862850432154926e-04,7.085704132844026e-13
	-8.016780996639404e-22,-9.554713881594473e-13
	-5.862850432154926e-04,7.085704132844026e-13
28		1.905460717963246e+00,0.000000000000000e+00
	-5.862850432154926e+00,7.250751384514068e-09
	1.000000000000000e+00,0.000000000000000e+00
	0.000000000000000e+00,0.000000000000000e+00
	5.862850432154926e-04,-7.250751384514068e-13
	8.394600245053060e-22,9.777271758283266e-13
	5.862850569610112e-12,3.009634632347142e-14
	-5.862850490783431e-04,-2.827483837003912e-13
	-5.862850432154926e-04,7.250751384514068e-13
	-8.394600245053060e-22,-9.777271758283268e-13
	-5.862850432154926e-04,7.250751384514068e-13
29		1.949844599758044e+00,0.000000000000000e+00
	-5.862850432154926e+00,7.419643080543223e-09
	1.000000000000000e+00,0.000000000000000e+00
	0.000000000000000e+00,0.000000000000000e+00
	5.862850432154926e-04,-7.419643080543223e-13
	8.790225566070140e-22,1.000501367387580e-12
	5.862850569610112e-12,3.079738028606280e-14
	-5.862850490783431e-04,-2.893344396193201e-13
	-5.862850432154926e-04,7.419643080543223e-13
	-8.790225566070140e-22,-1.000501367387580e-12
	-5.862850432154926e-04,7.419643080543223e-13
30		1.995262314968878e+00,0.000000000000000e+00
	-5.862850432154926e+00,7.592468769544267e-09
	1.000000000000000e+00,0.000000000000000e+00
	0.000000000000000e+00,0.000000000000000e+00
	5.862850432154926e-04,-7.592468769544266e-13
	9.204496134038920e-22,1.023806038015022e-12
	5.862850569610112e-12,3.151474342733357e-14
	-5.862850490783431e-04,-2.960739044879293e-13
	-5.862850432154926e-04,7.592468769544267e-13
	-9.204496134038920e-22,-1.023806038015022e-12
	-5.862850432154926e-04,7.592468769544267e-13
31		2.041737944669527e+00,0.000000000000000e+00
	-5.862850432154926e+00,7.769320085985126e-09
	1.000000000000000e+00,0.000000000000000e+00
	0.000000000000000e+00,0.000000000000000e+00
	5.862850432154926e-04,-7.769320085985125e-13
	9.638290672376288e-22,1.047653544155496e-12
	5.862850569610112e-12,3.224881610271630e-14
	-5.862850490783431e-04,-3.029703516596993e-13
	-5.862850432154926e-04,7.769320085985126e-13
	-9.638290672376288e-22,-1.047653544155496e-12
	-5.862850432154926e-04,7.769320085985126e-13
32		2.089296130854037e+00,0.000000000000000e+00
	-5.862850432154926e+00,7.950290798774686e-09
	1.000000000000000e+00,0.000000000000000e+00
	0.000000000000000e+00,0.000000000000000e+00
	5.862850432154926e-04,-7.950290798774686e-13
	1.009252931745791e-21,1.072056530072414e-12
	5.862850569610112e-12,3.299998752726036e-14
	-5.862850490783431e-04,-3.100274377222060e-13
	-5.862850432154926e-04,7.950290798774686e-13
	-1.009252931745791e-21,-1.072056530072414e-12
	-5.862850432154926e-04,7.950290798774686e-13
33		2.137962089502230e+00,0.000000000000000e+00
	-5.862850432154926e+00,8.135476860980295e-09
	1.000000000000000e+00,0.000000000000000e+00
	0.000000000000000e+00,0.000000000000000e+00
	5.862850432154926e-04,-8.135476860980296e-13
	1.056817557035084e-21,1.097027934551923e-12
	5.862850569610112e-12,3.376865598199802e-14
	-5.862850490783431e-04,-3.172489044358913e-13
	-5.862850432154926e-04,8.135476860980296e-13
	-1.056817557035084e-21,-1.097027934551923e-12
	-5.862850432154926e-04,8.135476860980296e-13
34		2.187761623949550e+00,0.000000000000000e+00
	-5.862850432154926e+00,8.324976460703363e-09
	1.000000000000000e+00,0.000000000000000e+00
	0.000000000000000e+00,0.000000000000000e+00
	5.862850432154926e-04,-8.324976460703363e-13
	1.106623834052846e-21,1.122580997763212e-12
	5.862850569610112e-12,3.455522902511829e-14
	-5.862850490783431e-04,-3.246385807179943e-13
	-5.862850432154926e-04,8.324976460703363e-13
	-1.106623834052846e-21,-1.122580997763213e-12
	-5.862850432154926e-04,8.324976460703363e-13
35		2.238721138568337e+00,0.000000000000000e+00
	-5.862850432154926e+00,8.518890073139986e-09
	1.000000000000000e+00,0.000000000000000e+00
	0.000000000000000e+00,0.000000000000000e+00
	5.862850432154926e-04,-8.518890073139986e-13
	1.158777408590276e-21,1.148729268278632e-12
	5.862850569610112e-12,3.536012370805984e-14
	-5.862850490783431e-04,-3.322003846726934e-13
	-5.862850432154926e-04,8.518890073139987e-13
	-1.158777408590276e-21,-1.148729268278632e-12
	-5.862850432154926e-04,8.518890073139987e-13
36		2.290867652767770e+00,0.000000000000000e+00
	-5.862850432154926e+00,8.717320513854229e-09
	1.000000000000000e+00,0.000000000000000e+00
	0.000000000000000e+00,0.000000000000000e+00
	5.862850432154926e-04,-8.717320513854230e-13
	1.213388905371320e-21,1.175486610257323e-12
	5.862850569610112e-12,3.618376679663844e-14
	-5.862850490783431e-04,-3.399383256685381e-13
	-5.862850432154926e-04,8.717320513854230e-13
	-1.213388905371320e-21,-1.175486610257323e-12
	-5.862850432154926e-04,8.717320513854230e-13
37		2.344228815319919e+00,0.000000000000000e+00
	-5.862850432154926e+00,8.920372993292294e-09
	1.000000000000000e+00,0.000000000000000e+00
	0.000000000000000e+00,0.000000000000000e+00
	5.862850432154926e-04,-8.920372993292294e-13
	1.270574162702540e-21,1.202867210796176e-12
	5.862850569610112e-12,3.702659499732086e-14
	-5.862850490783431e-04,-3.478565064642678e-13
	-5.862850432154926e-04,8.920372993292295e-13
	-1.270574162702540e-21,-1.202867210796176e-12
	-5.862850432154926e-04,8.920372993292295e-13
38		2.398832919019488e+00,0.000000000000000e+00
	-5.862850432154926e+00,9.128155172566499e-09
	1.000000000000000e+00,0.000000000000000e+00
	0.000000000000000e+00,0.000000000000000e+00
