Title: * GA CMOS Amp | W=4.113554112591065e-06 L=2.4489271158264623e-07 Vbias=1.1033240601937937
Date: Sat Sep  6 22:06:33 2025
Plotname: AC Analysis
Flags: complex forward log
No. Variables: 13
No. Points:          901
Offset:    0.0000000000000000e+00
Command: Linear Technology Corporation LTspice
Variables:
	0	frequency	frequency
	1	V(out)	voltage
	2	V(g)	voltage
	3	V(vdd)	voltage
	4	V(m1#dbody)	voltage
	5	V(m1#sbody)	voltage
	6	Id(M1)	device_current
	7	Ig(M1)	device_current
	8	Ib(M1)	device_current
	9	Is(M1)	device_current
	10	I(Rload)	device_current
	11	I(Vg)	device_current
	12	I(Vdd)	device_current
Values:
0		1.000000000000000e+00,0.000000000000000e+00
	-2.142796153632459e-02,1.017452326013805e-10
	1.000000000000000e+00,0.000000000000000e+00
	0.000000000000000e+00,0.000000000000000e+00
	7.962940658244184e-07,5.783529850799341e-15
	7.962942271353843e-07,7.784138004957371e-15
	2.142796153632456e-06,-1.017452326013807e-14
	9.819606215436252e-07,2.784177460937079e-13
	-4.246902440390890e-07,-4.018215790180114e-15
	-2.700066531136992e-06,-2.642250070433897e-13
	-2.142796153632459e-06,1.017452326013805e-14
	-9.819606215377696e-07,-2.784177460937080e-13
	-2.142796153632459e-06,1.017452326013805e-14
1		1.023292992280754e+00,0.000000000000000e+00
	-2.142796153632459e-02,1.041151835189680e-10
	1.000000000000000e+00,0.000000000000000e+00
	0.000000000000000e+00,0.000000000000000e+00
	7.962940658244184e-07,5.918245566969522e-15
	7.962942271353843e-07,7.965453871419170e-15
	2.142796153632456e-06,-1.041151835189673e-14
	9.819606215436252e-07,2.849029285042936e-13
	-4.246902440390890e-07,-4.111812059563184e-15
	-2.700066531136992e-06,-2.703795980928336e-13
	-2.142796153632459e-06,1.041151835189680e-14
	-9.819606215377696e-07,-2.849029285042937e-13
	-2.142796153632459e-06,1.041151835189680e-14
2		1.047128548050899e+00,0.000000000000000e+00
	-2.142796153632459e-02,1.065403376849846e-10
	1.000000000000000e+00,0.000000000000000e+00
	0.000000000000000e+00,0.000000000000000e+00
	7.962940658244184e-07,6.056099215276546e-15
	7.962942271353843e-07,8.150993126958835e-15
	2.142796153632456e-06,-1.065403376849846e-14
	9.819606215436252e-07,2.915391702187084e-13
	-4.246902440390890e-07,-4.207588466126499e-15
	-2.700066531136992e-06,-2.766775479840834e-13
	-2.142796153632459e-06,1.065403376849846e-14
	-9.819606215377696e-07,-2.915391702187084e-13
	-2.142796153632459e-06,1.065403376849846e-14
3		1.071519305237606e+00,0.000000000000000e+00
	-2.142796153632459e-02,1.090219809482699e-10
	1.000000000000000e+00,0.000000000000000e+00
	0.000000000000000e+00,0.000000000000000e+00
	7.962940658244184e-07,6.197163887549467e-15
	7.962942271353843e-07,8.340854146945571e-15
	2.142796153632456e-06,-1.090219809482697e-14
	9.819606215436252e-07,2.983299898601501e-13
	-4.246902440390890e-07,-4.305595791788576e-15
	-2.700066531136992e-06,-2.831221959735346e-13
	-2.142796153632459e-06,1.090219809482699e-14
	-9.819606215377696e-07,-2.983299898601501e-13
	-2.142796153632459e-06,1.090219809482699e-14
4		1.096478196143185e+00,0.000000000000000e+00
	-2.142796153632459e-02,1.115614291089305e-10
	1.000000000000000e+00,0.000000000000000e+00
	0.000000000000000e+00,0.000000000000000e+00
	7.962940658244184e-07,6.341514378144722e-15
	7.962942271353843e-07,8.535137598205266e-15
	2.142796153632456e-06,-1.115614291089307e-14
	9.819606215436252e-07,3.052789880110800e-13
	-4.246902440390890e-07,-4.405886001330753e-15
	-2.700066531136992e-06,-2.897169590988562e-13
	-2.142796153632459e-06,1.115614291089305e-14
	-9.819606215377696e-07,-3.052789880110800e-13
	-2.142796153632459e-06,1.115614291089305e-14
5		1.122018454301963e+00,0.000000000000000e+00
	-2.142796153632459e-02,1.141600286159947e-10
	1.000000000000000e+00,0.000000000000000e+00
	0.000000000000000e+00,0.000000000000000e+00
	7.962940658244184e-07,6.489227223603138e-15
	7.962942271353843e-07,8.733946492395435e-15
	2.142796153632456e-06,-1.141600286159945e-14
	9.819606215436252e-07,3.123898491222986e-13
	-4.246902440390890e-07,-4.508512269949633e-15
	-2.700066531136992e-06,-2.964653339907495e-13
	-2.142796153632459e-06,1.141600286159947e-14
	-9.819606215377696e-07,-3.123898491222986e-13
	-2.142796153632459e-06,1.141600286159947e-14
6		1.148153621496882e+00,0.000000000000000e+00
	-2.142796153632459e-02,1.168191572813177e-10
	1.000000000000000e+00,0.000000000000000e+00
	0.000000000000000e+00,0.000000000000000e+00
	7.962940658244184e-07,6.640380743230585e-15
	7.962942271353843e-07,8.937386240623321e-15
	2.142796153632456e-06,-1.168191572813179e-14
	9.819606215436252e-07,3.196663434664903e-13
	-4.246902440390890e-07,-4.613529011451255e-15
	-2.700066531136992e-06,-3.033708987269072e-13
	-2.142796153632459e-06,1.168191572813177e-14
	-9.819606215377696e-07,-3.196663434664903e-13
	-2.142796153632459e-06,1.168191572813177e-14
7		1.174897554939529e+00,0.000000000000000e+00
	-2.142796153632459e-02,1.195402250101157e-10
	1.000000000000000e+00,0.000000000000000e+00
	0.000000000000000e+00,0.000000000000000e+00
	7.962940658244184e-07,6.795055080623923e-15
	7.962942271353843e-07,9.145564709336277e-15
	2.142796153632456e-06,-1.195402250101153e-14
	9.819606215436252e-07,3.271123291372721e-13
	-4.246902440390890e-07,-4.720991907102023e-15
	-2.700066531136992e-06,-3.104373147291586e-13
	-2.142796153632459e-06,1.195402250101157e-14
	-9.819606215377696e-07,-3.271123291372721e-13
	-2.142796153632459e-06,1.195402250101157e-14
8		1.202264434617413e+00,0.000000000000000e+00
	-2.142796153632459e-02,1.223246745485159e-10
	1.000000000000000e+00,0.000000000000000e+00
	0.000000000000000e+00,0.000000000000000e+00
	7.962940658244184e-07,6.953332246164198e-15
	7.962942271353843e-07,9.358592277513989e-15
	2.142796153632456e-06,-1.223246745485157e-14
	9.819606215436252e-07,3.347317540948060e-13
	-4.246902440390890e-07,-4.830957935151655e-15
	-2.700066531136992e-06,-3.176683287048028e-13
	-2.142796153632459e-06,1.223246745485159e-14
	-9.819606215377696e-07,-3.347317540948061e-13
	-2.142796153632459e-06,1.223246745485159e-14
9		1.230268770812381e+00,0.000000000000000e+00
	-2.142796153632459e-02,1.251739822485203e-10
	1.000000000000000e+00,0.000000000000000e+00
	0.000000000000000e+00,0.000000000000000e+00
	7.962940658244184e-07,7.115296160499619e-15
	7.962942271353843e-07,9.576581895192848e-15
	2.142796153632456e-06,-1.251739822485200e-14
	9.819606215436252e-07,3.425286582590597e-13
	-4.246902440390890e-07,-4.943485401043790e-15
	-2.700066531136992e-06,-3.250677746331640e-13
	-2.142796153632459e-06,1.251739822485203e-14
	-9.819606215377696e-07,-3.425286582590597e-13
	-2.142796153632459e-06,1.251739822485203e-14
10		1.258925411794167e+00,0.000000000000000e+00
	-2.142796153632459e-02,1.280896588507863e-10
	1.000000000000000e+00,0.000000000000000e+00
	0.000000000000000e+00,0.000000000000000e+00
	7.962940658244184e-07,7.281032699041414e-15
	7.962942271353843e-07,9.799649143353583e-15
	2.142796153632456e-06,-1.280896588507864e-14
	9.819606215436252e-07,3.505071756518250e-13
	-4.246902440390890e-07,-5.058633968330324e-15
	-2.700066531136992e-06,-3.326395757984161e-13
	-2.142796153632459e-06,1.280896588507863e-14
	-9.819606215377696e-07,-3.505071756518252e-13
	-2.142796153632459e-06,1.280896588507863e-14
11		1.288249551693134e+00,0.000000000000000e+00
	-2.142796153632459e-02,1.310732502856421e-10
	1.000000000000000e+00,0.000000000000000e+00
	0.000000000000000e+00,0.000000000000000e+00
	7.962940658244184e-07,7.450629737496109e-15
	7.962942271353843e-07,1.002791229520382e-14
	2.142796153632456e-06,-1.310732502856416e-14
	9.819606215436252e-07,3.586715365886320e-13
	-4.246902440390890e-07,-5.176464690305805e-15
	-2.700066531136992e-06,-3.403877468697620e-13
	-2.142796153632459e-06,1.310732502856421e-14
	-9.819606215377696e-07,-3.586715365886320e-13
	-2.142796153632459e-06,1.310732502856421e-14
12		1.318256738556407e+00,0.000000000000000e+00
	-2.142796153632459e-02,1.341263384927589e-10
	1.000000000000000e+00,0.000000000000000e+00
	0.000000000000000e+00,0.000000000000000e+00
	7.962940658244184e-07,7.624177198458356e-15
	7.962942271353843e-07,1.026149237888808e-14
	2.142796153632456e-06,-1.341263384927588e-14
	9.819606215436252e-07,3.670260699217171e-13
	-4.246902440390890e-07,-5.297040042378691e-15
	-2.700066531136992e-06,-3.483163960300626e-13
	-2.142796153632459e-06,1.341263384927589e-14
	-9.819606215377696e-07,-3.670260699217172e-13
	-2.142796153632459e-06,1.341263384927589e-14
13		1.348962882591653e+00,0.000000000000000e+00
	-2.142796153632459e-02,1.372505422599165e-10
	1.000000000000000e+00,0.000000000000000e+00
	0.000000000000000e+00,0.000000000000000e+00
	7.962940658244184e-07,7.801767099089151e-15
	7.962942271353843e-07,1.050051324165854e-14
	2.142796153632456e-06,-1.372505422599166e-14
	9.819606215436252e-07,3.755752053352392e-13
	-4.246902440390890e-07,-5.420423955196665e-15
	-2.700066531136992e-06,-3.564297271540509e-13
	-2.142796153632459e-06,1.372505422599166e-14
	-9.819606215377696e-07,-3.755752053352394e-13
	-2.142796153632459e-06,1.372505422599166e-14
14		1.380384264602885e+00,0.000000000000000e+00
	-2.142796153632459e-02,1.404475180813061e-10
	1.000000000000000e+00,0.000000000000000e+00
	0.000000000000000e+00,0.000000000000000e+00
	7.962940658244184e-07,7.983493599904478e-15
	7.962942271353843e-07,1.074510161554045e-14
	2.142796153632456e-06,-1.404475180813061e-14
	9.819606215436252e-07,3.843234756939557e-13
	-4.246902440390890e-07,-5.546681848543477e-15
	-2.700066531136992e-06,-3.647320420372816e-13
	-2.142796153632459e-06,1.404475180813061e-14
	-9.819606215377696e-07,-3.843234756939558e-13
	-2.142796153632459e-06,1.404475180813061e-14
15		1.412537544622754e+00,0.000000000000000e+00
	-2.142796153632459e-02,1.437189610358251e-10
	1.000000000000000e+00,0.000000000000000e+00
	0.000000000000000e+00,0.000000000000000e+00
	7.962940658244184e-07,8.169453054700502e-15
	7.962942271353843e-07,1.099538718452715e-14
	2.142796153632456e-06,-1.437189610358252e-14
	9.819606215436252e-07,3.932755194466076e-13
	-4.246902440390890e-07,-5.675880666025398e-15
	-2.700066531136992e-06,-3.732277426769997e-13
	-2.142796153632459e-06,1.437189610358251e-14
	-9.819606215377696e-07,-3.932755194466076e-13
	-2.142796153632459e-06,1.437189610358251e-14
16		1.445439770745927e+00,0.000000000000000e+00
	-2.142796153632459e-02,1.470666056858305e-10
	1.000000000000000e+00,0.000000000000000e+00
	0.000000000000000e+00,0.000000000000000e+00
	7.962940658244184e-07,8.359744061641626e-15
	7.962942271353843e-07,1.125150265334024e-14
	2.142796153632456e-06,-1.470666056858306e-14
	9.819606215436252e-07,4.024360830852868e-13
	-4.246902440390890e-07,-5.808088910565610e-15
	-2.700066531136992e-06,-3.819213336061382e-13
	-2.142796153632459e-06,1.470666056858305e-14
	-9.819606215377696e-07,-4.024360830852869e-13
	-2.142796153632459e-06,1.470666056858305e-14
17		1.479108388168207e+00,0.000000000000000e+00
	-2.142796153632459e-02,1.504922269968273e-10
	1.000000000000000e+00,0.000000000000000e+00
	0.000000000000000e+00,0.000000000000000e+00
	7.962940658244184e-07,8.554467515538521e-15
	7.962942271353843e-07,1.151358381779138e-14
	2.142796153632456e-06,-1.504922269968269e-14
	9.819606215436252e-07,4.118100236620893e-13
	-4.246902440390890e-07,-5.943376680725346e-15
	-2.700066531136992e-06,-3.908174242816813e-13
	-2.142796153632459e-06,1.504922269968273e-14
	-9.819606215377696e-07,-4.118100236620894e-13
	-2.142796153632459e-06,1.504922269968273e-14
18		1.513561248436208e+00,0.000000000000000e+00
	-2.142796153632459e-02,1.539976412785778e-10
	1.000000000000000e+00,0.000000000000000e+00
	0.000000000000000e+00,0.000000000000000e+00
	7.962940658244184e-07,8.753726661343924e-15
	7.962942271353843e-07,1.178176963678301e-14
	2.142796153632456e-06,-1.539976412785780e-14
	9.819606215436252e-07,4.214023113643876e-13
	-4.246902440390890e-07,-6.081815707871096e-15
	-2.700066531136992e-06,-3.999207315286587e-13
	-2.142796153632459e-06,1.539976412785778e-14
	-9.819606215377696e-07,-4.214023113643877e-13
	-2.142796153632459e-06,1.539976412785778e-14
19		1.548816618912481e+00,0.000000000000000e+00
	-2.142796153632459e-02,1.575847071481341e-10
	1.000000000000000e+00,0.000000000000000e+00
	0.000000000000000e+00,0.000000000000000e+00
	7.962940658244184e-07,8.957627148894438e-15
	7.962942271353843e-07,1.205620230598622e-14
	2.142796153632456e-06,-1.575847071481343e-14
	9.819606215436252e-07,4.312180321500903e-13
	-4.246902440390890e-07,-6.223479394207506e-15
	-2.700066531136992e-06,-4.092360820410693e-13
	-2.142796153632459e-06,1.575847071481341e-14
	-9.819606215377696e-07,-4.312180321500903e-13
	-2.142796153632459e-06,1.575847071481341e-14
20		1.584893192461113e+00,0.000000000000000e+00
	-2.142796153632459e-02,1.612553265153005e-10
	1.000000000000000e+00,0.000000000000000e+00
	0.000000000000000e+00,0.000000000000000e+00
	7.962940658244183e-07,9.166277088927509e-15
	7.962942271353842e-07,1.233702733323477e-14
	2.142796153632456e-06,-1.612553265153009e-14
	9.819606215436252e-07,4.412623904442842e-13
	-4.246902440390889e-07,-6.368442851696214e-15
	-2.700066531136992e-06,-4.187684149410579e-13
	-2.142796153632459e-06,1.612553265153005e-14
	-9.819606215377696e-07,-4.412623904442842e-13
	-2.142796153632459e-06,1.612553265153005e-14
21		1.621810097358929e+00,0.000000000000000e+00
	-2.142796153632459e-02,1.650114455910519e-10
	1.000000000000000e+00,0.000000000000000e+00
	0.000000000000000e+00,0.000000000000000e+00
	7.962940658244183e-07,9.379787110403150e-15
	7.962942271353842e-07,1.262439361567525e-14
	2.142796153632456e-06,-1.650114455910518e-14
	9.819606215436252e-07,4.515407118986901e-13
	-4.246902440390889e-07,-6.516782941881196e-15
	-2.700066531136992e-06,-4.285227843977037e-13
	-2.142796153632459e-06,1.650114455910519e-14
	-9.819606215377696e-07,-4.515407118986902e-13
	-2.142796153632459e-06,1.650114455910519e-14
22		1.659586907437560e+00,0.000000000000000e+00
	-2.142796153632459e-02,1.688550559194403e-10
	1.000000000000000e+00,0.000000000000000e+00
	0.000000000000000e+00,0.000000000000000e+00
	7.962940658244183e-07,9.598270419160889e-15
	7.962942271353842e-07,1.291845351871438e-14
	2.142796153632456e-06,-1.688550559194407e-14
	9.819606215436252e-07,4.620584462153925e-13
	-4.246902440390889e-07,-6.668578316641785e-15
	-2.700066531136992e-06,-4.385043623068067e-13
	-2.142796153632459e-06,1.688550559194403e-14
	-9.819606215377696e-07,-4.620584462153924e-13
	-2.142796153632459e-06,1.688550559194403e-14
23		1.698243652461743e+00,0.000000000000000e+00
	-2.142796153632459e-02,1.727881954335382e-10
	1.000000000000000e+00,0.000000000000000e+00
	0.000000000000000e+00,0.000000000000000e+00
	7.962940658244183e-07,9.821842857942995e-15
	7.962942271353842e-07,1.321936295680508e-14
	2.142796153632456e-06,-1.727881954335381e-14
	9.819606215436252e-07,4.728211700363449e-13
	-4.246902440390889e-07,-6.823909459894928e-15
	-2.700066531136992e-06,-4.487184410330961e-13
	-2.142796153632459e-06,1.727881954335382e-14
	-9.819606215377696e-07,-4.728211700363450e-13
	-2.142796153632459e-06,1.727881954335382e-14
24		1.737800828749374e+00,0.000000000000000e+00
	-2.142796153632459e-02,1.768129495359770e-10
	1.000000000000000e+00,0.000000000000000e+00
	0.000000000000000e+00,0.000000000000000e+00
	7.962940658244183e-07,1.005062296781584e-14
	7.962942271353842e-07,1.352728147611442e-14
	2.142796153632456e-06,-1.768129495359767e-14
	9.819606215436252e-07,4.838345899001785e-13
	-4.246902440390889e-07,-6.982858730268824e-15
	-2.700066531136992e-06,-4.591704362163120e-13
	-2.142796153632459e-06,1.768129495359770e-14
	-9.819606215377696e-07,-4.838345899001784e-13
	-2.142796153632459e-06,1.768129495359770e-14
25		1.778279410038922e+00,0.000000000000000e+00
	-2.142796153632459e-02,1.809314522046558e-10
	1.000000000000000e+00,0.000000000000000e+00
	0.000000000000000e+00,0.000000000000000e+00
	7.962940658244183e-07,1.028473205102194e-14
	7.962942271353842e-07,1.384237233911714e-14
	2.142796153632456e-06,-1.809314522046560e-14
	9.819606215436252e-07,4.951045452678851e-13
	-4.246902440390889e-07,-7.145510404770574e-15
	-2.700066531136992e-06,-4.698658896426490e-13
	-2.142796153632459e-06,1.809314522046558e-14
	-9.819606215377696e-07,-4.951045452678853e-13
	-2.142796153632459e-06,1.809314522046558e-14
26		1.819700858609982e+00,0.000000000000000e+00
	-2.142796153632459e-02,1.851458871242045e-10
	1.000000000000000e+00,0.000000000000000e+00
	0.000000000000000e+00,0.000000000000000e+00
	7.962940658244183e-07,1.052429423529602e-14
	7.962942271353842e-07,1.416480261115952e-14
	2.142796153632456e-06,-1.851458871242041e-14
	9.819606215436252e-07,5.066370116189764e-13
	-4.246902440390889e-07,-7.311950723470942e-15
	-2.700066531136992e-06,-4.808104721830850e-13
	-2.142796153632459e-06,1.851458871242046e-14
	-9.819606215377696e-07,-5.066370116189764e-13
	-2.142796153632459e-06,1.851458871242046e-14
27		1.862087136662866e+00,0.000000000000000e+00
	-2.142796153632459e-02,1.894584888438020e-10
	1.000000000000000e+00,0.000000000000000e+00
	0.000000000000000e+00,0.000000000000000e+00
	7.962940658244183e-07,1.076943653967916e-14
	7.962942271353842e-07,1.449474324903967e-14
	2.142796153632456e-06,-1.894584888438015e-14
	9.819606215436252e-07,5.184381036197615e-13
	-4.246902440390889e-07,-7.482267935230005e-15
	-2.700066531136992e-06,-4.920099868001513e-13
	-2.142796153632459e-06,1.894584888438020e-14
	-9.819606215377696e-07,-5.184381036197616e-13
	-2.142796153632459e-06,1.894584888438020e-14
28		1.905460717963246e+00,0.000000000000000e+00
	-2.142796153632459e-02,1.938715439619640e-10
	1.000000000000000e+00,0.000000000000000e+00
	0.000000000000000e+00,0.000000000000000e+00
	7.962940658244183e-07,1.102028894186598e-14
	7.962942271353842e-07,1.483236919165106e-14
	2.142796153632456e-06,-1.938715439619642e-14
	9.819606215436252e-07,5.305140783654254e-13
	-4.246902440390889e-07,-7.656552344487851e-15
	-2.700066531136992e-06,-5.034703716247411e-13
	-2.142796153632459e-06,1.938715439619640e-14
	-9.819606215377696e-07,-5.305140783654255e-13
	-2.142796153632459e-06,1.938715439619640e-14
29		1.949844599758044e+00,0.000000000000000e+00
	-2.142796153632459e-02,1.983873923389279e-10
	1.000000000000000e+00,0.000000000000000e+00
	0.000000000000000e+00,0.000000000000000e+00
	7.962940658244183e-07,1.127698444712054e-14
	7.962942271353842e-07,1.517785945273749e-14
	2.142796153632456e-06,-1.983873923389282e-14
	9.819606215436252e-07,5.428713386976228e-13
	-4.246902440390889e-07,-7.834896359145197e-15
	-2.700066531136992e-06,-5.151977031045847e-13
	-2.142796153632459e-06,1.983873923389279e-14
	-9.819606215377696e-07,-5.428713386976227e-13
	-2.142796153632459e-06,1.983873923389279e-14
30		1.995262314968878e+00,0.000000000000000e+00
	-2.142796153632459e-02,2.030084283372775e-10
	1.000000000000000e+00,0.000000000000000e+00
	0.000000000000000e+00,0.000000000000000e+00
	7.962940658244183e-07,1.153965915879750e-14
	7.962942271353842e-07,1.553139721580847e-14
	2.142796153632456e-06,-2.030084283372764e-14
	9.819606215436252e-07,5.555164365993487e-13
	-4.246902440390889e-07,-8.017394539559274e-15
	-2.700066531136992e-06,-5.271981992260619e-13
	-2.142796153632459e-06,2.030084283372775e-14
	-9.819606215377696e-07,-5.555164365993490e-13
	-2.142796153632459e-06,2.030084283372775e-14
31		2.041737944669527e+00,0.000000000000000e+00
	-2.142796153632459e-02,2.077371020914657e-10
	1.000000000000000e+00,0.000000000000000e+00
	0.000000000000000e+00,0.000000000000000e+00
	7.962940658244183e-07,1.180845235050590e-14
	7.962942271353842e-07,1.589316993126562e-14
	2.142796153632456e-06,-2.077371020914661e-14
	9.819606215436252e-07,5.684560766688895e-13
	-4.246902440390889e-07,-8.204143648680986e-15
	-2.700066531136992e-06,-5.394782228110620e-13
	-2.142796153632459e-06,2.077371020914657e-14
	-9.819606215377696e-07,-5.684560766688897e-13
	-2.142796153632459e-06,2.077371020914657e-14
32		2.089296130854037e+00,0.000000000000000e+00
	-2.142796153632459e-02,2.125759208069084e-10
	1.000000000000000e+00,0.000000000000000e+00
	0.000000000000000e+00,0.000000000000000e+00
	7.962940658244183e-07,1.208350653995389e-14
