Title: * GA CMOS Amp | W=3.0266360500359062e-06 L=9.399948815188977e-07 Vbias=1.4656768460844223
Date: Sat Sep  6 22:16:43 2025
Plotname: AC Analysis
Flags: complex forward log
No. Variables: 13
No. Points:          901
Offset:    0.0000000000000000e+00
Command: Linear Technology Corporation LTspice
Variables:
	0	frequency	frequency
	1	V(out)	voltage
	2	V(g)	voltage
	3	V(vdd)	voltage
	4	V(m1#dbody)	voltage
	5	V(m1#sbody)	voltage
	6	Id(M1)	device_current
	7	Ig(M1)	device_current
	8	Ib(M1)	device_current
	9	Is(M1)	device_current
	10	I(Rload)	device_current
	11	I(Vg)	device_current
	12	I(Vdd)	device_current
Values:
0		1.000000000000000e+00,0.000000000000000e+00
	-1.271313617868160e-01,1.341956393536357e-09
	1.000000000000000e+00,0.000000000000000e+00
	0.000000000000000e+00,0.000000000000000e+00
	8.341723969293898e-05,1.459939169898282e-13
	8.341724064641613e-05,1.537473377762646e-13
	1.271313617868160e-05,-1.341956393536356e-13
	5.069634269243484e-05,6.535597204138638e-13
	-4.448919498147717e-05,-8.148549271522627e-14
	-1.892028388963928e-05,-4.378785883450019e-13
	-1.271313617868160e-05,1.341956393536357e-13
	-5.069634269228018e-05,-6.535597204138637e-13
	-1.271313617868160e-05,1.341956393536357e-13
1		1.023292992280754e+00,0.000000000000000e+00
	-1.271313617868160e-01,1.373214573452108e-09
	1.000000000000000e+00,0.000000000000000e+00
	0.000000000000000e+00,0.000000000000000e+00
	8.341723969293898e-05,1.493945521713094e-13
	8.341724064641613e-05,1.573285733282737e-13
	1.271313617868160e-05,-1.373214573452108e-13
	5.069634269243484e-05,6.687830819364759e-13
	-4.448919498147717e-05,-8.338353366803551e-14
	-1.892028388963928e-05,-4.480780909232295e-13
	-1.271313617868160e-05,1.373214573452108e-13
	-5.069634269228018e-05,-6.687830819364757e-13
	-1.271313617868160e-05,1.373214573452108e-13
2		1.047128548050899e+00,0.000000000000000e+00
	-1.271313617868160e-01,1.405200849911346e-09
	1.000000000000000e+00,0.000000000000000e+00
	0.000000000000000e+00,0.000000000000000e+00
	8.341723969293898e-05,1.528743983218224e-13
	8.341724064641613e-05,1.609932265723512e-13
	1.271313617868160e-05,-1.405200849911347e-13
	5.069634269243484e-05,6.843610411015210e-13
	-4.448919498147717e-05,-8.532578567410705e-14
	-1.892028388963928e-05,-4.585151704362793e-13
	-1.271313617868160e-05,1.405200849911347e-13
	-5.069634269228018e-05,-6.843610411015210e-13
	-1.271313617868160e-05,1.405200849911347e-13
3		1.071519305237606e+00,0.000000000000000e+00
	-1.271313617868160e-01,1.437932182461240e-09
	1.000000000000000e+00,0.000000000000000e+00
	0.000000000000000e+00,0.000000000000000e+00
	8.341723969293898e-05,1.564353005018575e-13
	8.341724064641613e-05,1.647432405561546e-13
	1.271313617868160e-05,-1.437932182461241e-13
	5.069634269243484e-05,7.003018575491474e-13
	-4.448919498147717e-05,-8.731327854116328e-14
	-1.892028388963928e-05,-4.691953607618601e-13
	-1.271313617868160e-05,1.437932182461240e-13
	-5.069634269228018e-05,-7.003018575491474e-13
	-1.271313617868160e-05,1.437932182461240e-13
4		1.096478196143185e+00,0.000000000000000e+00
	-1.271313617868160e-01,1.471425925687558e-09
	1.000000000000000e+00,0.000000000000000e+00
	0.000000000000000e+00,0.000000000000000e+00
	8.341723969293898e-05,1.600791467488847e-13
	8.341724064641613e-05,1.685806035867356e-13
	1.271313617868160e-05,-1.471425925687557e-13
	5.069634269243484e-05,7.166139833112373e-13
	-4.448919498147717e-05,-8.934706606422993e-14
	-1.892028388963928e-05,-4.801243246782517e-13
	-1.271313617868160e-05,1.471425925687558e-13
	-5.069634269228018e-05,-7.166139833112375e-13
	-1.271313617868160e-05,1.471425925687558e-13
5		1.122018454301963e+00,0.000000000000000e+00
	-1.271313617868160e-01,1.505699838416300e-09
	1.000000000000000e+00,0.000000000000000e+00
	0.000000000000000e+00,0.000000000000000e+00
	8.341723969293898e-05,1.638078690784162e-13
	8.341724064641613e-05,1.725073502847663e-13
	1.271313617868160e-05,-1.505699838416300e-13
	5.069634269243484e-05,7.333060672927866e-13
	-4.448919498147717e-05,-9.142822658437209e-14
	-1.892028388963928e-05,-4.913078568667845e-13
	-1.271313617868160e-05,1.505699838416300e-13
	-5.069634269228018e-05,-7.333060672927867e-13
	-1.271313617868160e-05,1.505699838416300e-13
6		1.148153621496882e+00,0.000000000000000e+00
	-1.271313617868160e-01,1.540772093129664e-09
	1.000000000000000e+00,0.000000000000000e+00
	0.000000000000000e+00,0.000000000000000e+00
	8.341723969293898e-05,1.676234445083865e-13
	8.341724064641613e-05,1.765255626633227e-13
	1.271313617868160e-05,-1.540772093129664e-13
	5.069634269243484e-05,7.503869598576678e-13
	-4.448919498147717e-05,-9.355786356044487e-14
	-1.892028388963928e-05,-5.027518869842566e-13
	-1.271313617868160e-05,1.540772093129664e-13
	-5.069634269228018e-05,-7.503869598576677e-13
	-1.271313617868160e-05,1.540772093129664e-13
7		1.174897554939529e+00,0.000000000000000e+00
	-1.271313617868160e-01,1.576661285601334e-09
	1.000000000000000e+00,0.000000000000000e+00
	0.000000000000000e+00,0.000000000000000e+00
	8.341723969293898e-05,1.715278961073938e-13
	8.341724064641613e-05,1.806373712317952e-13
	1.271313617868160e-05,-1.576661285601334e-13
	5.069634269243484e-05,7.678657175212109e-13
	-4.448919498147717e-05,-9.573710615416217e-14
	-1.892028388963928e-05,-5.144624828069153e-13
	-1.271313617868160e-05,1.576661285601334e-13
	-5.069634269228018e-05,-7.678657175212109e-13
	-1.271313617868160e-05,1.576661285601334e-13
8		1.202264434617413e+00,0.000000000000000e+00
	-1.271313617868160e-01,1.613386444756210e-09
	1.000000000000000e+00,0.000000000000000e+00
	0.000000000000000e+00,0.000000000000000e+00
	8.341723969293898e-05,1.755232940673573e-13
	8.341724064641613e-05,1.848449561255132e-13
	1.271313617868160e-05,-1.613386444756210e-13
	5.069634269243484e-05,7.857516077520882e-13
	-4.448919498147717e-05,-9.796710982879282e-14
	-1.892028388963928e-05,-5.264458534476743e-13
	-1.271313617868160e-05,1.613386444756210e-13
	-5.069634269228018e-05,-7.857516077520883e-13
	-1.271313617868160e-05,1.613386444756210e-13
9		1.230268770812381e+00,0.000000000000000e+00
	-1.271313617868160e-01,1.650967042759789e-09
	1.000000000000000e+00,0.000000000000000e+00
	0.000000000000000e+00,0.000000000000000e+00
	8.341723969293898e-05,1.796117568011608e-13
	8.341724064641613e-05,1.891505482616811e-13
	1.271313617868160e-05,-1.650967042759790e-13
	5.069634269243484e-05,8.040541138860478e-13
	-4.448919498147717e-05,-1.002490569618027e-13
	-1.892028388963928e-05,-5.387083526482661e-13
	-1.271313617868160e-05,1.650967042759789e-13
	-5.069634269228018e-05,-8.040541138860478e-13
	-1.271313617868160e-05,1.650967042759789e-13
10		1.258925411794167e+00,0.000000000000000e+00
	-1.271313617868160e-01,1.689423005342573e-09
	1.000000000000000e+00,0.000000000000000e+00
	0.000000000000000e+00,0.000000000000000e+00
	8.341723969293898e-05,1.837954520658629e-13
	8.341724064641613e-05,1.935564305222408e-13
	1.271313617868160e-05,-1.689423005342573e-13
	5.069634269243484e-05,8.227829401541040e-13
	-4.448919498147717e-05,-1.025841574717668e-13
	-1.892028388963928e-05,-5.512564821480800e-13
	-1.271313617868160e-05,1.689423005342573e-13
	-5.069634269228018e-05,-8.227829401541040e-13
	-1.271313617868160e-05,1.689423005342573e-13
11		1.288249551693134e+00,0.000000000000000e+00
	-1.271313617868160e-01,1.728774722364946e-09
	1.000000000000000e+00,0.000000000000000e+00
	0.000000000000000e+00,0.000000000000000e+00
	8.341723969293898e-05,1.880765981120708e-13
	8.341724064641613e-05,1.980649389642857e-13
	1.271313617868160e-05,-1.728774722364946e-13
	5.069634269243484e-05,8.419480168278499e-13
	-4.448919498147717e-05,-1.049736494598844e-13
	-1.892028388963928e-05,-5.640968951314709e-13
	-1.271313617868160e-05,1.728774722364946e-13
	-5.069634269228018e-05,-8.419480168278499e-13
	-1.271313617868160e-05,1.728774722364946e-13
12		1.318256738556407e+00,0.000000000000000e+00
	-1.271313617868160e-01,1.769043058628155e-09
	1.000000000000000e+00,0.000000000000000e+00
	0.000000000000000e+00,0.000000000000000e+00
	8.341723969293898e-05,1.924574648600857e-13
	8.341724064641613e-05,2.026784640586689e-13
	1.271313617868160e-05,-1.769043058628156e-13
	5.069634269243484e-05,8.615595054846172e-13
	-4.448919498147717e-05,-1.074187998664360e-13
	-1.892028388963928e-05,-5.772363997553656e-13
	-1.271313617868160e-05,1.769043058628156e-13
	-5.069634269228018e-05,-8.615595054846171e-13
	-1.271313617868160e-05,1.769043058628156e-13
13		1.348962882591653e+00,0.000000000000000e+00
	-1.271313617868160e-01,1.810249364937103e-09
	1.000000000000000e+00,0.000000000000000e+00
	0.000000000000000e+00,0.000000000000000e+00
	8.341723969293898e-05,1.969403751034453e-13
	8.341724064641613e-05,2.073994519574626e-13
	1.271313617868160e-05,-1.810249364937103e-13
	5.069634269243484e-05,8.816278043952807e-13
	-4.448919498147717e-05,-1.099209051425328e-13
	-1.892028388963928e-05,-5.906819627590377e-13
	-1.271313617868160e-05,1.810249364937103e-13
	-5.069634269228018e-05,-8.816278043952808e-13
	-1.271313617868160e-05,1.810249364937103e-13
14		1.380384264602885e+00,0.000000000000000e+00
	-1.271313617868160e-01,1.852415489420823e-09
	1.000000000000000e+00,0.000000000000000e+00
	0.000000000000000e+00,0.000000000000000e+00
	8.341723969293898e-05,2.015277057404986e-13
	8.341724064641613e-05,2.122304057909404e-13
	1.271313617868160e-05,-1.852415489420823e-13
	5.069634269243484e-05,9.021635540375582e-13
	-4.448919498147717e-05,-1.124812919375113e-13
	-1.892028388963928e-05,-6.044407131579646e-13
	-1.271313617868160e-05,1.852415489420823e-13
	-5.069634269228018e-05,-9.021635540375582e-13
	-1.271313617868160e-05,1.852415489420823e-13
15		1.412537544622754e+00,0.000000000000000e+00
	-1.271313617868160e-01,1.895563789116651e-09
	1.000000000000000e+00,0.000000000000000e+00
	0.000000000000000e+00,0.000000000000000e+00
	8.341723969293898e-05,2.062218890346702e-13
	8.341724064641613e-05,2.171738869947701e-13
	1.271313617868160e-05,-1.895563789116652e-13
	5.069634269243484e-05,9.231776427377328e-13
	-4.448919498147717e-05,-1.151013178023411e-13
	-1.892028388963928e-05,-6.185199460237266e-13
	-1.271313617868160e-05,1.895563789116651e-13
	-5.069634269228018e-05,-9.231776427377330e-13
	-1.271313617868160e-05,1.895563789116651e-13
16		1.445439770745927e+00,0.000000000000000e+00
	-1.271313617868160e-01,1.939717141824222e-09
	1.000000000000000e+00,0.000000000000000e+00
	0.000000000000000e+00,0.000000000000000e+00
	8.341723969293898e-05,2.110254139040772e-13
	8.341724064641613e-05,2.222325166681206e-13
	1.271313617868160e-05,-1.939717141824222e-13
	5.069634269243484e-05,9.446812124437873e-13
	-4.448919498147717e-05,-1.177823719094156e-13
	-1.892028388963928e-05,-6.329271263519496e-13
	-1.271313617868160e-05,1.939717141824222e-13
	-5.069634269228018e-05,-9.446812124437873e-13
	-1.271313617868160e-05,1.939717141824222e-13
17		1.479108388168207e+00,0.000000000000000e+00
	-1.271313617868160e-01,1.984898958235580e-09
	1.000000000000000e+00,0.000000000000000e+00
	0.000000000000000e+00,0.000000000000000e+00
	8.341723969293898e-05,2.159408272411879e-13
	8.341724064641613e-05,2.274089769634037e-13
	1.271313617868160e-05,-1.984898958235581e-13
	5.069634269243484e-05,9.666856646330140e-13
	-4.448919498147717e-05,-1.205258757891105e-13
	-1.892028388963928e-05,-6.476698930203455e-13
	-1.271313617868160e-05,1.984898958235580e-13
	-5.069634269228018e-05,-9.666856646330140e-13
	-1.271313617868160e-05,1.984898958235580e-13
18		1.513561248436208e+00,0.000000000000000e+00
	-1.271313617868160e-01,2.031133194347838e-09
	1.000000000000000e+00,0.000000000000000e+00
	0.000000000000000e+00,0.000000000000000e+00
	8.341723969293898e-05,2.209707352632165e-13
	8.341724064641613e-05,2.327060125083864e-13
	1.271313617868160e-05,-2.031133194347839e-13
	5.069634269243484e-05,9.892026663572266e-13
	-4.448919498147717e-05,-1.233332840834974e-13
	-1.892028388963928e-05,-6.627560628389453e-13
	-1.271313617868160e-05,2.031133194347839e-13
	-5.069634269228018e-05,-9.892026663572266e-13
	-1.271313617868160e-05,2.031133194347839e-13
19		1.548816618912481e+00,0.000000000000000e+00
	-1.271313617868160e-01,2.078444364164966e-09
	1.000000000000000e+00,0.000000000000000e+00
	0.000000000000000e+00,0.000000000000000e+00
	8.341723969293898e-05,2.261178048939751e-13
	8.341724064641613e-05,2.381264318614294e-13
	1.271313617868160e-05,-2.078444364164966e-13
	5.069634269243484e-05,1.012244156428787e-12
	-4.448919498147717e-05,-1.262060853176143e-13
	-1.892028388963928e-05,-6.781936346946758e-13
	-1.271313617868160e-05,2.078444364164966e-13
	-5.069634269228018e-05,-1.012244156428787e-12
	-1.271313617868160e-05,2.078444364164966e-13
20		1.584893192461113e+00,0.000000000000000e+00
	-1.271313617868160e-01,2.126857552695437e-09
	1.000000000000000e+00,0.000000000000000e+00
	0.000000000000000e+00,0.000000000000000e+00
	8.341723969293898e-05,2.313847651779115e-13
	8.341724064641613e-05,2.436731090006211e-13
	1.271313617868160e-05,-2.126857552695438e-13
	5.069634269243484e-05,1.035822351750721e-12
	-4.448919498147717e-05,-1.291458026887017e-13
	-1.892028388963928e-05,-6.939907937924754e-13
	-1.271313617868160e-05,2.126857552695437e-13
	-5.069634269228018e-05,-1.035822351750721e-12
	-1.271313617868160e-05,2.126857552695437e-13
21		1.621810097358929e+00,0.000000000000000e+00
	-1.271313617868160e-01,2.176398429252636e-09
	1.000000000000000e+00,0.000000000000000e+00
	0.000000000000000e+00,0.000000000000000e+00
	8.341723969293898e-05,2.367744087270848e-13
	8.341724064641613e-05,2.493489848476000e-13
	1.271313617868160e-05,-2.176398429252636e-13
	5.069634269243484e-05,1.059949753794283e-12
	-4.448919498147717e-05,-1.321539948738215e-13
	-1.892028388963928e-05,-7.101559159951979e-13
	-1.271313617868160e-05,2.176398429252636e-13
	-5.069634269228018e-05,-1.059949753794283e-12
	-1.271313617868160e-05,2.176398429252636e-13
22		1.659586907437560e+00,0.000000000000000e+00
	-1.271313617868160e-01,2.227093261065063e-09
	1.000000000000000e+00,0.000000000000000e+00
	0.000000000000000e+00,0.000000000000000e+00
	8.341723969293898e-05,2.422895932018449e-13
	8.341724064641613e-05,2.551570688268690e-13
	1.271313617868160e-05,-2.227093261065063e-13
	5.069634269243484e-05,1.084639155227400e-12
	-4.448919498147717e-05,-1.352322568562882e-13
	-1.892028388963928e-05,-7.266975722646058e-13
	-1.271313617868160e-05,2.227093261065063e-13
	-5.069634269228018e-05,-1.084639155227400e-12
	-1.271313617868160e-05,2.227093261065063e-13
23		1.698243652461743e+00,0.000000000000000e+00
	-1.271313617868160e-01,2.278968927203571e-09
	1.000000000000000e+00,0.000000000000000e+00
	0.000000000000000e+00,0.000000000000000e+00
	8.341723969293898e-05,2.479332428260024e-13
	8.341724064641613e-05,2.611004404614330e-13
	1.271313617868160e-05,-2.278968927203571e-13
	5.069634269243484e-05,1.109903646697516e-12
	-4.448919498147717e-05,-1.383822207713507e-13
	-1.892028388963928e-05,-7.436245332058083e-13
	-1.271313617868160e-05,2.278968927203571e-13
	-5.069634269228018e-05,-1.109903646697516e-12
	-1.271313617868160e-05,2.278968927203571e-13
24		1.737800828749374e+00,0.000000000000000e+00
	-1.271313617868160e-01,2.332052932833002e-09
	1.000000000000000e+00,0.000000000000000e+00
	0.000000000000000e+00,0.000000000000000e+00
	8.341723969293898e-05,2.537083499372909e-13
	8.341724064641613e-05,2.671822510056027e-13
	1.271313617868160e-05,-2.332052932833002e-13
	5.069634269243484e-05,1.135756623772422e-12
	-4.448919498147717e-05,-1.416055567715714e-13
	-1.892028388963928e-05,-7.609457737175503e-13
	-1.271313617868160e-05,2.332052932833002e-13
	-5.069634269228018e-05,-1.135756623772422e-12
	-1.271313617868160e-05,2.332052932833002e-13
25		1.778279410038922e+00,0.000000000000000e+00
	-1.271313617868160e-01,2.386373423795791e-09
	1.000000000000000e+00,0.000000000000000e+00
	0.000000000000000e+00,0.000000000000000e+00
	8.341723969293898e-05,2.596179765739431e-13
	8.341724064641613e-05,2.734057251158307e-13
	1.271313617868160e-05,-2.386373423795791e-13
	5.069634269243484e-05,1.162211794042768e-12
	-4.448919498147717e-05,-1.449039739123635e-13
	-1.892028388963928e-05,-7.786704777508259e-13
	-1.271313617868160e-05,2.386373423795791e-13
	-5.069634269228018e-05,-1.162211794042768e-12
	-1.271313617868160e-05,2.386373423795791e-13
26		1.819700858609982e+00,0.000000000000000e+00
	-1.271313617868160e-01,2.441959201535263e-09
	1.000000000000000e+00,0.000000000000000e+00
	0.000000000000000e+00,0.000000000000000e+00
	8.341723969293898e-05,2.656652560982249e-13
	8.341724064641613e-05,2.797741625604677e-13
	1.271313617868160e-05,-2.441959201535264e-13
	5.069634269243484e-05,1.189283184390008e-12
	-4.448919498147717e-05,-1.482792210581547e-13
	-1.892028388963928e-05,-7.968080431783268e-13
	-1.271313617868160e-05,2.441959201535264e-13
	-5.069634269228018e-05,-1.189283184390008e-12
	-1.271313617868160e-05,2.441959201535264e-13
27		1.862087136662866e+00,0.000000000000000e+00
	-1.271313617868160e-01,2.498839738366540e-09
	1.000000000000000e+00,0.000000000000000e+00
	0.000000000000000e+00,0.000000000000000e+00
	8.341723969293898e-05,2.718533948577854e-13
	8.341724064641613e-05,2.862909399693431e-13
	1.271313617868160e-05,-2.498839738366540e-13
	5.069634269243484e-05,1.216985148423635e-12
	-4.448919498147717e-05,-1.517330878096585e-13
	-1.892028388963928e-05,-8.153680867773223e-13
	-1.271313617868160e-05,2.498839738366540e-13
	-5.069634269228018e-05,-1.216985148423635e-12
	-1.271313617868160e-05,2.498839738366540e-13
28		1.905460717963246e+00,0.000000000000000e+00
	-1.271313617868160e-01,2.557045193103154e-09
	1.000000000000000e+00,0.000000000000000e+00
	0.000000000000000e+00,0.000000000000000e+00
	8.341723969293898e-05,2.781856738857046e-13
	8.341724064641613e-05,2.929595126240989e-13
	1.271313617868160e-05,-2.557045193103153e-13
	5.069634269243484e-05,1.245332374091659e-12
	-4.448919498147717e-05,-1.552674054527439e-13
	-1.892028388963928e-05,-8.343604493285997e-13
	-1.271313617868160e-05,2.557045193103154e-13
	-5.069634269228018e-05,-1.245332374091659e-12
	-1.271313617868160e-05,2.557045193103154e-13
29		1.949844599758044e+00,0.000000000000000e+00
	-1.271313617868160e-01,2.616606427047645e-09
	1.000000000000000e+00,0.000000000000000e+00
	0.000000000000000e+00,0.000000000000000e+00
	8.341723969293898e-05,2.846654506401407e-13
	8.341724064641613e-05,2.997834162902255e-13
	1.271313617868160e-05,-2.616606427047645e-13
	5.069634269243484e-05,1.274339891468349e-12
	-4.448919498147717e-05,-1.588840479294074e-13
	-1.892028388963928e-05,-8.537952008341774e-13
	-1.271313617868160e-05,2.616606427047645e-13
	-5.069634269228018e-05,-1.274339891468350e-12
	-1.271313617868160e-05,2.616606427047645e-13
30		1.995262314968878e+00,0.000000000000000e+00
	-1.271313617868160e-01,2.677555020354638e-09
	1.000000000000000e+00,0.000000000000000e+00
	0.000000000000000e+00,0.000000000000000e+00
	8.341723969293898e-05,2.912961607844989e-13
	8.341724064641613e-05,3.067662690917718e-13
	1.271313617868160e-05,-2.677555020354637e-13
	5.069634269243484e-05,1.304023080723378e-12
	-4.448919498147717e-05,-1.625849328313621e-13
	-1.892028388963928e-05,-8.736826458565528e-13
	-1.271313617868160e-05,2.677555020354638e-13
	-5.069634269228018e-05,-1.304023080723378e-12
	-1.271313617868160e-05,2.677555020354638e-13
31		2.041737944669527e+00,0.000000000000000e+00
	-1.271313617868160e-01,2.739923288775052e-09
	1.000000000000000e+00,0.000000000000000e+00
	0.000000000000000e+00,0.000000000000000e+00
	8.341723969293898e-05,2.980813200090655e-13
	8.341724064641613e-05,3.139117734297221e-13
	1.271313617868160e-05,-2.739923288775052e-13
	5.069634269243484e-05,1.334397680276593e-12
	-4.448919498147717e-05,-1.663720224167698e-13
	-1.892028388963928e-05,-8.940333289823182e-13
	-1.271313617868160e-05,2.739923288775053e-13
	-5.069634269228018e-05,-1.334397680276593e-12
	-1.271313617868160e-05,2.739923288775053e-13
32		2.089296130854037e+00,0.000000000000000e+00
	-1.271313617868160e-01,2.803744300790348e-09
	1.000000000000000e+00,0.000000000000000e+00
	0.000000000000000e+00,0.000000000000000e+00
	8.341723969293898e-05,3.050245258950737e-13
