Title: * GA CMOS Amp | W=5e-05 L=8.480342601475386e-07 Vbias=1.2942694089040947
Date: Sat Sep  6 22:07:53 2025
Plotname: AC Analysis
Flags: complex forward log
No. Variables: 13
No. Points:          901
Offset:    0.0000000000000000e+00
Command: Linear Technology Corporation LTspice
Variables:
	0	frequency	frequency
	1	V(out)	voltage
	2	V(g)	voltage
	3	V(vdd)	voltage
	4	V(m1#dbody)	voltage
	5	V(m1#sbody)	voltage
	6	Id(M1)	device_current
	7	Ig(M1)	device_current
	8	Ib(M1)	device_current
	9	Is(M1)	device_current
	10	I(Rload)	device_current
	11	I(Vg)	device_current
	12	I(Vdd)	device_current
Values:
0		1.000000000000000e+00,0.000000000000000e+00
	9.349449658085596e-03,9.643892308526488e-10
	1.000000000000000e+00,0.000000000000000e+00
	0.000000000000000e+00,0.000000000000000e+00
	3.307545792331809e-04,1.443750921915389e-13
	3.307545791549986e-04,1.332372302751876e-13
	-9.349449658085663e-07,-9.643892308526442e-14
	2.375019251613975e-04,1.107015105302964e-11
	-1.764024423547168e-04,-7.205176632183330e-14
	-6.016453784087212e-05,-1.090166036362254e-11
	9.349449658085596e-07,9.643892308526488e-14
	-2.375019251613930e-04,-1.107015105302964e-11
	9.349449658085596e-07,9.643892308526488e-14
1		1.023292992280754e+00,0.000000000000000e+00
	9.349449658085596e-03,9.868527417625419e-10
	1.000000000000000e+00,0.000000000000000e+00
	0.000000000000000e+00,0.000000000000000e+00
	3.307545792331809e-04,1.477380200994896e-13
	3.307545791549986e-04,1.363407240514967e-13
	-9.349449658085663e-07,-9.868527417625448e-14
	2.375019251613975e-04,1.132800799605465e-11
	-1.764024423547168e-04,-7.373006755858247e-14
	-6.016453784087212e-05,-1.115559265431981e-11
	9.349449658085596e-07,9.868527417625419e-14
	-2.375019251613930e-04,-1.132800799605464e-11
	9.349449658085596e-07,9.868527417625419e-14
2		1.047128548050899e+00,0.000000000000000e+00
	9.349449658085596e-03,1.009839495058658e-09
	1.000000000000000e+00,0.000000000000000e+00
	0.000000000000000e+00,0.000000000000000e+00
	3.307545792331809e-04,1.511792806612409e-13
	3.307545791549986e-04,1.395165074843806e-13
	-9.349449658085663e-07,-1.009839495058679e-13
	2.375019251613975e-04,1.159187119886307e-11
	-1.764024423547168e-04,-7.544746145308402e-14
	-6.016453784087212e-05,-1.141543978790411e-11
	9.349449658085596e-07,1.009839495058658e-13
	-2.375019251613930e-04,-1.159187119886307e-11
	9.349449658085596e-07,1.009839495058658e-13
3		1.071519305237606e+00,0.000000000000000e+00
	9.349449658085596e-03,1.033361678621860e-09
	1.000000000000000e+00,0.000000000000000e+00
	0.000000000000000e+00,0.000000000000000e+00
	3.307545792331809e-04,1.547006984786931e-13
	3.307545791549986e-04,1.427662644162520e-13
	-9.349449658085663e-07,-1.033361678621867e-13
	2.375019251613975e-04,1.186188056521768e-11
	-1.764024423547168e-04,-7.720485859031318e-14
	-6.016453784087213e-05,-1.168133953876518e-11
	9.349449658085596e-07,1.033361678621860e-13
	-2.375019251613930e-04,-1.186188056521768e-11
	9.349449658085596e-07,1.033361678621860e-13
4		1.096478196143185e+00,0.000000000000000e+00
	9.349449658085596e-03,1.057431764225225e-09
	1.000000000000000e+00,0.000000000000000e+00
	0.000000000000000e+00,0.000000000000000e+00
	3.307545792331809e-04,1.583041406541846e-13
	3.307545791549986e-04,1.460917179112519e-13
	-9.349449658085663e-07,-1.057431764225246e-13
	2.375019251613975e-04,1.213817925765852e-11
	-1.764024423547168e-04,-7.900319076549405e-14
	-6.016453784087213e-05,-1.195343289047050e-11
	9.349449658085596e-07,1.057431764225226e-13
	-2.375019251613930e-04,-1.213817925765852e-11
	9.349449658085596e-07,1.057431764225226e-13
5		1.122018454301963e+00,0.000000000000000e+00
	9.349449658085596e-03,1.082062514146748e-09
	1.000000000000000e+00,0.000000000000000e+00
	0.000000000000000e+00,0.000000000000000e+00
	3.307545792331809e-04,1.619915177804539e-13
	3.307545791549986e-04,1.494946311688408e-13
	-9.349449658085663e-07,-1.082062514146754e-13
	2.375019251613975e-04,1.242091377340957e-11
	-1.764024423547168e-04,-8.084341147814966e-14
	-6.016453784087213e-05,-1.223186411051675e-11
	9.349449658085596e-07,1.082062514146748e-13
	-2.375019251613930e-04,-1.242091377340957e-11
	9.349449658085596e-07,1.082062514146748e-13
6		1.148153621496882e+00,0.000000000000000e+00
	9.349449658085596e-03,1.107266987936062e-09
	1.000000000000000e+00,0.000000000000000e+00
	0.000000000000000e+00,0.000000000000000e+00
	3.307545792331809e-04,1.657647849536617e-13
	3.307545791549986e-04,1.529768084586708e-13
	-9.349449658085663e-07,-1.107266987936076e-13
	2.375019251613975e-04,1.271023402205351e-11
	-1.764024423547168e-04,-8.272649643766001e-14
	-6.016453784087213e-05,-1.251678082682224e-11
	9.349449658085596e-07,1.107266987936062e-13
	-2.375019251613930e-04,-1.271023402205351e-11
	9.349449658085596e-07,1.107266987936062e-13
7		1.174897554939529e+00,0.000000000000000e+00
	9.349449658085596e-03,1.133058549338790e-09
	1.000000000000000e+00,0.000000000000000e+00
	0.000000000000000e+00,0.000000000000000e+00
	3.307545792331809e-04,1.696259428100082e-13
	3.307545791549986e-04,1.565400960772330e-13
	-9.349449658085663e-07,-1.133058549338784e-13
	2.375019251613975e-04,1.300629340501578e-11
	-1.764024423547168e-04,-8.465344408059626e-14
	-6.016453784087213e-05,-1.280833410600131e-11
	9.349449658085596e-07,1.133058549338790e-13
	-2.375019251613930e-04,-1.300629340501578e-11
	9.349449658085596e-07,1.133058549338790e-13
8		1.202264434617413e+00,0.000000000000000e+00
	9.349449658085596e-03,1.159450873382181e-09
	1.000000000000000e+00,0.000000000000000e+00
	0.000000000000000e+00,0.000000000000000e+00
	3.307545792331809e-04,1.735770385864974e-13
	3.307545791549986e-04,1.601863833267885e-13
	-9.349449658085663e-07,-1.159450873382185e-13
	2.375019251613975e-04,1.330924889690004e-11
	-1.764024423547168e-04,-8.662527610010484e-14
	-6.016453784087213e-05,-1.310667853346172e-11
	9.349449658085596e-07,1.159450873382182e-13
	-2.375019251613930e-04,-1.330924889690004e-11
	9.349449658085596e-07,1.159450873382182e-13
9		1.230268770812381e+00,0.000000000000000e+00
	9.349449658085596e-03,1.186457953625786e-09
	1.000000000000000e+00,0.000000000000000e+00
	0.000000000000000e+00,0.000000000000000e+00
	3.307545792331809e-04,1.776201672064088e-13
	3.307545791549986e-04,1.639176035171013e-13
	-9.349449658085663e-07,-1.186457953625788e-13
	2.375019251613975e-04,1.361926112871817e-11
	-1.764024423547168e-04,-8.864303798762279e-14
	-6.016453784087213e-05,-1.341197229536796e-11
	9.349449658085596e-07,1.186457953625786e-13
	-2.375019251613930e-04,-1.361926112871816e-11
	9.349449658085596e-07,1.186457953625786e-13
10		1.258925411794167e+00,0.000000000000000e+00
	9.349449658085596e-03,1.214094109581031e-09
	1.000000000000000e+00,0.000000000000000e+00
	0.000000000000000e+00,0.000000000000000e+00
	3.307545792331809e-04,1.817574723900540e-13
	3.307545791549986e-04,1.677357349905049e-13
	-9.349449658085731e-07,-1.214094109581039e-13
	2.375019251613975e-04,1.393649447305897e-11
	-1.764024423547168e-04,-9.070779958721109e-14
	-6.016453784087213e-05,-1.372437726251366e-11
	9.349449658085596e-07,1.214094109581031e-13
	-2.375019251613930e-04,-1.393649447305897e-11
	9.349449658085596e-07,1.214094109581031e-13
11		1.288249551693134e+00,0.000000000000000e+00
	9.349449658085596e-03,1.242373994303611e-09
	1.000000000000000e+00,0.000000000000000e+00
	0.000000000000000e+00,0.000000000000000e+00
	3.307545792331809e-04,1.859911477914049e-13
	3.307545791549986e-04,1.716428021708454e-13
	-9.349449658085731e-07,-1.242373994303613e-13
	2.375019251613975e-04,1.426111713124071e-11
	-1.764024423547168e-04,-9.282065566280020e-14
	-6.016453784087213e-05,-1.404405907614755e-11
	9.349449658085596e-07,1.242373994303611e-13
	-2.375019251613930e-04,-1.426111713124071e-11
	9.349449658085596e-07,1.242373994303611e-13
12		1.318256738556407e+00,0.000000000000000e+00
	9.349449658085596e-03,1.271312602162734e-09
	1.000000000000000e+00,0.000000000000000e+00
	0.000000000000000e+00,0.000000000000000e+00
	3.307545792331809e-04,1.903234381611987e-13
	3.307545791549986e-04,1.756408766368578e-13
	-9.349449658085731e-07,-1.271312602162755e-13
	2.375019251613975e-04,1.459330122249363e-11
	-1.764024423547168e-04,-9.498272647864833e-14
	-6.016453784087213e-05,-1.437118723579870e-11
	9.349449658085596e-07,1.271312602162734e-13
	-2.375019251613930e-04,-1.459330122249363e-11
	9.349449658085596e-07,1.271312602162734e-13
13		1.348962882591653e+00,0.000000000000000e+00
	9.349449658085596e-03,1.300925276791337e-09
	1.000000000000000e+00,0.000000000000000e+00
	0.000000000000000e+00,0.000000000000000e+00
	3.307545792331809e-04,1.947566405371340e-13
	3.307545791549986e-04,1.797320782205450e-13
	-9.349449658085731e-07,-1.300925276791344e-13
	2.375019251613975e-04,1.493322287521989e-11
	-1.764024423547168e-04,-9.719515839332045e-14
	-6.016453784087213e-05,-1.470593518914744e-11
	9.349449658085596e-07,1.300925276791337e-13
	-2.375019251613930e-04,-1.493322287521989e-11
	9.349449658085596e-07,1.300925276791337e-13
14		1.380384264602885e+00,0.000000000000000e+00
	9.349449658085596e-03,1.331227719221475e-09
	1.000000000000000e+00,0.000000000000000e+00
	0.000000000000000e+00,0.000000000000000e+00
	3.307545792331809e-04,1.992931054617912e-13
	3.307545791549986e-04,1.839185761311401e-13
	-9.349449658085731e-07,-1.331227719221491e-13
	2.375019251613975e-04,1.528106232037917e-11
	-1.764024423547168e-04,-9.945912446750276e-14
	-6.016453784087213e-05,-1.504848042398952e-11
	9.349449658085596e-07,1.331227719221475e-13
	-2.375019251613930e-04,-1.528106232037917e-11
	9.349449658085596e-07,1.331227719221475e-13
15		1.412537544622754e+00,0.000000000000000e+00
	9.349449658085596e-03,1.362235996209227e-09
	1.000000000000000e+00,0.000000000000000e+00
	0.000000000000000e+00,0.000000000000000e+00
	3.307545792331809e-04,2.039352382289202e-13
	3.307545791549986e-04,1.882025901052501e-13
	-9.349449658085731e-07,-1.362235996209219e-13
	2.375019251613975e-04,1.563700398704949e-11
	-1.764024423547168e-04,-1.017758250859749e-13
	-6.016453784087213e-05,-1.539900456234259e-11
	9.349449658085596e-07,1.362235996209227e-13
	-2.375019251613930e-04,-1.563700398704949e-11
	9.349449658085596e-07,1.362235996209227e-13
16		1.445439770745927e+00,0.000000000000000e+00
	9.349449658085596e-03,1.393966548753494e-09
	1.000000000000000e+00,0.000000000000000e+00
	0.000000000000000e+00,0.000000000000000e+00
	3.307545792331809e-04,2.086855001587601e-13
	3.307545791549986e-04,1.925863915837895e-13
	-9.349449658085731e-07,-1.393966548753521e-13
	2.375019251613975e-04,1.600123660021395e-11
	-1.764024423547168e-04,-1.041464885940698e-13
	-6.016453784087213e-05,-1.575769345674453e-11
	9.349449658085596e-07,1.393966548753494e-13
	-2.375019251613930e-04,-1.600123660021395e-11
	9.349449658085596e-07,1.393966548753494e-13
17		1.479108388168207e+00,0.000000000000000e+00
	9.349449658085596e-03,1.426436200813239e-09
	1.000000000000000e+00,0.000000000000000e+00
	0.000000000000000e+00,0.000000000000000e+00
	3.307545792331809e-04,2.135464099030634e-13
	3.307545791549986e-04,1.970723049163290e-13
	-9.349449658085731e-07,-1.426436200813215e-13
	2.375019251613975e-04,1.637395328082525e-11
	-1.764024423547168e-04,-1.065723719489592e-13
	-6.016453784087213e-05,-1.612473728879497e-11
	9.349449658085596e-07,1.426436200813239e-13
	-2.375019251613930e-04,-1.637395328082525e-11
	9.349449658085596e-07,1.426436200813239e-13
18		1.513561248436208e+00,0.000000000000000e+00
	9.349449658085597e-03,1.459662168227769e-09
	1.000000000000000e+00,0.000000000000000e+00
	0.000000000000000e+00,0.000000000000000e+00
	3.307545792331809e-04,2.185205447805182e-13
	3.307545791549986e-04,2.016627085934955e-13
	-9.349449658085663e-07,-1.459662168227779e-13
	2.375019251613975e-04,1.675535164820095e-11
	-1.764024423547168e-04,-1.090547613861079e-13
	-6.016453784087214e-05,-1.650033066999206e-11
	9.349449658085597e-07,1.459662168227769e-13
	-2.375019251613930e-04,-1.675535164820095e-11
	9.349449658085597e-07,1.459662168227769e-13
19		1.548816618912481e+00,0.000000000000000e+00
	9.349449658085597e-03,1.493662067844808e-09
	1.000000000000000e+00,0.000000000000000e+00
	0.000000000000000e+00,0.000000000000000e+00
	3.307545792331809e-04,2.236105421432770e-13
	3.307545791549986e-04,2.063600365080798e-13
	-9.349449658085663e-07,-1.493662067844805e-13
	2.375019251613975e-04,1.714563392480381e-11
	-1.764024423547168e-04,-1.115949731012540e-13
	-6.016453784087214e-05,-1.688467274491808e-11
	9.349449658085597e-07,1.493662067844808e-13
	-2.375019251613930e-04,-1.714563392480381e-11
	9.349449658085597e-07,1.493662067844808e-13
20		1.584893192461113e+00,0.000000000000000e+00
	9.349449658085597e-03,1.528453926861172e-09
	1.000000000000000e+00,0.000000000000000e+00
	0.000000000000000e+00,0.000000000000000e+00
	3.307545792331809e-04,2.288191007753156e-13
	3.307545791549986e-04,2.111667792455186e-13
	-9.349449658085663e-07,-1.528453926861178e-13
	2.375019251613975e-04,1.754500704346290e-11
	-1.764024423547168e-04,-1.141943539482725e-13
	-6.016453784087214e-05,-1.727796729682851e-11
	9.349449658085597e-07,1.528453926861172e-13
	-2.375019251613930e-04,-1.754500704346290e-11
	9.349449658085597e-07,1.528453926861172e-13
21		1.621810097358929e+00,0.000000000000000e+00
	9.349449658085597e-03,1.564056192381037e-09
	1.000000000000000e+00,0.000000000000000e+00
	0.000000000000000e+00,0.000000000000000e+00
	3.307545792331809e-04,2.341489823233641e-13
	3.307545791549986e-04,2.160854854044362e-13
	-9.349449658085731e-07,-1.564056192381067e-13
	2.375019251613975e-04,1.795368275709206e-11
	-1.764024423547168e-04,-1.168542821532953e-13
	-6.016453784087214e-05,-1.768042285570066e-11
	9.349449658085597e-07,1.564056192381037e-13
	-2.375019251613930e-04,-1.795368275709206e-11
	9.349449658085597e-07,1.564056192381037e-13
22		1.659586907437560e+00,0.000000000000000e+00
	9.349449658085597e-03,1.600487741196835e-09
	1.000000000000000e+00,0.000000000000000e+00
	0.000000000000000e+00,0.000000000000000e+00
	3.307545792331809e-04,2.396030127611687e-13
	3.307545791549986e-04,2.211187629479447e-13
	-9.349449658085731e-07,-1.600487741196835e-13
	2.375019251613975e-04,1.837187775096411e-11
	-1.764024423547168e-04,-1.195761680454651e-13
	-6.016453784087214e-05,-1.809225280879897e-11
	9.349449658085597e-07,1.600487741196835e-13
	-2.375019251613930e-04,-1.837187775096411e-11
	9.349449658085597e-07,1.600487741196835e-13
23		1.698243652461743e+00,0.000000000000000e+00
	9.349449658085597e-03,1.637767889797974e-09
	1.000000000000000e+00,0.000000000000000e+00
	0.000000000000000e+00,0.000000000000000e+00
	3.307545792331809e-04,2.451840838878601e-13
	3.307545791549986e-04,2.262692805864211e-13
	-9.349449658085731e-07,-1.637767889797975e-13
	2.375019251613975e-04,1.879981375760028e-11
	-1.764024423547168e-04,-1.223614548047103e-13
	-6.016453784087214e-05,-1.851367551381577e-11
	9.349449658085597e-07,1.637767889797974e-13
	-2.375019251613930e-04,-1.879981375760027e-11
	9.349449658085597e-07,1.637767889797974e-13
24		1.737800828749374e+00,0.000000000000000e+00
	9.349449658085597e-03,1.675916404612705e-09
	1.000000000000000e+00,0.000000000000000e+00
	0.000000000000000e+00,0.000000000000000e+00
	3.307545792331809e-04,2.508951548612237e-13
	3.307545791549986e-04,2.315397691924924e-13
	-9.349449658085731e-07,-1.675916404612701e-13
	2.375019251613975e-04,1.923771767433567e-11
	-1.764024423547168e-04,-1.252116192269382e-13
	-6.016453784087214e-05,-1.894491441464746e-11
	9.349449658085597e-07,1.675916404612705e-13
	-2.375019251613930e-04,-1.923771767433567e-11
	9.349449658085597e-07,1.675916404612705e-13
25		1.778279410038922e+00,0.000000000000000e+00
	9.349449658085597e-03,1.714953512488538e-09
	1.000000000000000e+00,0.000000000000000e+00
	0.000000000000000e+00,0.000000000000000e+00
	3.307545792331809e-04,2.567392537666849e-13
	3.307545791549986e-04,2.369330232489807e-13
	-9.349449658085731e-07,-1.714953512488585e-13
	2.375019251613975e-04,1.968582168362330e-11
	-1.764024423547168e-04,-1.281281725070520e-13
	-6.016453784087214e-05,-1.938619815986739e-11
	9.349449658085597e-07,1.714953512488538e-13
	-2.375019251613930e-04,-1.968582168362330e-11
	9.349449658085597e-07,1.714953512488538e-13
26		1.819700858609982e+00,0.000000000000000e+00
	9.349449658085597e-03,1.754899911416785e-09
	1.000000000000000e+00,0.000000000000000e+00
	0.000000000000000e+00,0.000000000000000e+00
	3.307545792331809e-04,2.627194792228387e-13
	3.307545791549986e-04,2.424519023305749e-13
	-9.349449658085731e-07,-1.754899911416781e-13
	2.375019251613975e-04,2.014436337614024e-11
	-1.764024423547168e-04,-1.311126610402059e-13
	-6.016453784087214e-05,-1.983776072395836e-11
	9.349449658085597e-07,1.754899911416786e-13
	-2.375019251613930e-04,-2.014436337614024e-11
	9.349449658085597e-07,1.754899911416786e-13
27		1.862087136662866e+00,0.000000000000000e+00
	9.349449658085597e-03,1.795776781506913e-09
	1.000000000000000e+00,0.000000000000000e+00
	0.000000000000000e+00,0.000000000000000e+00
	3.307545792331808e-04,2.688390020243801e-13
	3.307545791549986e-04,2.480993326200152e-13
	-9.349449658085731e-07,-1.795776781506928e-13
	2.375019251613975e-04,2.061358587676138e-11
	-1.764024423547168e-04,-1.341666672417245e-13
	-6.016453784087214e-05,-2.029984153136896e-11
	9.349449658085597e-07,1.795776781506913e-13
	-2.375019251613930e-04,-2.061358587676137e-11
	9.349449658085597e-07,1.795776781506913e-13
28		1.905460717963246e+00,0.000000000000000e+00
	9.349449658085597e-03,1.837605796216511e-09
	1.000000000000000e+00,0.000000000000000e+00
	0.000000000000000e+00,0.000000000000000e+00
	3.307545792331808e-04,2.751010668232996e-13
	3.307545791549986e-04,2.538783084595934e-13
	-9.349449658085731e-07,-1.837605796216519e-13
	2.375019251613975e-04,2.109373797346745e-11
	-1.764024423547168e-04,-1.372918103861205e-13
	-6.016453784087214e-05,-2.077268558345967e-11
	9.349449658085597e-07,1.837605796216511e-13
	-2.375019251613930e-04,-2.109373797346744e-11
	9.349449658085597e-07,1.837605796216511e-13
29		1.949844599758044e+00,0.000000000000000e+00
	9.349449658085599e-03,1.880409133842851e-09
	1.000000000000000e+00,0.000000000000000e+00
	0.000000000000000e+00,0.000000000000000e+00
	3.307545792331808e-04,2.815089938492421e-13
	3.307545791549986e-04,2.597918939387938e-13
	-9.349449658085663e-07,-1.880409133842894e-13
	2.375019251613975e-04,2.158507424925567e-11
	-1.764024423547168e-04,-1.404897474656552e-13
	-6.016453784087215e-05,-2.125654358840573e-11
	9.349449658085600e-07,1.880409133842851e-13
	-2.375019251613930e-04,-2.158507424925567e-11
	9.349449658085600e-07,1.880409133842851e-13
30		1.995262314968878e+00,0.000000000000000e+00
	9.349449658085599e-03,1.924209489282112e-09
	1.000000000000000e+00,0.000000000000000e+00
	0.000000000000000e+00,0.000000000000000e+00
	3.307545792331808e-04,2.880661806699351e-13
	3.307545791549986e-04,2.658432245189124e-13
	-9.349449658085663e-07,-1.924209489282129e-13
	2.375019251613975e-04,2.208785521712309e-11
	-1.764024423547168e-04,-1.437621740688978e-13
	-6.016453784087215e-05,-2.175167209412598e-11
	9.349449658085600e-07,1.924209489282112e-13
	-2.375019251613930e-04,-2.208785521712309e-11
	9.349449658085600e-07,1.924209489282112e-13
31		2.041737944669527e+00,0.000000000000000e+00
	9.349449658085599e-03,1.969030086062514e-09
	1.000000000000000e+00,0.000000000000000e+00
	0.000000000000000e+00,0.000000000000000e+00
	3.307545792331808e-04,2.947761039926263e-13
	3.307545791549986e-04,2.720355086955223e-13
	-9.349449658085663e-07,-1.969030086062511e-13
	2.375019251613975e-04,2.260234745819395e-11
	-1.764024423547168e-04,-1.471108252797490e-13
	-6.016453784087215e-05,-2.225833362430795e-11
	9.349449658085600e-07,1.969030086062514e-13
	-2.375019251613930e-04,-2.260234745819395e-11
	9.349449658085600e-07,1.969030086062514e-13
32		2.089296130854037e+00,0.000000000000000e+00
	9.349449658085599e-03,2.014894688657741e-09
	1.000000000000000e+00,0.000000000000000e+00
	0.000000000000000e+00,0.000000000000000e+00
	3.307545792331808e-04,3.016423215074773e-13
	3.307545791549986e-04,2.783720296996581e-13
	-9.349449658085663e-07,-2.014894688657735e-13
