LTspice 24.0.9 for Windows
Circuit: * GA CMOS Amp | W=1e-06 L=7.166962894663475e-07 Vbias=1.171829269134076
Start Time: Mon Sep  8 18:45:10 2025
solver = Normal
Maximum thread count: 2
tnom = 27
temp = 27
method = modified trap
AsciiRawFile = 1
Instance "m1": Length shorter than recommended for a level 3 MOSFET.
Instance "m1": Width narrower than recommended for a level 3 MOSFET.
Direct Newton iteration for .op point succeeded.
Semiconductor Device Operating Points:
                        --- MOSFET Transistors ---
Name:          m1
Model:        n_1u
Id:          5.06e-06
Vgs:         1.17e+00
Vds:         1.75e+00
Vbs:         0.00e+00
Vth:         9.73e-01
Vdsat:       1.64e-01
Gm:          3.50e-05
Gds:         1.31e-06
Gmb:         1.68e-05
Cbd:         0.00e+00
Cbs:         0.00e+00
Cgsov:       2.00e-16
Cgdov:       2.00e-16
Cgbov:       5.17e-17
Cgs:         5.95e-16
Cgd:         0.00e+00
Cgb:         0.00e+00



gain_db: MAX(db(v(out)/v(g)))=(29.1897dB,108.687°) FROM 1 TO 1e+09
gain_lin: MAX(mag(v(out)/v(g)))=(-9.22476dB,0°) FROM 1 TO 1e+09

Measurement "fc" FAIL'ed

Total elapsed time: 0.541 seconds.

