LTspice 24.0.9 for Windows
Circuit: * GA CMOS Amp | W=3.439333340803354e-06 L=9.310087029357686e-07 Vbias=1.005267972892141
Start Time: Mon Sep  8 18:45:51 2025
solver = Normal
Maximum thread count: 2
tnom = 27
temp = 27
method = modified trap
AsciiRawFile = 1
Instance "m1": Length shorter than recommended for a level 3 MOSFET.
Direct Newton iteration for .op point succeeded.
Semiconductor Device Operating Points:
                        --- MOSFET Transistors ---
Name:          m1
Model:        n_1u
Id:          9.34e-06
Vgs:         1.01e+00
Vds:         1.71e+00
Vbs:         0.00e+00
Vth:         8.55e-01
Vdsat:       1.59e-01
Gm:          8.35e-05
Gds:         1.32e-06
Gmb:         2.54e-05
Cbd:         0.00e+00
Cbs:         0.00e+00
Cgsov:       6.88e-16
Cgdov:       6.88e-16
Cgbov:       7.31e-17
Cgs:         2.89e-15
Cgd:         0.00e+00
Cgb:         0.00e+00



gain_db: MAX(db(v(out)/v(g)))=(28.7357dB,93.5185°) FROM 1 TO 1e+09
gain_lin: MAX(mag(v(out)/v(g)))=(-1.6741dB,0°) FROM 1 TO 1e+09

Measurement "fc" FAIL'ed

Total elapsed time: 0.493 seconds.

