Title: * GA CMOS Amp | W=2.1020807290005663e-06 L=1e-06 Vbias=1.3708550900108631
Date: Sat Sep  6 22:15:47 2025
Plotname: AC Analysis
Flags: complex forward log
No. Variables: 13
No. Points:          901
Offset:    0.0000000000000000e+00
Command: Linear Technology Corporation LTspice
Variables:
	0	frequency	frequency
	1	V(out)	voltage
	2	V(g)	voltage
	3	V(vdd)	voltage
	4	V(m1#dbody)	voltage
	5	V(m1#sbody)	voltage
	6	Id(M1)	device_current
	7	Ig(M1)	device_current
	8	Ib(M1)	device_current
	9	Is(M1)	device_current
	10	I(Rload)	device_current
	11	I(Vg)	device_current
	12	I(Vdd)	device_current
Values:
0		1.000000000000000e+00,0.000000000000000e+00
	-4.338138564117912e-01,1.514645152863368e-09
	1.000000000000000e+00,0.000000000000000e+00
	0.000000000000000e+00,0.000000000000000e+00
	3.067820420420657e-05,1.284864446284825e-13
	3.067820745780843e-05,1.456791082875056e-13
	4.338138564117912e-05,-1.514645152863369e-13
	1.915223909628095e-05,4.622290550676887e-13
	-1.636171043962185e-05,-7.655031935804016e-14
	-4.617191429783822e-05,-2.342142204233117e-13
	-4.338138564117912e-05,1.514645152863368e-13
	-1.915223909643160e-05,-4.622290550676887e-13
	-4.338138564117912e-05,1.514645152863368e-13
1		1.023292992280754e+00,0.000000000000000e+00
	-4.338138564117912e-01,1.549925770717097e-09
	1.000000000000000e+00,0.000000000000000e+00
	0.000000000000000e+00,0.000000000000000e+00
	3.067820420420657e-05,1.314792783913952e-13
	3.067820745780843e-05,1.490724106323137e-13
	4.338138564117912e-05,-1.549925770717097e-13
	1.915223909628095e-05,4.729957528793207e-13
	-1.636171043962185e-05,-7.833340535593625e-14
	-4.617191429783822e-05,-2.396697704516747e-13
	-4.338138564117912e-05,1.549925770717097e-13
	-1.915223909643160e-05,-4.729957528793208e-13
	-4.338138564117912e-05,1.549925770717097e-13
2		1.047128548050899e+00,0.000000000000000e+00
	-4.338138564117912e-01,1.586028179730152e-09
	1.000000000000000e+00,0.000000000000000e+00
	0.000000000000000e+00,0.000000000000000e+00
	3.067820420420657e-05,1.345418242080451e-13
	3.067820745780843e-05,1.525447531424455e-13
	4.338138564117912e-05,-1.586028179730152e-13
	1.915223909628095e-05,4.840132392999682e-13
	-1.636171043962185e-05,-8.015802476221723e-14
	-4.617191429783822e-05,-2.452523965647357e-13
	-4.338138564117912e-05,1.586028179730152e-13
	-1.915223909643160e-05,-4.840132392999682e-13
	-4.338138564117912e-05,1.586028179730152e-13
3		1.071519305237606e+00,0.000000000000000e+00
	-4.338138564117912e-01,1.622971521877665e-09
	1.000000000000000e+00,0.000000000000000e+00
	0.000000000000000e+00,0.000000000000000e+00
	3.067820420420657e-05,1.376757058807617e-13
	3.067820745780843e-05,1.560979768998620e-13
	4.338138564117912e-05,-1.622971521877664e-13
	1.915223909628095e-05,4.952873559467651e-13
	-1.636171043962185e-05,-8.202514501424407e-14
	-4.617191429783822e-05,-2.509650587447545e-13
	-4.338138564117912e-05,1.622971521877665e-13
	-1.915223909643160e-05,-4.952873559467651e-13
	-4.338138564117912e-05,1.622971521877665e-13
4		1.096478196143185e+00,0.000000000000000e+00
	-4.338138564117912e-01,1.660775385008644e-09
	1.000000000000000e+00,0.000000000000000e+00
	0.000000000000000e+00,0.000000000000000e+00
	3.067820420420657e-05,1.408825850350896e-13
	3.067820745780843e-05,1.597339658708318e-13
	4.338138564117912e-05,-1.660775385008645e-13
	1.915223909628095e-05,5.068240805055881e-13
	-1.636171043962185e-05,-8.393575608388854e-14
	-4.617191429783822e-05,-2.568107859208351e-13
	-4.338138564117912e-05,1.660775385008644e-13
	-1.915223909643160e-05,-5.068240805055881e-13
	-4.338138564117912e-05,1.660775385008644e-13
5		1.122018454301963e+00,0.000000000000000e+00
	-4.338138564117912e-01,1.699459813231718e-09
	1.000000000000000e+00,0.000000000000000e+00
	0.000000000000000e+00,0.000000000000000e+00
	3.067820420420657e-05,1.441641620008047e-13
	3.067820745780843e-05,1.634546479048354e-13
	4.338138564117912e-05,-1.699459813231718e-13
	1.915223909628095e-05,5.186295299005051e-13
	-1.636171043962185e-05,-8.589087100242986e-14
	-4.617191429783822e-05,-2.627926775749035e-13
	-4.338138564117912e-05,1.699459813231718e-13
	-1.915223909643160e-05,-5.186295299005052e-13
	-4.338138564117912e-05,1.699459813231718e-13
6		1.148153621496882e+00,0.000000000000000e+00
	-4.338138564117912e-01,1.739045317542775e-09
	1.000000000000000e+00,0.000000000000000e+00
	0.000000000000000e+00,0.000000000000000e+00
	3.067820420420657e-05,1.475221767134508e-13
	3.067820745780843e-05,1.672619957567361e-13
	4.338138564117912e-05,-1.739045317542775e-13
	1.915223909628095e-05,5.307099635370487e-13
	-1.636171043962185e-05,-8.789152639767670e-14
	-4.617191429783822e-05,-2.689139053850944e-13
	-4.338138564117912e-05,1.739045317542775e-13
	-1.915223909643160e-05,-5.307099635370487e-13
	-4.338138564117912e-05,1.739045317542775e-13
7		1.174897554939529e+00,0.000000000000000e+00
	-4.338138564117912e-01,1.779552886700181e-09
	1.000000000000000e+00,0.000000000000000e+00
	0.000000000000000e+00,0.000000000000000e+00
	3.067820420420657e-05,1.509584096368772e-13
	3.067820745780843e-05,1.711580281327612e-13
	4.338138564117912e-05,-1.779552886700181e-13
	1.915223909628095e-05,5.430717866210363e-13
	-1.636171043962185e-05,-8.993878304360146e-14
	-4.617191429783822e-05,-2.751777149074168e-13
	-4.338138564117912e-05,1.779552886700181e-13
	-1.915223909643160e-05,-5.430717866210364e-13
	-4.338138564117912e-05,1.779552886700181e-13
8		1.202264434617413e+00,0.000000000000000e+00
	-4.338138564117912e-01,1.821003998353282e-09
	1.000000000000000e+00,0.000000000000000e+00
	0.000000000000000e+00,0.000000000000000e+00
	3.067820420420657e-05,1.544746827072639e-13
	3.067820745780843e-05,1.751448107608468e-13
	4.338138564117912e-05,-1.821003998353282e-13
	1.915223909628095e-05,5.557215535546956e-13
	-1.636171043962185e-05,-9.203372642277650e-14
	-4.617191429783822e-05,-2.815874272965909e-13
	-4.338138564117912e-05,1.821003998353282e-13
	-1.915223909643160e-05,-5.557215535546957e-13
	-4.338138564117912e-05,1.821003998353282e-13
9		1.230268770812381e+00,0.000000000000000e+00
	-4.338138564117912e-01,1.863420630430147e-09
	1.000000000000000e+00,0.000000000000000e+00
	0.000000000000000e+00,0.000000000000000e+00
	3.067820420420657e-05,1.580728602991361e-13
	3.067820745780843e-05,1.792244574859133e-13
	4.338138564117912e-05,-1.863420630430148e-13
	1.915223909628095e-05,5.686659714118937e-13
	-1.636171043962185e-05,-9.417746730191126e-14
	-4.617191429783822e-05,-2.881464410669677e-13
	-4.338138564117912e-05,1.863420630430147e-13
	-1.915223909643160e-05,-5.686659714118937e-13
	-4.338138564117912e-05,1.863420630430147e-13
10		1.258925411794167e+00,0.000000000000000e+00
	-4.338138564117912e-01,1.906825272790555e-09
	1.000000000000000e+00,0.000000000000000e+00
	0.000000000000000e+00,0.000000000000000e+00
	3.067820420420657e-05,1.617548502138806e-13
	3.067820745780843e-05,1.833991313906550e-13
	4.338138564117912e-05,-1.906825272790555e-13
	1.915223909628095e-05,5.819119034943187e-13
	-1.636171043962185e-05,-9.637114232079566e-14
	-4.617191429783822e-05,-2.948582338944674e-13
	-4.338138564117912e-05,1.906825272790555e-13
	-1.915223909643160e-05,-5.819119034943188e-13
	-4.338138564117912e-05,1.906825272790555e-13
11		1.288249551693134e+00,0.000000000000000e+00
	-4.338138564117912e-01,1.951240939150412e-09
	1.000000000000000e+00,0.000000000000000e+00
	0.000000000000000e+00,0.000000000000000e+00
	3.067820420420657e-05,1.655226046912872e-13
	3.067820745780843e-05,1.876710459424346e-13
	4.338138564117912e-05,-1.951240939150412e-13
	1.915223909628095e-05,5.954663729704908e-13
	-1.636171043962185e-05,-9.861591459496145e-14
	-4.617191429783822e-05,-3.017263644604881e-13
	-4.338138564117912e-05,1.951240939150412e-13
	-1.915223909643160e-05,-5.954663729704910e-13
	-4.338138564117912e-05,1.951240939150412e-13
12		1.318256738556407e+00,0.000000000000000e+00
	-4.338138564117912e-01,1.996691179283934e-09
	1.000000000000000e+00,0.000000000000000e+00
	0.000000000000000e+00,0.000000000000000e+00
	3.067820420420657e-05,1.693781214446516e-13
	3.067820745780843e-05,1.920424661668928e-13
	4.338138564117912e-05,-1.996691179283934e-13
	1.915223909628095e-05,6.093365665995411e-13
	-1.636171043962185e-05,-1.009129743323814e-13
	-4.617191429783822e-05,-3.087544743387663e-13
	-4.338138564117912e-05,1.996691179283934e-13
	-1.915223909643160e-05,-6.093365665995411e-13
	-4.338138564117912e-05,1.996691179283934e-13
13		1.348962882591653e+00,0.000000000000000e+00
	-4.338138564117912e-01,2.043200091510045e-09
	1.000000000000000e+00,0.000000000000000e+00
	0.000000000000000e+00,0.000000000000000e+00
	3.067820420420657e-05,1.733234447199905e-13
	3.067820745780843e-05,1.965157098488952e-13
	4.338138564117912e-05,-2.043200091510045e-13
	1.915223909628095e-05,6.235298385417254e-13
	-1.636171043962185e-05,-1.032635394645335e-13
	-4.617191429783822e-05,-3.159462899261874e-13
	-4.338138564117912e-05,2.043200091510045e-13
	-1.915223909643160e-05,-6.235298385417254e-13
	-4.338138564117912e-05,2.043200091510045e-13
14		1.380384264602885e+00,0.000000000000000e+00
	-4.338138564117912e-01,2.090792335469625e-09
	1.000000000000000e+00,0.000000000000000e+00
	0.000000000000000e+00,0.000000000000000e+00
	3.067820420420657e-05,1.773606663799270e-13
	3.067820745780843e-05,2.010931487614525e-13
	4.338138564117912e-05,-2.090792335469625e-13
	1.915223909628095e-05,6.380537142576978e-13
	-1.636171043962185e-05,-1.056688562921642e-13
	-4.617191429783822e-05,-3.233056244185711e-13
	-4.338138564117912e-05,2.090792335469625e-13
	-1.915223909643160e-05,-6.380537142576976e-13
	-4.338138564117912e-05,2.090792335469625e-13
15		1.412537544622754e+00,0.000000000000000e+00
	-4.338138564117912e-01,2.139493145200379e-09
	1.000000000000000e+00,0.000000000000000e+00
	0.000000000000000e+00,0.000000000000000e+00
	3.067820420420657e-05,1.814919270128241e-13
	3.067820745780843e-05,2.057772099232655e-13
	4.338138564117912e-05,-2.139493145200379e-13
	1.915223909628095e-05,6.529158944986088e-13
	-1.636171043962185e-05,-1.081302001460937e-13
	-4.617191429783822e-05,-3.308363798324772e-13
	-4.338138564117912e-05,2.139493145200379e-13
	-1.915223909643160e-05,-6.529158944986089e-13
	-4.338138564117912e-05,2.139493145200379e-13
16		1.445439770745927e+00,0.000000000000000e+00
	-4.338138564117912e-01,2.189328342516257e-09
	1.000000000000000e+00,0.000000000000000e+00
	0.000000000000000e+00,0.000000000000000e+00
	3.067820420420657e-05,1.857194170677529e-13
	3.067820745780843e-05,2.105703768855632e-13
	4.338138564117912e-05,-2.189328342516257e-13
	1.915223909628095e-05,6.681242593891464e-13
	-1.636171043962185e-05,-1.106488760634130e-13
	-4.617191429783822e-05,-3.385425490741077e-13
	-4.338138564117912e-05,2.189328342516257e-13
	-1.915223909643160e-05,-6.681242593891464e-13
	-4.338138564117912e-05,2.189328342516257e-13
17		1.479108388168207e+00,0.000000000000000e+00
	-4.338138564117912e-01,2.240324350698524e-09
	1.000000000000000e+00,0.000000000000000e+00
	0.000000000000000e+00,0.000000000000000e+00
	3.067820420420657e-05,1.900453780158982e-13
	3.067820745780843e-05,2.154751910489141e-13
	4.338138564117912e-05,-2.240324350698525e-13
	1.915223909628095e-05,6.836868726056823e-13
	-1.636171043962185e-05,-1.132262194794322e-13
	-4.617191429783822e-05,-3.464282180563976e-13
	-4.338138564117912e-05,2.240324350698524e-13
	-1.915223909643160e-05,-6.836868726056824e-13
	-4.338138564117912e-05,2.240324350698524e-13
18		1.513561248436208e+00,0.000000000000000e+00
	-4.338138564117912e-01,2.292508208505730e-09
	1.000000000000000e+00,0.000000000000000e+00
	0.000000000000000e+00,0.000000000000000e+00
	3.067820420420657e-05,1.944721035390156e-13
	3.067820745780843e-05,2.204942530107105e-13
	4.338138564117912e-05,-2.292508208505730e-13
	1.915223909628095e-05,6.996119856517395e-13
	-1.636171043962185e-05,-1.158635969357457e-13
	-4.617191429783822e-05,-3.544975678654208e-13
	-4.338138564117912e-05,2.292508208505730e-13
	-1.915223909643160e-05,-6.996119856517395e-13
	-4.338138564117912e-05,2.292508208505730e-13
19		1.548816618912481e+00,0.000000000000000e+00
	-4.338138564117912e-01,2.345907584510020e-09
	1.000000000000000e+00,0.000000000000000e+00
	0.000000000000000e+00,0.000000000000000e+00
	3.067820420420657e-05,1.990019407455718e-13
	3.067820745780843e-05,2.256302239440396e-13
	4.338138564117912e-05,-2.345907584510019e-13
	1.915223909628095e-05,7.159080422330484e-13
	-1.636171043962185e-05,-1.185624068047904e-13
	-4.617191429783822e-05,-3.627548769772561e-13
	-4.338138564117912e-05,2.345907584510020e-13
	-1.915223909643160e-05,-7.159080422330485e-13
	-4.338138564117912e-05,2.345907584510020e-13
20		1.584893192461113e+00,0.000000000000000e+00
	-4.338138564117912e-01,2.400550791767374e-09
	1.000000000000000e+00,0.000000000000000e+00
	0.000000000000000e+00,0.000000000000000e+00
	3.067820420420657e-05,2.036372914152135e-13
	3.067820745780843e-05,2.308858270086730e-13
	4.338138564117912e-05,-2.400550791767375e-13
	1.915223909628095e-05,7.325836827345127e-13
	-1.636171043962185e-05,-1.213240800312820e-13
	-4.617191429783822e-05,-3.712045235264933e-13
	-4.338138564117912e-05,2.400550791767374e-13
	-1.915223909643160e-05,-7.325836827345127e-13
	-4.338138564117912e-05,2.400550791767374e-13
21		1.621810097358929e+00,0.000000000000000e+00
	-4.338138564117912e-01,2.456466802829570e-09
	1.000000000000000e+00,0.000000000000000e+00
	0.000000000000000e+00,0.000000000000000e+00
	3.067820420420657e-05,2.083806132722218e-13
	3.067820745780843e-05,2.362638487949215e-13
	4.338138564117912e-05,-2.456466802829570e-13
	1.915223909628095e-05,7.496477488014541e-13
	-1.636171043962185e-05,-1.241500808909202e-13
	-4.617191429783822e-05,-3.798509876275768e-13
	-4.338138564117912e-05,2.456466802829570e-13
	-1.915223909643160e-05,-7.496477488014541e-13
	-4.338138564117912e-05,2.456466802829570e-13
22		1.659586907437560e+00,0.000000000000000e+00
	-4.338138564117912e-01,2.513685265105808e-09
	1.000000000000000e+00,0.000000000000000e+00
	0.000000000000000e+00,0.000000000000000e+00
	3.067820420420657e-05,2.132344212886304e-13
	3.067820745780843e-05,2.417671408011228e-13
	4.338138564117912e-05,-2.513685265105808e-13
	1.915223909628095e-05,7.671092880275711e-13
	-1.636171043962185e-05,-1.270419077667674e-13
	-4.617191429783822e-05,-3.886988537502229e-13
	-4.338138564117912e-05,2.513685265105808e-13
	-1.915223909643160e-05,-7.671092880275710e-13
	-4.338138564117912e-05,2.513685265105808e-13
23		1.698243652461743e+00,0.000000000000000e+00
	-4.338138564117912e-01,2.572236516582163e-09
	1.000000000000000e+00,0.000000000000000e+00
	0.000000000000000e+00,0.000000000000000e+00
	3.067820420420657e-05,2.182012890176976e-13
	3.067820745780843e-05,2.473986209455434e-13
	4.338138564117912e-05,-2.572236516582162e-13
	1.915223909628095e-05,7.849775587520920e-13
	-1.636171043962185e-05,-1.300010939437110e-13
	-4.617191429783822e-05,-3.977528131501647e-13
	-4.338138564117912e-05,2.572236516582162e-13
	-1.915223909643160e-05,-7.849775587520922e-13
	-4.338138564117912e-05,2.572236516582162e-13
24		1.737800828749374e+00,0.000000000000000e+00
	-4.338138564117912e-01,2.632151601907184e-09
	1.000000000000000e+00,0.000000000000000e+00
	0.000000000000000e+00,0.000000000000000e+00
	3.067820420420657e-05,2.232838499584374e-13
	3.067820745780843e-05,2.531612751134971e-13
	4.338138564117912e-05,-2.632151601907185e-13
	1.915223909628095e-05,8.032620349686696e-13
	-1.636171043962185e-05,-1.330292084214314e-13
	-4.617191429783822e-05,-4.070176663565197e-13
	-4.338138564117912e-05,2.632151601907185e-13
	-1.915223909643160e-05,-8.032620349686697e-13
	-4.338138564117912e-05,2.632151601907185e-13
25		1.778279410038922e+00,0.000000000000000e+00
	-4.338138564117912e-01,2.693462288852183e-09
	1.000000000000000e+00,0.000000000000000e+00
	0.000000000000000e+00,0.000000000000000e+00
	3.067820420420657e-05,2.284847989519364e-13
	3.067820745780843e-05,2.590581587405017e-13
	4.338138564117912e-05,-2.693462288852184e-13
	1.915223909628095e-05,8.219724113486178e-13
	-1.636171043962185e-05,-1.361278567463067e-13
	-4.617191429783822e-05,-4.164983257170927e-13
	-4.338138564117912e-05,2.693462288852183e-13
	-1.915223909643160e-05,-8.219724113486178e-13
	-4.338138564117912e-05,2.693462288852183e-13
26		1.819700858609982e+00,0.000000000000000e+00
	-4.338138564117912e-01,2.756201085154919e-09
	1.000000000000000e+00,0.000000000000000e+00
	0.000000000000000e+00,0.000000000000000e+00
	3.067820420420657e-05,2.338068936101934e-13
	3.067820745780843e-05,2.650923984323105e-13
	4.338138564117912e-05,-2.756201085154919e-13
	1.915223909628095e-05,8.411186083811539e-13
	-1.636171043962185e-05,-1.392986818626940e-13
	-4.617191429783822e-05,-4.261998180029679e-13
	-4.338138564117912e-05,2.756201085154919e-13
	-1.915223909643160e-05,-8.411186083811540e-13
	-4.338138564117912e-05,2.756201085154919e-13
27		1.862087136662866e+00,0.000000000000000e+00
	-4.338138564117912e-01,2.820401255755638e-09
	1.000000000000000e+00,0.000000000000000e+00
	0.000000000000000e+00,0.000000000000000e+00
	3.067820420420657e-05,2.392529557782428e-13
	3.067820745780843e-05,2.712671936226809e-13
	4.338138564117912e-05,-2.820401255755639e-13
	1.915223909628095e-05,8.607107776333748e-13
	-1.636171043962185e-05,-1.425433649840409e-13
	-4.617191429783822e-05,-4.361272870737699e-13
	-4.338138564117912e-05,2.820401255755639e-13
	-1.915223909643160e-05,-8.607107776333744e-13
	-4.338138564117912e-05,2.820401255755639e-13
28		1.905460717963246e+00,0.000000000000000e+00
	-4.338138564117912e-01,2.886096840434584e-09
	1.000000000000000e+00,0.000000000000000e+00
	0.000000000000000e+00,0.000000000000000e+00
	3.067820420420657e-05,2.448258730303329e-13
	3.067820745780843e-05,2.775858182697558e-13
	4.338138564117912e-05,-2.886096840434584e-13
	1.915223909628095e-05,8.807593071327507e-13
	-1.636171043962185e-05,-1.458636264842869e-13
	-4.617191429783822e-05,-4.462859966050054e-13
	-4.338138564117912e-05,2.886096840434584e-13
	-1.915223909643160e-05,-8.807593071327506e-13
	-4.338138564117912e-05,2.886096840434584e-13
29		1.949844599758044e+00,0.000000000000000e+00
	-4.338138564117912e-01,2.953322671860336e-09
	1.000000000000000e+00,0.000000000000000e+00
	0.000000000000000e+00,0.000000000000000e+00
	3.067820420420657e-05,2.505286002009575e-13
	3.067820745780843e-05,2.840516225919602e-13
	4.338138564117912e-05,-2.953322671860336e-13
	1.915223909628095e-05,9.012748268749963e-13
	-1.636171043962185e-05,-1.492612268100282e-13
	-4.617191429783822e-05,-4.566813328789345e-13
	-4.338138564117912e-05,2.953322671860336e-13
	-1.915223909643160e-05,-9.012748268749966e-13
	-4.338138564117912e-05,2.953322671860336e-13
30		1.995262314968878e+00,0.000000000000000e+00
	-4.338138564117912e-01,3.022114394058554e-09
	1.000000000000000e+00,0.000000000000000e+00
	0.000000000000000e+00,0.000000000000000e+00
	3.067820420420657e-05,2.563641609515464e-13
	3.067820745780843e-05,2.906680348443303e-13
	4.338138564117912e-05,-3.022114394058555e-13
	1.915223909628095e-05,9.222682144602335e-13
	-1.636171043962185e-05,-1.527379674139301e-13
	-4.617191429783822e-05,-4.673188076404479e-13
	-4.338138564117912e-05,3.022114394058554e-13
	-1.915223909643160e-05,-9.222682144602335e-13
	-4.338138564117912e-05,3.022114394058554e-13
31		2.041737944669527e+00,0.000000000000000e+00
	-4.338138564117912e-01,3.092508481310915e-09
	1.000000000000000e+00,0.000000000000000e+00
	0.000000000000000e+00,0.000000000000000e+00
	3.067820420420657e-05,2.623356493736528e-13
	3.067820745780843e-05,2.974385631362212e-13
	4.338138564117912e-05,-3.092508481310916e-13
	1.915223909628095e-05,9.437506008604405e-13
	-1.636171043962185e-05,-1.562956917098808e-13
	-4.617191429783822e-05,-4.782040610194681e-13
	-4.338138564117912e-05,3.092508481310915e-13
	-1.915223909643160e-05,-9.437506008604405e-13
	-4.338138564117912e-05,3.092508481310915e-13
32		2.089296130854037e+00,0.000000000000000e+00
	-4.338138564117912e-01,3.164542257494258e-09
	1.000000000000000e+00,0.000000000000000e+00
	0.000000000000000e+00,0.000000000000000e+00
	3.067820420420657e-05,2.684462316294799e-13
