Title: * GA CMOS Amp | W=3.0086192859865003e-05 L=1e-06 Vbias=1.4355963460073042
Date: Mon Sep  8 18:44:40 2025
Plotname: AC Analysis
Flags: complex forward log
No. Variables: 11
No. Points:          901
Offset:    0.0000000000000000e+00
Command: Linear Technology Corporation LTspice
Variables:
	0	frequency	frequency
	1	V(out)	voltage
	2	V(g)	voltage
	3	V(vdd)	voltage
	4	Id(M1)	device_current
	5	Ig(M1)	device_current
	6	Ib(M1)	device_current
	7	Is(M1)	device_current
	8	I(Rload)	device_current
	9	I(Vg)	device_current
	10	I(Vdd)	device_current
Values:
0		1.000000000000000e+00,0.000000000000000e+00
	-1.045963607831039e-01,8.027282075810437e-11
	1.000000000000000e+00,0.000000000000000e+00
	0.000000000000000e+00,0.000000000000000e+00
	1.045963607831037e-05,-8.027282075810431e-15
	1.334298675942015e-23,3.545651238426895e-13
	1.076576707555871e-13,6.385788225909328e-16
	-1.045963618596804e-05,-3.471764205894700e-13
	-1.045963607831039e-05,8.027282075810437e-15
	-1.334298675942015e-23,-3.545651238426895e-13
	-1.045963607831039e-05,8.027282075810437e-15
1		1.023292992280754e+00,0.000000000000000e+00
	-1.045963607831039e-01,8.214261495237726e-11
	1.000000000000000e+00,0.000000000000000e+00
	0.000000000000000e+00,0.000000000000000e+00
	1.045963607831037e-05,-8.214261495237719e-15
	1.397182235205400e-23,3.628240065353819e-13
	1.076576707555871e-13,6.534532341762807e-16
	-1.045963618596804e-05,-3.552631982743205e-13
	-1.045963607831039e-05,8.214261495237727e-15
	-1.397182235205400e-23,-3.628240065353819e-13
	-1.045963607831039e-05,8.214261495237727e-15
2		1.047128548050899e+00,0.000000000000000e+00
	-1.045963607831039e-01,8.405596224838393e-11
	1.000000000000000e+00,0.000000000000000e+00
	0.000000000000000e+00,0.000000000000000e+00
	1.045963607831037e-05,-8.405596224838380e-15
	1.463029405313141e-23,3.712752633188828e-13
	1.076576707555871e-13,6.686741153157478e-16
	-1.045963618596804e-05,-3.635383412093602e-13
	-1.045963607831039e-05,8.405596224838393e-15
	-1.463029405313141e-23,-3.712752633188828e-13
	-1.045963607831039e-05,8.405596224838393e-15
3		1.071519305237606e+00,0.000000000000000e+00
	-1.045963607831039e-01,8.601387712818689e-11
	1.000000000000000e+00,0.000000000000000e+00
	0.000000000000000e+00,0.000000000000000e+00
	1.045963607831037e-05,-8.601387712818670e-15
	1.531979856941320e-23,3.799233751614045e-13
	1.076576707555871e-13,6.842495363220576e-16
	-1.045963618596804e-05,-3.720062369849079e-13
	-1.045963607831039e-05,8.601387712818690e-15
	-1.531979856941320e-23,-3.799233751614045e-13
	-1.045963607831039e-05,8.601387712818690e-15
4		1.096478196143185e+00,0.000000000000000e+00
	-1.045963607831039e-01,8.801739770417148e-11
	1.000000000000000e+00,0.000000000000000e+00
	0.000000000000000e+00,0.000000000000000e+00
	1.045963607831037e-05,-8.801739770417104e-15
	1.604179843242189e-23,3.887729274063171e-13
	1.076576707555871e-13,7.001877554897766e-16
	-1.045963618596804e-05,-3.806713753913897e-13
	-1.045963607831039e-05,8.801739770417148e-15
	-1.604179843242189e-23,-3.887729274063171e-13
	-1.045963607831039e-05,8.801739770417148e-15
5		1.122018454301963e+00,0.000000000000000e+00
	-1.045963607831039e-01,9.006758626946682e-11
	1.000000000000000e+00,0.000000000000000e+00
	0.000000000000000e+00,0.000000000000000e+00
	1.045963607831037e-05,-9.006758626946681e-15
	1.679782510066713e-23,3.978286122033587e-13
	1.076576707555871e-13,7.164972234734794e-16
	-1.045963618596804e-05,-3.895383507998855e-13
	-1.045963607831039e-05,9.006758626946683e-15
	-1.679782510066713e-23,-3.978286122033587e-13
	-1.045963607831039e-05,9.006758626946683e-15
6		1.148153621496882e+00,0.000000000000000e+00
	-1.045963607831039e-01,9.216552986118765e-11
	1.000000000000000e+00,0.000000000000000e+00
	0.000000000000000e+00,0.000000000000000e+00
	1.045963607831037e-05,-9.216552986118793e-15
	1.758948220807452e-23,4.070952309964746e-13
	1.076576707555871e-13,7.331865877690345e-16
	-1.045963618596804e-05,-3.986118645981249e-13
	-1.045963607831039e-05,9.216552986118766e-15
	-1.758948220807452e-23,-4.070952309964746e-13
	-1.045963607831039e-05,9.216552986118766e-15
7		1.174897554939529e+00,0.000000000000000e+00
	-1.045963607831039e-01,9.431234083679590e-11
	1.000000000000000e+00,0.000000000000000e+00
	0.000000000000000e+00,0.000000000000000e+00
	1.045963607831037e-05,-9.431234083679572e-15
	1.841844896550821e-23,4.165776970696073e-13
	1.076576707555871e-13,7.502646972982615e-16
	-1.045963618596804e-05,-4.078967276832260e-13
	-1.045963607831039e-05,9.431234083679590e-15
	-1.841844896550821e-23,-4.165776970696073e-13
	-1.045963607831039e-05,9.431234083679590e-15
8		1.202264434617413e+00,0.000000000000000e+00
	-1.045963607831039e-01,9.650915746388727e-11
	1.000000000000000e+00,0.000000000000000e+00
	0.000000000000000e+00,0.000000000000000e+00
	1.045963607831037e-05,-9.650915746388717e-15
	1.928648372260221e-23,4.262810381517840e-13
	1.076576707555871e-13,7.677406071010001e-16
	-1.045963618596804e-05,-4.173978630124962e-13
	-1.045963607831039e-05,9.650915746388727e-15
	-1.928648372260221e-23,-4.262810381517840e-13
	-1.045963607831039e-05,9.650915746388727e-15
9		1.230268770812381e+00,0.000000000000000e+00
	-1.045963607831039e-01,9.875714452371566e-11
	1.000000000000000e+00,0.000000000000000e+00
	0.000000000000000e+00,0.000000000000000e+00
	1.045963607831037e-05,-9.875714452371573e-15
	2.019542769745575e-23,4.362103990828854e-13
	1.076576707555871e-13,7.856235831358275e-16
	-1.045963618596804e-05,-4.271203082136496e-13
	-1.045963607831039e-05,9.875714452371566e-15
	-2.019542769745575e-23,-4.362103990828854e-13
	-1.045963607831039e-05,9.875714452371566e-15
10		1.258925411794167e+00,0.000000000000000e+00
	-1.045963607831039e-01,1.010574939287759e-10
	1.000000000000000e+00,0.000000000000000e+00
	0.000000000000000e+00,0.000000000000000e+00
	1.045963607831037e-05,-1.010574939287757e-14
	2.114720888210376e-23,4.463710445415077e-13
	1.076576707555871e-13,8.039231071932606e-16
	-1.045963618596804e-05,-4.370692182558234e-13
	-1.045963607831039e-05,1.010574939287759e-14
	-2.114720888210376e-23,-4.463710445415077e-13
	-1.045963607831039e-05,1.010574939287759e-14
11		1.288249551693134e+00,0.000000000000000e+00
	-1.045963607831039e-01,1.034114253547712e-10
	1.000000000000000e+00,0.000000000000000e+00
	0.000000000000000e+00,0.000000000000000e+00
	1.045963607831037e-05,-1.034114253547711e-14
	2.214384613204640e-23,4.567683618363652e-13
	1.076576707555871e-13,8.226488819235390e-16
	-1.045963618596804e-05,-4.472498681828116e-13
	-1.045963607831039e-05,1.034114253547712e-14
	-2.214384613204640e-23,-4.567683618363652e-13
	-1.045963607831039e-05,1.034114253547712e-14
12		1.318256738556407e+00,0.000000000000000e+00
	-1.045963607831039e-01,1.058201868873017e-10
	1.000000000000000e+00,0.000000000000000e+00
	0.000000000000000e+00,0.000000000000000e+00
	1.045963607831037e-05,-1.058201868873017e-14
	2.318745344851228e-23,4.674078637627124e-13
	1.076576707555871e-13,8.418108359799475e-16
	-1.045963618596804e-05,-4.576676559099622e-13
	-1.045963607831039e-05,1.058201868873017e-14
	-2.318745344851228e-23,-4.674078637627124e-13
	-1.045963607831039e-05,1.058201868873017e-14
13		1.348962882591653e+00,0.000000000000000e+00
	-1.045963607831039e-01,1.082850556836156e-10
	1.000000000000000e+00,0.000000000000000e+00
	0.000000000000000e+00,0.000000000000000e+00
	1.045963607831037e-05,-1.082850556836159e-14
	2.428024446253848e-23,4.782951915253011e-13
	1.076576707555871e-13,8.614191292841914e-16
	-1.045963618596804e-05,-4.683281050862237e-13
	-1.045963607831039e-05,1.082850556836156e-14
	-2.428024446253848e-23,-4.782951915253011e-13
	-1.045963607831039e-05,1.082850556836156e-14
14		1.380384264602885e+00,0.000000000000000e+00
	-1.045963607831039e-01,1.108073386497751e-10
	1.000000000000000e+00,0.000000000000000e+00
	0.000000000000000e+00,0.000000000000000e+00
	1.045963607831037e-05,-1.108073386497753e-14
	2.542453713037882e-23,4.894361177294217e-13
	1.076576707555871e-13,8.814841584133194e-16
	-1.045963618596804e-05,-4.792368680228574e-13
	-1.045963607831039e-05,1.108073386497751e-14
	-2.542453713037882e-23,-4.894361177294217e-13
	-1.045963607831039e-05,1.108073386497751e-14
15		1.412537544622754e+00,0.000000000000000e+00
	-1.045963607831039e-01,1.133883731335952e-10
	1.000000000000000e+00,0.000000000000000e+00
	0.000000000000000e+00,0.000000000000000e+00
	1.045963607831037e-05,-1.133883731335951e-14
	2.662275865019976e-23,5.008365494416155e-13
	1.076576707555871e-13,9.020165621106426e-16
	-1.045963618596804e-05,-4.903997286903666e-13
	-1.045963607831039e-05,1.133883731335952e-14
	-2.662275865019976e-23,-5.008365494416155e-13
	-1.045963607831039e-05,1.133883731335952e-14
16		1.445439770745927e+00,0.000000000000000e+00
	-1.045963607831039e-01,1.160295276337233e-10
	1.000000000000000e+00,0.000000000000000e+00
	0.000000000000000e+00,0.000000000000000e+00
	1.045963607831037e-05,-1.160295276337234e-14
	2.787745061049319e-23,5.125025313216784e-13
	1.076576707555871e-13,9.230272269289803e-16
	-1.045963618596804e-05,-5.018226057852350e-13
	-1.045963607831039e-05,1.160295276337233e-14
	-2.787745061049319e-23,-5.125025313216784e-13
	-1.045963607831039e-05,1.160295276337233e-14
17		1.479108388168207e+00,0.000000000000000e+00
	-1.045963607831039e-01,1.187322025252351e-10
	1.000000000000000e+00,0.000000000000000e+00
	0.000000000000000e+00,0.000000000000000e+00
	1.045963607831037e-05,-1.187322025252352e-14
	2.919127438112639e-23,5.244402488276212e-13
	1.076576707555871e-13,9.445272930008309e-16
	-1.045963618596804e-05,-5.135115558680985e-13
	-1.045963607831039e-05,1.187322025252351e-14
	-2.919127438112639e-23,-5.244402488276212e-13
	-1.045963607831039e-05,1.187322025252351e-14
18		1.513561248436208e+00,0.000000000000000e+00
	-1.045963607831039e-01,1.214978308021324e-10
	1.000000000000000e+00,0.000000000000000e+00
	0.000000000000000e+00,0.000000000000000e+00
	1.045963607831037e-05,-1.214978308021327e-14
	3.056701675846429e-23,5.366560314952797e-13
	1.076576707555871e-13,9.665281599456647e-16
	-1.045963618596804e-05,-5.254727765750121e-13
	-1.045963607831039e-05,1.214978308021324e-14
	-3.056701675846429e-23,-5.366560314952797e-13
	-1.045963607831039e-05,1.214978308021324e-14
19		1.548816618912481e+00,0.000000000000000e+00
	-1.045963607831039e-01,1.243278788371348e-10
	1.000000000000000e+00,0.000000000000000e+00
	0.000000000000000e+00,0.000000000000000e+00
	1.045963607831037e-05,-1.243278788371348e-14
	3.200759587653823e-23,5.491563562943194e-13
	1.076576707555871e-13,9.890414929143911e-16
	-1.045963618596804e-05,-5.377126099035203e-13
	-1.045963607831039e-05,1.243278788371348e-14
	-3.200759587653823e-23,-5.491563562943194e-13
	-1.045963607831039e-05,1.243278788371348e-14
20		1.584893192461113e+00,0.000000000000000e+00
	-1.045963607831039e-01,1.272238471591707e-10
	1.000000000000000e+00,0.000000000000000e+00
	0.000000000000000e+00,0.000000000000000e+00
	1.045963607831037e-05,-1.272238471591709e-14
	3.351606739679944e-23,5.619478510624100e-13
	1.076576707555871e-13,1.012079228774280e-15
	-1.045963618596804e-05,-5.502375455752672e-13
	-1.045963607831039e-05,1.272238471591707e-14
	-3.351606739679944e-23,-5.619478510624100e-13
	-1.045963607831039e-05,1.272238471591707e-14
21		1.621810097358929e+00,0.000000000000000e+00
	-1.045963607831039e-01,1.301872712489771e-10
	1.000000000000000e+00,0.000000000000000e+00
	0.000000000000000e+00,0.000000000000000e+00
	1.045963607831037e-05,-1.301872712489770e-14
	3.509563098958668e-23,5.750372980193932e-13
	1.076576707555871e-13,1.035653582437521e-15
	-1.045963618596804e-05,-5.630542244769330e-13
	-1.045963607831039e-05,1.301872712489771e-14
	-3.509563098958668e-23,-5.750372980193932e-13
	-1.045963607831039e-05,1.301872712489771e-14
22		1.659586907437560e+00,0.000000000000000e+00
	-1.045963607831039e-01,1.332197223532320e-10
	1.000000000000000e+00,0.000000000000000e+00
	0.000000000000000e+00,0.000000000000000e+00
	1.045963607831037e-05,-1.332197223532320e-14
	3.674963712105606e-23,5.884316373633046e-13
	1.076576707555871e-13,1.059777053338817e-15
	-1.045963618596804e-05,-5.761694421813202e-13
	-1.045963607831039e-05,1.332197223532320e-14
	-3.674963712105606e-23,-5.884316373633046e-13
	-1.045963607831039e-05,1.332197223532320e-14
23		1.698243652461743e+00,0.000000000000000e+00
	-1.045963607831039e-01,1.363228083176500e-10
	1.000000000000000e+00,0.000000000000000e+00
	0.000000000000000e+00,0.000000000000000e+00
	1.045963607831037e-05,-1.363228083176495e-14
	3.848159415996887e-23,6.021379709501595e-13
	1.076576707555871e-13,1.084462432061565e-15
	-1.045963618596804e-05,-5.895901525504561e-13
	-1.045963607831039e-05,1.363228083176500e-14
	-3.848159415996887e-23,-6.021379709501595e-13
	-1.045963607831039e-05,1.363228083176500e-14
24		1.737800828749374e+00,0.000000000000000e+00
	-1.045963607831039e-01,1.394981744394838e-10
	1.000000000000000e+00,0.000000000000000e+00
	0.000000000000000e+00,0.000000000000000e+00
	1.045963607831037e-05,-1.394981744394831e-14
	4.029517581941217e-23,6.161635660594504e-13
	1.076576707555871e-13,1.109722807120392e-15
	-1.045963618596804e-05,-6.033234714226225e-13
	-1.045963607831039e-05,1.394981744394838e-14
	-4.029517581941217e-23,-6.161635660594504e-13
	-1.045963607831039e-05,1.394981744394838e-14
25		1.778279410038922e+00,0.000000000000000e+00
	-1.045963607831039e-01,1.427475043398820e-10
	1.000000000000000e+00,0.000000000000000e+00
	0.000000000000000e+00,0.000000000000000e+00
	1.045963607831037e-05,-1.427475043398822e-14
	4.219422894923677e-23,6.305158592473552e-13
	1.076576707555871e-13,1.135571571900406e-15
	-1.045963618596804e-05,-6.173766803852674e-13
	-1.045963607831039e-05,1.427475043398820e-14
	-4.219422894923677e-23,-6.305158592473552e-13
	-1.045963607831039e-05,1.427475043398820e-14
26		1.819700858609982e+00,0.000000000000000e+00
	-1.045963607831039e-01,1.460725208565677e-10
	1.000000000000000e+00,0.000000000000000e+00
	0.000000000000000e+00,0.000000000000000e+00
	1.045963607831037e-05,-1.460725208565675e-14
	4.418278169574153e-23,6.452024602896968e-13
	1.076576707555871e-13,1.162022431758916e-15
	-1.045963618596804e-05,-6.317572306357990e-13
	-1.045963607831039e-05,1.460725208565677e-14
	-4.418278169574153e-23,-6.452024602896968e-13
	-1.045963607831039e-05,1.460725208565677e-14
27		1.862087136662866e+00,0.000000000000000e+00
	-1.045963607831039e-01,1.494749869573101e-10
	1.000000000000000e+00,0.000000000000000e+00
	0.000000000000000e+00,0.000000000000000e+00
	1.045963607831037e-05,-1.494749869573098e-14
	4.626505204591169e-23,6.602311562167483e-13
	1.076576707555871e-13,1.189089411291880e-15
	-1.045963618596804e-05,-6.464727469323092e-13
	-1.045963607831039e-05,1.494749869573100e-14
	-4.626505204591169e-23,-6.602311562167483e-13
	-1.045963607831039e-05,1.494749869573100e-14
28		1.905460717963246e+00,0.000000000000000e+00
	-1.045963607831039e-01,1.529567066746725e-10
	1.000000000000000e+00,0.000000000000000e+00
	0.000000000000000e+00,0.000000000000000e+00
	1.045963607831037e-05,-1.529567066746723e-14
	4.844545677433480e-23,6.756099154420183e-13
	1.076576707555871e-13,1.216786861770211e-15
	-1.045963618596804e-05,-6.615310316363213e-13
	-1.045963607831039e-05,1.529567066746725e-14
	-4.844545677433480e-23,-6.756099154420183e-13
	-1.045963607831039e-05,1.529567066746725e-14
29		1.949844599758044e+00,0.000000000000000e+00
	-1.045963607831039e-01,1.565195260625352e-10
	1.000000000000000e+00,0.000000000000000e+00
	0.000000000000000e+00,0.000000000000000e+00
	1.045963607831037e-05,-1.565195260625351e-14
	5.072862081177182e-23,6.913468919872103e-13
	1.076576707555871e-13,1.245129468748780e-15
	-1.045963618596804e-05,-6.769400688497055e-13
	-1.045963607831039e-05,1.565195260625352e-14
	-5.072862081177182e-23,-6.913468919872103e-13
	-1.045963607831039e-05,1.565195260625352e-14
30		1.995262314968878e+00,0.000000000000000e+00
	-1.045963607831039e-01,1.601653341748971e-10
	1.000000000000000e+00,0.000000000000000e+00
	0.000000000000000e+00,0.000000000000000e+00
	1.045963607831037e-05,-1.601653341748971e-14
	5.311938705525526e-23,7.074504298055916e-13
	1.076576707555871e-13,1.274132259852894e-15
	-1.045963618596804e-05,-6.927080286479548e-13
	-1.045963607831039e-05,1.601653341748972e-14
	-5.311938705525526e-23,-7.074504298055916e-13
	-1.045963607831039e-05,1.601653341748972e-14
31		2.041737944669527e+00,0.000000000000000e+00
	-1.045963607831039e-01,1.638960640674774e-10
	1.000000000000000e+00,0.000000000000000e+00
	0.000000000000000e+00,0.000000000000000e+00
	1.045963607831037e-05,-1.638960640674772e-14
	5.562282664052317e-23,7.239290672060693e-13
	1.076576707555871e-13,1.303810612746370e-15
	-1.045963618596804e-05,-7.088432714120680e-13
	-1.045963607831039e-05,1.638960640674774e-14
	-5.562282664052317e-23,-7.239290672060693e-13
	-1.045963607831039e-05,1.638960640674774e-14
32		2.089296130854037e+00,0.000000000000000e+00
	-1.045963607831039e-01,1.677136938226471e-10
	1.000000000000000e+00,0.000000000000000e+00
	0.000000000000000e+00,0.000000000000000e+00
	1.045963607831037e-05,-1.677136938226474e-14
	5.824424969857793e-23,7.407915413803139e-13
	1.076576707555871e-13,1.334180263284496e-15
	-1.045963618596804e-05,-7.253543522613337e-13
	-1.045963607831039e-05,1.677136938226471e-14
	-5.824424969857793e-23,-7.407915413803139e-13
	-1.045963607831039e-05,1.677136938226471e-14
33		2.137962089502230e+00,0.000000000000000e+00
	-1.045963607831039e-01,1.716202475982348e-10
	1.000000000000000e+00,0.000000000000000e+00
	0.000000000000000e+00,0.000000000000000e+00
	1.045963607831037e-05,-1.716202475982344e-14
	6.098921661918594e-23,7.580467930353335e-13
	1.076576707555871e-13,1.365257313858383e-15
	-1.045963618596804e-05,-7.422500255893684e-13
	-1.045963607831039e-05,1.716202475982348e-14
	-6.098921661918594e-23,-7.580467930353335e-13
	-1.045963607831039e-05,1.716202475982348e-14
34		2.187761623949550e+00,0.000000000000000e+00
	-1.045963607831039e-01,1.756177967007616e-10
	1.000000000000000e+00,0.000000000000000e+00
	0.000000000000000e+00,0.000000000000000e+00
	1.045963607831037e-05,-1.756177967007614e-14
	6.386354984520995e-23,7.757039711339559e-13
	1.076576707555871e-13,1.397058241931282e-15
	-1.045963618596804e-05,-7.595392497058111e-13
	-1.045963607831039e-05,1.756177967007616e-14
	-6.386354984520995e-23,-7.757039711339559e-13
	-1.045963607831039e-05,1.756177967007616e-14
35		2.238721138568337e+00,0.000000000000000e+00
	-1.045963607831039e-01,1.797084606836755e-10
	1.000000000000000e+00,0.000000000000000e+00
	0.000000000000000e+00,0.000000000000000e+00
	1.045963607831037e-05,-1.797084606836749e-14
	6.687334622279096e-23,7.937724377457294e-13
	1.076576707555871e-13,1.429599908776374e-15
	-1.045963618596804e-05,-7.772311915861383e-13
	-1.045963607831039e-05,1.797084606836755e-14
	-6.687334622279096e-23,-7.937724377457294e-13
	-1.045963607831039e-05,1.797084606836755e-14
36		2.290867652767770e+00,0.000000000000000e+00
	-1.045963607831039e-01,1.838944084711665e-10
	1.000000000000000e+00,0.000000000000000e+00
	0.000000000000000e+00,0.000000000000000e+00
	1.045963607831037e-05,-1.838944084711669e-14
	7.002498993357619e-23,8.122617730108160e-13
	1.076576707555871e-13,1.462899568416278e-15
	-1.045963618596804e-05,-7.953352317321156e-13
	-1.045963607831039e-05,1.838944084711665e-14
	-7.002498993357619e-23,-8.122617730108160e-13
	-1.045963607831039e-05,1.838944084711665e-14
37		2.344228815319919e+00,0.000000000000000e+00
	-1.045963607831039e-01,1.881778595081592e-10
	1.000000000000000e+00,0.000000000000000e+00
	0.000000000000000e+00,0.000000000000000e+00
	1.045963607831037e-05,-1.881778595081597e-14
	7.332516603642447e-23,8.311817802195086e-13
	1.076576707555871e-13,1.496974876770904e-15
	-1.045963618596804e-05,-8.138609691454635e-13
	-1.045963607831039e-05,1.881778595081592e-14
	-7.332516603642447e-23,-8.311817802195086e-13
	-1.045963607831039e-05,1.881778595081592e-14
38		2.398832919019488e+00,0.000000000000000e+00
	-1.045963607831039e-01,1.925610849370917e-10
	1.000000000000000e+00,0.000000000000000e+00
	0.000000000000000e+00,0.000000000000000e+00
