LTspice 24.0.9 for Windows
Circuit: * GA CMOS Amp | W=1.2724801306038713e-05 L=4.2305702712935717e-07 Vbias=0.8304218114753447
Start Time: Mon Sep  8 18:42:57 2025
solver = Normal
Maximum thread count: 2
tnom = 27
temp = 27
method = modified trap
AsciiRawFile = 1
Instance "m1": Length shorter than recommended for a level 3 MOSFET.
Direct Newton iteration for .op point succeeded.
Semiconductor Device Operating Points:
                        --- MOSFET Transistors ---
Name:          m1
Model:        n_1u
Id:          1.09e-04
Vgs:         8.30e-01
Vds:         7.11e-01
Vbs:         0.00e+00
Vth:         6.73e-01
Vdsat:       1.43e-01
Gm:          8.10e-04
Gds:         1.14e-04
Gmb:         6.55e-05
Cbd:         0.00e+00
Cbs:         0.00e+00
Cgsov:       2.54e-15
Cgdov:       2.54e-15
Cgbov:       2.23e-17
Cgs:         3.27e-15
Cgd:         0.00e+00
Cgb:         0.00e+00



gain_db: MAX(db(v(out)/v(g)))=(29.4376dB,67.0183°) FROM 1 TO 1e+09
gain_lin: MAX(mag(v(out)/v(g)))=(11.5726dB,0°) FROM 1 TO 1e+09

Measurement "fc" FAIL'ed

Total elapsed time: 0.496 seconds.

