LTspice 24.0.9 for Windows
Circuit: * GA CMOS Amp | W=4.9522028871582335e-05 L=7.763615587895772e-07 Vbias=1.1371678660780677
Start Time: Sat Sep  6 22:03:37 2025
solver = Normal
Maximum thread count: 2
tnom = 27
temp = 27
method = modified trap
AsciiRawFile = 1
Direct Newton iteration for .op point succeeded.
Semiconductor Device Operating Points:
                        --- BSIM4 MOSFETS ---
Name:      m1
Model:      n
Id:      1.77e-04
Vgs:     1.14e+00
Vds:     2.88e-02
Vbs:     0.00e+00
Vth:     2.40e-01
Vdsat:   6.35e-01
Gm:     -8.24e-06
Gds:     6.11e-03
Gmb      1.08e-04
Cbd:     2.45e-14
Cbs:     3.96e-14


.measure op idd find i(vdd)
  Error: FIND can not be evaluated over an interval.

gain_db: MAX(db(v(out)/v(g)))=(33.7583dB,180°) FROM 1 TO 1e+09
gain_lin: MAX(mag(v(out)/v(g)))=(-4.95081dB,0°) FROM 1 TO 1e+09

Measurement "fc" FAIL'ed

Total elapsed time: 5.084 seconds.

