Title: * GA CMOS Amp | W=1.457520871168286e-06 L=9.391759045550892e-07 Vbias=1.4805594754378135
Date: Sat Sep  6 22:12:28 2025
Plotname: AC Analysis
Flags: complex forward log
No. Variables: 13
No. Points:          901
Offset:    0.0000000000000000e+00
Command: Linear Technology Corporation LTspice
Variables:
	0	frequency	frequency
	1	V(out)	voltage
	2	V(g)	voltage
	3	V(vdd)	voltage
	4	V(m1#dbody)	voltage
	5	V(m1#sbody)	voltage
	6	Id(M1)	device_current
	7	Ig(M1)	device_current
	8	Ib(M1)	device_current
	9	Is(M1)	device_current
	10	I(Rload)	device_current
	11	I(Vg)	device_current
	12	I(Vdd)	device_current
Values:
0		1.000000000000000e+00,0.000000000000000e+00
	-2.955297839722649e-01,9.896356892472195e-10
	1.000000000000000e+00,0.000000000000000e+00
	0.000000000000000e+00,0.000000000000000e+00
	4.454920457528043e-05,8.870948869622526e-14
	4.454920679175174e-05,9.660409189944403e-14
	2.955297839722649e-05,-9.896356892472195e-14
	2.640525197590053e-05,3.003143186615155e-13
	-2.375957682579033e-05,-5.099685464855208e-14
	-3.219865354733669e-05,-1.503538950882414e-13
	-2.955297839722650e-05,9.896356892472195e-14
	-2.640525197605825e-05,-3.003143186615155e-13
	-2.955297839722650e-05,9.896356892472195e-14
1		1.023292992280754e+00,0.000000000000000e+00
	-2.955297839722649e-01,1.012687265717614e-09
	1.000000000000000e+00,0.000000000000000e+00
	0.000000000000000e+00,0.000000000000000e+00
	4.454920457528043e-05,9.077579813165606e-14
	4.454920679175174e-05,9.885429026634703e-14
	2.955297839722649e-05,-1.012687265717614e-13
	2.640525197590053e-05,3.073095377678981e-13
	-2.375957682579033e-05,-5.218472399022353e-14
	-3.219865354733669e-05,-1.538560872059132e-13
	-2.955297839722650e-05,1.012687265717614e-13
	-2.640525197605825e-05,-3.073095377678981e-13
	-2.955297839722650e-05,1.012687265717614e-13
2		1.047128548050899e+00,0.000000000000000e+00
	-2.955297839722649e-01,1.036275782380792e-09
	1.000000000000000e+00,0.000000000000000e+00
	0.000000000000000e+00,0.000000000000000e+00
	4.454920457528043e-05,9.289023809681602e-14
	4.454920679175174e-05,1.011569024864405e-13
	2.955297839722649e-05,-1.036275782380792e-13
	2.640525197590053e-05,3.144676964589278e-13
	-2.375957682579033e-05,-5.340026236330109e-14
	-3.219865354733669e-05,-1.574398558575475e-13
	-2.955297839722650e-05,1.036275782380792e-13
	-2.640525197605825e-05,-3.144676964589278e-13
	-2.955297839722650e-05,1.036275782380792e-13
3		1.071519305237606e+00,0.000000000000000e+00
	-2.955297839722649e-01,1.060413746180520e-09
	1.000000000000000e+00,0.000000000000000e+00
	0.000000000000000e+00,0.000000000000000e+00
	4.454920457528043e-05,9.505392969576255e-14
	4.454920679175174e-05,1.035131494352021e-13
	2.955297839722649e-05,-1.060413746180520e-13
	2.640525197590053e-05,3.217925900850922e-13
	-2.375957682579033e-05,-5.464411426231970e-14
	-3.219865354733669e-05,-1.611071012047204e-13
	-2.955297839722650e-05,1.060413746180520e-13
	-2.640525197605825e-05,-3.217925900850921e-13
	-2.955297839722650e-05,1.060413746180520e-13
4		1.096478196143185e+00,0.000000000000000e+00
	-2.955297839722649e-01,1.085113955384708e-09
	1.000000000000000e+00,0.000000000000000e+00
	0.000000000000000e+00,0.000000000000000e+00
	4.454920457528043e-05,9.726802014642127e-14
	4.454920679175174e-05,1.059242804259528e-13
	2.955297839722649e-05,-1.085113955384708e-13
	2.640525197590053e-05,3.292881024019479e-13
	-2.375957682579033e-05,-5.591693919402055e-14
	-3.219865354733669e-05,-1.648597676694566e-13
	-2.955297839722650e-05,1.085113955384708e-13
	-2.640525197605825e-05,-3.292881024019479e-13
	-2.955297839722650e-05,1.085113955384708e-13
5		1.122018454301963e+00,0.000000000000000e+00
	-2.955297839722649e-01,1.110389506371223e-09
	1.000000000000000e+00,0.000000000000000e+00
	0.000000000000000e+00,0.000000000000000e+00
	4.454920457528043e-05,9.953368338885611e-14
	4.454920679175174e-05,1.083915738722590e-13
	2.955297839722649e-05,-1.110389506371223e-13
	2.640525197590053e-05,3.369582076293408e-13
	-2.375957682579033e-05,-5.721941202703027e-14
	-3.219865354733669e-05,-1.686998449651882e-13
	-2.955297839722650e-05,1.110389506371223e-13
	-2.640525197605825e-05,-3.369582076293408e-13
	-2.955297839722650e-05,1.110389506371223e-13
6		1.148153621496882e+00,0.000000000000000e+00
	-2.955297839722649e-01,1.136253800571758e-09
	1.000000000000000e+00,0.000000000000000e+00
	0.000000000000000e+00,0.000000000000000e+00
	4.454920457528043e-05,1.018521207077078e-13
	4.454920679175174e-05,1.109163379657643e-13
	2.955297839722649e-05,-1.136253800571758e-13
	2.640525197590053e-05,3.448069725585877e-13
	-2.375957682579033e-05,-5.855222334968519e-14
	-3.219865354733669e-05,-1.726293691517267e-13
	-2.955297839722650e-05,1.136253800571758e-13
	-2.640525197605825e-05,-3.448069725585877e-13
	-2.955297839722650e-05,1.136253800571758e-13
7		1.174897554939529e+00,0.000000000000000e+00
	-2.955297839722649e-01,1.162720551577453e-09
	1.000000000000000e+00,0.000000000000000e+00
	0.000000000000000e+00,0.000000000000000e+00
	4.454920457528043e-05,1.042245613691308e-13
	4.454920679175174e-05,1.134999113698104e-13
	2.955297839722649e-05,-1.162720551577454e-13
	2.640525197590053e-05,3.528385587087451e-13
	-2.375957682579033e-05,-5.991607983619039e-14
	-3.219865354733669e-05,-1.766504237148093e-13
	-2.955297839722650e-05,1.162720551577453e-13
	-2.640525197605825e-05,-3.528385587087451e-13
	-2.955297839722650e-05,1.162720551577453e-13
8		1.202264434617413e+00,0.000000000000000e+00
	-2.955297839722649e-01,1.189803792410021e-09
	1.000000000000000e+00,0.000000000000000e+00
	0.000000000000000e+00,0.000000000000000e+00
	4.454920457528043e-05,1.066522632725670e-13
	4.454920679175174e-05,1.161436639292137e-13
	2.955297839722649e-05,-1.189803792410022e-13
	2.640525197590053e-05,3.610572245331004e-13
	-2.375957682579033e-05,-6.131170462130782e-14
	-3.219865354733669e-05,-1.807651406707904e-13
	-2.955297839722650e-05,1.189803792410022e-13
	-2.640525197605825e-05,-3.610572245331004e-13
	-2.955297839722650e-05,1.189803792410022e-13
9		1.230268770812381e+00,0.000000000000000e+00
	-2.955297839722649e-01,1.217517882962240e-09
	1.000000000000000e+00,0.000000000000000e+00
	0.000000000000000e+00,0.000000000000000e+00
	4.454920457528043e-05,1.091365136176998e-13
	4.454920679175174e-05,1.188489973965753e-13
	2.955297839722649e-05,-1.217517882962240e-13
	2.640525197590053e-05,3.694673276770604e-13
	-2.375957682579033e-05,-6.273983768377181e-14
	-3.219865354733669e-05,-1.849757016970645e-13
	-2.955297839722650e-05,1.217517882962240e-13
	-2.640525197605825e-05,-3.694673276770603e-13
	-2.955297839722650e-05,1.217517882962240e-13
10		1.258925411794167e+00,0.000000000000000e+00
	-2.955297839722649e-01,1.245877517611760e-09
	1.000000000000000e+00,0.000000000000000e+00
	0.000000000000000e+00,0.000000000000000e+00
	4.454920457528043e-05,1.116786295869454e-13
	4.454920679175174e-05,1.216173461755091e-13
	2.955297839722649e-05,-1.245877517611760e-13
	2.640525197590053e-05,3.780733272886330e-13
	-2.375957682579033e-05,-6.420123623863570e-14
	-3.219865354733669e-05,-1.892843392888213e-13
	-2.955297839722650e-05,1.245877517611760e-13
	-2.640525197605825e-05,-3.780733272886330e-13
	-2.955297839722650e-05,1.245877517611760e-13
11		1.288249551693134e+00,0.000000000000000e+00
	-2.955297839722649e-01,1.274897733012256e-09
	1.000000000000000e+00,0.000000000000000e+00
	0.000000000000000e+00,0.000000000000000e+00
	4.454920457528043e-05,1.142799590438392e-13
	4.454920679175174e-05,1.244501780811810e-13
	2.955297839722649e-05,-1.274897733012256e-13
	2.640525197590053e-05,3.868797863827262e-13
	-2.375957682579033e-05,-6.569667513875709e-14
	-3.219865354733669e-05,-1.936933379427435e-13
	-2.955297839722650e-05,1.274897733012256e-13
	-2.640525197605825e-05,-3.868797863827262e-13
	-2.955297839722650e-05,1.274897733012256e-13
12		1.318256738556407e+00,0.000000000000000e+00
	-2.955297839722649e-01,1.304593916066061e-09
	1.000000000000000e+00,0.000000000000000e+00
	0.000000000000000e+00,0.000000000000000e+00
	4.454920457528043e-05,1.169418812476924e-13
	4.454920679175174e-05,1.273489951185645e-13
	2.955297839722649e-05,-1.304593916066061e-13
	2.640525197590053e-05,3.958913742605189e-13
	-2.375957682579033e-05,-6.722694728563541e-14
	-3.219865354733669e-05,-1.982050353682773e-13
	-2.955297839722650e-05,1.304593916066061e-13
	-2.640525197605825e-05,-3.958913742605189e-13
	-2.955297839722650e-05,1.304593916066061e-13
13		1.348962882591653e+00,0.000000000000000e+00
	-2.955297839722649e-01,1.334981812082507e-09
	1.000000000000000e+00,0.000000000000000e+00
	0.000000000000000e+00,0.000000000000000e+00
	4.454920457528043e-05,1.196658075848917e-13
	4.454920679175174e-05,1.303153342788230e-13
	2.955297839722649e-05,-1.334981812082507e-13
	2.640525197590053e-05,4.051128689851862e-13
	-2.375957682579033e-05,-6.879286404981835e-14
	-3.219865354733669e-05,-2.028218237271172e-13
	-2.955297839722650e-05,1.334981812082507e-13
	-2.640525197605825e-05,-4.051128689851863e-13
	-2.955297839722650e-05,1.334981812082507e-13
14		1.380384264602885e+00,0.000000000000000e+00
	-2.955297839722649e-01,1.366077533126292e-09
	1.000000000000000e+00,0.000000000000000e+00
	0.000000000000000e+00,0.000000000000000e+00
	4.454920457528043e-05,1.224531823172368e-13
	4.454920679175174e-05,1.333507683542435e-13
	2.955297839722649e-05,-1.366077533126292e-13
	2.640525197590053e-05,4.145491599152923e-13
	-2.375957682579033e-05,-7.039525570110174e-14
	-3.219865354733669e-05,-2.075461509015614e-13
	-2.955297839722650e-05,1.366077533126292e-13
	-2.640525197605825e-05,-4.145491599152923e-13
	-2.955297839722650e-05,1.366077533126292e-13
15		1.412537544622754e+00,0.000000000000000e+00
	-2.955297839722649e-01,1.397897566560314e-09
	1.000000000000000e+00,0.000000000000000e+00
	0.000000000000000e+00,0.000000000000000e+00
	4.454920457528043e-05,1.253054833477060e-13
	4.454920679175174e-05,1.364569067721515e-13
	2.955297839722649e-05,-1.397897566560314e-13
	2.640525197590053e-05,4.242052502971924e-13
	-2.375957682579033e-05,-7.203497184874922e-14
	-3.219865354733669e-05,-2.123805217924117e-13
	-2.955297839722650e-05,1.397897566560314e-13
	-2.640525197605825e-05,-4.242052502971924e-13
	-2.955297839722650e-05,1.397897566560314e-13
16		1.445439770745927e+00,0.000000000000000e+00
	-2.955297839722649e-01,1.430458783787488e-09
	1.000000000000000e+00,0.000000000000000e+00
	0.000000000000000e+00,0.000000000000000e+00
	4.454920457528043e-05,1.282242230040602e-13
	4.454920679175174e-05,1.396353964482509e-13
	2.955297839722649e-05,-1.430458783787488e-13
	2.640525197590053e-05,4.340862599178201e-13
	-2.375957682579033e-05,-7.371288189196647e-14
	-3.219865354733669e-05,-2.173274996471049e-13
	-2.955297839722650e-05,1.430458783787488e-13
	-2.640525197605825e-05,-4.340862599178200e-13
	-2.955297839722650e-05,1.430458783787488e-13
17		1.479108388168207e+00,0.000000000000000e+00
	-2.955297839722649e-01,1.463778449196187e-09
	1.000000000000000e+00,0.000000000000000e+00
	0.000000000000000e+00,0.000000000000000e+00
	4.454920457528043e-05,1.312109488406995e-13
	4.454920679175174e-05,1.428879226598400e-13
	2.955297839722649e-05,-1.463778449196187e-13
	2.640525197590053e-05,4.441974278192673e-13
	-2.375957682579033e-05,-7.542987548086819e-14
	-3.219865354733669e-05,-2.223897074187804e-13
	-2.955297839722650e-05,1.463778449196187e-13
	-2.640525197605825e-05,-4.441974278192673e-13
	-2.955297839722650e-05,1.463778449196187e-13
18		1.513561248436208e+00,0.000000000000000e+00
	-2.955297839722649e-01,1.497874229314048e-09
	1.000000000000000e+00,0.000000000000000e+00
	0.000000000000000e+00,0.000000000000000e+00
	4.454920457528043e-05,1.342672444591963e-13
	4.454920679175174e-05,1.462162099393686e-13
	2.955297839722649e-05,-1.497874229314048e-13
	2.640525197590053e-05,4.545441150765924e-13
	-2.375957682579033e-05,-7.718686298818230e-14
	-3.219865354733669e-05,-2.275698291570053e-13
	-2.955297839722650e-05,1.497874229314048e-13
	-2.640525197605825e-05,-4.545441150765924e-13
	-2.955297839722650e-05,1.497874229314048e-13
19		1.548816618912481e+00,0.000000000000000e+00
	-2.955297839722649e-01,1.532764202175001e-09
	1.000000000000000e+00,0.000000000000000e+00
	0.000000000000000e+00,0.000000000000000e+00
	4.454920457528043e-05,1.373947303479425e-13
	4.454920679175174e-05,1.496220229888074e-13
	2.955297839722649e-05,-1.532764202175001e-13
	2.640525197590053e-05,4.651318076403338e-13
	-2.375957682579033e-05,-7.898477599194163e-14
	-3.219865354733669e-05,-2.328706114308920e-13
	-2.955297839722650e-05,1.532764202175001e-13
	-2.640525197605825e-05,-4.651318076403336e-13
	-2.955297839722650e-05,1.532764202175001e-13
20		1.584893192461113e+00,0.000000000000000e+00
	-2.955297839722649e-01,1.568466866904479e-09
	1.000000000000000e+00,0.000000000000000e+00
	0.000000000000000e+00,0.000000000000000e+00
	4.454920457528043e-05,1.405950647413534e-13
	4.454920679175174e-05,1.531071676153165e-13
	2.955297839722649e-05,-1.568466866904480e-13
	2.640525197590053e-05,4.759661192452332e-13
	-2.375957682579033e-05,-8.082456776941901e-14
	-3.219865354733669e-05,-2.382948647853663e-13
	-2.955297839722650e-05,1.568466866904479e-13
	-2.640525197605825e-05,-4.759661192452330e-13
	-2.955297839722650e-05,1.568466866904479e-13
21		1.621810097358929e+00,0.000000000000000e+00
	-2.955297839722649e-01,1.605001153527904e-09
	1.000000000000000e+00,0.000000000000000e+00
	0.000000000000000e+00,0.000000000000000e+00
	4.454920457528043e-05,1.438699444990859e-13
	4.454920679175174e-05,1.566734916887082e-13
	2.955297839722649e-05,-1.605001153527904e-13
	2.640525197590053e-05,4.870527943867129e-13
	-2.375957682579033e-05,-8.270721380256741e-14
	-3.219865354733669e-05,-2.438454652313551e-13
	-2.955297839722650e-05,1.605001153527904e-13
	-2.640525197605825e-05,-4.870527943867128e-13
	-2.955297839722650e-05,1.605001153527904e-13
22		1.659586907437560e+00,0.000000000000000e+00
	-2.955297839722649e-01,1.642386433007631e-09
	1.000000000000000e+00,0.000000000000000e+00
	0.000000000000000e+00,0.000000000000000e+00
	4.454920457528043e-05,1.472211060057356e-13
	4.454920679175174e-05,1.603228861212121e-13
	2.955297839722649e-05,-1.642386433007631e-13
	2.640525197590053e-05,4.983977113666824e-13
	-2.375957682579033e-05,-8.463371229523328e-14
	-3.219865354733669e-05,-2.495253557706859e-13
	-2.955297839722650e-05,1.642386433007631e-13
	-2.640525197605825e-05,-4.983977113666823e-13
	-2.955297839722650e-05,1.642386433007631e-13
23		1.698243652461743e+00,0.000000000000000e+00
	-2.955297839722649e-01,1.680642527513693e-09
	1.000000000000000e+00,0.000000000000000e+00
	0.000000000000000e+00,0.000000000000000e+00
	4.454920457528043e-05,1.506503260914913e-13
	4.454920679175174e-05,1.640572858700618e-13
	2.955297839722649e-05,-1.680642527513693e-13
	2.640525197590053e-05,5.100068854102919e-13
	-2.375957682579033e-05,-8.660508470241773e-14
	-3.219865354733669e-05,-2.553375479565049e-13
	-2.955297839722650e-05,1.680642527513693e-13
	-2.640525197605825e-05,-5.100068854102918e-13
	-2.955297839722650e-05,1.680642527513693e-13
24		1.737800828749374e+00,0.000000000000000e+00
	-2.955297839722649e-01,1.719789720933776e-09
	1.000000000000000e+00,0.000000000000000e+00
	0.000000000000000e+00,0.000000000000000e+00
	4.454920457528043e-05,1.541594229742335e-13
	4.454920679175174e-05,1.678786709634346e-13
	2.955297839722649e-05,-1.719789720933776e-13
	2.640525197590053e-05,5.218864718552852e-13
	-2.375957682579033e-05,-8.862237627186519e-14
	-3.219865354733669e-05,-2.612851234900424e-13
	-2.955297839722650e-05,1.719789720933776e-13
	-2.640525197605825e-05,-5.218864718552853e-13
	-2.955297839722650e-05,1.719789720933776e-13
25		1.778279410038922e+00,0.000000000000000e+00
	-2.955297839722649e-01,1.759848769628007e-09
	1.000000000000000e+00,0.000000000000000e+00
	0.000000000000000e+00,0.000000000000000e+00
	4.454920457528043e-05,1.577502572235779e-13
	4.454920679175174e-05,1.717890675502891e-13
	2.955297839722649e-05,-1.759848769628007e-13
	2.640525197590053e-05,5.340427694156405e-13
	-2.375957682579033e-05,-9.068665659826783e-14
	-3.219865354733669e-05,-2.673712358545719e-13
	-2.955297839722650e-05,1.759848769628007e-13
	-2.640525197605825e-05,-5.340427694156404e-13
	-2.955297839722650e-05,1.759848769628007e-13
26		1.819700858609982e+00,0.000000000000000e+00
	-2.955297839722649e-01,1.800840913434246e-09
	1.000000000000000e+00,0.000000000000000e+00
	0.000000000000000e+00,0.000000000000000e+00
	4.454920457528043e-05,1.614247327473736e-13
	4.454920679175174e-05,1.757905489746559e-13
	2.955297839722649e-05,-1.800840913434247e-13
	2.640525197590053e-05,5.464822235212315e-13
	-2.375957682579033e-05,-9.279902019037866e-14
	-3.219865354733669e-05,-2.735991119874281e-13
	-2.955297839722650e-05,1.800840913434246e-13
	-2.640525197605825e-05,-5.464822235212315e-13
	-2.955297839722650e-05,1.800840913434246e-13
27		1.862087136662866e+00,0.000000000000000e+00
	-2.955297839722649e-01,1.842787886929736e-09
	1.000000000000000e+00,0.000000000000000e+00
	0.000000000000000e+00,0.000000000000000e+00
	4.454920457528043e-05,1.651847978011809e-13
	4.454920679175174e-05,1.798852368749521e-13
	2.955297839722649e-05,-1.842787886929737e-13
	2.640525197590053e-05,5.592114297352808e-13
	-2.375957682579033e-05,-9.496058705133468e-14
	-3.219865354733669e-05,-2.799720539909724e-13
	-2.955297839722650e-05,1.842787886929737e-13
	-2.640525197605825e-05,-5.592114297352809e-13
	-2.955297839722650e-05,1.842787886929737e-13
28		1.905460717963246e+00,0.000000000000000e+00
	-2.955297839722649e-01,1.885711930955058e-09
	1.000000000000000e+00,0.000000000000000e+00
	0.000000000000000e+00,0.000000000000000e+00
	4.454920457528043e-05,1.690324460212618e-13
	4.454920679175174e-05,1.840753023089020e-13
	2.955297839722649e-05,-1.885711930955058e-13
	2.640525197590053e-05,5.722371372514142e-13
	-2.375957682579033e-05,-9.717250327249731e-14
	-3.219865354733669e-05,-2.864934408834110e-13
	-2.955297839722650e-05,1.885711930955058e-13
	-2.640525197605825e-05,-5.722371372514141e-13
	-2.955297839722650e-05,1.885711930955058e-13
29		1.949844599758044e+00,0.000000000000000e+00
	-2.955297839722649e-01,1.929635804406520e-09
	1.000000000000000e+00,0.000000000000000e+00
	0.000000000000000e+00,0.000000000000000e+00
	4.454920457528043e-05,1.729697174816320e-13
	4.454920679175174e-05,1.883629669046607e-13
	2.955297839722649e-05,-1.929635804406521e-13
	2.640525197590053e-05,5.855662524721722e-13
	-2.375957682579033e-05,-9.943594164112515e-14
	-3.219865354733669e-05,-2.931667303903950e-13
	-2.955297839722650e-05,1.929635804406520e-13
	-2.640525197605825e-05,-5.855662524721722e-13
	-2.955297839722650e-05,1.929635804406520e-13
30		1.995262314968878e+00,0.000000000000000e+00
	-2.955297839722649e-01,1.974582796303228e-09
	1.000000000000000e+00,0.000000000000000e+00
	0.000000000000000e+00,0.000000000000000e+00
	4.454920457528043e-05,1.769986997757359e-13
	4.454920679175174e-05,1.927505040387509e-13
	2.955297839722649e-05,-1.974582796303228e-13
	2.640525197590053e-05,5.992058426708766e-13
	-2.375957682579033e-05,-1.017521022622014e-13
	-3.219865354733669e-05,-2.999954607783524e-13
	-2.955297839722650e-05,1.974582796303228e-13
	-2.640525197605825e-05,-5.992058426708766e-13
	-2.955297839722650e-05,1.974582796303228e-13
31		2.041737944669527e+00,0.000000000000000e+00
	-2.955297839722649e-01,2.020576738135228e-09
	1.000000000000000e+00,0.000000000000000e+00
	0.000000000000000e+00,0.000000000000000e+00
	4.454920457528043e-05,1.811215291233156e-13
	4.454920679175174e-05,1.972402400414370e-13
	2.955297839722649e-05,-2.020576738135229e-13
	2.640525197590053e-05,6.131631397387920e-13
	-2.375957682579033e-05,-1.041222131947453e-13
	-3.219865354733669e-05,-3.069832527305238e-13
	-2.955297839722650e-05,2.020576738135229e-13
	-2.640525197605825e-05,-6.131631397387920e-13
	-2.955297839722650e-05,2.020576738135229e-13
32		2.089296130854037e+00,0.000000000000000e+00
	-2.955297839722649e-01,2.067642016499284e-09
	1.000000000000000e+00,0.000000000000000e+00
	0.000000000000000e+00,0.000000000000000e+00
	4.454920457528043e-05,1.853403915030634e-13
