LTspice 24.0.9 for Windows
Circuit: * GA CMOS Amp | W=1.2072495901351112e-06 L=6.399019669107283e-07 Vbias=1.2376559696684084
Start Time: Sat Sep  6 22:07:07 2025
solver = Normal
Maximum thread count: 2
tnom = 27
temp = 27
method = modified trap
AsciiRawFile = 1
Direct Newton iteration for .op point succeeded.
Semiconductor Device Operating Points:
                        --- BSIM4 MOSFETS ---
Name:      m1
Model:      n
Id:      6.89e-05
Vgs:     1.24e+00
Vds:     1.11e+00
Vbs:     0.00e+00
Vth:     2.44e-01
Vdsat:   6.98e-01
Gm:      4.98e-05
Gds:     6.34e-06
Gmb      4.59e-05
Cbd:     4.72e-16
Cbs:     9.66e-16


.measure op idd find i(vdd)
  Error: FIND can not be evaluated over an interval.

gain_db: MAX(db(v(out)/v(g)))=(28.968dB,103.647°) FROM 1 TO 1e+09
gain_lin: MAX(mag(v(out)/v(g)))=(-2.96917dB,0°) FROM 1 TO 1e+09

Measurement "fc" FAIL'ed

Total elapsed time: 2.230 seconds.

