Title: * GA CMOS Amp | W=3.205404595790639e-05 L=6.481943168868997e-07 Vbias=0.8684371880794263
Date: Mon Sep  8 18:43:24 2025
Plotname: AC Analysis
Flags: complex forward log
No. Variables: 11
No. Points:          901
Offset:    0.0000000000000000e+00
Command: Linear Technology Corporation LTspice
Variables:
	0	frequency	frequency
	1	V(out)	voltage
	2	V(g)	voltage
	3	V(vdd)	voltage
	4	Id(M1)	device_current
	5	Ig(M1)	device_current
	6	Ib(M1)	device_current
	7	Is(M1)	device_current
	8	I(Rload)	device_current
	9	I(Vg)	device_current
	10	I(Vdd)	device_current
Values:
0		1.000000000000000e+00,0.000000000000000e+00
	-7.919267814523494e+00,2.835373251886657e-09
	1.000000000000000e+00,0.000000000000000e+00
	0.000000000000000e+00,0.000000000000000e+00
	7.919267814523493e-04,-2.835373251886656e-13
	1.142096912080408e-22,5.078160562338258e-13
	7.919267889025527e-12,-4.363296560265328e-15
	-7.919267893716172e-04,-2.199154344848949e-13
	-7.919267814523494e-04,2.835373251886657e-13
	-1.142096912080408e-22,-5.078160562338258e-13
	-7.919267814523494e-04,2.835373251886657e-13
1		1.023292992280754e+00,0.000000000000000e+00
	-7.919267814523494e+00,2.901417579155909e-09
	1.000000000000000e+00,0.000000000000000e+00
	0.000000000000000e+00,0.000000000000000e+00
	7.919267814523493e-04,-2.901417579155909e-13
	1.195922281280174e-22,5.196446117117235e-13
	7.919267889025527e-12,-4.464930793362306e-15
	-7.919267893716172e-04,-2.250379230027702e-13
	-7.919267814523494e-04,2.901417579155909e-13
	-1.195922281280174e-22,-5.196446117117235e-13
	-7.919267814523494e-04,2.901417579155909e-13
2		1.047128548050899e+00,0.000000000000000e+00
	-7.919267814523494e+00,2.969000276430432e-09
	1.000000000000000e+00,0.000000000000000e+00
	0.000000000000000e+00,0.000000000000000e+00
	7.919267814523493e-04,-2.969000276430432e-13
	1.252284361978627e-22,5.317486896410600e-13
	7.919267889025527e-12,-4.568932391866077e-15
	-7.919267893716172e-04,-2.302797296061507e-13
	-7.919267814523494e-04,2.969000276430432e-13
	-1.252284361978627e-22,-5.317486896410600e-13
	-7.919267814523494e-04,2.969000276430432e-13
3		1.071519305237606e+00,0.000000000000000e+00
	-7.919267814523494e+00,3.038157176950882e-09
	1.000000000000000e+00,0.000000000000000e+00
	0.000000000000000e+00,0.000000000000000e+00
	7.919267814523493e-04,-3.038157176950883e-13
	1.311302705705527e-22,5.441347077641703e-13
	7.919267889025527e-12,-4.675356498801157e-15
	-7.919267893716172e-04,-2.356436335702809e-13
	-7.919267814523494e-04,3.038157176950883e-13
	-1.311302705705527e-22,-5.441347077641703e-13
	-7.919267814523494e-04,3.038157176950883e-13
4		1.096478196143185e+00,0.000000000000000e+00
	-7.919267814523494e+00,3.108924948621317e-09
	1.000000000000000e+00,0.000000000000000e+00
	0.000000000000000e+00,0.000000000000000e+00
	7.919267814523493e-04,-3.108924948621316e-13
	1.373102498280644e-22,5.568092333118114e-13
	7.919267889025527e-12,-4.784259541637555e-15
	-7.919267893716172e-04,-2.411324789080422e-13
	-7.919267814523494e-04,3.108924948621317e-13
	-1.373102498280644e-22,-5.568092333118114e-13
	-7.919267814523494e-04,3.108924948621317e-13
5		1.122018454301963e+00,0.000000000000000e+00
	-7.919267814523494e+00,3.181341113450997e-09
	1.000000000000000e+00,0.000000000000000e+00
	0.000000000000000e+00,0.000000000000000e+00
	7.919267814523493e-04,-3.181341113450997e-13
	1.437814825349674e-22,5.697789864851961e-13
	7.919267889025527e-12,-4.895699262209976e-15
	-7.919267893716172e-04,-2.467491758778864e-13
	-7.919267814523494e-04,3.181341113450997e-13
	-1.437814825349674e-22,-5.697789864851961e-13
	-7.919267814523494e-04,3.181341113450997e-13
6		1.148153621496882e+00,0.000000000000000e+00
	-7.919267814523494e+00,3.255444067449057e-09
	1.000000000000000e+00,0.000000000000000e+00
	0.000000000000000e+00,0.000000000000000e+00
	7.919267814523493e-04,-3.255444067449056e-13
	1.505576950434462e-22,5.830508440191317e-13
	7.919267889025527e-12,-5.009734747333556e-15
	-7.919267893716172e-04,-2.524967025268925e-13
	-7.919267814523494e-04,3.255444067449057e-13
	-1.505576950434462e-22,-5.830508440191317e-13
	-7.919267814523494e-04,3.255444067449057e-13
7		1.174897554939529e+00,0.000000000000000e+00
	-7.919267814523494e+00,3.331273100982575e-09
	1.000000000000000e+00,0.000000000000000e+00
	0.000000000000000e+00,0.000000000000000e+00
	7.919267814523493e-04,-3.331273100982574e-13
	1.576532606087339e-22,5.966318428281564e-13
	7.919267889025527e-12,-5.126426460131761e-15
	-7.919267893716172e-04,-2.583781062697672e-13
	-7.919267814523494e-04,3.331273100982575e-13
	-1.576532606087339e-22,-5.966318428281564e-13
	-7.919267814523494e-04,3.331273100982575e-13
8		1.202264434617413e+00,0.000000000000000e+00
	-7.919267814523494e+00,3.408868419608846e-09
	1.000000000000000e+00,0.000000000000000e+00
	0.000000000000000e+00,0.000000000000000e+00
	7.919267814523493e-04,-3.408868419608845e-13
	1.650832298767136e-22,6.105291837376049e-13
	7.919267889025527e-12,-5.245836272095540e-15
	-7.919267893716172e-04,-2.643965055046248e-13
	-7.919267814523494e-04,3.408868419608846e-13
	-1.650832298767136e-22,-6.105291837376049e-13
	-7.919267814523494e-04,3.408868419608846e-13
9		1.230268770812381e+00,0.000000000000000e+00
	-7.919267814523494e+00,3.488271165392901e-09
	1.000000000000000e+00,0.000000000000000e+00
	0.000000000000000e+00,0.000000000000000e+00
	7.919267814523493e-04,-3.488271165392901e-13
	1.728633628083560e-22,6.247502353015800e-13
	7.919267889025527e-12,-5.368027495887522e-15
	-7.919267893716172e-04,-2.705550912664024e-13
	-7.919267814523494e-04,3.488271165392901e-13
	-1.728633628083560e-22,-6.247502353015800e-13
	-7.919267814523494e-04,3.488271165392901e-13
10		1.258925411794167e+00,0.000000000000000e+00
	-7.919267814523494e+00,3.569523438721575e-09
	1.000000000000000e+00,0.000000000000000e+00
	0.000000000000000e+00,0.000000000000000e+00
	7.919267814523493e-04,-3.569523438721575e-13
	1.810101621087097e-22,6.393025377098591e-13
	7.919267889025527e-12,-5.493064918912149e-15
	-7.919267893716172e-04,-2.768571289187894e-13
	-7.919267814523494e-04,3.569523438721576e-13
	-1.810101621087097e-22,-6.393025377098591e-13
	-7.919267814523494e-04,3.569523438721576e-13
11		1.288249551693134e+00,0.000000000000000e+00
	-7.919267814523494e+00,3.652668320625688e-09
	1.000000000000000e+00,0.000000000000000e+00
	0.000000000000000e+00,0.000000000000000e+00
	7.919267814523493e-04,-3.652668320625688e-13
	1.895409082313512e-22,6.541938067858014e-13
	7.919267889025527e-12,-5.621014837665987e-15
	-7.919267893716172e-04,-2.833059598855666e-13
	-7.919267814523494e-04,3.652668320625688e-13
	-1.895409082313512e-22,-6.541938067858014e-13
	-7.919267814523494e-04,3.652668320625688e-13
12		1.318256738556407e+00,0.000000000000000e+00
	-7.919267814523494e+00,3.737749895622178e-09
	1.000000000000000e+00,0.000000000000000e+00
	0.000000000000000e+00,0.000000000000000e+00
	7.919267814523493e-04,-3.737749895622177e-13
	1.984736960325435e-22,6.694319380773802e-13
	7.919267889025527e-12,-5.751945092889720e-15
	-7.919267893716172e-04,-2.899050034222727e-13
	-7.919267814523494e-04,3.737749895622178e-13
	-1.984736960325435e-22,-6.694319380773802e-13
	-7.919267814523494e-04,3.737749895622178e-13
13		1.348962882591653e+00,0.000000000000000e+00
	-7.919267814523494e+00,3.824813275088295e-09
	1.000000000000000e+00,0.000000000000000e+00
	0.000000000000000e+00,0.000000000000000e+00
	7.919267814523493e-04,-3.824813275088294e-13
	2.078274731528529e-22,6.850250110435069e-13
	7.919267889025527e-12,-5.885925105537784e-15
	-7.919267893716172e-04,-2.966577584291398e-13
	-7.919267814523494e-04,3.824813275088295e-13
	-2.078274731528529e-22,-6.850250110435069e-13
	-7.919267814523494e-04,3.824813275088295e-13
14		1.380384264602885e+00,0.000000000000000e+00
	-7.919267814523494e+00,3.913904621180252e-09
	1.000000000000000e+00,0.000000000000000e+00
	0.000000000000000e+00,0.000000000000000e+00
	7.919267814523493e-04,-3.913904621180252e-13
	2.176220802076342e-22,7.009812933378669e-13
	7.919267889025527e-12,-6.023025913586189e-15
	-7.919267893716172e-04,-3.035678053062555e-13
	-7.919267814523494e-04,3.913904621180252e-13
	-2.176220802076342e-22,-7.009812933378669e-13
	-7.919267814523494e-04,3.913904621180252e-13
15		1.412537544622754e+00,0.000000000000000e+00
	-7.919267814523494e+00,4.005071171309011e-09
	1.000000000000000e+00,0.000000000000000e+00
	0.000000000000000e+00,0.000000000000000e+00
	7.919267814523493e-04,-4.005071171309011e-13
	2.278782928716363e-22,7.173092451925388e-13
	7.919267889025527e-12,-6.163320209698165e-15
	-7.919267893716172e-04,-3.106388078519396e-13
	-7.919267814523494e-04,4.005071171309011e-13
	-2.278782928716363e-22,-7.173092451925388e-13
	-7.919267814523494e-04,4.005071171309011e-13
16		1.445439770745927e+00,0.000000000000000e+00
	-7.919267814523494e+00,4.098361263186183e-09
	1.000000000000000e+00,0.000000000000000e+00
	0.000000000000000e+00,0.000000000000000e+00
	7.919267814523493e-04,-4.098361263186182e-13
	2.386178659469941e-22,7.340175239037221e-13
	7.919267889025527e-12,-6.306882379766469e-15
	-7.919267893716172e-04,-3.178745152053374e-13
	-7.919267814523494e-04,4.098361263186183e-13
	-2.386178659469941e-22,-7.340175239037221e-13
	-7.919267814523494e-04,4.098361263186183e-13
17		1.479108388168207e+00,0.000000000000000e+00
	-7.919267814523494e+00,4.193824360453319e-09
	1.000000000000000e+00,0.000000000000000e+00
	0.000000000000000e+00,0.000000000000000e+00
	7.919267814523493e-04,-4.193824360453319e-13
	2.498635795080801e-22,7.511149884219496e-13
	7.919267889025527e-12,-6.453788542353901e-15
	-7.919267893716172e-04,-3.252787638342638e-13
	-7.919267814523494e-04,4.193824360453319e-13
	-2.498635795080801e-22,-7.511149884219496e-13
	-7.919267814523494e-04,4.193824360453319e-13
18		1.513561248436208e+00,0.000000000000000e+00
	-7.919267814523494e+00,4.291511078908197e-09
	1.000000000000000e+00,0.000000000000000e+00
	0.000000000000000e+00,0.000000000000000e+00
	7.919267814523493e-04,-4.291511078908198e-13
	2.616392872210964e-22,7.686107040492208e-13
	7.919267889025527e-12,-6.604116589052594e-15
	-7.919267893716172e-04,-3.328554795693485e-13
	-7.919267814523494e-04,4.291511078908198e-13
	-2.616392872210964e-22,-7.686107040492208e-13
	-7.919267814523494e-04,4.291511078908198e-13
19		1.548816618912481e+00,0.000000000000000e+00
	-7.919267814523494e+00,4.391473213341977e-09
	1.000000000000000e+00,0.000000000000000e+00
	0.000000000000000e+00,0.000000000000000e+00
	7.919267814523493e-04,-4.391473213341976e-13
	2.739699669408990e-22,7.865139472455444e-13
	7.919267889025527e-12,-6.757946225782661e-15
	-7.919267893716172e-04,-3.406086796855641e-13
	-7.919267814523494e-04,4.391473213341977e-13
	-2.739699669408990e-22,-7.865139472455444e-13
	-7.919267814523494e-04,4.391473213341977e-13
20		1.584893192461113e+00,0.000000000000000e+00
	-7.919267814523494e+00,4.493763765001491e-09
	1.000000000000000e+00,0.000000000000000e+00
	0.000000000000000e+00,0.000000000000000e+00
	7.919267814523493e-04,-4.493763765001490e-13
	2.868817736923765e-22,8.048342105474403e-13
	7.919267889025527e-12,-6.915359015053530e-15
	-7.919267893716172e-04,-3.485424750322378e-13
	-7.919267814523494e-04,4.493763765001491e-13
	-2.868817736923765e-22,-8.048342105474403e-13
	-7.919267814523494e-04,4.493763765001491e-13
21		1.621810097358929e+00,0.000000000000000e+00
	-7.919267814523494e+00,4.598436969691203e-09
	1.000000000000000e+00,0.000000000000000e+00
	0.000000000000000e+00,0.000000000000000e+00
	7.919267814523493e-04,-4.598436969691201e-13
	3.004020951487649e-22,8.235812076010086e-13
	7.919267889025527e-12,-7.076438419209877e-15
	-7.919267893716172e-04,-3.566610722126786e-13
	-7.919267814523494e-04,4.598436969691203e-13
	-3.004020951487649e-22,-8.235812076010086e-13
	-7.919267814523494e-04,4.598436969691203e-13
22		1.659586907437560e+00,0.000000000000000e+00
	-7.919267814523494e+00,4.705548326529754e-09
	1.000000000000000e+00,0.000000000000000e+00
	0.000000000000000e+00,0.000000000000000e+00
	7.919267814523493e-04,-4.705548326529754e-13
	3.145596097245743e-22,8.427648783122330e-13
	7.919267889025527e-12,-7.241269844683676e-15
	-7.919267893716172e-04,-3.649687758145740e-13
	-7.919267814523494e-04,4.705548326529754e-13
	-3.145596097245743e-22,-8.427648783122330e-13
	-7.919267814523494e-04,4.705548326529754e-13
23		1.698243652461743e+00,0.000000000000000e+00
	-7.919267814523494e+00,4.815154627376327e-09
	1.000000000000000e+00,0.000000000000000e+00
	0.000000000000000e+00,0.000000000000000e+00
	7.919267814523493e-04,-4.815154627376326e-13
	3.293843474063512e-22,8.623953941172506e-13
	7.919267889025527e-12,-7.409940687278796e-15
	-7.919267893716172e-04,-3.734699906923392e-13
	-7.919267814523494e-04,4.815154627376327e-13
	-3.293843474063512e-22,-8.623953941172506e-13
	-7.919267814523494e-04,4.815154627376327e-13
24		1.737800828749374e+00,0.000000000000000e+00
	-7.919267814523494e+00,4.927313986942440e-09
	1.000000000000000e+00,0.000000000000000e+00
	0.000000000000000e+00,0.000000000000000e+00
	7.919267814523493e-04,-4.927313986942440e-13
	3.449077534503054e-22,8.824831633753815e-13
	7.919267889025527e-12,-7.582540378508363e-15
	-7.919267893716172e-04,-3.821692243026291e-13
	-7.919267814523494e-04,4.927313986942441e-13
	-3.449077534503054e-22,-8.824831633753815e-13
	-7.919267814523494e-04,4.927313986942441e-13
25		1.778279410038922e+00,0.000000000000000e+00
	-7.919267814523494e+00,5.042085873605143e-09
	1.000000000000000e+00,0.000000000000000e+00
	0.000000000000000e+00,0.000000000000000e+00
	7.919267814523493e-04,-5.042085873605143e-13
	3.611627550819160e-22,9.030388368877798e-13
	7.919267889025527e-12,-7.759160433013459e-15
	-7.919267893716172e-04,-3.910710890942521e-13
	-7.919267814523494e-04,5.042085873605144e-13
	-3.611627550819160e-22,-9.030388368877798e-13
	-7.919267814523494e-04,5.042085873605144e-13
26		1.819700858609982e+00,0.000000000000000e+00
	-7.919267814523494e+00,5.159531140937927e-09
	1.000000000000000e+00,0.000000000000000e+00
	0.000000000000000e+00,0.000000000000000e+00
	7.919267814523493e-04,-5.159531140937926e-13
	3.781838313389893e-22,9.240733135446280e-13
	7.919267889025527e-12,-7.939894497084855e-15
	-7.919267893716172e-04,-4.001803049537505e-13
	-7.919267814523494e-04,5.159531140937927e-13
	-3.781838313389893e-22,-9.240733135446280e-13
	-7.919267814523494e-04,5.159531140937927e-13
27		1.862087136662866e+00,0.000000000000000e+00
	-7.919267814523494e+00,5.279712059976103e-09
	1.000000000000000e+00,0.000000000000000e+00
	0.000000000000000e+00,0.000000000000000e+00
	7.919267814523493e-04,-5.279712059976103e-13
	3.960070862063220e-22,9.455977461038737e-13
	7.919267889025527e-12,-8.124838398315455e-15
	-7.919267893716172e-04,-4.095017017079481e-13
	-7.919267814523494e-04,5.279712059976104e-13
	-3.960070862063220e-22,-9.455977461038737e-13
	-7.919267814523494e-04,5.279712059976104e-13
28		1.905460717963246e+00,0.000000000000000e+00
	-7.919267814523494e+00,5.402692352233731e-09
	1.000000000000000e+00,0.000000000000000e+00
	0.000000000000000e+00,0.000000000000000e+00
	7.919267814523493e-04,-5.402692352233730e-13
	4.146703251970933e-22,9.676235471045697e-13
	7.919267889025527e-12,-8.314090196409705e-15
	-7.919267893716172e-04,-4.190402216847870e-13
	-7.919267814523494e-04,5.402692352233731e-13
	-4.146703251970933e-22,-9.676235471045697e-13
	-7.919267814523494e-04,5.402692352233731e-13
29		1.949844599758044e+00,0.000000000000000e+00
	-7.919267814523494e+00,5.528537223489602e-09
	1.000000000000000e+00,0.000000000000000e+00
	0.000000000000000e+00,0.000000000000000e+00
	7.919267814523493e-04,-5.528537223489600e-13
	4.342131355434269e-22,9.901623949179526e-13
	7.919267889025527e-12,-8.507750235176419e-15
	-7.919267893716172e-04,-4.288009223338162e-13
	-7.919267814523494e-04,5.528537223489603e-13
	-4.342131355434269e-22,-9.901623949179526e-13
	-7.919267814523494e-04,5.528537223489603e-13
30		1.995262314968878e+00,0.000000000000000e+00
	-7.919267814523494e+00,5.657313398360206e-09
	1.000000000000000e+00,0.000000000000000e+00
	0.000000000000000e+00,0.000000000000000e+00
	7.919267814523493e-04,-5.657313398360206e-13
	4.546769701662168e-22,1.013226239939469e-12
	7.919267889025527e-12,-8.705921195730670e-15
	-7.919267893716172e-04,-4.387889789077180e-13
	-7.919267814523494e-04,5.657313398360206e-13
	-4.546769701662168e-22,-1.013226239939469e-12
	-7.919267814523494e-04,5.657313398360206e-13
31		2.041737944669527e+00,0.000000000000000e+00
	-7.919267814523494e+00,5.789089155678016e-09
	1.000000000000000e+00,0.000000000000000e+00
	0.000000000000000e+00,0.000000000000000e+00
	7.919267814523493e-04,-5.789089155678014e-13
	4.761052356023326e-22,1.036827310925037e-12
	7.919267889025527e-12,-8.908708150939777e-15
	-7.919267893716172e-04,-4.490096872062954e-13
	-7.919267814523494e-04,5.789089155678016e-13
	-4.761052356023326e-22,-1.036827310925037e-12
	-7.919267814523494e-04,5.789089155678016e-13
32		2.089296130854037e+00,0.000000000000000e+00
	-7.919267814523494e+00,5.923934364693823e-09
	1.000000000000000e+00,0.000000000000000e+00
	0.000000000000000e+00,0.000000000000000e+00
	7.919267814523493e-04,-5.923934364693822e-13
	4.985433840757023e-22,1.060978121474889e-12
	7.919267889025527e-12,-9.116218621131081e-15
	-7.919267893716172e-04,-4.594684663843755e-13
	-7.919267814523494e-04,5.923934364693824e-13
	-4.985433840757023e-22,-1.060978121474889e-12
	-7.919267814523494e-04,5.923934364693824e-13
33		2.137962089502230e+00,0.000000000000000e+00
	-7.919267814523494e+00,6.061920522122329e-09
	1.000000000000000e+00,0.000000000000000e+00
	0.000000000000000e+00,0.000000000000000e+00
	7.919267814523493e-04,-6.061920522122329e-13
	5.220390099075719e-22,1.085691476668452e-12
	7.919267889025527e-12,-9.328562631102876e-15
	-7.919267893716172e-04,-4.701708618251166e-13
	-7.919267814523494e-04,6.061920522122330e-13
	-5.220390099075719e-22,-1.085691476668452e-12
	-7.919267814523494e-04,6.061920522122330e-13
34		2.187761623949550e+00,0.000000000000000e+00
	-7.919267814523494e+00,6.203120790050670e-09
	1.000000000000000e+00,0.000000000000000e+00
	0.000000000000000e+00,0.000000000000000e+00
	7.919267814523493e-04,-6.203120790050670e-13
	5.466419504704448e-22,1.110980479853771e-12
	7.919267889025527e-12,-9.545852768459533e-15
	-7.919267893716172e-04,-4.811225480802446e-13
	-7.919267814523494e-04,6.203120790050670e-13
	-5.466419504704448e-22,-1.110980479853771e-12
	-7.919267814523494e-04,6.203120790050670e-13
35		2.238721138568337e+00,0.000000000000000e+00
	-7.919267814523494e+00,6.347610034729906e-09
	1.000000000000000e+00,0.000000000000000e+00
	0.000000000000000e+00,0.000000000000000e+00
	7.919267814523493e-04,-6.347610034729905e-13
	5.724043918998287e-22,1.136858539595073e-12
	7.919267889025527e-12,-9.768204243308344e-15
	-7.919267893716172e-04,-4.923293318787746e-13
	-7.919267814523494e-04,6.347610034729906e-13
	-5.724043918998287e-22,-1.136858539595073e-12
	-7.919267814523494e-04,6.347610034729906e-13
36		2.290867652767770e+00,0.000000000000000e+00
	-7.919267814523494e+00,6.495464866270106e-09
	1.000000000000000e+00,0.000000000000000e+00
	0.000000000000000e+00,0.000000000000000e+00
	7.919267814523493e-04,-6.495464866270106e-13
	5.993809797880256e-22,1.163339376782171e-12
	7.919267889025527e-12,-9.995734949344679e-15
	-7.919267893716172e-04,-5.037971552058157e-13
	-7.919267814523494e-04,6.495464866270106e-13
	-5.993809797880256e-22,-1.163339376782171e-12
	-7.919267814523494e-04,6.495464866270106e-13
37		2.344228815319919e+00,0.000000000000000e+00
	-7.919267814523494e+00,6.646763679260045e-09
	1.000000000000000e+00,0.000000000000000e+00
	0.000000000000000e+00,0.000000000000000e+00
	7.919267814523493e-04,-6.646763679260044e-13
	6.276289350947607e-22,1.190437031905455e-12
	7.919267889025527e-12,-1.022856552636025e-14
	-7.919267893716172e-04,-5.155320984530906e-13
	-7.919267814523494e-04,6.646763679260045e-13
	-6.276289350947607e-22,-1.190437031905455e-12
	-7.919267814523494e-04,6.646763679260045e-13
38		2.398832919019488e+00,0.000000000000000e+00
	-7.919267814523494e+00,6.801586694333047e-09
	1.000000000000000e+00,0.000000000000000e+00
