LTspice 24.0.9 for Windows
Circuit: * GA CMOS Amp | W=1.9760811442175933e-06 L=8.549808804454229e-07 Vbias=1.0104245893756878
Start Time: Mon Sep  8 18:45:52 2025
solver = Normal
Maximum thread count: 2
tnom = 27
temp = 27
method = modified trap
AsciiRawFile = 1
Instance "m1": Length shorter than recommended for a level 3 MOSFET.
Instance "m1": Width narrower than recommended for a level 3 MOSFET.
Direct Newton iteration for .op point succeeded.
Semiconductor Device Operating Points:
                        --- MOSFET Transistors ---
Name:          m1
Model:        n_1u
Id:          4.26e-06
Vgs:         1.01e+00
Vds:         1.76e+00
Vbs:         0.00e+00
Vth:         8.91e-01
Vdsat:       1.30e-01
Gm:          4.51e-05
Gds:         6.34e-07
Gmb:         1.62e-05
Cbd:         0.00e+00
Cbs:         0.00e+00
Cgsov:       3.95e-16
Cgdov:       3.95e-16
Cgbov:       6.55e-17
Cgs:         1.49e-15
Cgd:         0.00e+00
Cgb:         0.00e+00



gain_db: MAX(db(v(out)/v(g)))=(28.9933dB,104.317°) FROM 1 TO 1e+09
gain_lin: MAX(mag(v(out)/v(g)))=(-6.95388dB,0°) FROM 1 TO 1e+09

Measurement "fc" FAIL'ed

Total elapsed time: 0.448 seconds.

