LTspice 24.0.9 for Windows
Circuit: * GA CMOS Amp | W=3.8629760256790104e-05 L=9.70791012875527e-07 Vbias=0.5708431298867818
Start Time: Mon Sep  8 18:43:17 2025
solver = Normal
Maximum thread count: 2
tnom = 27
temp = 27
method = modified trap
AsciiRawFile = 1
Instance "m1": Length shorter than recommended for a level 3 MOSFET.
Direct Newton iteration for .op point succeeded.
Semiconductor Device Operating Points:
                        --- MOSFET Transistors ---
Name:          m1
Model:        n_1u
Id:          1.37e-07
Vgs:         5.71e-01
Vds:         1.80e+00
Vbs:         0.00e+00
Vth:         8.05e-01
Vdsat:       4.88e-02
Gm:          2.49e-06
Gds:         7.72e-09
Gmb:         6.31e-07
Cbd:         0.00e+00
Cbs:         0.00e+00
Cgsov:       7.73e-15
Cgdov:       7.73e-15
Cgbov:       7.71e-17
Cgs:         1.14e-14
Cgd:         0.00e+00
Cgb:         1.72e-14



gain_db: MAX(db(v(out)/v(g)))=(32.4911dB,139.628°) FROM 1 TO 1e+09
gain_lin: MAX(mag(v(out)/v(g)))=(-7.18549dB,0°) FROM 1 TO 1e+09

Measurement "fc" FAIL'ed

Total elapsed time: 0.437 seconds.

