LTspice 24.0.9 for Windows
Circuit: * GA CMOS Amp | W=4.062933388191865e-05 L=4.988509643391041e-07 Vbias=1.0863858117339267
Start Time: Mon Sep  8 18:43:15 2025
solver = Normal
Maximum thread count: 2
tnom = 27
temp = 27
method = modified trap
AsciiRawFile = 1
Instance "m1": Length shorter than recommended for a level 3 MOSFET.
Direct Newton iteration for .op point succeeded.
Semiconductor Device Operating Points:
                        --- MOSFET Transistors ---
Name:          m1
Model:        n_1u
Id:          1.77e-04
Vgs:         1.09e+00
Vds:         2.91e-02
Vbs:         0.00e+00
Vth:         7.13e-01
Vdsat:       2.51e-01
Gm:          4.13e-04
Gds:         5.50e-03
Gmb:         5.56e-05
Cbd:         0.00e+00
Cbs:         0.00e+00
Cgsov:       8.13e-15
Cgdov:       8.13e-15
Cgbov:       2.99e-17
Cgs:         1.09e-14
Cgd:         1.00e-14
Cgb:         0.00e+00



gain_db: MAX(db(v(out)/v(g)))=(30.9922dB,129.668°) FROM 1 TO 1e+09
gain_lin: MAX(mag(v(out)/v(g)))=(-22.2981dB,0°) FROM 1 TO 1e+09

Measurement "fc" FAIL'ed

Total elapsed time: 0.490 seconds.

