Title: * GA CMOS Amp | W=3.275619590864829e-05 L=2.923022972129971e-07 Vbias=0.876817443989967
Date: Mon Sep  8 18:46:57 2025
Plotname: AC Analysis
Flags: complex forward log
No. Variables: 11
No. Points:          901
Offset:    0.0000000000000000e+00
Command: Linear Technology Corporation LTspice
Variables:
	0	frequency	frequency
	1	V(out)	voltage
	2	V(g)	voltage
	3	V(vdd)	voltage
	4	Id(M1)	device_current
	5	Ig(M1)	device_current
	6	Ib(M1)	device_current
	7	Is(M1)	device_current
	8	I(Rload)	device_current
	9	I(Vg)	device_current
	10	I(Vdd)	device_current
Values:
0		1.000000000000000e+00,0.000000000000000e+00
	-1.612193541637890e-02,3.007884735327787e-12
	1.000000000000000e+00,0.000000000000000e+00
	0.000000000000000e+00,0.000000000000000e+00
	1.612193541637860e-06,-3.007884735327725e-16
	1.729806284851765e-25,1.161099604098427e-13
	2.058216878181307e-14,-3.554463411003605e-17
	-1.612193562220028e-06,-1.157736273021998e-13
	-1.612193541637890e-06,3.007884735327787e-16
	-1.729806284851765e-25,-1.161099604098427e-13
	-1.612193541637890e-06,3.007884735327787e-16
1		1.023292992280754e+00,0.000000000000000e+00
	-1.612193541637890e-02,3.077947371249175e-12
	1.000000000000000e+00,0.000000000000000e+00
	0.000000000000000e+00,0.000000000000000e+00
	1.612193541637860e-06,-3.077947371249145e-16
	1.811329543466150e-25,1.188145088213878e-13
	2.058216878181307e-14,-3.637257499800237e-17
	-1.612193562220028e-06,-1.184703415092649e-13
	-1.612193541637890e-06,3.077947371249175e-16
	-1.811329543466150e-25,-1.188145088213878e-13
	-1.612193541637890e-06,3.077947371249175e-16
2		1.047128548050899e+00,0.000000000000000e+00
	-1.612193541637890e-02,3.149641975608249e-12
	1.000000000000000e+00,0.000000000000000e+00
	0.000000000000000e+00,0.000000000000000e+00
	1.612193541637860e-06,-3.149641975608262e-16
	1.896694874891407e-25,1.215820542582060e-13
	2.058216878181307e-14,-3.721980110667194e-17
	-1.612193562220028e-06,-1.212298702595385e-13
	-1.612193541637890e-06,3.149641975608249e-16
	-1.896694874891407e-25,-1.215820542582060e-13
	-1.612193541637890e-06,3.149641975608249e-16
3		1.071519305237606e+00,0.000000000000000e+00
	-1.612193541637890e-02,3.223006561833231e-12
	1.000000000000000e+00,0.000000000000000e+00
	0.000000000000000e+00,0.000000000000000e+00
	1.612193541637860e-06,-3.223006561833312e-16
	1.986083350440621e-25,1.244140641095206e-13
	2.058216878181307e-14,-3.808676164647536e-17
	-1.612193562220028e-06,-1.240536766916908e-13
	-1.612193541637890e-06,3.223006561833231e-16
	-1.986083350440621e-25,-1.244140641095206e-13
	-1.612193541637890e-06,3.223006561833231e-16
4		1.096478196143185e+00,0.000000000000000e+00
	-1.612193541637890e-02,3.298080028798832e-12
	1.000000000000000e+00,0.000000000000000e+00
	0.000000000000000e+00,0.000000000000000e+00
	1.612193541637860e-06,-3.298080028798788e-16
	2.079684575054953e-25,1.273120399444409e-13
	2.058216878181307e-14,-3.897391629154675e-17
	-1.612193562220028e-06,-1.269432580252694e-13
	-1.612193541637890e-06,3.298080028798832e-16
	-2.079684575054953e-25,-1.273120399444409e-13
	-1.612193541637890e-06,3.298080028798832e-16
5		1.122018454301963e+00,0.000000000000000e+00
	-1.612193541637890e-02,3.374902181450953e-12
	1.000000000000000e+00,0.000000000000000e+00
	0.000000000000000e+00,0.000000000000000e+00
	1.612193541637860e-06,-3.374902181450810e-16
	2.177697089481146e-25,1.302775183081138e-13
	2.058216878181307e-14,-3.988173542290740e-17
	-1.612193562220028e-06,-1.299001463545458e-13
	-1.612193541637890e-06,3.374902181450953e-16
	-2.177697089481146e-25,-1.302775183081138e-13
	-1.612193541637890e-06,3.374902181450953e-16
6		1.148153621496882e+00,0.000000000000000e+00
	-1.612193541637890e-02,3.453513751911791e-12
	1.000000000000000e+00,0.000000000000000e+00
	0.000000000000000e+00,0.000000000000000e+00
	1.612193541637860e-06,-3.453513751911612e-16
	2.280328791403062e-25,1.333120715364205e-13
	2.058216878181307e-14,-4.081070037821289e-17
	-1.612193562220028e-06,-1.329259094608511e-13
	-1.612193541637890e-06,3.453513751911791e-16
	-2.280328791403062e-25,-1.333120715364205e-13
	-1.612193541637890e-06,3.453513751911791e-16
7		1.174897554939529e+00,0.000000000000000e+00
	-1.612193541637890e-02,3.533956421076549e-12
	1.000000000000000e+00,0.000000000000000e+00
	0.000000000000000e+00,0.000000000000000e+00
	1.612193541637860e-06,-3.533956421076539e-16
	2.387797376420550e-25,1.364173085896497e-13
	2.058216878181307e-14,-4.176130370710418e-17
	-1.612193562220028e-06,-1.360221516438349e-13
	-1.612193541637890e-06,3.533956421076550e-16
	-2.387797376420550e-25,-1.364173085896497e-13
	-1.612193541637890e-06,3.533956421076550e-16
8		1.202264434617413e+00,0.000000000000000e+00
	-1.612193541637890e-02,3.616272840713207e-12
	1.000000000000000e+00,0.000000000000000e+00
	0.000000000000000e+00,0.000000000000000e+00
	1.612193541637860e-06,-3.616272840713127e-16
	2.500330799810998e-25,1.395948759055897e-13
	2.058216878181307e-14,-4.273404943201134e-17
	-1.612193562220028e-06,-1.391905145720864e-13
	-1.612193541637890e-06,3.616272840713208e-16
	-2.500330799810998e-25,-1.395948759055897e-13
	-1.612193541637890e-06,3.616272840713208e-16
9		1.230268770812381e+00,0.000000000000000e+00
	-1.612193541637890e-02,3.700506656077040e-12
	1.000000000000000e+00,0.000000000000000e+00
	0.000000000000000e+00,0.000000000000000e+00
	1.612193541637860e-06,-3.700506656077057e-16
	2.618167760053035e-25,1.428464582724914e-13
	2.058216878181307e-14,-4.372945331555845e-17
	-1.612193562220028e-06,-1.424326781535681e-13
	-1.612193541637890e-06,3.700506656077040e-16
	-2.618167760053035e-25,-1.428464582724914e-13
	-1.612193541637890e-06,3.700506656077040e-16
10		1.258925411794167e+00,0.000000000000000e+00
	-1.612193541637890e-02,3.786702529051922e-12
	1.000000000000000e+00,0.000000000000000e+00
	0.000000000000000e+00,0.000000000000000e+00
	1.612193541637860e-06,-3.786702529052030e-16
	2.741558205138010e-25,1.461737797223656e-13
	2.058216878181307e-14,-4.474804313403960e-17
	-1.612193562220028e-06,-1.457503614263263e-13
	-1.612193541637890e-06,3.786702529051922e-16
	-2.741558205138010e-25,-1.461737797223656e-13
	-1.612193541637890e-06,3.786702529051922e-16
11		1.288249551693134e+00,0.000000000000000e+00
	-1.612193541637890e-02,3.874906161830642e-12
	1.000000000000000e+00,0.000000000000000e+00
	0.000000000000000e+00,0.000000000000000e+00
	1.612193541637860e-06,-3.874906161830612e-16
	2.870763862743196e-25,1.495786044450873e-13
	2.058216878181307e-14,-4.579035895730676e-17
	-1.612193562220028e-06,-1.491453234699469e-13
	-1.612193541637890e-06,3.874906161830642e-16
	-2.870763862743196e-25,-1.495786044450873e-13
	-1.612193541637890e-06,3.874906161830642e-16
12		1.318256738556407e+00,0.000000000000000e+00
	-1.612193541637890e-02,3.965164321146810e-12
	1.000000000000000e+00,0.000000000000000e+00
	0.000000000000000e+00,0.000000000000000e+00
	1.612193541637860e-06,-3.965164321146657e-16
	3.006058795391275e-25,1.530627377237927e-13
	2.058216878181307e-14,-4.685695343509471e-17
	-1.612193562220028e-06,-1.526193643382430e-13
	-1.612193541637890e-06,3.965164321146810e-16
	-3.006058795391275e-25,-1.530627377237927e-13
	-1.612193541637890e-06,3.965164321146810e-16
13		1.348962882591653e+00,0.000000000000000e+00
	-1.612193541637890e-02,4.057524863071204e-12
	1.000000000000000e+00,0.000000000000000e+00
	0.000000000000000e+00,0.000000000000000e+00
	1.612193541637860e-06,-4.057524863071160e-16
	3.147729981773701e-25,1.566280268920641e-13
	2.058216878181307e-14,-4.794839208973259e-17
	-1.612193562220028e-06,-1.561743260136673e-13
	-1.612193541637890e-06,4.057524863071204e-16
	-3.147729981773701e-25,-1.566280268920641e-13
	-1.612193541637890e-06,4.057524863071204e-16
14		1.380384264602885e+00,0.000000000000000e+00
	-1.612193541637890e-02,4.152036758385690e-12
	1.000000000000000e+00,0.000000000000000e+00
	0.000000000000000e+00,0.000000000000000e+00
	1.612193541637860e-06,-4.152036758385554e-16
	3.296077925470981e-25,1.602763623134107e-13
	2.058216878181307e-14,-4.906525361654218e-17
	-1.612193562220028e-06,-1.598120933839556e-13
	-1.612193541637890e-06,4.152036758385690e-16
	-3.296077925470981e-25,-1.602763623134107e-13
	-1.612193541637890e-06,4.152036758385690e-16
15		1.412537544622754e+00,0.000000000000000e+00
	-1.612193541637890e-02,4.248750118548174e-12
	1.000000000000000e+00,0.000000000000000e+00
	0.000000000000000e+00,0.000000000000000e+00
	1.612193541637860e-06,-4.248750118548116e-16
	3.451417292361049e-25,1.640096783835644e-13
	2.058216878181307e-14,-5.020813019030719e-17
	-1.612193562220028e-06,-1.635345952415192e-13
	-1.612193541637890e-06,4.248750118548175e-16
	-3.451417292361049e-25,-1.640096783835644e-13
	-1.612193541637890e-06,4.248750118548175e-16
16		1.445439770745927e+00,0.000000000000000e+00
	-1.612193541637890e-02,4.347716222262370e-12
	1.000000000000000e+00,0.000000000000000e+00
	0.000000000000000e+00,0.000000000000000e+00
	1.612193541637860e-06,-4.347716222262288e-16
	3.614077578067791e-25,1.678299545561216e-13
	2.058216878181307e-14,-5.137762777925251e-17
	-1.612193562220028e-06,-1.673438053061162e-13
	-1.612193541637890e-06,4.347716222262370e-16
	-3.614077578067791e-25,-1.678299545561216e-13
	-1.612193541637890e-06,4.347716222262370e-16
17		1.479108388168207e+00,0.000000000000000e+00
	-1.612193541637890e-02,4.448987542666436e-12
	1.000000000000000e+00,0.000000000000000e+00
	0.000000000000000e+00,0.000000000000000e+00
	1.612193541637860e-06,-4.448987542666386e-16
	3.784403806865436e-25,1.717392163920767e-13
	2.058216878181307e-14,-5.257436646653343e-17
	-1.612193562220028e-06,-1.712417432713435e-13
	-1.612193541637890e-06,4.448987542666436e-16
	-3.784403806865436e-25,-1.717392163920767e-13
	-1.612193541637890e-06,4.448987542666436e-16
18		1.513561248436208e+00,0.000000000000000e+00
	-1.612193541637890e-02,4.552617775154937e-12
	1.000000000000000e+00,0.000000000000000e+00
	0.000000000000000e+00,0.000000000000000e+00
	1.612193541637860e-06,-4.552617775154888e-16
	3.962757263521302e-25,1.757395366338001e-13
	2.058216878181307e-14,-5.379898077879306e-17
	-1.612193562220028e-06,-1.752304758755058e-13
	-1.612193541637890e-06,4.552617775154937e-16
	-3.962757263521302e-25,-1.757395366338001e-13
	-1.612193541637890e-06,4.552617775154937e-16
19		1.548816618912481e+00,0.000000000000000e+00
	-1.612193541637890e-02,4.658661865848844e-12
	1.000000000000000e+00,0.000000000000000e+00
	0.000000000000000e+00,0.000000000000000e+00
	1.612193541637860e-06,-4.658661865848867e-16
	4.149516259629215e-25,1.798330363040345e-13
	2.058216878181307e-14,-5.505212002281030e-17
	-1.612193562220028e-06,-1.793121179974268e-13
	-1.612193541637890e-06,4.658661865848844e-16
	-4.149516259629215e-25,-1.798330363040345e-13
	-1.612193541637890e-06,4.658661865848844e-16
20		1.584893192461113e+00,0.000000000000000e+00
	-1.612193541637890e-02,4.767176040728705e-12
	1.000000000000000e+00,0.000000000000000e+00
	0.000000000000000e+00,0.000000000000000e+00
	1.612193541637860e-06,-4.767176040728565e-16
	4.345076936059140e-25,1.840218858304890e-13
	2.058216878181307e-14,-5.633444862951891e-17
	-1.612193562220028e-06,-1.834888337777866e-13
	-1.612193541637890e-06,4.767176040728705e-16
	-4.345076936059140e-25,-1.840218858304890e-13
	-1.612193541637890e-06,4.767176040728705e-16
21		1.621810097358929e+00,0.000000000000000e+00
	-1.612193541637890e-02,4.878217835446394e-12
	1.000000000000000e+00,0.000000000000000e+00
	0.000000000000000e+00,0.000000000000000e+00
	1.612193541637860e-06,-4.878217835446398e-16
	4.549854103225058e-25,1.883083061966284e-13
	2.058216878181307e-14,-5.764664650659680e-17
	-1.612193562220028e-06,-1.877628377665771e-13
	-1.612193541637890e-06,4.878217835446395e-16
	-4.549854103225058e-25,-1.883083061966284e-13
	-1.612193541637890e-06,4.878217835446395e-16
22		1.659586907437560e+00,0.000000000000000e+00
	-1.612193541637890e-02,4.991846125831286e-12
	1.000000000000000e+00,0.000000000000000e+00
	0.000000000000000e+00,0.000000000000000e+00
	1.612193541637860e-06,-4.991846125831135e-16
	4.764282120953484e-25,1.926945701192683e-13
	2.058216878181307e-14,-5.898940939867885e-17
	-1.612193562220028e-06,-1.921363960972865e-13
	-1.612193541637890e-06,4.991846125831286e-16
	-4.764282120953484e-25,-1.926945701192683e-13
	-1.612193541637890e-06,4.991846125831286e-16
23		1.698243652461743e+00,0.000000000000000e+00
	-1.612193541637890e-02,5.108121159106986e-12
	1.000000000000000e+00,0.000000000000000e+00
	0.000000000000000e+00,0.000000000000000e+00
	1.612193541637860e-06,-5.108121159106978e-16
	4.988815819818881e-25,1.971830032535997e-13
	2.058216878181307e-14,-6.036344925645544e-17
	-1.612193562220028e-06,-1.966118276884325e-13
	-1.612193541637890e-06,5.108121159106986e-16
	-4.988815819818881e-25,-1.971830032535997e-13
	-1.612193541637890e-06,5.108121159106986e-16
24		1.737800828749374e+00,0.000000000000000e+00
	-1.612193541637890e-02,5.227104585835221e-12
	1.000000000000000e+00,0.000000000000000e+00
	0.000000000000000e+00,0.000000000000000e+00
	1.612193541637860e-06,-5.227104585834978e-16
	5.223931465900302e-25,2.017759854262817e-13
	2.058216878181307e-14,-6.176949461403827e-17
	-1.612193562220028e-06,-2.011915054730841e-13
	-1.612193541637890e-06,5.227104585835221e-16
	-5.223931465900302e-25,-2.017759854262817e-13
	-1.612193541637890e-06,5.227104585835221e-16
25		1.778279410038922e+00,0.000000000000000e+00
	-1.612193541637890e-02,5.348859492603775e-12
	1.000000000000000e+00,0.000000000000000e+00
	0.000000000000000e+00,0.000000000000000e+00
	1.612193541637860e-06,-5.348859492603556e-16
	5.470127771005591e-25,2.064759518972576e-13
	2.058216878181307e-14,-6.320829097524981e-17
	-1.612193562220028e-06,-2.058778576570220e-13
	-1.612193541637890e-06,5.348859492603776e-16
	-5.470127771005591e-25,-2.064759518972576e-13
	-1.612193541637890e-06,5.348859492603776e-16
26		1.819700858609982e+00,0.000000000000000e+00
	-1.612193541637890e-02,5.473450435475833e-12
	1.000000000000000e+00,0.000000000000000e+00
	0.000000000000000e+00,0.000000000000000e+00
	1.612193541637860e-06,-5.473450435475704e-16
	5.727926950505986e-25,2.112853946509617e-13
	2.058216878181307e-14,-6.468060120898770e-17
	-1.612193562220028e-06,-2.106733690062052e-13
	-1.612193541637890e-06,5.473450435475833e-16
	-5.727926950505986e-25,-2.112853946509617e-13
	-1.612193541637890e-06,5.473450435475833e-16
27		1.862087136662866e+00,0.000000000000000e+00
	-1.612193541637890e-02,5.600943474218461e-12
	1.000000000000000e+00,0.000000000000000e+00
	0.000000000000000e+00,0.000000000000000e+00
	1.612193541637860e-06,-5.600943474218479e-16
	5.997875831024949e-25,2.162068637176027e-13
	2.058216878181307e-14,-6.618720595370217e-17
	-1.612193562220028e-06,-2.155805821642271e-13
	-1.612193541637890e-06,5.600943474218462e-16
	-5.997875831024949e-25,-2.162068637176027e-13
	-1.612193541637890e-06,5.600943474218462e-16
28		1.905460717963246e+00,0.000000000000000e+00
	-1.612193541637890e-02,5.731406207328372e-12
	1.000000000000000e+00,0.000000000000000e+00
	0.000000000000000e+00,0.000000000000000e+00
	1.612193541637860e-06,-5.731406207328301e-16
	6.280547010330736e-25,2.212429685252229e-13
	2.058216878181307e-14,-6.772890403107471e-17
	-1.612193562220028e-06,-2.206020990004589e-13
	-1.612193541637890e-06,5.731406207328373e-16
	-6.280547010330736e-25,-2.212429685252229e-13
	-1.612193541637890e-06,5.731406207328373e-16
29		1.949844599758044e+00,0.000000000000000e+00
	-1.612193541637890e-02,5.864907807873538e-12
	1.000000000000000e+00,0.000000000000000e+00
	0.000000000000000e+00,0.000000000000000e+00
	1.612193541637860e-06,-5.864907807873759e-16
	6.576540071893043e-25,2.263963792832520e-13
	2.058216878181307e-14,-6.930651286983197e-17
	-1.612193562220028e-06,-2.257405819895948e-13
	-1.612193541637890e-06,5.864907807873538e-16
	-6.576540071893043e-25,-2.263963792832520e-13
	-1.612193541637890e-06,5.864907807873538e-16
30		1.995262314968878e+00,0.000000000000000e+00
	-1.612193541637890e-02,6.001519060169671e-12
	1.000000000000000e+00,0.000000000000000e+00
	0.000000000000000e+00,0.000000000000000e+00
	1.612193541637860e-06,-6.001519060169448e-16
	6.886482856679919e-25,2.316698283982875e-13
	2.058216878181307e-14,-7.092086893915230e-17
	-1.612193562220028e-06,-2.309987556233314e-13
	-1.612193541637890e-06,6.001519060169671e-16
	-6.886482856679919e-25,-2.316698283982875e-13
	-1.612193541637890e-06,6.001519060169671e-16
31		2.041737944669527e+00,0.000000000000000e+00
	-1.612193541637890e-02,6.141312397311000e-12
	1.000000000000000e+00,0.000000000000000e+00
	0.000000000000000e+00,0.000000000000000e+00
	1.612193541637860e-06,-6.141312397310972e-16
	7.211032794892651e-25,2.370661119228523e-13
	2.058216878181307e-14,-7.257282819182884e-17
	-1.612193562220028e-06,-2.363794078549294e-13
	-1.612193541637890e-06,6.141312397311001e-16
	-7.211032794892651e-25,-2.370661119228523e-13
	-1.612193541637890e-06,6.141312397311001e-16
32		2.089296130854037e+00,0.000000000000000e+00
	-1.612193541637890e-02,6.284361939575266e-12
	1.000000000000000e+00,0.000000000000000e+00
	0.000000000000000e+00,0.000000000000000e+00
	1.612193541637860e-06,-6.284361939575182e-16
	7.550878300463365e-25,2.425880910378998e-13
	2.058216878181307e-14,-7.426326651875441e-17
	-1.612193562220028e-06,-2.418853915774235e-13
	-1.612193541637890e-06,6.284361939575266e-16
	-7.550878300463365e-25,-2.425880910378998e-13
	-1.612193541637890e-06,6.284361939575266e-16
33		2.137962089502230e+00,0.000000000000000e+00
	-1.612193541637890e-02,6.430743533723258e-12
	1.000000000000000e+00,0.000000000000000e+00
	0.000000000000000e+00,0.000000000000000e+00
	1.612193541637860e-06,-6.430743533722995e-16
	7.906740231273247e-25,2.482386935698485e-13
	2.058216878181307e-14,-7.599308021250662e-17
	-1.612193562220028e-06,-2.475196261362637e-13
	-1.612193541637890e-06,6.430743533723259e-16
	-7.906740231273247e-25,-2.482386935698485e-13
	-1.612193541637890e-06,6.430743533723259e-16
34		2.187761623949550e+00,0.000000000000000e+00
	-1.612193541637890e-02,6.580534793213782e-12
	1.000000000000000e+00,0.000000000000000e+00
	0.000000000000000e+00,0.000000000000000e+00
	1.612193541637860e-06,-6.580534793213626e-16
	8.279373418188785e-25,2.540209155429554e-13
	2.058216878181307e-14,-7.776318644331502e-17
	-1.612193562220028e-06,-2.532850988771907e-13
	-1.612193541637890e-06,6.580534793213782e-16
	-8.279373418188785e-25,-2.540209155429554e-13
	-1.612193541637890e-06,6.580534793213782e-16
35		2.238721138568337e+00,0.000000000000000e+00
	-1.612193541637890e-02,6.733815139355344e-12
	1.000000000000000e+00,0.000000000000000e+00
	0.000000000000000e+00,0.000000000000000e+00
	1.612193541637860e-06,-6.733815139355360e-16
	8.669568266159237e-25,2.599378227678476e-13
	2.058216878181307e-14,-7.957452374482271e-17
	-1.612193562220028e-06,-2.591848667301672e-13
	-1.612193541637890e-06,6.733815139355344e-16
	-8.669568266159237e-25,-2.599378227678476e-13
	-1.612193541637890e-06,6.733815139355344e-16
36		2.290867652767770e+00,0.000000000000000e+00
	-1.612193541637890e-02,6.890665843416374e-12
	1.000000000000000e+00,0.000000000000000e+00
	0.000000000000000e+00,0.000000000000000e+00
	1.612193541637860e-06,-6.890665843416338e-16
	9.078152430771476e-25,2.659925524670551e-13
	2.058216878181307e-14,-8.142805251219202e-17
	-1.612193562220028e-06,-2.652220578302013e-13
	-1.612193541637890e-06,6.890665843416374e-16
	-9.078152430771476e-25,-2.659925524670551e-13
	-1.612193541637890e-06,6.890665843416374e-16
37		2.344228815319919e+00,0.000000000000000e+00
	-1.612193541637890e-02,7.051170069716327e-12
	1.000000000000000e+00,0.000000000000000e+00
	0.000000000000000e+00,0.000000000000000e+00
	1.612193541637860e-06,-7.051170069716305e-16
	9.505992573818478e-25,2.721883149384082e-13
	2.058216878181307e-14,-8.332475551076207e-17
	-1.612193562220028e-06,-2.713998731759259e-13
	-1.612193541637890e-06,7.051170069716327e-16
	-9.505992573818478e-25,-2.721883149384082e-13
	-1.612193541637890e-06,7.051170069716327e-16
38		2.398832919019488e+00,0.000000000000000e+00
	-1.612193541637890e-02,7.215412919720514e-12
	1.000000000000000e+00,0.000000000000000e+00
