LTspice 24.0.9 for Windows
Circuit: * GA CMOS Amp | W=1.5513211331418418e-05 L=6.901696344416825e-07 Vbias=1.4168239380749614
Start Time: Sat Sep  6 22:12:55 2025
solver = Normal
Maximum thread count: 2
tnom = 27
temp = 27
method = modified trap
AsciiRawFile = 1
Direct Newton iteration for .op point succeeded.
Semiconductor Device Operating Points:
                        --- BSIM4 MOSFETS ---
Name:      m1
Model:      n
Id:      1.72e-04
Vgs:     1.42e+00
Vds:     8.49e-02
Vbs:     0.00e+00
Vth:     2.42e-01
Vdsat:   8.14e-01
Gm:     -2.20e-05
Gds:     1.94e-03
Gmb      8.54e-05
Cbd:     7.55e-15
Cbs:     1.24e-14


.measure op idd find i(vdd)
  Error: FIND can not be evaluated over an interval.

gain_db: MAX(db(v(out)/v(g)))=(31.0363dB,180°) FROM 1 TO 1e+09
gain_lin: MAX(mag(v(out)/v(g)))=(-5.61196dB,0°) FROM 1 TO 1e+09

Measurement "fc" FAIL'ed

Total elapsed time: 0.696 seconds.

