LTspice 24.0.9 for Windows
Circuit: * GA CMOS Amp | W=3.287267348282133e-06 L=2.2374475989087246e-07 Vbias=1.2516023109923866
Start Time: Sat Sep  6 22:09:53 2025
solver = Normal
Maximum thread count: 2
tnom = 27
temp = 27
method = modified trap
AsciiRawFile = 1
Direct Newton iteration for .op point succeeded.
Semiconductor Device Operating Points:
                        --- BSIM4 MOSFETS ---
Name:      m1
Model:      n
Id:      1.66e-04
Vgs:     1.25e+00
Vds:     1.37e-01
Vbs:     0.00e+00
Vth:     2.87e-01
Vdsat:   6.86e-01
Gm:      1.10e-05
Gds:     1.08e-03
Gmb      8.96e-05
Cbd:     1.58e-15
Cbs:     2.63e-15


.measure op idd find i(vdd)
  Error: FIND can not be evaluated over an interval.

gain_db: MAX(db(v(out)/v(g)))=(33.8393dB,146.315°) FROM 1 TO 1e+09
gain_lin: MAX(mag(v(out)/v(g)))=(-21.5515dB,0°) FROM 1 TO 1e+09

Measurement "fc" FAIL'ed

Total elapsed time: 0.730 seconds.

