Title: * GA CMOS Amp | W=4.062933388191865e-05 L=4.988509643391041e-07 Vbias=1.0863858117339267
Date: Mon Sep  8 18:43:15 2025
Plotname: AC Analysis
Flags: complex forward log
No. Variables: 11
No. Points:          901
Offset:    0.0000000000000000e+00
Command: Linear Technology Corporation LTspice
Variables:
	0	frequency	frequency
	1	V(out)	voltage
	2	V(g)	voltage
	3	V(vdd)	voltage
	4	Id(M1)	device_current
	5	Ig(M1)	device_current
	6	Ib(M1)	device_current
	7	Is(M1)	device_current
	8	I(Rload)	device_current
	9	I(Vg)	device_current
	10	I(Vdd)	device_current
Values:
0		1.000000000000000e+00,0.000000000000000e+00
	-7.388656572547508e-02,2.296770955285495e-11
	1.000000000000000e+00,0.000000000000000e+00
	0.000000000000000e+00,0.000000000000000e+00
	7.388656572547515e-06,-2.296770955285478e-15
	2.671511331394411e-24,2.426093024009361e-13
	8.315266877834127e-14,2.227318010756955e-16
	-7.388656655700184e-06,-2.405352632467263e-13
	-7.388656572547509e-06,2.296770955285495e-15
	-2.671511331394411e-24,-2.426093024009360e-13
	-7.388656572547509e-06,2.296770955285495e-15
1		1.023292992280754e+00,0.000000000000000e+00
	-7.388656572547508e-02,2.350269623417620e-11
	1.000000000000000e+00,0.000000000000000e+00
	0.000000000000000e+00,0.000000000000000e+00
	7.388656572547515e-06,-2.350269623417619e-15
	2.797415781544554e-24,2.482603990090002e-13
	8.315266877834127e-14,2.279198911988761e-16
	-7.388656655700184e-06,-2.461380492767815e-13
	-7.388656572547509e-06,2.350269623417620e-15
	-2.797415781544554e-24,-2.482603990090002e-13
	-7.388656572547509e-06,2.350269623417620e-15
2		1.047128548050899e+00,0.000000000000000e+00
	-7.388656572547508e-02,2.405014435613578e-11
	1.000000000000000e+00,0.000000000000000e+00
	0.000000000000000e+00,0.000000000000000e+00
	7.388656572547515e-06,-2.405014435613549e-15
	2.929253925623421e-24,2.540431265667338e-13
	8.315266877834127e-14,2.332288274651724e-16
	-7.388656655700184e-06,-2.518713409585854e-13
	-7.388656572547509e-06,2.405014435613578e-15
	-2.929253925623421e-24,-2.540431265667337e-13
	-7.388656572547509e-06,2.405014435613578e-15
3		1.071519305237606e+00,0.000000000000000e+00
	-7.388656572547508e-02,2.461034418297427e-11
	1.000000000000000e+00,0.000000000000000e+00
	0.000000000000000e+00,0.000000000000000e+00
	7.388656572547515e-06,-2.461034418297420e-15
	3.067305410010450e-24,2.599605511528313e-13
	8.315266877834127e-14,2.386614247430218e-16
	-7.388656655700184e-06,-2.577381781592769e-13
	-7.388656572547509e-06,2.461034418297427e-15
	-3.067305410010450e-24,-2.599605511528312e-13
	-7.388656572547509e-06,2.461034418297427e-15
4		1.096478196143185e+00,0.000000000000000e+00
	-7.388656572547508e-02,2.518359274005498e-11
	1.000000000000000e+00,0.000000000000000e+00
	0.000000000000000e+00,0.000000000000000e+00
	7.388656572547515e-06,-2.518359274005519e-15
	3.211863060412911e-24,2.660158102641348e-13
	8.315266877834127e-14,2.442205634672690e-16
	-7.388656655700184e-06,-2.637416715535965e-13
	-7.388656572547509e-06,2.518359274005498e-15
	-3.211863060412911e-24,-2.660158102641347e-13
	-7.388656572547509e-06,2.518359274005498e-15
5		1.122018454301963e+00,0.000000000000000e+00
	-7.388656572547508e-02,2.577019397135075e-11
	1.000000000000000e+00,0.000000000000000e+00
	0.000000000000000e+00,0.000000000000000e+00
	7.388656572547515e-06,-2.577019397135085e-15
	3.363233502988491e-24,2.722121144791758e-13
	8.315266877834127e-14,2.499091911668810e-16
	-7.388656655700184e-06,-2.698850042732076e-13
	-7.388656572547509e-06,2.577019397135075e-15
	-3.363233502988491e-24,-2.722121144791758e-13
	-7.388656572547509e-06,2.577019397135075e-15
6		1.148153621496882e+00,0.000000000000000e+00
	-7.388656572547508e-02,2.637045890059895e-11
	1.000000000000000e+00,0.000000000000000e+00
	0.000000000000000e+00,0.000000000000000e+00
	7.388656572547515e-06,-2.637045890059892e-15
	3.521737814740478e-24,2.785527491604670e-13
	8.315266877834127e-14,2.557303240275726e-16
	-7.388656655700184e-06,-2.761714335944347e-13
	-7.388656572547509e-06,2.637045890059895e-15
	-3.521737814740478e-24,-2.785527491604670e-13
	-7.388656572547509e-06,2.637045890059895e-15
7		1.174897554939529e+00,0.000000000000000e+00
	-7.388656572547508e-02,2.698470579621055e-11
	1.000000000000000e+00,0.000000000000000e+00
	0.000000000000000e+00,0.000000000000000e+00
	7.388656572547515e-06,-2.698470579621055e-15
	3.687712204565145e-24,2.850410761964446e-13
	8.315266877834127e-14,2.616870484911373e-16
	-7.388656655700184e-06,-2.826042926653147e-13
	-7.388656572547509e-06,2.698470579621055e-15
	-3.687712204565145e-24,-2.850410761964446e-13
	-7.388656572547509e-06,2.698470579621055e-15
8		1.202264434617413e+00,0.000000000000000e+00
	-7.388656572547508e-02,2.761326034002010e-11
	1.000000000000000e+00,0.000000000000000e+00
	0.000000000000000e+00,0.000000000000000e+00
	7.388656572547515e-06,-2.761326034002007e-15
	3.861508726395883e-24,2.916805357839863e-13
	8.315266877834127e-14,2.677825228916581e-16
	-7.388656655700184e-06,-2.891869922728759e-13
	-7.388656572547509e-06,2.761326034002011e-15
	-3.861508726395883e-24,-2.916805357839862e-13
	-7.388656572547509e-06,2.761326034002011e-15
9		1.230268770812381e+00,0.000000000000000e+00
	-7.388656572547508e-02,2.825645579996664e-11
	1.000000000000000e+00,0.000000000000000e+00
	0.000000000000000e+00,0.000000000000000e+00
	7.388656572547515e-06,-2.825645579996659e-15
	4.043496025956798e-24,2.984746482524489e-13
	8.315266877834127e-14,2.740199791302655e-16
	-7.388656655700184e-06,-2.959230226515825e-13
	-7.388656572547509e-06,2.825645579996664e-15
	-4.043496025956798e-24,-2.984746482524488e-13
	-7.388656572547509e-06,2.825645579996664e-15
10		1.258925411794167e+00,0.000000000000000e+00
	-7.388656572547508e-02,2.891463320679674e-11
	1.000000000000000e+00,0.000000000000000e+00
	0.000000000000000e+00,0.000000000000000e+00
	7.388656572547515e-06,-2.891463320679679e-15
	4.234060122709725e-24,3.054270159301940e-13
	8.315266877834127e-14,2.804027243889222e-16
	-7.388656655700184e-06,-3.028159553339032e-13
	-7.388656572547509e-06,2.891463320679674e-15
	-4.234060122709725e-24,-3.054270159301939e-13
	-7.388656572547509e-06,2.891463320679674e-15
11		1.288249551693134e+00,0.000000000000000e+00
	-7.388656572547508e-02,2.958814153488349e-11
	1.000000000000000e+00,0.000000000000000e+00
	0.000000000000000e+00,0.000000000000000e+00
	7.388656572547515e-06,-2.958814153488344e-15
	4.433605228653248e-24,3.125413250545898e-13
	8.315266877834127e-14,2.869341428835368e-16
	-7.388656655700184e-06,-3.098694450439850e-13
	-7.388656572547509e-06,2.958814153488349e-15
	-4.433605228653248e-24,-3.125413250545898e-13
	-7.388656572547509e-06,2.958814153488349e-15
12		1.318256738556407e+00,0.000000000000000e+00
	-7.388656572547508e-02,3.027733788725739e-11
	1.000000000000000e+00,0.000000000000000e+00
	0.000000000000000e+00,0.000000000000000e+00
	7.388656572547515e-06,-3.027733788725763e-15
	4.642554605710552e-24,3.198213477265030e-13
	8.315266877834127e-14,2.936176976588816e-16
	-7.388656655700184e-06,-3.170872316354361e-13
	-7.388656572547509e-06,3.027733788725740e-15
	-4.642554605710552e-24,-3.198213477265029e-13
	-7.388656572547509e-06,3.027733788725740e-15
13		1.348962882591653e+00,0.000000000000000e+00
	-7.388656572547508e-02,3.098258768494707e-11
	1.000000000000000e+00,0.000000000000000e+00
	0.000000000000000e+00,0.000000000000000e+00
	7.388656572547515e-06,-3.098258768494718e-15
	4.861351463524707e-24,3.272709439103168e-13
	8.315266877834127e-14,3.004569324239746e-16
	-7.388656655700184e-06,-3.244731420742461e-13
	-7.388656572547509e-06,3.098258768494707e-15
	-4.861351463524707e-24,-3.272709439103167e-13
	-7.388656572547509e-06,3.098258768494707e-15
14		1.380384264602885e+00,0.000000000000000e+00
	-7.388656572547508e-02,3.170426486073033e-11
	1.000000000000000e+00,0.000000000000000e+00
	0.000000000000000e+00,0.000000000000000e+00
	7.388656572547515e-06,-3.170426486073029e-15
	5.090459899565742e-24,3.348940634805350e-13
	8.315266877834127e-14,3.074554734315888e-16
	-7.388656655700184e-06,-3.320310924678936e-13
	-7.388656572547509e-06,3.170426486073033e-15
	-5.090459899565742e-24,-3.348940634805349e-13
	-7.388656572547509e-06,3.170426486073033e-15
15		1.412537544622754e+00,0.000000000000000e+00
	-7.388656572547508e-02,3.244275205739830e-11
	1.000000000000000e+00,0.000000000000000e+00
	0.000000000000000e+00,0.000000000000000e+00
	7.388656572547515e-06,-3.244275205739860e-15
	5.330365883543603e-24,3.426947483160574e-13
	8.315266877834127e-14,3.146170314009768e-16
	-7.388656655700184e-06,-3.397650901417185e-13
	-7.388656572547509e-06,3.244275205739830e-15
	-5.330365883543603e-24,-3.426947483160574e-13
	-7.388656572547509e-06,3.244275205739830e-15
16		1.445439770745927e+00,0.000000000000000e+00
	-7.388656572547508e-02,3.319844083063770e-11
	1.000000000000000e+00,0.000000000000000e+00
	0.000000000000000e+00,0.000000000000000e+00
	7.388656572547515e-06,-3.319844083063729e-15
	5.581578288215062e-24,3.506771344432383e-13
	8.315266877834127e-14,3.219454034847225e-16
	-7.388656655700184e-06,-3.476792357636593e-13
	-7.388656572547509e-06,3.319844083063770e-15
	-5.581578288215062e-24,-3.506771344432382e-13
	-7.388656572547509e-06,3.319844083063770e-15
17		1.479108388168207e+00,0.000000000000000e+00
	-7.388656572547508e-02,3.397173185663881e-11
	1.000000000000000e+00,0.000000000000000e+00
	0.000000000000000e+00,0.000000000000000e+00
	7.388656572547515e-06,-3.397173185663868e-15
	5.844629968771062e-24,3.588454542288616e-13
	8.315266877834127e-14,3.294444752829739e-16
	-7.388656655700184e-06,-3.557777255184807e-13
	-7.388656572547509e-06,3.397173185663881e-15
	-5.844629968771062e-24,-3.588454542288615e-13
	-7.388656572547509e-06,3.397173185663881e-15
18		1.513561248436208e+00,0.000000000000000e+00
	-7.388656572547508e-02,3.476303514453935e-11
	1.000000000000000e+00,0.000000000000000e+00
	0.000000000000000e+00,0.000000000000000e+00
	7.388656572547515e-06,-3.476303514453952e-15
	6.120078893094016e-24,3.672040386241982e-13
	8.315266877834127e-14,3.371182229026356e-16
	-7.388656655700184e-06,-3.640648533326469e-13
	-7.388656572547509e-06,3.476303514453935e-15
	-6.120078893094016e-24,-3.672040386241981e-13
	-7.388656572547509e-06,3.476303514453935e-15
19		1.548816618912481e+00,0.000000000000000e+00
	-7.388656572547508e-02,3.557277025381668e-11
	1.000000000000000e+00,0.000000000000000e+00
	0.000000000000000e+00,0.000000000000000e+00
	7.388656572547515e-06,-3.557277025381673e-15
	6.408509325282493e-24,3.757573194613333e-13
	8.315266877834127e-14,3.449707150664414e-16
	-7.388656655700184e-06,-3.725450131510181e-13
	-7.388656572547509e-06,3.557277025381669e-15
	-6.408509325282493e-24,-3.757573194613333e-13
	-7.388656572547509e-06,3.557277025381669e-15
20		1.584893192461113e+00,0.000000000000000e+00
	-7.388656572547508e-02,3.640136651674388e-11
	1.000000000000000e+00,0.000000000000000e+00
	0.000000000000000e+00,0.000000000000000e+00
	7.388656572547515e-06,-3.640136651674382e-15
	6.710533064953707e-24,3.845098318029831e-13
	8.315266877834127e-14,3.530061152695369e-16
	-7.388656655700184e-06,-3.812227012665782e-13
	-7.388656572547509e-06,3.640136651674389e-15
	-6.710533064953707e-24,-3.845098318029830e-13
	-7.388656572547509e-06,3.640136651674389e-15
21		1.621810097358929e+00,0.000000000000000e+00
	-7.388656572547508e-02,3.724926326602730e-11
	1.000000000000000e+00,0.000000000000000e+00
	0.000000000000000e+00,0.000000000000000e+00
	7.388656572547515e-06,-3.724926326602720e-15
	7.026790744952528e-24,3.934662163470440e-13
	8.315266877834127e-14,3.612286839875317e-16
	-7.388656655700184e-06,-3.901025187044288e-13
	-7.388656572547509e-06,3.724926326602730e-15
	-7.026790744952528e-24,-3.934662163470439e-13
	-7.388656572547509e-06,3.724926326602730e-15
22		1.659586907437560e+00,0.000000000000000e+00
	-7.388656572547508e-02,3.811691006774664e-11
	1.000000000000000e+00,0.000000000000000e+00
	0.000000000000000e+00,0.000000000000000e+00
	7.388656572547515e-06,-3.811691006774703e-15
	7.357953190219638e-24,4.026312218871532e-13
	8.315266877834127e-14,3.696427809353434e-16
	-7.388656655700184e-06,-3.991891736613139e-13
	-7.388656572547509e-06,3.811691006774664e-15
	-7.357953190219638e-24,-4.026312218871532e-13
	-7.388656572547509e-06,3.811691006774664e-15
23		1.698243652461743e+00,0.000000000000000e+00
	-7.388656572547508e-02,3.900476695972087e-11
	1.000000000000000e+00,0.000000000000000e+00
	0.000000000000000e+00,0.000000000000000e+00
	7.388656572547515e-06,-3.900476695972121e-15
	7.704722840701173e-24,4.120097078305613e-13
	8.315266877834127e-14,3.782528673782694e-16
	-7.388656655700184e-06,-4.084874840019675e-13
	-7.388656572547509e-06,3.900476695972087e-15
	-7.704722840701173e-24,-4.120097078305612e-13
	-7.388656572547509e-06,3.900476695972087e-15
24		1.737800828749374e+00,0.000000000000000e+00
	-7.388656572547508e-02,3.991330469542625e-11
	1.000000000000000e+00,0.000000000000000e+00
	0.000000000000000e+00,0.000000000000000e+00
	7.388656572547515e-06,-3.991330469542674e-15
	8.067835241318020e-24,4.216066467746543e-13
	8.315266877834127e-14,3.870635084982666e-16
	-7.388656655700184e-06,-4.180023798136099e-13
	-7.388656572547509e-06,3.991330469542626e-15
	-8.067835241318020e-24,-4.216066467746542e-13
	-7.388656572547509e-06,3.991330469542626e-15
25		1.778279410038922e+00,0.000000000000000e+00
	-7.388656572547508e-02,4.084300499359621e-11
	1.000000000000000e+00,0.000000000000000e+00
	0.000000000000000e+00,0.000000000000000e+00
	7.388656572547515e-06,-4.084300499359633e-15
	8.448060602155219e-24,4.314271271434910e-13
	8.315266877834127e-14,3.960793758138489e-16
	-7.388656655700184e-06,-4.277389060199452e-13
	-7.388656572547509e-06,4.084300499359621e-15
	-8.448060602155219e-24,-4.314271271434909e-13
	-7.388656572547509e-06,4.084300499359621e-15
26		1.819700858609982e+00,0.000000000000000e+00
	-7.388656572547508e-02,4.179436079363485e-11
	1.000000000000000e+00,0.000000000000000e+00
	0.000000000000000e+00,0.000000000000000e+00
	7.388656572547515e-06,-4.179436079363460e-15
	8.846205432180801e-24,4.414763558857522e-13
	8.315266877834127e-14,4.053052496572363e-16
	-7.388656655700184e-06,-4.377022250560459e-13
	-7.388656572547509e-06,4.179436079363485e-15
	-8.846205432180801e-24,-4.414763558857521e-13
	-7.388656572547509e-06,4.179436079363485e-15
27		1.862087136662866e+00,0.000000000000000e+00
	-7.388656572547508e-02,4.276787651698004e-11
	1.000000000000000e+00,0.000000000000000e+00
	0.000000000000000e+00,0.000000000000000e+00
	7.388656572547515e-06,-4.276787651697948e-15
	9.263114249959462e-24,4.517596612355344e-13
	8.315266877834127e-14,4.147460217088832e-16
	-7.388656655700184e-06,-4.478976196055454e-13
	-7.388656572547509e-06,4.276787651698004e-15
	-9.263114249959462e-24,-4.517596612355344e-13
	-7.388656572547509e-06,4.276787651698004e-15
28		1.905460717963246e+00,0.000000000000000e+00
	-7.388656572547508e-02,4.376406833455429e-11
	1.000000000000000e+00,0.000000000000000e+00
	0.000000000000000e+00,0.000000000000000e+00
	7.388656572547515e-06,-4.376406833455433e-15
	9.699671374989646e-24,4.622824955374498e-13
	8.315266877834127e-14,4.244066975910759e-16
	-7.388656655700184e-06,-4.583304954015855e-13
	-7.388656572547509e-06,4.376406833455430e-15
	-9.699671374989646e-24,-4.622824955374497e-13
	-7.388656572547509e-06,4.376406833455430e-15
29		1.949844599758044e+00,0.000000000000000e+00
	-7.388656572547508e-02,4.478346444044547e-11
	1.000000000000000e+00,0.000000000000000e+00
	0.000000000000000e+00,0.000000000000000e+00
	7.388656572547515e-06,-4.478346444044557e-15
	1.015680280346378e-23,4.730504381375314e-13
	8.315266877834127e-14,4.342923995219643e-16
	-7.388656655700184e-06,-4.690063840930088e-13
	-7.388656572547509e-06,4.478346444044547e-15
	-1.015680280346378e-23,-4.730504381375313e-13
	-7.388656572547509e-06,4.478346444044547e-15
30		1.995262314968878e+00,0.000000000000000e+00
	-7.388656572547508e-02,4.582660533196217e-11
	1.000000000000000e+00,0.000000000000000e+00
	0.000000000000000e+00,0.000000000000000e+00
	7.388656572547515e-06,-4.582660533196278e-15
	1.063547817243033e-23,4.840691983414762e-13
	8.315266877834127e-14,4.444083690315651e-16
	-7.388656655700184e-06,-4.799309461773115e-13
	-7.388656572547509e-06,4.582660533196218e-15
	-1.063547817243033e-23,-4.840691983414761e-13
	-7.388656572547509e-06,4.582660533196218e-15
31		2.041737944669527e+00,0.000000000000000e+00
	-7.388656572547508e-02,4.689404409621274e-11
	1.000000000000000e+00,0.000000000000000e+00
	0.000000000000000e+00,0.000000000000000e+00
	7.388656572547515e-06,-4.689404409621247e-15
	1.113671281652401e-23,4.953446184417950e-13
	8.315266877834127e-14,4.547599697408753e-16
	-7.388656655700184e-06,-4.911099740019146e-13
	-7.388656572547509e-06,4.689404409621274e-15
	-1.113671281652401e-23,-4.953446184417950e-13
	-7.388656572547509e-06,4.689404409621274e-15
32		2.089296130854037e+00,0.000000000000000e+00
	-7.388656572547508e-02,4.798634670335917e-11
	1.000000000000000e+00,0.000000000000000e+00
	0.000000000000000e+00,0.000000000000000e+00
	7.388656572547515e-06,-4.798634670335951e-15
	1.166156992162663e-23,5.068826768154729e-13
	8.315266877834127e-14,4.653526902057592e-16
	-7.388656655700184e-06,-5.025493948353427e-13
	-7.388656572547509e-06,4.798634670335917e-15
	-1.166156992162663e-23,-5.068826768154728e-13
	-7.388656572547509e-06,4.798634670335917e-15
33		2.137962089502230e+00,0.000000000000000e+00
	-7.388656572547508e-02,4.910409230670211e-11
	1.000000000000000e+00,0.000000000000000e+00
	0.000000000000000e+00,0.000000000000000e+00
	7.388656572547515e-06,-4.910409230670221e-15
	1.221116278002693e-23,5.186894910937836e-13
	8.315266877834127e-14,4.761921468265206e-16
	-7.388656655700184e-06,-5.142552740099399e-13
	-7.388656572547509e-06,4.910409230670211e-15
	-1.221116278002693e-23,-5.186894910937835e-13
	-7.388656572547509e-06,4.910409230670211e-15
34		2.187761623949550e+00,0.000000000000000e+00
	-7.388656572547508e-02,5.024787354975555e-11
	1.000000000000000e+00,0.000000000000000e+00
	0.000000000000000e+00,0.000000000000000e+00
	7.388656572547515e-06,-5.024787354975559e-15
	1.278665715186278e-23,5.307713214059394e-13
	8.315266877834127e-14,4.872840868265904e-16
	-7.388656655700184e-06,-5.262338181377905e-13
	-7.388656572547509e-06,5.024787354975555e-15
	-1.278665715186278e-23,-5.307713214059393e-13
	-7.388656572547509e-06,5.024787354975555e-15
35		2.238721138568337e+00,0.000000000000000e+00
	-7.388656572547508e-02,5.141829688047432e-11
	1.000000000000000e+00,0.000000000000000e+00
	0.000000000000000e+00,0.000000000000000e+00
	7.388656572547515e-06,-5.141829688047394e-15
	1.338927373785473e-23,5.431345736982936e-13
	8.315266877834127e-14,4.986343912996254e-16
	-7.388656655700184e-06,-5.384913784015459e-13
	-7.388656572547509e-06,5.141829688047431e-15
	-1.338927373785473e-23,-5.431345736982935e-13
	-7.388656572547509e-06,5.141829688047431e-15
36		2.290867652767770e+00,0.000000000000000e+00
	-7.388656572547508e-02,5.261598287280072e-11
	1.000000000000000e+00,0.000000000000000e+00
	0.000000000000000e+00,0.000000000000000e+00
	7.388656572547515e-06,-5.261598287280066e-15
	1.402029076857586e-23,5.557858031308587e-13
	8.315266877834127e-14,5.102490783270360e-16
	-7.388656655700184e-06,-5.510344539219057e-13
	-7.388656572547509e-06,5.261598287280073e-15
	-1.402029076857586e-23,-5.557858031308586e-13
	-7.388656572547509e-06,5.261598287280073e-15
37		2.344228815319919e+00,0.000000000000000e+00
	-7.388656572547508e-02,5.384156655570116e-11
	1.000000000000000e+00,0.000000000000000e+00
	0.000000000000000e+00,0.000000000000000e+00
	7.388656572547515e-06,-5.384156655570127e-15
	1.468104671575027e-23,5.687317175529384e-13
	8.315266877834127e-14,5.221343061699317e-16
	-7.388656655700184e-06,-5.638696952035382e-13
	-7.388656572547509e-06,5.384156655570116e-15
	-1.468104671575027e-23,-5.687317175529383e-13
	-7.388656572547509e-06,5.384156655570116e-15
38		2.398832919019488e+00,0.000000000000000e+00
	-7.388656572547508e-02,5.509569774986681e-11
	1.000000000000000e+00,0.000000000000000e+00
	0.000000000000000e+00,0.000000000000000e+00
