LTspice 24.0.9 for Windows
Circuit: * GA CMOS Amp | W=2.2623744368071662e-06 L=8.948801799753771e-07 Vbias=1.484784439755306
Start Time: Sat Sep  6 22:16:23 2025
solver = Normal
Maximum thread count: 2
tnom = 27
temp = 27
method = modified trap
AsciiRawFile = 1
Direct Newton iteration for .op point succeeded.
Semiconductor Device Operating Points:
                        --- BSIM4 MOSFETS ---
Name:      m1
Model:      n
Id:      1.03e-04
Vgs:     1.48e+00
Vds:     7.72e-01
Vbs:     0.00e+00
Vth:     2.37e-01
Vdsat:   8.60e-01
Gm:      3.89e-05
Gds:     3.17e-05
Gmb      5.50e-05
Cbd:     9.37e-16
Cbs:     1.81e-15


.measure op idd find i(vdd)
  Error: FIND can not be evaluated over an interval.

gain_db: MAX(db(v(out)/v(g)))=(29.3773dB,112.022°) FROM 1 TO 1e+09
gain_lin: MAX(mag(v(out)/v(g)))=(1.40364dB,0°) FROM 1 TO 1e+09
fc: mag(v(out)/v(g))=1 AT 8.34111e+08

Total elapsed time: 0.804 seconds.

