LTspice 24.0.9 for Windows
Circuit: * GA CMOS Amp | W=1.89415663197937e-05 L=5.754347782896861e-07 Vbias=1.0984631204956368
Start Time: Mon Sep  8 18:45:16 2025
solver = Normal
Maximum thread count: 2
tnom = 27
temp = 27
method = modified trap
AsciiRawFile = 1
Instance "m1": Length shorter than recommended for a level 3 MOSFET.
Direct Newton iteration for .op point succeeded.
Semiconductor Device Operating Points:
                        --- MOSFET Transistors ---
Name:          m1
Model:        n_1u
Id:          1.70e-04
Vgs:         1.10e+00
Vds:         9.70e-02
Vbs:         0.00e+00
Vth:         7.49e-01
Vdsat:       2.61e-01
Gm:          4.72e-04
Gds:         1.24e-03
Gmb:         8.28e-05
Cbd:         0.00e+00
Cbs:         0.00e+00
Cgsov:       3.79e-15
Cgdov:       3.79e-15
Cgbov:       3.75e-17
Cgs:         6.97e-15
Cgd:         5.10e-15
Cgb:         0.00e+00



gain_db: MAX(db(v(out)/v(g)))=(29.1738dB,108.374°) FROM 1 TO 1e+09
gain_lin: MAX(mag(v(out)/v(g)))=(-9.00604dB,0°) FROM 1 TO 1e+09

Measurement "fc" FAIL'ed

Total elapsed time: 0.543 seconds.

