LTspice 24.0.9 for Windows
Circuit: * GA CMOS Amp | W=4.60216210114592e-05 L=6.699848396566937e-07 Vbias=0.7232705926348207
Start Time: Sat Sep  6 22:38:26 2025
solver = Normal
Maximum thread count: 2
tnom = 27
temp = 27
method = modified trap
AsciiRawFile = 1
Direct Newton iteration for .op point succeeded.
Semiconductor Device Operating Points:
                        --- BSIM4 MOSFETS ---
Name:      m1
Model:      n
Id:      1.77e-04
Vgs:     7.23e-01
Vds:     2.91e-02
Vbs:     0.00e+00
Vth:     2.43e-01
Vdsat:   3.61e-01
Gm:      1.23e-04
Gds:     5.84e-03
Gmb      1.70e-04
Cbd:     2.28e-14
Cbs:     3.68e-14


.measure op idd find i(vdd)
  Error: FIND can not be evaluated over an interval.

gain_db: MAX(db(v(out)/v(g)))=(32.755dB,141.07°) FROM 1 TO 1e+09
gain_lin: MAX(mag(v(out)/v(g)))=(-5.8846dB,0°) FROM 1 TO 1e+09

Measurement "fc" FAIL'ed

Total elapsed time: 0.632 seconds.

