LTspice 24.0.9 for Windows
Circuit: * GA CMOS Amp | W=5.334817009072923e-06 L=6.277224603873007e-07 Vbias=1.2744619824891512
Start Time: Sat Sep  6 22:07:24 2025
solver = Normal
Maximum thread count: 2
tnom = 27
temp = 27
method = modified trap
AsciiRawFile = 1
Direct Newton iteration for .op point succeeded.
Semiconductor Device Operating Points:
                        --- BSIM4 MOSFETS ---
Name:      m1
Model:      n
Id:      1.58e-04
Vgs:     1.27e+00
Vds:     2.25e-01
Vbs:     0.00e+00
Vth:     2.45e-01
Vdsat:   7.22e-01
Gm:      6.43e-06
Gds:     5.74e-04
Gmb      8.79e-05
Cbd:     2.49e-15
Cbs:     4.27e-15


.measure op idd find i(vdd)
  Error: FIND can not be evaluated over an interval.

gain_db: MAX(db(v(out)/v(g)))=(34.1991dB,147.851°) FROM 1 TO 1e+09
gain_lin: MAX(mag(v(out)/v(g)))=(-5.80622dB,0°) FROM 1 TO 1e+09

Measurement "fc" FAIL'ed

Total elapsed time: 0.761 seconds.

