LTspice 24.0.9 for Windows
Circuit: * GA CMOS Amp | W=1.0013222134337229e-06 L=2.5088273008401644e-07 Vbias=1.5
Start Time: Sat Sep  6 22:09:18 2025
solver = Normal
Maximum thread count: 2
tnom = 27
temp = 27
method = modified trap
AsciiRawFile = 1
Direct Newton iteration for .op point succeeded.
Semiconductor Device Operating Points:
                        --- BSIM4 MOSFETS ---
Name:      m1
Model:      n
Id:      1.29e-04
Vgs:     1.50e+00
Vds:     5.09e-01
Vbs:     0.00e+00
Vth:     2.80e-01
Vdsat:   8.52e-01
Gm:      2.33e-05
Gds:     1.50e-04
Gmb      6.23e-05
Cbd:     4.37e-16
Cbs:     8.01e-16


.measure op idd find i(vdd)
  Error: FIND can not be evaluated over an interval.

gain_db: MAX(db(v(out)/v(g)))=(30.6929dB,127.18°) FROM 1 TO 1e+09
gain_lin: MAX(mag(v(out)/v(g)))=(-17.4947dB,0°) FROM 1 TO 1e+09

Measurement "fc" FAIL'ed

Total elapsed time: 6.488 seconds.

