LTspice 24.0.9 for Windows
Circuit: * GA CMOS Amp | W=2.3136044502262478e-05 L=1e-06 Vbias=1.007700227794422
Start Time: Sat Sep  6 22:39:47 2025
solver = Normal
Maximum thread count: 2
tnom = 27
temp = 27
method = modified trap
AsciiRawFile = 1
Direct Newton iteration for .op point succeeded.
Semiconductor Device Operating Points:
                        --- BSIM4 MOSFETS ---
Name:      m1
Model:      n
Id:      1.72e-04
Vgs:     1.01e+00
Vds:     7.94e-02
Vbs:     0.00e+00
Vth:     2.36e-01
Vdsat:   5.53e-01
Gm:      1.95e-05
Gds:     2.01e-03
Gmb      1.19e-04
Cbd:     1.13e-14
Cbs:     1.85e-14


.measure op idd find i(vdd)
  Error: FIND can not be evaluated over an interval.

gain_db: MAX(db(v(out)/v(g)))=(34.1669dB,147.717°) FROM 1 TO 1e+09
gain_lin: MAX(mag(v(out)/v(g)))=(-2.45778dB,0°) FROM 1 TO 1e+09

Measurement "fc" FAIL'ed

Total elapsed time: 48.706 seconds.

