Title: * GA CMOS Amp | W=1.2331660930671255e-05 L=1e-06 Vbias=1.4853814260824945
Date: Sat Sep  6 22:12:03 2025
Plotname: AC Analysis
Flags: complex forward log
No. Variables: 13
No. Points:          901
Offset:    0.0000000000000000e+00
Command: Linear Technology Corporation LTspice
Variables:
	0	frequency	frequency
	1	V(out)	voltage
	2	V(g)	voltage
	3	V(vdd)	voltage
	4	V(m1#dbody)	voltage
	5	V(m1#sbody)	voltage
	6	Id(M1)	device_current
	7	Ig(M1)	device_current
	8	Ib(M1)	device_current
	9	Is(M1)	device_current
	10	I(Rload)	device_current
	11	I(Vg)	device_current
	12	I(Vdd)	device_current
Values:
0		1.000000000000000e+00,0.000000000000000e+00
	3.449604597094517e-02,1.416630527139329e-09
	1.000000000000000e+00,0.000000000000000e+00
	0.000000000000000e+00,0.000000000000000e+00
	4.207798326198522e-04,1.472289931520491e-13
	4.207798323607336e-04,1.375964507882545e-13
	-3.449604597094510e-06,-1.416630527139329e-13
	2.597332456960690e-04,3.155896149475528e-12
	-2.244159107793064e-04,-7.410519167026318e-14
	-3.186773031966804e-05,-2.940127905091332e-12
	3.449604597094517e-06,1.416630527139329e-13
	-2.597332456959478e-04,-3.155896149475528e-12
	3.449604597094517e-06,1.416630527139329e-13
1		1.023292992280754e+00,0.000000000000000e+00
	3.449604597094517e-02,1.449628091072666e-09
	1.000000000000000e+00,0.000000000000000e+00
	0.000000000000000e+00,0.000000000000000e+00
	4.207798326198522e-04,1.506583969530430e-13
	4.207798323607336e-04,1.408014838543245e-13
	-3.449604597094510e-06,-1.449628091072664e-13
	2.597332456960690e-04,3.229406414124122e-12
	-2.244159107793064e-04,-7.583132332780243e-14
	-3.186773031966804e-05,-3.008612281689054e-12
	3.449604597094517e-06,1.449628091072666e-13
	-2.597332456959478e-04,-3.229406414124124e-12
	3.449604597094517e-06,1.449628091072666e-13
2		1.047128548050899e+00,0.000000000000000e+00
	3.449604597094517e-02,1.483394267007986e-09
	1.000000000000000e+00,0.000000000000000e+00
	0.000000000000000e+00,0.000000000000000e+00
	4.207798326198522e-04,1.541676818303010e-13
	4.207798323607336e-04,1.440811717308620e-13
	-3.449604597094510e-06,-1.483394267007983e-13
	2.597332456960690e-04,3.304628952799733e-12
	-2.244159107793064e-04,-7.759766175671630e-14
	-3.186773031966804e-05,-3.078691864342219e-12
	3.449604597094517e-06,1.483394267007986e-13
	-2.597332456959478e-04,-3.304628952799734e-12
	3.449604597094517e-06,1.483394267007986e-13
3		1.071519305237606e+00,0.000000000000000e+00
	3.449604597094517e-02,1.517946958218718e-09
	1.000000000000000e+00,0.000000000000000e+00
	0.000000000000000e+00,0.000000000000000e+00
	4.207798326198522e-04,1.577587084531160e-13
	4.207798323607336e-04,1.474372533517909e-13
	-3.449604597094510e-06,-1.517946958218717e-13
	2.597332456960690e-04,3.381603649488054e-12
	-2.244159107793064e-04,-7.940514349302005e-14
	-3.186773031966804e-05,-3.150403810173162e-12
	3.449604597094517e-06,1.517946958218718e-13
	-2.597332456959478e-04,-3.381603649488055e-12
	3.449604597094517e-06,1.517946958218718e-13
4		1.096478196143185e+00,0.000000000000000e+00
	3.449604597094517e-02,1.553304484999100e-09
	1.000000000000000e+00,0.000000000000000e+00
	0.000000000000000e+00,0.000000000000000e+00
	4.207798326198522e-04,1.614333808313361e-13
	4.207798323607336e-04,1.508715081560098e-13
	-3.449604597094510e-06,-1.553304484999099e-13
	2.597332456960690e-04,3.460371317192148e-12
	-2.244159107793064e-04,-8.125472688745512e-14
	-3.186773031966804e-05,-3.223786141804783e-12
	3.449604597094517e-06,1.553304484999100e-13
	-2.597332456959478e-04,-3.460371317192149e-12
	3.449604597094517e-06,1.553304484999100e-13
5		1.122018454301963e+00,0.000000000000000e+00
	3.449604597094517e-02,1.589485594377845e-09
	1.000000000000000e+00,0.000000000000000e+00
	0.000000000000000e+00,0.000000000000000e+00
	4.207798326198522e-04,1.651936473248965e-13
	4.207798323607336e-04,1.543857570308735e-13
	-3.449604597094510e-06,-1.589485594377847e-13
	2.597332456960690e-04,3.540973719572049e-12
	-2.244159107793064e-04,-8.314739261361943e-14
	-3.186773031966804e-05,-3.298877767520645e-12
	3.449604597094517e-06,1.589485594377845e-13
	-2.597332456959478e-04,-3.540973719572049e-12
	3.449604597094517e-06,1.589485594377845e-13
6		1.148153621496882e+00,0.000000000000000e+00
	3.449604597094517e-02,1.626509470058058e-09
	1.000000000000000e+00,0.000000000000000e+00
	0.000000000000000e+00,0.000000000000000e+00
	4.207798326198522e-04,1.690415016768649e-13
	4.207798323607336e-04,1.579818632776520e-13
	-3.449604597094510e-06,-1.626509470058056e-13
	2.597332456960690e-04,3.623453593088393e-12
	-2.244159107793064e-04,-8.508414418793329e-14
	-3.186773031966804e-05,-3.375718501894654e-12
	3.449604597094517e-06,1.626509470058058e-13
	-2.597332456959478e-04,-3.623453593088394e-12
	3.449604597094517e-06,1.626509470058058e-13
7		1.174897554939529e+00,0.000000000000000e+00
	3.449604597094517e-02,1.664395742588694e-09
	1.000000000000000e+00,0.000000000000000e+00
	0.000000000000000e+00,0.000000000000000e+00
	4.207798326198522e-04,1.729789840705512e-13
	4.207798323607336e-04,1.616617335994775e-13
	-3.449604597094517e-06,-1.664395742588694e-13
	2.597332456960690e-04,3.707854669661872e-12
	-2.244159107793064e-04,-8.706600850171738e-14
	-3.186773031966804e-05,-3.454349086901285e-12
	3.449604597094517e-06,1.664395742588694e-13
	-2.597332456959478e-04,-3.707854669661873e-12
	3.449604597094517e-06,1.664395742588694e-13
8		1.202264434617413e+00,0.000000000000000e+00
	3.449604597094518e-02,1.703164499772933e-09
	1.000000000000000e+00,0.000000000000000e+00
	0.000000000000000e+00,0.000000000000000e+00
	4.207798326198522e-04,1.770081822112393e-13
	4.207798323607336e-04,1.654273191123034e-13
	-3.449604597094510e-06,-1.703164499772933e-13
	2.597332456960690e-04,3.794221699860464e-12
	-2.244159107793064e-04,-8.909403636566396e-14
	-3.186773031966805e-05,-3.534811213517507e-12
	3.449604597094518e-06,1.703164499772933e-13
	-2.597332456959478e-04,-3.794221699860465e-12
	3.449604597094518e-06,1.703164499772933e-13
9		1.230268770812381e+00,0.000000000000000e+00
	3.449604597094518e-02,1.742836297318998e-09
	1.000000000000000e+00,0.000000000000000e+00
	0.000000000000000e+00,0.000000000000000e+00
	4.207798326198522e-04,1.811312324331160e-13
	4.207798323607336e-04,1.692806163794122e-13
	-3.449604597094510e-06,-1.742836297318996e-13
	2.597332456960690e-04,3.882600476626784e-12
	-2.244159107793064e-04,-9.116930306699060e-14
	-3.186773031966805e-05,-3.617147543827893e-12
	3.449604597094518e-06,1.742836297318998e-13
	-2.597332456959478e-04,-3.882600476626784e-12
	3.449604597094518e-06,1.742836297318998e-13
10		1.258925411794167e+00,0.000000000000000e+00
	3.449604597094518e-02,1.783432169739068e-09
	1.000000000000000e+00,0.000000000000000e+00
	0.000000000000000e+00,0.000000000000000e+00
	4.207798326198522e-04,1.853503208319841e-13
	4.207798323607336e-04,1.732236684700192e-13
	-3.449604597094510e-06,-1.783432169739068e-13
	2.597332456960690e-04,3.973037859558104e-12
	-2.244159107793064e-04,-9.329290893957176e-14
	-3.186773031966805e-05,-3.701401733644626e-12
	3.449604597094518e-06,1.783432169739068e-13
	-2.597332456959478e-04,-3.973037859558104e-12
	3.449604597094518e-06,1.783432169739068e-13
11		1.288249551693134e+00,0.000000000000000e+00
	3.449604597094518e-02,1.824973641502049e-09
	1.000000000000000e+00,0.000000000000000e+00
	0.000000000000000e+00,0.000000000000000e+00
	4.207798326198522e-04,1.896676844243588e-13
	4.207798323607336e-04,1.772585660425352e-13
	-3.449604597094510e-06,-1.824973641502045e-13
	2.597332456960690e-04,4.065581799751935e-12
	-2.244159107793064e-04,-9.546597994735031e-14
	-3.186773031966805e-05,-3.787618455654380e-12
	3.449604597094518e-06,1.824973641502049e-13
	-2.597332456959478e-04,-4.065581799751936e-12
	3.449604597094518e-06,1.824973641502049e-13
12		1.318256738556407e+00,0.000000000000000e+00
	3.449604597094518e-02,1.867482738446135e-09
	1.000000000000000e+00,0.000000000000000e+00
	0.000000000000000e+00,0.000000000000000e+00
	4.207798326198522e-04,1.940856123335639e-13
	4.207798323607336e-04,1.813874484530616e-13
	-3.449604597094510e-06,-1.867482738446137e-13
	2.597332456960690e-04,4.160281365230331e-12
	-2.244159107793064e-04,-9.768966828133857e-14
	-3.186773031966805e-05,-3.875843423104379e-12
	3.449604597094518e-06,1.867482738446136e-13
	-2.597332456959478e-04,-4.160281365230331e-12
	3.449604597094518e-06,1.867482738446136e-13
13		1.348962882591653e+00,0.000000000000000e+00
	3.449604597094518e-02,1.910981999457203e-09
	1.000000000000000e+00,0.000000000000000e+00
	0.000000000000000e+00,0.000000000000000e+00
	4.207798326198522e-04,1.986064470034550e-13
	4.207798323607336e-04,1.856125048897044e-13
	-3.449604597094510e-06,-1.910981999457203e-13
	2.597332456960690e-04,4.257186766956407e-12
	-2.244159107793064e-04,-9.996515297052523e-14
	-3.186773031966805e-05,-3.966123414040161e-12
	3.449604597094518e-06,1.910981999457203e-13
	-2.597332456959478e-04,-4.257186766956408e-12
	3.449604597094518e-06,1.910981999457203e-13
14		1.380384264602885e+00,0.000000000000000e+00
	3.449604597094518e-02,1.955494488419220e-09
	1.000000000000000e+00,0.000000000000000e+00
	0.000000000000000e+00,0.000000000000000e+00
	4.207798326198522e-04,2.032325854404145e-13
	4.207798323607336e-04,1.899359755333117e-13
	-3.449604597094510e-06,-1.955494488419217e-13
	2.597332456960690e-04,4.356349385456851e-12
	-2.244159107793064e-04,-1.022936405070121e-13
	-3.186773031966805e-05,-4.058506296107917e-12
	3.449604597094518e-06,1.955494488419220e-13
	-2.597332456959478e-04,-4.356349385456852e-12
	3.449604597094518e-06,1.955494488419220e-13
15		1.412537544622754e+00,0.000000000000000e+00
	3.449604597094518e-02,2.001043806443026e-09
	1.000000000000000e+00,0.000000000000000e+00
	0.000000000000000e+00,0.000000000000000e+00
	4.207798326198522e-04,2.079664804842758e-13
	4.207798323607336e-04,1.943601527452467e-13
	-3.449604597094510e-06,-2.001043806443025e-13
	2.597332456960690e-04,4.457821798064564e-12
	-2.244159107793064e-04,-1.046763654857121e-13
	-3.186773031966805e-05,-4.153041051934550e-12
	3.449604597094518e-06,2.001043806443026e-13
	-2.597332456959478e-04,-4.457821798064566e-12
	3.449604597094518e-06,2.001043806443026e-13
16		1.445439770745927e+00,0.000000000000000e+00
	3.449604597094518e-02,2.047654104379953e-09
	1.000000000000000e+00,0.000000000000000e+00
	0.000000000000000e+00,0.000000000000000e+00
	4.207798326198522e-04,2.128106421088515e-13
	4.207798323607336e-04,1.988873822828278e-13
	-3.449604597094510e-06,-2.047654104379954e-13
	2.597332456960690e-04,4.561657806795860e-12
	-2.244159107793064e-04,-1.071145912589482e-13
	-3.186773031966805e-05,-4.249777805098916e-12
	3.449604597094518e-06,2.047654104379953e-13
	-2.597332456959478e-04,-4.561657806795861e-12
	3.449604597094518e-06,2.047654104379953e-13
17		1.479108388168207e+00,0.000000000000000e+00
	3.449604597094518e-02,2.095350095626930e-09
	1.000000000000000e+00,0.000000000000000e+00
	0.000000000000000e+00,0.000000000000000e+00
	4.207798326198522e-04,2.177676387527554e-13
	4.207798323607336e-04,2.035200645430811e-13
	-3.449604597094510e-06,-2.095350095626928e-13
	2.597332456960690e-04,4.667912466876998e-12
	-2.244159107793064e-04,-1.096096106062990e-13
	-3.186773031966805e-05,-4.348767846708006e-12
	3.449604597094518e-06,2.095350095626930e-13
	-2.597332456959478e-04,-4.667912466876999e-12
	3.449604597094518e-06,2.095350095626930e-13
18		1.513561248436208e+00,0.000000000000000e+00
	3.449604597094518e-02,2.144157069229845e-09
	1.000000000000000e+00,0.000000000000000e+00
	0.000000000000000e+00,0.000000000000000e+00
	4.207798326198522e-04,2.228400986812214e-13
	4.207798323607336e-04,2.082606558354617e-13
	-3.449604597094510e-06,-2.144157069229849e-13
	2.597332456960690e-04,4.776642115935199e-12
	-2.244159107793064e-04,-1.121627464200480e-13
	-3.186773031966805e-05,-4.450063662592167e-12
	3.449604597094518e-06,2.144157069229845e-13
	-2.597332456959478e-04,-4.776642115935200e-12
	3.449604597094518e-06,2.144157069229845e-13
19		1.548816618912481e+00,0.000000000000000e+00
	3.449604597094518e-02,2.194100903292141e-09
	1.000000000000000e+00,0.000000000000000e+00
	0.000000000000000e+00,0.000000000000000e+00
	4.207798326198522e-04,2.280307113796455e-13
	4.207798323607336e-04,2.131116696842219e-13
	-3.449604597094510e-06,-2.194100903292136e-13
	2.597332456960690e-04,4.887904403869603e-12
	-2.244159107793064e-04,-1.147753524065984e-13
	-3.186773031966805e-05,-4.553718961133791e-12
	3.449604597094518e-06,2.194100903292141e-13
	-2.597332456959478e-04,-4.887904403869603e-12
	3.449604597094518e-06,2.194100903292141e-13
20		1.584893192461113e+00,0.000000000000000e+00
	3.449604597094518e-02,2.245208078695720e-09
	1.000000000000000e+00,0.000000000000000e+00
	0.000000000000000e+00,0.000000000000000e+00
	4.207798326198522e-04,2.333422289795865e-13
	4.207798323607336e-04,2.180756781611151e-13
	-3.449604597094510e-06,-2.245208078695718e-13
	2.597332456960690e-04,5.001758323418001e-12
	-2.244159107793064e-04,-1.174488138042261e-13
	-3.186773031966805e-05,-4.659788701744203e-12
	3.449604597094518e-06,2.245208078695721e-13
	-2.597332456959478e-04,-5.001758323418003e-12
	3.449604597094518e-06,2.245208078695721e-13
21		1.621810097358929e+00,0.000000000000000e+00
	3.449604597094518e-02,2.297505693141466e-09
	1.000000000000000e+00,0.000000000000000e+00
	0.000000000000000e+00,0.000000000000000e+00
	4.207798326198522e-04,2.387774677179819e-13
	4.207798323607336e-04,2.231553132491421e-13
	-3.449604597094510e-06,-2.297505693141465e-13
	2.597332456960690e-04,5.118264241435575e-12
	-2.244159107793064e-04,-1.201845481175516e-13
	-3.186773031966805e-05,-4.768329124003877e-12
	3.449604597094518e-06,2.297505693141466e-13
	-2.597332456959478e-04,-5.118264241435575e-12
	3.449604597094518e-06,2.297505693141466e-13
22		1.659586907437560e+00,0.000000000000000e+00
	3.449604597094518e-02,2.351021475516800e-09
	1.000000000000000e+00,0.000000000000000e+00
	0.000000000000000e+00,0.000000000000000e+00
	4.207798326198522e-04,2.443393094303549e-13
	4.207798323607336e-04,2.283532682380637e-13
	-3.449604597094510e-06,-2.351021475516796e-13
	2.597332456960690e-04,5.237483930902194e-12
	-2.244159107793064e-04,-1.229840058691197e-13
	-3.186773031966805e-05,-4.879397777481394e-12
	3.449604597094518e-06,2.351021475516800e-13
	-2.597332456959478e-04,-5.237483930902194e-12
	3.449604597094518e-06,2.351021475516800e-13
23		1.698243652461743e+00,0.000000000000000e+00
	3.449604597094518e-02,2.405783800597900e-09
	1.000000000000000e+00,0.000000000000000e+00
	0.000000000000000e+00,0.000000000000000e+00
	4.207798326198522e-04,2.500307030788009e-13
	4.207798323607336e-04,2.336722991524179e-13
	-3.449604597094510e-06,-2.405783800597895e-13
	2.597332456960690e-04,5.359480603675273e-12
	-2.244159107793064e-04,-1.258486713684853e-13
	-3.186773031966805e-05,-4.993053552246998e-12
	3.449604597094518e-06,2.405783800597900e-13
	-2.597332456959478e-04,-5.359480603675274e-12
	3.449604597094518e-06,2.405783800597900e-13
24		1.737800828749374e+00,0.000000000000000e+00
	3.449604597094518e-02,2.461821704094389e-09
	1.000000000000000e+00,0.000000000000000e+00
	0.000000000000000e+00,0.000000000000000e+00
	4.207798326198522e-04,2.558546663155670e-13
	4.207798323607336e-04,2.391152262128012e-13
	-3.449604597094510e-06,-2.461821704094389e-13
	2.597332456960690e-04,5.484318944005531e-12
	-2.244159107793064e-04,-1.287800634992146e-13
	-3.186773031966805e-05,-5.109356710096878e-12
	3.449604597094518e-06,2.461821704094389e-13
	-2.597332456959478e-04,-5.484318944005532e-12
	3.449604597094518e-06,2.461821704094389e-13
25		1.778279410038922e+00,0.000000000000000e+00
	3.449604597094518e-02,2.519164898044453e-09
	1.000000000000000e+00,0.000000000000000e+00
	0.000000000000000e+00,0.000000000000000e+00
	4.207798326198522e-04,2.618142870830504e-13
	4.207798323607336e-04,2.446849353311868e-13
	-3.449604597094510e-06,-2.519164898044448e-13
	2.597332456960690e-04,5.612065142833445e-12
	-2.244159107793064e-04,-1.317797365242168e-13
	-3.186773031966805e-05,-5.228368916504783e-12
	3.449604597094518e-06,2.519164898044453e-13
	-2.597332456959478e-04,-5.612065142833446e-12
	3.449604597094518e-06,2.519164898044453e-13
26		1.819700858609982e+00,0.000000000000000e+00
	3.449604597094518e-02,2.577843786568549e-09
	1.000000000000000e+00,0.000000000000000e+00
	0.000000000000000e+00,0.000000000000000e+00
	4.207798326198522e-04,2.679127252510670e-13
	4.207798323607336e-04,2.503843796410729e-13
	-3.449604597094510e-06,-2.577843786568551e-13
	2.597332456960690e-04,5.742786932884554e-12
	-2.244159107793064e-04,-1.348492809098352e-13
	-3.186773031966805e-05,-5.350153273317864e-12
	3.449604597094518e-06,2.577843786568549e-13
	-2.597332456959478e-04,-5.742786932884555e-12
	3.449604597094518e-06,2.577843786568549e-13
27		1.862087136662866e+00,0.000000000000000e+00
	3.449604597094518e-02,2.637889481990080e-09
	1.000000000000000e+00,0.000000000000000e+00
	0.000000000000000e+00,0.000000000000000e+00
	4.207798326198522e-04,2.741532142922559e-13
	4.207798323607336e-04,2.562165810632738e-13
	-3.449604597094510e-06,-2.637889481990075e-13
	2.597332456960690e-04,5.876553624582249e-12
	-2.244159107793064e-04,-1.379903241691333e-13
	-3.186773031966805e-05,-5.474774352214109e-12
	3.449604597094518e-06,2.637889481990080e-13
	-2.597332456959478e-04,-5.876553624582250e-12
	3.449604597094518e-06,2.637889481990080e-13
28		1.905460717963246e+00,0.000000000000000e+00
	3.449604597094518e-02,2.699333821331558e-09
	1.000000000000000e+00,0.000000000000000e+00
	0.000000000000000e+00,0.000000000000000e+00
	4.207798326198522e-04,2.805390629965094e-13
	4.207798323607336e-04,2.621846319081819e-13
	-3.449604597094510e-06,-2.699333821331550e-13
	2.597332456960690e-04,6.013436142797081e-12
	-2.244159107793064e-04,-1.412045317248237e-13
	-3.186773031966805e-05,-5.602298228939102e-12
	3.449604597094518e-06,2.699333821331558e-13
	-2.597332456959478e-04,-6.013436142797082e-12
	3.449604597094518e-06,2.699333821331558e-13
29		1.949844599758044e+00,0.000000000000000e+00
	3.449604597094518e-02,2.762209383195012e-09
	1.000000000000000e+00,0.000000000000000e+00
	0.000000000000000e+00,0.000000000000000e+00
	4.207798326198522e-04,2.870736572253371e-13
	4.207798323607336e-04,2.682916965153515e-13
	-3.449604597094510e-06,-2.762209383195013e-13
	2.597332456960690e-04,6.153507064452061e-12
	-2.244159107793064e-04,-1.444936077922975e-13
	-3.186773031966805e-05,-5.732792518340263e-12
	3.449604597094518e-06,2.762209383195012e-13
	-2.597332456959478e-04,-6.153507064452063e-12
	3.449604597094518e-06,2.762209383195012e-13
30		1.995262314968878e+00,0.000000000000000e+00
	3.449604597094518e-02,2.826549505035600e-09
	1.000000000000000e+00,0.000000000000000e+00
	0.000000000000000e+00,0.000000000000000e+00
	4.207798326198522e-04,2.937604617070946e-13
	4.207798323607336e-04,2.745410129312740e-13
	-3.449604597094510e-06,-2.826549505035594e-13
	2.597332456960690e-04,6.296840657003908e-12
	-2.244159107793064e-04,-1.478592962832217e-13
	-3.186773031966805e-05,-5.866326410217128e-12
	3.449604597094518e-06,2.826549505035600e-13
	-2.597332456959478e-04,-6.296840657003910e-12
	3.449604597094518e-06,2.826549505035600e-13
31		2.041737944669527e+00,0.000000000000000e+00
	3.449604597094518e-02,2.892388300837563e-09
	1.000000000000000e+00,0.000000000000000e+00
	0.000000000000000e+00,0.000000000000000e+00
	4.207798326198522e-04,3.006030218740288e-13
	4.207798323607336e-04,2.809358946262326e-13
	-3.449604597094517e-06,-2.892388300837557e-13
	2.597332456960690e-04,6.443512917820638e-12
	-2.244159107793064e-04,-1.513033817301846e-13
	-3.186773031966805e-05,-6.002970706006697e-12
	3.449604597094518e-06,2.892388300837563e-13
	-2.597332456959478e-04,-6.443512917820640e-12
	3.449604597094518e-06,2.892388300837563e-13
32		2.089296130854037e+00,0.000000000000000e+00
	3.449604597094519e-02,2.959760679201916e-09
	1.000000000000000e+00,0.000000000000000e+00
	0.000000000000000e+00,0.000000000000000e+00
	4.207798326198522e-04,3.076049657421119e-13
	4.207798323607336e-04,2.874797322511481e-13
	-3.449604597094510e-06,-2.959760679201917e-13
