LTspice 24.0.9 for Windows
Circuit: * GA CMOS Amp | W=3.9979331966657794e-05 L=6.420975696185104e-07 Vbias=0.7214012623374196
Start Time: Mon Sep  8 18:44:04 2025
solver = Normal
Maximum thread count: 2
tnom = 27
temp = 27
method = modified trap
AsciiRawFile = 1
Instance "m1": Length shorter than recommended for a level 3 MOSFET.
Direct Newton iteration for .op point succeeded.
Semiconductor Device Operating Points:
                        --- MOSFET Transistors ---
Name:          m1
Model:        n_1u
Id:          7.65e-06
Vgs:         7.21e-01
Vds:         1.72e+00
Vbs:         0.00e+00
Vth:         7.61e-01
Vdsat:       4.80e-02
Gm:          1.44e-04
Gds:         1.14e-06
Gmb:         2.63e-05
Cbd:         0.00e+00
Cbs:         0.00e+00
Cgsov:       8.00e-15
Cgdov:       8.00e-15
Cgbov:       4.42e-17
Cgs:         1.80e-14
Cgd:         0.00e+00
Cgb:         1.75e-15



gain_db: MAX(db(v(out)/v(g)))=(28.7735dB,83.6038°) FROM 1 TO 1e+09
gain_lin: MAX(mag(v(out)/v(g)))=(3.05897dB,0°) FROM 1 TO 1e+09

Measurement "fc" FAIL'ed

Total elapsed time: 0.466 seconds.

