Title: * GA CMOS Amp | W=1e-06 L=6.83821333047579e-07 Vbias=1.0109772064928726
Date: Mon Sep  8 18:44:31 2025
Plotname: AC Analysis
Flags: complex forward log
No. Variables: 11
No. Points:          901
Offset:    0.0000000000000000e+00
Command: Linear Technology Corporation LTspice
Variables:
	0	frequency	frequency
	1	V(out)	voltage
	2	V(g)	voltage
	3	V(vdd)	voltage
	4	Id(M1)	device_current
	5	Ig(M1)	device_current
	6	Ib(M1)	device_current
	7	Is(M1)	device_current
	8	I(Rload)	device_current
	9	I(Vg)	device_current
	10	I(Vdd)	device_current
Values:
0		1.000000000000000e+00,0.000000000000000e+00
	-1.804804466993788e-01,1.481066812652640e-11
	1.000000000000000e+00,0.000000000000000e+00
	0.000000000000000e+00,0.000000000000000e+00
	1.804804466993788e-05,-1.481066812652640e-15
	1.861163447242074e-26,6.680641726268881e-15
	1.804804440933786e-13,-4.414535920597443e-16
	-1.804804485041833e-05,-4.758121321556496e-15
	-1.804804466993788e-05,1.481066812652640e-15
	-1.861163447242074e-26,-6.680641726268881e-15
	-1.804804466993788e-05,1.481066812652640e-15
1		1.023292992280754e+00,0.000000000000000e+00
	-1.804804466993788e-01,1.515565290487039e-11
	1.000000000000000e+00,0.000000000000000e+00
	0.000000000000000e+00,0.000000000000000e+00
	1.804804466993788e-05,-1.515565290487040e-15
	1.948877378196000e-26,6.836253862429345e-15
	1.804804440933786e-13,-4.517363671719021e-16
	-1.804804485041833e-05,-4.868952204770404e-15
	-1.804804466993788e-05,1.515565290487040e-15
	-1.948877378196000e-26,-6.836253862429345e-15
	-1.804804466993788e-05,1.515565290487040e-15
2		1.047128548050899e+00,0.000000000000000e+00
	-1.804804466993788e-01,1.550867341099333e-11
	1.000000000000000e+00,0.000000000000000e+00
	0.000000000000000e+00,0.000000000000000e+00
	1.804804466993788e-05,-1.550867341099333e-15
	2.040725139359621e-26,6.995490670876187e-15
	1.804804440933786e-13,-4.622586588853746e-16
	-1.804804485041833e-05,-4.982364670891480e-15
	-1.804804466993788e-05,1.550867341099333e-15
	-2.040725139359621e-26,-6.995490670876187e-15
	-1.804804466993788e-05,1.550867341099333e-15
3		1.071519305237606e+00,0.000000000000000e+00
	-1.804804466993788e-01,1.586991682104033e-11
	1.000000000000000e+00,0.000000000000000e+00
	0.000000000000000e+00,0.000000000000000e+00
	1.804804466993788e-05,-1.586991682104033e-15
	2.136901552148609e-26,7.158436581072993e-15
	1.804804440933786e-13,-4.730260462585024e-16
	-1.804804485041833e-05,-5.098418852710457e-15
	-1.804804466993788e-05,1.586991682104033e-15
	-2.136901552148609e-26,-7.158436581072993e-15
	-1.804804466993788e-05,1.586991682104033e-15
4		1.096478196143185e+00,0.000000000000000e+00
	-1.804804466993788e-01,1.623957467104903e-11
	1.000000000000000e+00,0.000000000000000e+00
	0.000000000000000e+00,0.000000000000000e+00
	1.804804466993788e-05,-1.623957467104903e-15
	2.237610619629086e-26,7.325177989098192e-15
	1.804804440933786e-13,-4.840442383025970e-16
	-1.804804485041833e-05,-5.217176283690692e-15
	-1.804804466993788e-05,1.623957467104903e-15
	-2.237610619629086e-26,-7.325177989098192e-15
	-1.804804466993788e-05,1.623957467104903e-15
5		1.122018454301963e+00,0.000000000000000e+00
	-1.804804466993788e-01,1.661784295850451e-11
	1.000000000000000e+00,0.000000000000000e+00
	0.000000000000000e+00,0.000000000000000e+00
	1.804804466993788e-05,-1.661784295850451e-15
	2.343065959235479e-26,7.495803303453408e-15
	1.804804440933786e-13,-4.953190770089233e-16
	-1.804804485041833e-05,-5.338699930594034e-15
	-1.804804466993788e-05,1.661784295850451e-15
	-2.343065959235479e-26,-7.495803303453408e-15
	-1.804804466993788e-05,1.661784295850451e-15
6		1.148153621496882e+00,0.000000000000000e+00
	-1.804804466993788e-01,1.700492224625974e-11
	1.000000000000000e+00,0.000000000000000e+00
	0.000000000000000e+00,0.000000000000000e+00
	1.804804466993788e-05,-1.700492224625974e-15
	2.453491255881735e-26,7.670402991938798e-15
	1.804804440933786e-13,-5.068565404462006e-16
	-1.804804485041833e-05,-5.463054226866624e-15
	-1.804804466993788e-05,1.700492224625974e-15
	-2.453491255881735e-26,-7.670402991938798e-15
	-1.804804466993788e-05,1.700492224625974e-15
7		1.174897554939529e+00,0.000000000000000e+00
	-1.804804466993788e-01,1.740101776887669e-11
	1.000000000000000e+00,0.000000000000000e+00
	0.000000000000000e+00,0.000000000000000e+00
	1.804804466993788e-05,-1.740101776887669e-15
	2.569120736427019e-26,7.849069629620304e-15
	1.804804440933786e-13,-5.186627459302663e-16
	-1.804804485041833e-05,-5.590305106802368e-15
	-1.804804466993788e-05,1.740101776887669e-15
	-2.569120736427019e-26,-7.849069629620304e-15
	-1.804804466993788e-05,1.740101776887669e-15
8		1.202264434617413e+00,0.000000000000000e+00
	-1.804804466993788e-01,1.780633954144440e-11
	1.000000000000000e+00,0.000000000000000e+00
	0.000000000000000e+00,0.000000000000000e+00
	1.804804466993788e-05,-1.780633954144440e-15
	2.690199666502281e-26,8.031897947914150e-15
	1.804804440933786e-13,-5.307439532675326e-16
	-1.804804485041833e-05,-5.720520040502177e-15
	-1.804804466993788e-05,1.780633954144440e-15
	-2.690199666502281e-26,-8.031897947914150e-15
	-1.804804466993788e-05,1.780633954144440e-15
9		1.230268770812381e+00,0.000000000000000e+00
	-1.804804466993788e-01,1.822110247093175e-11
	1.000000000000000e+00,0.000000000000000e+00
	0.000000000000000e+00,0.000000000000000e+00
	1.804804466993788e-05,-1.822110247093175e-15
	2.816984870751549e-26,8.218984884814719e-15
	1.804804440933786e-13,-5.431065680740514e-16
	-1.804804485041833e-05,-5.853768069647493e-15
	-1.804804466993788e-05,1.822110247093175e-15
	-2.816984870751549e-26,-8.218984884814719e-15
	-1.804804466993788e-05,1.822110247093175e-15
10		1.258925411794167e+00,0.000000000000000e+00
	-1.804804466993788e-01,1.864552647013400e-11
	1.000000000000000e+00,0.000000000000000e+00
	0.000000000000000e+00,0.000000000000000e+00
	1.804804466993788e-05,-1.864552647013400e-15
	2.949745277591420e-26,8.410429636292345e-15
	1.804804440933786e-13,-5.557571451718280e-16
	-1.804804485041833e-05,-5.990119844107117e-15
	-1.804804466993788e-05,1.864552647013400e-15
	-2.949745277591420e-26,-8.410429636292345e-15
	-1.804804466993788e-05,1.864552647013400e-15
11		1.288249551693134e+00,0.000000000000000e+00
	-1.804804466993788e-01,1.907983657427343e-11
	1.000000000000000e+00,0.000000000000000e+00
	0.000000000000000e+00,0.000000000000000e+00
	1.804804466993788e-05,-1.907983657427343e-15
	3.088762489644302e-26,8.606333708888327e-15
	1.804804440933786e-13,-5.687023920642880e-16
	-1.804804485041833e-05,-6.129647659396697e-15
	-1.804804466993788e-05,1.907983657427343e-15
	-3.088762489644302e-26,-8.606333708888327e-15
	-1.804804466993788e-05,1.907983657427343e-15
12		1.318256738556407e+00,0.000000000000000e+00
	-1.804804466993788e-01,1.952426306031603e-11
	1.000000000000000e+00,0.000000000000000e+00
	0.000000000000000e+00,0.000000000000000e+00
	1.804804466993788e-05,-1.952426306031602e-15
	3.234331381055320e-26,8.806800973535057e-15
	1.804804440933786e-13,-5.819491724926873e-16
	-1.804804485041833e-05,-6.272425495010767e-15
	-1.804804466993788e-05,1.952426306031603e-15
	-3.234331381055320e-26,-8.806800973535057e-15
	-1.804804466993788e-05,1.952426306031603e-15
13		1.348962882591653e+00,0.000000000000000e+00
	-1.804804466993788e-01,1.997904156906738e-11
	1.000000000000000e+00,0.000000000000000e+00
	0.000000000000000e+00,0.000000000000000e+00
	1.804804466993788e-05,-1.997904156906738e-15
	3.386760722959917e-26,9.011937720629747e-15
	1.804804440933786e-13,-5.955045100753507e-16
	-1.804804485041833e-05,-6.418529053647658e-15
	-1.804804466993788e-05,1.997904156906738e-15
	-3.386760722959917e-26,-9.011937720629747e-15
	-1.804804466993788e-05,1.997904156906738e-15
14		1.380384264602885e+00,0.000000000000000e+00
	-1.804804466993788e-01,2.044441323011254e-11
	1.000000000000000e+00,0.000000000000000e+00
	0.000000000000000e+00,0.000000000000000e+00
	1.804804466993788e-05,-2.044441323011254e-15
	3.546373838428834e-26,9.221852716391015e-15
	1.804804440933786e-13,-6.093755920316920e-16
	-1.804804485041833e-05,-6.568035801348070e-15
	-1.804804466993788e-05,2.044441323011254e-15
	-3.546373838428834e-26,-9.221852716391015e-15
	-1.804804466993788e-05,2.044441323011254e-15
15		1.412537544622754e+00,0.000000000000000e+00
	-1.804804466993788e-01,2.092062478966609e-11
	1.000000000000000e+00,0.000000000000000e+00
	0.000000000000000e+00,0.000000000000000e+00
	1.804804466993788e-05,-2.092062478966609e-15
	3.713509288279680e-26,9.436657260528161e-15
	1.804804440933786e-13,-6.235697729929643e-16
	-1.804804485041833e-05,-6.721025008568587e-15
	-1.804804466993788e-05,2.092062478966609e-15
	-3.713509288279680e-26,-9.436657260528161e-15
	-1.804804466993788e-05,2.092062478966609e-15
16		1.445439770745927e+00,0.000000000000000e+00
	-1.804804466993788e-01,2.140792874140033e-11
	1.000000000000000e+00,0.000000000000000e+00
	0.000000000000000e+00,0.000000000000000e+00
	1.804804466993788e-05,-2.140792874140033e-15
	3.888521589209828e-26,9.656465245253764e-15
	1.804804440933786e-13,-6.380945789018019e-16
	-1.804804485041833e-05,-6.877577792211929e-15
	-1.804804466993788e-05,2.140792874140033e-15
	-3.888521589209828e-26,-9.656465245253764e-15
	-1.804804466993788e-05,2.140792874140033e-15
17		1.479108388168207e+00,0.000000000000000e+00
	-1.804804466993788e-01,2.190658346032070e-11
	1.000000000000000e+00,0.000000000000000e+00
	0.000000000000000e+00,0.000000000000000e+00
	1.804804466993788e-05,-2.190658346032071e-15
	4.071781965773863e-26,9.881393215670830e-15
	1.804804440933786e-13,-6.529577110025533e-16
	-1.804804485041833e-05,-7.037777158636206e-15
	-1.804804466993788e-05,2.190658346032070e-15
	-4.071781965773863e-26,-9.881393215670830e-15
	-1.804804466993788e-05,2.190658346032070e-15
18		1.513561248436208e+00,0.000000000000000e+00
	-1.804804466993788e-01,2.241685333975965e-11
	1.000000000000000e+00,0.000000000000000e+00
	0.000000000000000e+00,0.000000000000000e+00
	1.804804466993788e-05,-2.241685333975965e-15
	4.263679137800625e-26,1.011156043156655e-14
	1.804804440933786e-13,-6.681670499245937e-16
	-1.804804485041833e-05,-7.201708047665988e-15
	-1.804804466993788e-05,2.241685333975965e-15
	-4.263679137800625e-26,-1.011156043156655e-14
	-1.804804466993788e-05,2.241685333975965e-15
19		1.548816618912481e+00,0.000000000000000e+00
	-1.804804466993788e-01,2.293900893156147e-11
	1.000000000000000e+00,0.000000000000000e+00
	0.000000000000000e+00,0.000000000000000e+00
	1.804804466993788e-05,-2.293900893156147e-15
	4.464620144920079e-26,1.034708893064541e-14
	1.804804440933786e-13,-6.837306598607416e-16
	-1.804804485041833e-05,-7.369457377628516e-15
	-1.804804466993788e-05,2.293900893156147e-15
	-4.464620144920079e-26,-1.034708893064541e-14
	-1.804804466993788e-05,2.293900893156147e-15
20		1.584893192461113e+00,0.000000000000000e+00
	-1.804804466993788e-01,2.347332708953248e-11
	1.000000000000000e+00,0.000000000000000e+00
	0.000000000000000e+00,0.000000000000000e+00
	1.804804466993788e-05,-2.347332708953248e-15
	4.675031209948959e-26,1.058810359323520e-14
	1.804804440933786e-13,-6.996567928429938e-16
	-1.804804485041833e-05,-7.541114091438963e-15
	-1.804804466993788e-05,2.347332708953248e-15
	-4.675031209948959e-26,-1.058810359323520e-14
	-1.804804466993788e-05,2.347332708953248e-15
21		1.621810097358929e+00,0.000000000000000e+00
	-1.804804466993788e-01,2.402009111623258e-11
	1.000000000000000e+00,0.000000000000000e+00
	0.000000000000000e+00,0.000000000000000e+00
	1.804804466993788e-05,-2.402009111623258e-15
	4.895358642966491e-26,1.083473220850026e-14
	1.804804440933786e-13,-7.159538931178617e-16
	-1.804804485041833e-05,-7.716769203759137e-15
	-1.804804466993788e-05,2.402009111623258e-15
	-4.895358642966491e-26,-1.083473220850026e-14
	-1.804804466993788e-05,2.402009111623258e-15
22		1.659586907437560e+00,0.000000000000000e+00
	-1.804804466993788e-01,2.457959091318599e-11
	1.000000000000000e+00,0.000000000000000e+00
	0.000000000000000e+00,0.000000000000000e+00
	1.804804466993788e-05,-2.457959091318599e-15
	5.126069787997924e-26,1.108710554219689e-14
	1.804804440933786e-13,-7.326306016236325e-16
	-1.804804485041833e-05,-7.896515849254661e-15
	-1.804804466993788e-05,2.457959091318599e-15
	-5.126069787997924e-26,-1.108710554219689e-14
	-1.804804466993788e-05,2.457959091318599e-15
23		1.698243652461743e+00,0.000000000000000e+00
	-1.804804466993788e-01,2.515212313459093e-11
	1.000000000000000e+00,0.000000000000000e+00
	0.000000000000000e+00,0.000000000000000e+00
	1.804804466993788e-05,-2.515212313459093e-15
	5.367654014313849e-26,1.134535740600719e-14
	1.804804440933786e-13,-7.496957605718965e-16
	-1.804804485041833e-05,-8.080449331976202e-15
	-1.804804466993788e-05,2.515212313459093e-15
	-5.367654014313849e-26,-1.134535740600719e-14
	-1.804804466993788e-05,2.515212313459093e-15
24		1.737800828749374e+00,0.000000000000000e+00
	-1.804804466993788e-01,2.573799134460953e-11
	1.000000000000000e+00,0.000000000000000e+00
	0.000000000000000e+00,0.000000000000000e+00
	1.804804466993788e-05,-2.573799134460953e-15
	5.620623754448043e-26,1.160962472848771e-14
	1.804804440933786e-13,-7.671584181358108e-16
	-1.804804485041833e-05,-8.268667175890947e-15
	-1.804804466993788e-05,2.573799134460953e-15
	-5.620623754448043e-26,-1.160962472848771e-14
	-1.804804466993788e-05,2.573799134460953e-15
25		1.778279410038922e+00,0.000000000000000e+00
	-1.804804466993788e-01,2.633750617832164e-11
	1.000000000000000e+00,0.000000000000000e+00
	0.000000000000000e+00,0.000000000000000e+00
	1.804804466993788e-05,-2.633750617832164e-15
	5.885515591135575e-26,1.188004762767083e-14
	1.804804440933786e-13,-7.850278332475609e-16
	-1.804804485041833e-05,-8.461269176591101e-15
	-1.804804466993788e-05,2.633750617832164e-15
	-5.885515591135575e-26,-1.188004762767083e-14
	-1.804804466993788e-05,2.633750617832164e-15
26		1.819700858609982e+00,0.000000000000000e+00
	-1.804804466993788e-01,2.695098550642759e-11
	1.000000000000000e+00,0.000000000000000e+00
	0.000000000000000e+00,0.000000000000000e+00
	1.804804466993788e-05,-2.695098550642759e-15
	6.162891395476724e-26,1.215676948535715e-14
	1.804804440933786e-13,-8.033134805075762e-16
	-1.804804485041833e-05,-8.658357454206819e-15
	-1.804804466993788e-05,2.695098550642759e-15
	-6.162891395476724e-26,-1.215676948535715e-14
	-1.804804466993788e-05,2.695098550642759e-15
27		1.862087136662866e+00,0.000000000000000e+00
	-1.804804466993788e-01,2.757875460378753e-11
	1.000000000000000e+00,0.000000000000000e+00
	0.000000000000000e+00,0.000000000000000e+00
	1.804804466993788e-05,-2.757875460378753e-15
	6.453339518740924e-26,1.243993702313849e-14
	1.804804440933786e-13,-8.220250552080634e-16
	-1.804804485041833e-05,-8.860036507551669e-15
	-1.804804466993788e-05,2.757875460378753e-15
	-6.453339518740924e-26,-1.243993702313849e-14
	-1.804804466993788e-05,2.757875460378753e-15
28		1.905460717963246e+00,0.000000000000000e+00
	-1.804804466993788e-01,2.822114632188636e-11
	1.000000000000000e+00,0.000000000000000e+00
	0.000000000000000e+00,0.000000000000000e+00
	1.804804466993788e-05,-2.822114632188636e-15
	6.757476040338673e-26,1.272970038019152e-14
	1.804804440933786e-13,-8.411724784736127e-16
	-1.804804485041833e-05,-9.066413269529268e-15
	-1.804804466993788e-05,2.822114632188636e-15
	-6.757476040338673e-26,-1.272970038019152e-14
	-1.804804466993788e-05,2.822114632188636e-15
29		1.949844599758044e+00,0.000000000000000e+00
	-1.804804466993788e-01,2.887850126531609e-11
	1.000000000000000e+00,0.000000000000000e+00
	0.000000000000000e+00,0.000000000000000e+00
	1.804804466993788e-05,-2.887850126531610e-15
	7.075946074608577e-26,1.302621319288363e-14
	1.804804440933786e-13,-8.607659025214822e-16
	-1.804804485041833e-05,-9.277597163830541e-15
	-1.804804466993788e-05,2.887850126531609e-15
	-7.075946074608577e-26,-1.302621319288363e-14
	-1.804804466993788e-05,2.887850126531609e-15
30		1.995262314968878e+00,0.000000000000000e+00
	-1.804804466993788e-01,2.955116797236885e-11
	1.000000000000000e+00,0.000000000000000e+00
	0.000000000000000e+00,0.000000000000000e+00
	1.804804466993788e-05,-2.955116797236885e-15
	7.409425139191340e-26,1.332963267623293e-14
	1.804804440933786e-13,-8.808157160444494e-16
	-1.804804485041833e-05,-9.493700162951591e-15
	-1.804804466993788e-05,2.955116797236885e-15
	-7.409425139191340e-26,-1.332963267623293e-14
	-1.804804466993788e-05,2.955116797236885e-15
31		2.041737944669527e+00,0.000000000000000e+00
	-1.804804466993788e-01,3.023950309983649e-11
	1.000000000000000e+00,0.000000000000000e+00
	0.000000000000000e+00,0.000000000000000e+00
	1.804804466993788e-05,-3.023950309983650e-15
	7.758620587893258e-26,1.364011970726571e-14
	1.804804440933786e-13,-9.013325497190404e-16
	-1.804804485041833e-05,-9.714836847563015e-15
	-1.804804466993788e-05,3.023950309983649e-15
	-7.758620587893258e-26,-1.364011970726571e-14
	-1.804804466993788e-05,3.023950309983649e-15
32		2.089296130854037e+00,0.000000000000000e+00
	-1.804804466993788e-01,3.094387161211483e-11
	1.000000000000000e+00,0.000000000000000e+00
	0.000000000000000e+00,0.000000000000000e+00
	1.804804466993788e-05,-3.094387161211484e-15
	8.124273111078488e-26,1.395783891031561e-14
	1.804804440933786e-13,-9.223272818420390e-16
	-1.804804485041833e-05,-9.941124467262087e-15
	-1.804804466993788e-05,3.094387161211484e-15
	-8.124273111078488e-26,-1.395783891031561e-14
	-1.804804466993788e-05,3.094387161211484e-15
33		2.137962089502230e+00,0.000000000000000e+00
	-1.804804466993788e-01,3.166464697471247e-11
	1.000000000000000e+00,0.000000000000000e+00
	0.000000000000000e+00,0.000000000000000e+00
	1.804804466993788e-05,-3.166464697471247e-15
	8.507158306772580e-26,1.428295874430960e-14
	1.804804440933786e-13,-9.438110440983163e-16
	-1.804804485041833e-05,-1.017268300274004e-14
	-1.804804466993788e-05,3.166464697471247e-15
	-8.507158306772580e-26,-1.428295874430960e-14
	-1.804804466993788e-05,3.166464697471247e-15
34		2.187761623949550e+00,0.000000000000000e+00
	-1.804804466993788e-01,3.240221135226725e-11
	1.000000000000000e+00,0.000000000000000e+00
	0.000000000000000e+00,0.000000000000000e+00
	1.804804466993788e-05,-3.240221135226725e-15
	8.908088325809919e-26,1.461565159208713e-14
	1.804804440933786e-13,-9.657952274629856e-16
	-1.804804485041833e-05,-1.040963522939742e-14
	-1.804804466993788e-05,3.240221135226725e-15
	-8.908088325809919e-26,-1.461565159208713e-14
	-1.804804466993788e-05,3.240221135226725e-15
35		2.238721138568337e+00,0.000000000000000e+00
	-1.804804466993788e-01,3.315695581117498e-11
	1.000000000000000e+00,0.000000000000000e+00
	0.000000000000000e+00,0.000000000000000e+00
	1.804804466993788e-05,-3.315695581117498e-15
	9.327913594514510e-26,1.495609385179981e-14
	1.804804440933786e-13,-9.882914882410712e-16
	-1.804804485041833e-05,-1.065210678244124e-14
	-1.804804466993788e-05,3.315695581117498e-15
	-9.327913594514510e-26,-1.495609385179981e-14
	-1.804804466993788e-05,3.315695581117498e-15
36		2.290867652767770e+00,0.000000000000000e+00
	-1.804804466993788e-01,3.392928052693798e-11
	1.000000000000000e+00,0.000000000000000e+00
	0.000000000000000e+00,0.000000000000000e+00
	1.804804466993788e-05,-3.392928052693798e-15
	9.767524618568226e-26,1.530446603044002e-14
	1.804804440933786e-13,-1.011311754247806e-15
	-1.804804485041833e-05,-1.090022622349841e-14
	-1.804804466993788e-05,3.392928052693798e-15
	-9.767524618568226e-26,-1.530446603044002e-14
	-1.804804466993788e-05,3.392928052693798e-15
37		2.344228815319919e+00,0.000000000000000e+00
	-1.804804466993788e-01,3.471959499634348e-11
	1.000000000000000e+00,0.000000000000000e+00
	0.000000000000000e+00,0.000000000000000e+00
	1.804804466993788e-05,-3.471959499634349e-15
	1.022785387189276e-25,1.566095283954812e-14
	1.804804440933786e-13,-1.034868231132933e-15
	-1.804804485041833e-05,-1.115412510878083e-14
	-1.804804466993788e-05,3.471959499634349e-15
	-1.022785387189276e-25,-1.566095283954812e-14
	-1.804804466993788e-05,3.471959499634349e-15
38		2.398832919019488e+00,0.000000000000000e+00
	-1.804804466993788e-01,3.552831825458422e-11
	1.000000000000000e+00,0.000000000000000e+00
	0.000000000000000e+00,0.000000000000000e+00
