LTspice 24.0.9 for Windows
Circuit: * GA CMOS Amp | W=9.9149052252928e-06 L=9.909394922402605e-07 Vbias=1.5
Start Time: Sat Sep  6 22:07:13 2025
solver = Normal
Maximum thread count: 2
tnom = 27
temp = 27
method = modified trap
AsciiRawFile = 1
Direct Newton iteration for .op point succeeded.
Semiconductor Device Operating Points:
                        --- BSIM4 MOSFETS ---
Name:      m1
Model:      n
Id:      1.61e-04
Vgs:     1.50e+00
Vds:     1.93e-01
Vbs:     0.00e+00
Vth:     2.36e-01
Vdsat:   8.70e-01
Gm:     -1.68e-05
Gds:     7.45e-04
Gmb      7.77e-05
Cbd:     4.68e-15
Cbs:     7.93e-15


.measure op idd find i(vdd)
  Error: FIND can not be evaluated over an interval.

gain_db: MAX(db(v(out)/v(g)))=(29.1793dB,180°) FROM 1 TO 1e+09
gain_lin: MAX(mag(v(out)/v(g)))=(-2.32155dB,0°) FROM 1 TO 1e+09

Measurement "fc" FAIL'ed

Total elapsed time: 0.664 seconds.

