LTspice 24.0.9 for Windows
Circuit: * GA CMOS Amp | W=3.846945017702151e-05 L=6.994205494637503e-07 Vbias=0.8371824274134638
Start Time: Mon Sep  8 18:43:32 2025
solver = Normal
Maximum thread count: 2
tnom = 27
temp = 27
method = modified trap
AsciiRawFile = 1
Instance "m1": Length shorter than recommended for a level 3 MOSFET.
Direct Newton iteration for .op point succeeded.
Semiconductor Device Operating Points:
                        --- MOSFET Transistors ---
Name:          m1
Model:        n_1u
Id:          5.66e-05
Vgs:         8.37e-01
Vds:         1.23e+00
Vbs:         0.00e+00
Vth:         7.73e-01
Vdsat:       9.93e-02
Gm:          8.90e-04
Gds:         1.16e-05
Gmb:         1.76e-04
Cbd:         0.00e+00
Cbs:         0.00e+00
Cgsov:       7.69e-15
Cgdov:       7.69e-15
Cgbov:       4.99e-17
Cgs:         2.21e-14
Cgd:         0.00e+00
Cgb:         0.00e+00



gain_db: MAX(db(v(out)/v(g)))=(30.2929dB,56.542°) FROM 1 TO 1e+09
gain_lin: MAX(mag(v(out)/v(g)))=(18.0324dB,0°) FROM 1 TO 1e+09

Measurement "fc" FAIL'ed

Total elapsed time: 0.438 seconds.

