LTspice 24.0.9 for Windows
Circuit: * GA CMOS Amp | W=1.4529457657603664e-05 L=9.81230286273689e-07 Vbias=0.8765304559112707
Start Time: Mon Sep  8 18:45:45 2025
solver = Normal
Maximum thread count: 2
tnom = 27
temp = 27
method = modified trap
AsciiRawFile = 1
Instance "m1": Length shorter than recommended for a level 3 MOSFET.
Direct Newton iteration for .op point succeeded.
Semiconductor Device Operating Points:
                        --- MOSFET Transistors ---
Name:          m1
Model:        n_1u
Id:          1.34e-05
Vgs:         8.77e-01
Vds:         1.67e+00
Vbs:         0.00e+00
Vth:         8.14e-01
Vdsat:       9.93e-02
Gm:          2.17e-04
Gds:         1.23e-06
Gmb:         5.37e-05
Cbd:         0.00e+00
Cbs:         0.00e+00
Cgsov:       2.91e-15
Cgdov:       2.91e-15
Cgbov:       7.81e-17
Cgs:         1.31e-14
Cgd:         0.00e+00
Cgb:         0.00e+00



gain_db: MAX(db(v(out)/v(g)))=(28.9675dB,76.368°) FROM 1 TO 1e+09
gain_lin: MAX(mag(v(out)/v(g)))=(6.61766dB,0°) FROM 1 TO 1e+09

Measurement "fc" FAIL'ed

Total elapsed time: 0.471 seconds.

