LTspice 24.0.9 for Windows
Circuit: * GA CMOS Amp | W=2.888139054222735e-06 L=4.1133476727911456e-07 Vbias=1.1277152267258972
Start Time: Sat Sep  6 22:33:50 2025
solver = Normal
Maximum thread count: 2
tnom = 27
temp = 27
method = modified trap
AsciiRawFile = 1
Direct Newton iteration for .op point succeeded.
Semiconductor Device Operating Points:
                        --- BSIM4 MOSFETS ---
Name:      m1
Model:      n
Id:      1.51e-04
Vgs:     1.13e+00
Vds:     2.89e-01
Vbs:     0.00e+00
Vth:     2.57e-01
Vdsat:   6.20e-01
Gm:      4.47e-05
Gds:     3.65e-04
Gmb      9.70e-05
Cbd:     1.33e-15
Cbs:     2.31e-15


.measure op idd find i(vdd)
  Error: FIND can not be evaluated over an interval.

gain_db: MAX(db(v(out)/v(g)))=(30.6506dB,126.809°) FROM 1 TO 1e+09
gain_lin: MAX(mag(v(out)/v(g)))=(-10.94dB,0°) FROM 1 TO 1e+09

Measurement "fc" FAIL'ed

Total elapsed time: 1.808 seconds.

