Title: * GA CMOS Amp | W=2.297812241985333e-06 L=5.021352701916061e-07 Vbias=1.0204085993955212
Date: Mon Sep  8 18:43:23 2025
Plotname: AC Analysis
Flags: complex forward log
No. Variables: 11
No. Points:          901
Offset:    0.0000000000000000e+00
Command: Linear Technology Corporation LTspice
Variables:
	0	frequency	frequency
	1	V(out)	voltage
	2	V(g)	voltage
	3	V(vdd)	voltage
	4	Id(M1)	device_current
	5	Ig(M1)	device_current
	6	Ib(M1)	device_current
	7	Is(M1)	device_current
	8	I(Rload)	device_current
	9	I(Vg)	device_current
	10	I(Vdd)	device_current
Values:
0		1.000000000000000e+00,0.000000000000000e+00
	-1.227578588778937e+00,5.508515690014228e-11
	1.000000000000000e+00,0.000000000000000e+00
	0.000000000000000e+00,0.000000000000000e+00
	1.227578588778937e-04,-5.508515690014228e-15
	1.590592732061683e-25,1.472775587699207e-14
	1.227578585658029e-12,-3.870823528857056e-16
	-1.227578601054723e-04,-8.832157834092137e-15
	-1.227578588778937e-04,5.508515690014228e-15
	-1.590592732061683e-25,-1.472775587699207e-14
	-1.227578588778937e-04,5.508515690014228e-15
1		1.023292992280754e+00,0.000000000000000e+00
	-1.227578588778937e+00,5.636825503460142e-11
	1.000000000000000e+00,0.000000000000000e+00
	0.000000000000000e+00,0.000000000000000e+00
	1.227578588778937e-04,-5.636825503460143e-15
	1.665555058064064e-25,1.507080938094768e-14
	1.227578585658029e-12,-3.960986591434900e-16
	-1.227578601054723e-04,-9.037885218344046e-15
	-1.227578588778937e-04,5.636825503460142e-15
	-1.665555058064064e-25,-1.507080938094768e-14
	-1.227578588778937e-04,5.636825503460142e-15
2		1.047128548050899e+00,0.000000000000000e+00
	-1.227578588778937e+00,5.768124036400197e-11
	1.000000000000000e+00,0.000000000000000e+00
	0.000000000000000e+00,0.000000000000000e+00
	1.227578588778937e-04,-5.768124036400198e-15
	1.744050249649454e-25,1.542185362752281e-14
	1.227578585658029e-12,-4.053249821533338e-16
	-1.227578601054723e-04,-9.248404608969276e-15
	-1.227578588778937e-04,5.768124036400197e-15
	-1.744050249649454e-25,-1.542185362752281e-14
	-1.227578588778937e-04,5.768124036400197e-15
3		1.071519305237606e+00,0.000000000000000e+00
	-1.227578588778937e+00,5.902480905054499e-11
	1.000000000000000e+00,0.000000000000000e+00
	0.000000000000000e+00,0.000000000000000e+00
	1.227578588778937e-04,-5.902480905054499e-15
	1.826244805643242e-25,1.578107474502362e-14
	1.227578585658029e-12,-4.147662138338310e-16
	-1.227578601054723e-04,-9.463827626135287e-15
	-1.227578588778937e-04,5.902480905054499e-15
	-1.826244805643242e-25,-1.578107474502361e-14
	-1.227578588778937e-04,5.902480905054499e-15
4		1.096478196143185e+00,0.000000000000000e+00
	-1.227578588778937e+00,6.039967347213231e-11
	1.000000000000000e+00,0.000000000000000e+00
	0.000000000000000e+00,0.000000000000000e+00
	1.227578588778937e-04,-6.039967347213230e-15
	1.912313071718704e-25,1.614866319724145e-14
	1.227578585658029e-12,-4.244273600509787e-16
	-1.227578601054723e-04,-9.684268489977242e-15
	-1.227578588778937e-04,6.039967347213231e-15
	-1.912313071718704e-25,-1.614866319724145e-14
	-1.227578588778937e-04,6.039967347213231e-15
5		1.122018454301963e+00,0.000000000000000e+00
	-1.227578588778937e+00,6.180656260007877e-11
	1.000000000000000e+00,0.000000000000000e+00
	0.000000000000000e+00,0.000000000000000e+00
	1.227578588778937e-04,-6.180656260007876e-15
	2.002437610207563e-25,1.652481388443930e-14
	1.227578585658029e-12,-4.343135432723882e-16
	-1.227578601054723e-04,-9.909844081159034e-15
	-1.227578588778937e-04,6.180656260007877e-15
	-2.002437610207563e-25,-1.652481388443930e-14
	-1.227578588778937e-04,6.180656260007877e-15
6		1.148153621496882e+00,0.000000000000000e+00
	-1.227578588778937e+00,6.324622238562234e-11
	1.000000000000000e+00,0.000000000000000e+00
	0.000000000000000e+00,0.000000000000000e+00
	1.227578588778937e-04,-6.324622238562234e-15
	2.096809587339158e-25,1.690972624669044e-14
	1.227578585658029e-12,-4.444300052832618e-16
	-1.227578601054723e-04,-1.014067400284495e-14
	-1.227578588778937e-04,6.324622238562234e-15
	-2.096809587339158e-25,-1.690972624669044e-14
	-1.227578588778937e-04,6.324622238562234e-15
7		1.174897554939529e+00,0.000000000000000e+00
	-1.227578588778937e+00,6.471941615543750e-11
	1.000000000000000e+00,0.000000000000000e+00
	0.000000000000000e+00,0.000000000000000e+00
	1.227578588778937e-04,-6.471941615543750e-15
	2.195629178729658e-25,1.730360436962427e-14
	1.227578585658029e-12,-4.547821099656588e-16
	-1.227578601054723e-04,-1.037688064411486e-14
	-1.227578588778937e-04,6.471941615543750e-15
	-2.195629178729658e-25,-1.730360436962426e-14
	-1.227578588778937e-04,6.471941615543750e-15
8		1.202264434617413e+00,0.000000000000000e+00
	-1.227578588778937e+00,6.622692501636103e-11
	1.000000000000000e+00,0.000000000000000e+00
	0.000000000000000e+00,0.000000000000000e+00
	1.227578588778937e-04,-6.622692501636103e-15
	2.299105993981377e-25,1.770665709263515e-14
	1.227578585658029e-12,-4.653753461425141e-16
	-1.227578601054723e-04,-1.061858924485653e-14
	-1.227578588778937e-04,6.622692501636103e-15
	-2.299105993981377e-25,-1.770665709263515e-14
	-1.227578588778937e-04,6.622692501636103e-15
9		1.230268770812381e+00,0.000000000000000e+00
	-1.227578588778937e+00,6.776954826954519e-11
	1.000000000000000e+00,0.000000000000000e+00
	0.000000000000000e+00,0.000000000000000e+00
	1.227578588778937e-04,-6.776954826954520e-15
	2.407459521292838e-25,1.811909811961186e-14
	1.227578585658029e-12,-4.762153304878644e-16
	-1.227578601054723e-04,-1.086592796216947e-14
	-1.227578588778937e-04,6.776954826954519e-15
	-2.407459521292838e-25,-1.811909811961186e-14
	-1.227578588778937e-04,6.776954826954519e-15
10		1.258925411794167e+00,0.000000000000000e+00
	-1.227578588778937e+00,6.934810383425791e-11
	1.000000000000000e+00,0.000000000000000e+00
	0.000000000000000e+00,0.000000000000000e+00
	1.227578588778937e-04,-6.934810383425792e-15
	2.520919593022684e-25,1.854114613224621e-14
	1.227578585658029e-12,-4.873078105048939e-16
	-1.227578601054723e-04,-1.111902793831552e-14
	-1.227578588778937e-04,6.934810383425792e-15
	-2.520919593022684e-25,-1.854114613224620e-14
	-1.227578588778937e-04,6.934810383425792e-15
11		1.288249551693134e+00,0.000000000000000e+00
	-1.227578588778937e+00,7.096342868155422e-11
	1.000000000000000e+00,0.000000000000000e+00
	0.000000000000000e+00,0.000000000000000e+00
	1.227578588778937e-04,-7.096342868155422e-15
	2.639726873194908e-25,1.897302490598095e-14
	1.227578585658029e-12,-4.986586675733372e-16
	-1.227578601054723e-04,-1.137802337025219e-14
	-1.227578588778937e-04,7.096342868155422e-15
	-2.639726873194908e-25,-1.897302490598095e-14
	-1.227578588778937e-04,7.096342868155422e-15
12		1.318256738556407e+00,0.000000000000000e+00
	-1.227578588778937e+00,7.261637927804951e-11
	1.000000000000000e+00,0.000000000000000e+00
	0.000000000000000e+00,0.000000000000000e+00
	1.227578588778937e-04,-7.261637927804953e-15
	2.764133367979525e-25,1.941496342865852e-14
	1.227578585658029e-12,-5.102739200678503e-16
	-1.227578601054723e-04,-1.164305158078572e-14
	-1.227578588778937e-04,7.261637927804951e-15
	-2.764133367979525e-25,-1.941496342865852e-14
	-1.227578588778937e-04,7.261637927804951e-15
13		1.348962882591653e+00,0.000000000000000e+00
	-1.227578588778937e+00,7.430783204002943e-11
	1.000000000000000e+00,0.000000000000000e+00
	0.000000000000000e+00,0.000000000000000e+00
	1.227578588778937e-04,-7.430783204002943e-15
	2.894402960231443e-25,1.986719602193339e-14
	1.227578585658029e-12,-5.221597265490647e-16
	-1.227578601054723e-04,-1.191425309138138e-14
	-1.227578588778937e-04,7.430783204002943e-15
	-2.894402960231443e-25,-1.986719602193339e-14
	-1.227578588778937e-04,7.430783204002943e-15
14		1.380384264602885e+00,0.000000000000000e+00
	-1.227578588778937e+00,7.603868379813742e-11
	1.000000000000000e+00,0.000000000000000e+00
	0.000000000000000e+00,0.000000000000000e+00
	1.227578588778937e-04,-7.603868379813743e-15
	3.030811969221377e-25,2.032996246551251e-14
	1.227578585658029e-12,-5.343223890288901e-16
	-1.227578601054723e-04,-1.219177169666988e-14
	-1.227578588778937e-04,7.603868379813742e-15
	-3.030811969221377e-25,-2.032996246551251e-14
	-1.227578588778937e-04,7.603868379813742e-15
15		1.412537544622754e+00,0.000000000000000e+00
	-1.227578588778937e+00,7.780985227288614e-11
	1.000000000000000e+00,0.000000000000000e+00
	0.000000000000000e+00,0.000000000000000e+00
	1.227578588778937e-04,-7.780985227288616e-15
	3.173649736746068e-25,2.080350812428972e-14
	1.227578585658029e-12,-5.467683563119738e-16
	-1.227578601054723e-04,-1.247575454068913e-14
	-1.227578588778937e-04,7.780985227288614e-15
	-3.173649736746068e-25,-2.080350812428971e-14
	-1.227578588778937e-04,7.780985227288614e-15
16		1.445439770745927e+00,0.000000000000000e+00
	-1.227578588778937e+00,7.962227656124507e-11
	1.000000000000000e+00,0.000000000000000e+00
	0.000000000000000e+00,0.000000000000000e+00
	1.227578588778937e-04,-7.962227656124507e-15
	3.323219240861028e-25,2.128808407844140e-14
	1.227578585658029e-12,-5.595042274149144e-16
	-1.227578601054723e-04,-1.276635219490198e-14
	-1.227578588778937e-04,7.962227656124507e-15
	-3.323219240861028e-25,-2.128808407844139e-14
	-1.227578588778937e-04,7.962227656124507e-15
17		1.479108388168207e+00,0.000000000000000e+00
	-1.227578588778937e+00,8.147691763456222e-11
	1.000000000000000e+00,0.000000000000000e+00
	0.000000000000000e+00,0.000000000000000e+00
	1.227578588778937e-04,-8.147691763456225e-15
	3.479837738537621e-25,2.178394725655258e-14
	1.227578585658029e-12,-5.725367550651341e-16
	-1.227578601054723e-04,-1.306371873803122e-14
	-1.227578588778937e-04,8.147691763456223e-15
	-3.479837738537621e-25,-2.178394725655257e-14
	-1.227578588778937e-04,8.147691763456223e-15
18		1.513561248436208e+00,0.000000000000000e+00
	-1.227578588778937e+00,8.337475884808371e-11
	1.000000000000000e+00,0.000000000000000e+00
	0.000000000000000e+00,0.000000000000000e+00
	1.227578588778937e-04,-8.337475884808373e-15
	3.643837438607624e-25,2.229136057184381e-14
	1.227578585658029e-12,-5.858728492813150e-16
	-1.227578601054723e-04,-1.336801183775412e-14
	-1.227578588778937e-04,8.337475884808371e-15
	-3.643837438607624e-25,-2.229136057184381e-14
	-1.227578588778937e-04,8.337475884808371e-15
19		1.548816618912481e+00,0.000000000000000e+00
	-1.227578588778937e+00,8.531680646234188e-11
	1.000000000000000e+00,0.000000000000000e+00
	0.000000000000000e+00,0.000000000000000e+00
	1.227578588778937e-04,-8.531680646234188e-15
	3.815566206422711e-25,2.281059306157128e-14
	1.227578585658029e-12,-5.995195810371281e-16
	-1.227578601054723e-04,-1.367939283429996e-14
	-1.227578588778937e-04,8.531680646234188e-15
	-3.815566206422711e-25,-2.281059306157128e-14
	-1.227578588778937e-04,8.531680646234188e-15
20		1.584893192461113e+00,0.000000000000000e+00
	-1.227578588778937e+00,8.730409017668779e-11
	1.000000000000000e+00,0.000000000000000e+00
	0.000000000000000e+00,0.000000000000000e+00
	1.227578588778937e-04,-8.730409017668782e-15
	3.995388301723491e-25,2.334192002967388e-14
	1.227578585658029e-12,-6.134841860103887e-16
	-1.227578601054723e-04,-1.399802682599471e-14
	-1.227578588778937e-04,8.730409017668779e-15
	-3.995388301723491e-25,-2.334192002967388e-14
	-1.227578588778937e-04,8.730409017668779e-15
21		1.621810097358929e+00,0.000000000000000e+00
	-1.227578588778937e+00,8.933766367525164e-11
	1.000000000000000e+00,0.000000000000000e+00
	0.000000000000000e+00,0.000000000000000e+00
	1.227578588778937e-04,-8.933766367525165e-15
	4.183685151283268e-25,2.388562319274305e-14
	1.227578585658029e-12,-6.277740684194931e-16
	-1.227578601054723e-04,-1.432408275679839e-14
	-1.227578588778937e-04,8.933766367525165e-15
	-4.183685151283268e-25,-2.388562319274305e-14
	-1.227578588778937e-04,8.933766367525165e-15
22		1.659586907437560e+00,0.000000000000000e+00
	-1.227578588778937e+00,9.141860518561989e-11
	1.000000000000000e+00,0.000000000000000e+00
	0.000000000000000e+00,0.000000000000000e+00
	1.227578588778937e-04,-9.141860518561989e-15
	4.380856157965358e-25,2.444199082939262e-14
	1.227578585658029e-12,-6.423968049492472e-16
	-1.227578601054723e-04,-1.465773350588138e-14
	-1.227578588778937e-04,9.141860518561989e-15
	-4.380856157965358e-25,-2.444199082939262e-14
	-1.227578588778937e-04,9.141860518561989e-15
23		1.698243652461743e+00,0.000000000000000e+00
	-1.227578588778937e+00,9.354801805052584e-11
	1.000000000000000e+00,0.000000000000000e+00
	0.000000000000000e+00,0.000000000000000e+00
	1.227578588778937e-04,-9.354801805052586e-15
	4.587319547910106e-25,2.501131793310793e-14
	1.227578585658029e-12,-6.573601487681078e-16
	-1.227578601054723e-04,-1.499915597928723e-14
	-1.227578588778937e-04,9.354801805052584e-15
	-4.587319547910106e-25,-2.501131793310792e-14
	-1.227578588778937e-04,9.354801805052584e-15
24		1.737800828749374e+00,0.000000000000000e+00
	-1.227578588778937e+00,9.572703131285657e-11
	1.000000000000000e+00,0.000000000000000e+00
	0.000000000000000e+00,0.000000000000000e+00
	1.227578588778937e-04,-9.572703131285658e-15
	4.803513257648617e-25,2.559390636865529e-14
	1.227578585658029e-12,-6.726720336390425e-16
	-1.227578601054723e-04,-1.534853120373059e-14
	-1.227578588778937e-04,9.572703131285658e-15
	-4.803513257648617e-25,-2.559390636865529e-14
	-1.227578588778937e-04,9.572703131285658e-15
25		1.778279410038922e+00,0.000000000000000e+00
	-1.227578588778937e+00,9.795680031428645e-11
	1.000000000000000e+00,0.000000000000000e+00
	0.000000000000000e+00,0.000000000000000e+00
	1.227578588778937e-04,-9.795680031428646e-15
	5.029895863024843e-25,2.619006503213472e-14
	1.227578585658029e-12,-6.883405781260739e-16
	-1.227578601054723e-04,-1.570604442258000e-14
	-1.227578588778937e-04,9.795680031428646e-15
	-5.029895863024843e-25,-2.619006503213472e-14
	-1.227578588778937e-04,9.795680031428646e-15
26		1.819700858609982e+00,0.000000000000000e+00
	-1.227578588778937e+00,1.002385073078545e-10
	1.000000000000000e+00,0.000000000000000e+00
	0.000000000000000e+00,0.000000000000000e+00
	1.227578588778937e-04,-1.002385073078545e-14
	5.266947551896428e-25,2.680011001476068e-14
	1.227578585658029e-12,-7.043740898988942e-16
	-1.227578601054723e-04,-1.607188519407634e-14
	-1.227578588778937e-04,1.002385073078545e-14
	-5.266947551896428e-25,-2.680011001476068e-14
	-1.227578588778937e-04,1.002385073078545e-14
27		1.862087136662866e+00,0.000000000000000e+00
	-1.227578588778937e+00,1.025733620848107e-10
	1.000000000000000e+00,0.000000000000000e+00
	0.000000000000000e+00,0.000000000000000e+00
	1.227578588778937e-04,-1.025733620848107e-14
	5.515171142677547e-25,2.742436477045786e-14
	1.227578585658029e-12,-7.207810701376709e-16
	-1.227578601054723e-04,-1.644624749183913e-14
	-1.227578588778937e-04,1.025733620848107e-14
	-5.515171142677547e-25,-2.742436477045786e-14
	-1.227578588778937e-04,1.025733620848107e-14
28		1.905460717963246e+00,0.000000000000000e+00
	-1.227578588778937e+00,1.049626026160631e-10
	1.000000000000000e+00,0.000000000000000e+00
	0.000000000000000e+00,0.000000000000000e+00
	1.227578588778937e-04,-1.049626026160632e-14
	5.775093150884159e-25,2.806316028736073e-14
	1.227578585658029e-12,-7.375702180405017e-16
	-1.227578601054723e-04,-1.682932980771391e-14
	-1.227578588778937e-04,1.049626026160631e-14
	-5.775093150884159e-25,-2.806316028736072e-14
	-1.227578588778937e-04,1.049626026160631e-14
29		1.949844599758044e+00,0.000000000000000e+00
	-1.227578588778937e+00,1.074074957085670e-10
	1.000000000000000e+00,0.000000000000000e+00
	0.000000000000000e+00,0.000000000000000e+00
	1.227578588778937e-04,-1.074074957085670e-14
	6.047264905944026e-25,2.871683526330779e-14
	1.227578585658029e-12,-7.547504354358368e-16
	-1.227578601054723e-04,-1.722133525701525e-14
	-1.227578588778937e-04,1.074074957085670e-14
	-6.047264905944026e-25,-2.871683526330778e-14
	-1.227578588778937e-04,1.074074957085670e-14
30		1.995262314968878e+00,0.000000000000000e+00
	-1.227578588778937e+00,1.099093376770017e-10
	1.000000000000000e+00,0.000000000000000e+00
	0.000000000000000e+00,0.000000000000000e+00
	1.227578588778937e-04,-1.099093376770018e-14
	6.332263720640326e-25,2.938573628542370e-14
	1.227578585658029e-12,-7.723308315023394e-16
	-1.227578601054723e-04,-1.762247168622119e-14
	-1.227578588778937e-04,1.099093376770018e-14
	-6.332263720640326e-25,-2.938573628542370e-14
	-1.227578588778937e-04,1.099093376770018e-14
31		2.041737944669527e+00,0.000000000000000e+00
	-1.227578588778937e+00,1.124694550310949e-10
	1.000000000000000e+00,0.000000000000000e+00
	0.000000000000000e+00,0.000000000000000e+00
	1.227578588778937e-04,-1.124694550310950e-14
	6.630694115669490e-25,3.007021801388435e-14
	1.227578585658029e-12,-7.903207275987086e-16
	-1.227578601054723e-04,-1.803295178317614e-14
	-1.227578588778937e-04,1.124694550310949e-14
	-6.630694115669490e-25,-3.007021801388434e-14
	-1.227578588778937e-04,1.124694550310949e-14
32		2.089296130854037e+00,0.000000000000000e+00
	-1.227578588778937e+00,1.150892051789549e-10
	1.000000000000000e+00,0.000000000000000e+00
	0.000000000000000e+00,0.000000000000000e+00
	1.227578588778937e-04,-1.150892051789549e-14
	6.943189101910637e-25,3.077064336996235e-14
	1.227578585658029e-12,-8.087296622059833e-16
	-1.227578601054723e-04,-1.845299318986088e-14
	-1.227578588778937e-04,1.150892051789549e-14
	-6.943189101910637e-25,-3.077064336996234e-14
	-1.227578588778937e-04,1.150892051789549e-14
33		2.137962089502230e+00,0.000000000000000e+00
	-1.227578588778937e+00,1.177699771467864e-10
	1.000000000000000e+00,0.000000000000000e+00
	0.000000000000000e+00,0.000000000000000e+00
	1.227578588778937e-04,-1.177699771467864e-14
	7.270411523126512e-25,3.148738372845272e-14
	1.227578585658029e-12,-8.275673959849652e-16
	-1.227578601054723e-04,-1.888281861778911e-14
	-1.227578588778937e-04,1.177699771467864e-14
	-7.270411523126512e-25,-3.148738372845271e-14
	-1.227578588778937e-04,1.177699771467864e-14
34		2.187761623949550e+00,0.000000000000000e+00
	-1.227578588778937e+00,1.205131923153710e-10
	1.000000000000000e+00,0.000000000000000e+00
	0.000000000000000e+00,0.000000000000000e+00
	1.227578588778937e-04,-1.205131923153711e-14
	7.613055461943993e-25,3.222081911458071e-14
	1.227578585658029e-12,-8.468439169514528e-16
	-1.227578601054723e-04,-1.932265596609215e-14
	-1.227578588778937e-04,1.205131923153711e-14
	-7.613055461943993e-25,-3.222081911458071e-14
	-1.227578588778937e-04,1.205131923153711e-14
35		2.238721138568337e+00,0.000000000000000e+00
	-1.227578588778937e+00,1.233203051737020e-10
	1.000000000000000e+00,0.000000000000000e+00
	0.000000000000000e+00,0.000000000000000e+00
	1.227578588778937e-04,-1.233203051737020e-14
	7.971847712096383e-25,3.297133840549621e-14
	1.227578585658029e-12,-8.665694457720032e-16
	-1.227578601054723e-04,-1.977273844235400e-14
	-1.227578588778937e-04,1.233203051737020e-14
	-7.971847712096383e-25,-3.297133840549621e-14
	-1.227578588778937e-04,1.233203051737020e-14
36		2.290867652767770e+00,0.000000000000000e+00
	-1.227578588778937e+00,1.261928040901733e-10
	1.000000000000000e+00,0.000000000000000e+00
	0.000000000000000e+00,0.000000000000000e+00
	1.227578588778937e-04,-1.261928040901733e-14
	8.347549320050374e-25,3.373933953646157e-14
	1.227578585658029e-12,-8.867544411831056e-16
	-1.227578601054723e-04,-2.023330468626113e-14
	-1.227578588778937e-04,1.261928040901733e-14
	-8.347549320050374e-25,-3.373933953646156e-14
	-1.227578588778937e-04,1.261928040901733e-14
37		2.344228815319919e+00,0.000000000000000e+00
	-1.227578588778937e+00,1.291322121017324e-10
	1.000000000000000e+00,0.000000000000000e+00
	0.000000000000000e+00,0.000000000000000e+00
	1.227578588778937e-04,-1.291322121017324e-14
	8.740957199287617e-25,3.452522971184210e-14
	1.227578585658029e-12,-9.074096055365102e-16
	-1.227578601054723e-04,-2.070459889613235e-14
	-1.227578588778937e-04,1.291322121017324e-14
	-8.740957199287617e-25,-3.452522971184210e-14
	-1.227578588778937e-04,1.291322121017324e-14
38		2.398832919019488e+00,0.000000000000000e+00
	-1.227578588778937e+00,1.321400877214148e-10
	1.000000000000000e+00,0.000000000000000e+00
