Title: * GA CMOS Amp | W=5e-05 L=6.924844846856651e-07 Vbias=1.2297938829553403
Date: Mon Sep  8 18:45:07 2025
Plotname: AC Analysis
Flags: complex forward log
No. Variables: 11
No. Points:          901
Offset:    0.0000000000000000e+00
Command: Linear Technology Corporation LTspice
Variables:
	0	frequency	frequency
	1	V(out)	voltage
	2	V(g)	voltage
	3	V(vdd)	voltage
	4	Id(M1)	device_current
	5	Ig(M1)	device_current
	6	Ib(M1)	device_current
	7	Is(M1)	device_current
	8	I(Rload)	device_current
	9	I(Vg)	device_current
	10	I(Vdd)	device_current
Values:
0		1.000000000000000e+00,0.000000000000000e+00
	-6.500062803599184e-02,4.105517066049873e-11
	1.000000000000000e+00,0.000000000000000e+00
	0.000000000000000e+00,0.000000000000000e+00
	6.500062803599231e-06,-4.105517066049860e-15
	8.014236452542407e-24,4.057799111494331e-13
	7.231276124772257e-14,4.230054316480975e-16
	-6.500062875911992e-06,-4.020973995150313e-13
	-6.500062803599184e-06,4.105517066049873e-15
	-8.014236452542407e-24,-4.057799111494331e-13
	-6.500062803599184e-06,4.105517066049873e-15
1		1.023292992280754e+00,0.000000000000000e+00
	-6.500062803599184e-02,4.201146843377877e-11
	1.000000000000000e+00,0.000000000000000e+00
	0.000000000000000e+00,0.000000000000000e+00
	6.500062803599231e-06,-4.201146843377889e-15
	8.391935780287322e-24,4.152317394875219e-13
	7.231276124772257e-14,4.328584939022606e-16
	-6.500062875911992e-06,-4.114634511380463e-13
	-6.500062803599184e-06,4.201146843377877e-15
	-8.391935780287322e-24,-4.152317394875220e-13
	-6.500062803599184e-06,4.201146843377877e-15
2		1.047128548050899e+00,0.000000000000000e+00
	-6.500062803599184e-02,4.299004124370991e-11
	1.000000000000000e+00,0.000000000000000e+00
	0.000000000000000e+00,0.000000000000000e+00
	6.500062803599231e-06,-4.299004124371022e-15
	8.787435528948653e-24,4.249037291901288e-13
	7.231276124772257e-14,4.429410634593695e-16
	-6.500062875911992e-06,-4.210476661292171e-13
	-6.500062803599184e-06,4.299004124370991e-15
	-8.787435528948653e-24,-4.249037291901289e-13
	-6.500062803599184e-06,4.299004124370991e-15
3		1.071519305237606e+00,0.000000000000000e+00
	-6.500062803599184e-02,4.399140794254895e-11
	1.000000000000000e+00,0.000000000000000e+00
	0.000000000000000e+00,0.000000000000000e+00
	6.500062803599231e-06,-4.399140794254911e-15
	9.201574606518892e-24,4.348010084742181e-13
	7.231276124772257e-14,4.532584862313394e-16
	-6.500062875911992e-06,-4.308551261661945e-13
	-6.500062803599184e-06,4.399140794254895e-15
	-9.201574606518892e-24,-4.348010084742181e-13
	-6.500062803599184e-06,4.399140794254895e-15
4		1.096478196143185e+00,0.000000000000000e+00
	-6.500062803599184e-02,4.501609946817424e-11
	1.000000000000000e+00,0.000000000000000e+00
	0.000000000000000e+00,0.000000000000000e+00
	6.500062803599231e-06,-4.501609946817428e-15
	9.635231457506150e-24,4.449288250082721e-13
	7.231276124772257e-14,4.638162326522210e-16
	-6.500062875911992e-06,-4.408910312941069e-13
	-6.500062803599184e-06,4.501609946817424e-15
	-9.635231457506150e-24,-4.449288250082722e-13
	-6.500062803599184e-06,4.501609946817424e-15
5		1.122018454301963e+00,0.000000000000000e+00
	-6.500062803599184e-02,4.606465912559609e-11
	1.000000000000000e+00,0.000000000000000e+00
	0.000000000000000e+00,0.000000000000000e+00
	6.500062803599231e-06,-4.606465912559613e-15
	1.008932592623277e-23,4.552925486946749e-13
	7.231276124772257e-14,4.746199005790884e-16
	-6.500062875911992e-06,-4.511607026826944e-13
	-6.500062803599184e-06,4.606465912559609e-15
	-1.008932592623277e-23,-4.552925486946749e-13
	-6.500062803599184e-06,4.606465912559609e-15
6		1.148153621496882e+00,0.000000000000000e+00
	-6.500062803599184e-02,4.713764287502417e-11
	1.000000000000000e+00,0.000000000000000e+00
	0.000000000000000e+00,0.000000000000000e+00
	6.500062803599231e-06,-4.713764287502405e-15
	1.056482120794842e-23,4.658976745169047e-13
	7.231276124772257e-14,4.856752182596203e-16
	-6.500062875911992e-06,-4.616695854476620e-13
	-6.500062803599184e-06,4.713764287502417e-15
	-1.056482120794842e-23,-4.658976745169048e-13
	-6.500062803599184e-06,4.713764287502417e-15
7		1.174897554939529e+00,0.000000000000000e+00
	-6.500062803599184e-02,4.823561962664505e-11
	1.000000000000000e+00,0.000000000000000e+00
	0.000000000000000e+00,0.000000000000000e+00
	6.500062803599231e-06,-4.823561962664514e-15
	1.106272589189637e-23,4.767498254530483e-13
	7.231276124772257e-14,4.969880473695297e-16
	-6.500062875911992e-06,-4.724232515377533e-13
	-6.500062803599184e-06,4.823561962664505e-15
	-1.106272589189637e-23,-4.767498254530484e-13
	-6.500062803599184e-06,4.823561962664505e-15
8		1.202264434617413e+00,0.000000000000000e+00
	-6.500062803599184e-02,4.935917154226589e-11
	1.000000000000000e+00,0.000000000000000e+00
	0.000000000000000e+00,0.000000000000000e+00
	6.500062803599231e-06,-4.935917154226572e-15
	1.158409610066655e-23,4.878547554571771e-13
	7.231276124772257e-14,5.085643861203731e-16
	-6.500062875911992e-06,-4.834274026890709e-13
	-6.500062803599184e-06,4.935917154226589e-15
	-1.158409610066655e-23,-4.878547554571772e-13
	-6.500062803599184e-06,4.935917154226589e-15
9		1.230268770812381e+00,0.000000000000000e+00
	-6.500062803599184e-02,5.050889434398430e-11
	1.000000000000000e+00,0.000000000000000e+00
	0.000000000000000e+00,0.000000000000000e+00
	6.500062803599231e-06,-5.050889434398487e-15
	1.213003773037304e-23,4.992183525101703e-13
	7.231276124772257e-14,5.204103724405913e-16
	-6.500062875911992e-06,-4.946878734482124e-13
	-6.500062803599184e-06,5.050889434398430e-15
	-1.213003773037304e-23,-4.992183525101703e-13
	-6.500062803599184e-06,5.050889434398430e-15
10		1.258925411794167e+00,0.000000000000000e+00
	-6.500062803599184e-02,5.168539763004815e-11
	1.000000000000000e+00,0.000000000000000e+00
	0.000000000000000e+00,0.000000000000000e+00
	6.500062803599231e-06,-5.168539763004831e-15
	1.270170879640816e-23,5.108466417416005e-13
	7.231276124772257e-14,5.325322872286957e-16
	-6.500062875911992e-06,-5.062106342658244e-13
	-6.500062803599184e-06,5.168539763004816e-15
	-1.270170879640816e-23,-5.108466417416006e-13
	-6.500062803599184e-06,5.168539763004816e-15
11		1.288249551693134e+00,0.000000000000000e+00
	-6.500062803599184e-02,5.288930519807259e-11
	1.000000000000000e+00,0.000000000000000e+00
	0.000000000000000e+00,0.000000000000000e+00
	6.500062803599231e-06,-5.288930519807283e-15
	1.330032188974822e-23,5.227457886243368e-13
	7.231276124772257e-14,5.449365576844072e-16
	-6.500062875911992e-06,-5.180017946622140e-13
	-6.500062803599184e-06,5.288930519807259e-15
	-1.330032188974822e-23,-5.227457886243369e-13
	-6.500062803599184e-06,5.288930519807259e-15
12		1.318256738556407e+00,0.000000000000000e+00
	-6.500062803599184e-02,5.412125537578574e-11
	1.000000000000000e+00,0.000000000000000e+00
	0.000000000000000e+00,0.000000000000000e+00
	6.500062803599231e-06,-5.412125537578580e-15
	1.392714674902164e-23,5.349221022435602e-13
	7.231276124772257e-14,5.576297607160810e-16
	-6.500062875911992e-06,-5.300676064666977e-13
	-6.500062803599184e-06,5.412125537578574e-15
	-1.392714674902164e-23,-5.349221022435603e-13
	-6.500062803599184e-06,5.412125537578574e-15
13		1.348962882591653e+00,0.000000000000000e+00
	-6.500062803599184e-02,5.538190135947864e-11
	1.000000000000000e+00,0.000000000000000e+00
	0.000000000000000e+00,0.000000000000000e+00
	6.500062803599231e-06,-5.538190135947850e-15
	1.458351295379484e-23,5.473820386419241e-13
	7.231276124772257e-14,5.706186264280521e-16
	-6.500062875911992e-06,-5.424144671324044e-13
	-6.500062803599184e-06,5.538190135947864e-15
	-1.458351295379484e-23,-5.473820386419243e-13
	-6.500062803599184e-06,5.538190135947864e-15
14		1.380384264602885e+00,0.000000000000000e+00
	-6.500062803599184e-02,5.667191156033846e-11
	1.000000000000000e+00,0.000000000000000e+00
	0.000000000000000e+00,0.000000000000000e+00
	6.500062803599231e-06,-5.667191156033857e-15
	1.527081274478868e-23,5.601322042426340e-13
	7.231276124772257e-14,5.839100416885588e-16
	-6.500062875911992e-06,-5.550489231282887e-13
	-6.500062803599184e-06,5.667191156033847e-15
	-1.527081274478868e-23,-5.601322042426341e-13
	-6.500062803599184e-06,5.667191156033847e-15
15		1.412537544622754e+00,0.000000000000000e+00
	-6.500062803599184e-02,5.799196995884900e-11
	1.000000000000000e+00,0.000000000000000e+00
	0.000000000000000e+00,0.000000000000000e+00
	6.500062803599231e-06,-5.799196995884920e-15
	1.599050397700774e-23,5.731793593522595e-13
	7.231276124772257e-14,5.975110537822823e-16
	-6.500062875911992e-06,-5.679776734101569e-13
	-6.500062803599184e-06,5.799196995884901e-15
	-1.599050397700774e-23,-5.731793593522596e-13
	-6.500062803599184e-06,5.799196995884901e-15
16		1.445439770745927e+00,0.000000000000000e+00
	-6.500062803599184e-02,5.934277646744619e-11
	1.000000000000000e+00,0.000000000000000e+00
	0.000000000000000e+00,0.000000000000000e+00
	6.500062803599231e-06,-5.934277646744659e-15
	1.674411321204624e-23,5.865304217451391e-13
	7.231276124772257e-14,6.114288741458364e-16
	-6.500062875911992e-06,-5.812075729725403e-13
	-6.500062803599184e-06,5.934277646744619e-15
	-1.674411321204624e-23,-5.865304217451393e-13
	-6.500062803599184e-06,5.934277646744619e-15
17		1.479108388168207e+00,0.000000000000000e+00
	-6.500062803599184e-02,6.072504730162093e-11
	1.000000000000000e+00,0.000000000000000e+00
	0.000000000000000e+00,0.000000000000000e+00
	6.500062803599231e-06,-6.072504730162128e-15
	1.753323895612986e-23,6.001924703312761e-13
	7.231276124772257e-14,6.256708821913574e-16
	-6.500062875911992e-06,-5.947456364833053e-13
	-6.500062803599184e-06,6.072504730162093e-15
	-1.753323895612986e-23,-6.001924703312762e-13
	-6.500062803599184e-06,6.072504730162093e-15
18		1.513561248436208e+00,0.000000000000000e+00
	-6.500062803599184e-02,6.213951535966602e-11
	1.000000000000000e+00,0.000000000000000e+00
	0.000000000000000e+00,0.000000000000000e+00
	6.500062803599231e-06,-6.213951535966596e-15
	1.835955505076173e-23,6.141727489096693e-13
	7.231276124772257e-14,6.402446292206680e-16
	-6.500062875911992e-06,-6.085990420029234e-13
	-6.500062803599184e-06,6.213951535966602e-15
	-1.835955505076173e-23,-6.141727489096694e-13
	-6.500062803599184e-06,6.213951535966602e-15
19		1.548816618912481e+00,0.000000000000000e+00
	-6.500062803599184e-02,6.358693061126850e-11
	1.000000000000000e+00,0.000000000000000e+00
	0.000000000000000e+00,0.000000000000000e+00
	6.500062803599231e-06,-6.358693061126862e-15
	1.922481422316469e-23,6.284786700090717e-13
	7.231276124772257e-14,6.551578424267836e-16
	-6.500062875911992e-06,-6.227751347903716e-13
	-6.500062803599184e-06,6.358693061126851e-15
	-1.922481422316469e-23,-6.284786700090719e-13
	-6.500062803599184e-06,6.358693061126851e-15
20		1.584893192461113e+00,0.000000000000000e+00
	-6.500062803599184e-02,6.506806049515364e-11
	1.000000000000000e+00,0.000000000000000e+00
	0.000000000000000e+00,0.000000000000000e+00
	6.500062803599231e-06,-6.506806049515344e-15
	2.013085180405073e-23,6.431178188182116e-13
	7.231276124772257e-14,6.704184289931112e-16
	-6.500062875911992e-06,-6.372814311976894e-13
	-6.500062803599184e-06,6.506806049515365e-15
	-2.013085180405073e-23,-6.431178188182117e-13
	-6.500062803599184e-06,6.506806049515365e-15
21		1.621810097358929e+00,0.000000000000000e+00
	-6.500062803599184e-02,6.658369032599090e-11
	1.000000000000000e+00,0.000000000000000e+00
	0.000000000000000e+00,0.000000000000000e+00
	6.500062803599231e-06,-6.658369032599068e-15
	2.107958962060347e-23,6.580979572075596e-13
	7.231276124772257e-14,6.860344802845853e-16
	-6.500062875911992e-06,-6.521256226552451e-13
	-6.500062803599184e-06,6.658369032599090e-15
	-2.107958962060347e-23,-6.580979572075598e-13
	-6.500062803599184e-06,6.658369032599090e-15
22		1.659586907437560e+00,0.000000000000000e+00
	-6.500062803599184e-02,6.813462371077832e-11
	1.000000000000000e+00,0.000000000000000e+00
	0.000000000000000e+00,0.000000000000000e+00
	6.500062803599231e-06,-6.813462371077891e-15
	2.207304007293132e-23,6.734270278447755e-13
	7.231276124772257e-14,7.020142761381628e-16
	-6.500062875911992e-06,-6.673155797498358e-13
	-6.500062803599184e-06,6.813462371077833e-15
	-2.207304007293132e-23,-6.734270278447756e-13
	-6.500062803599184e-06,6.813462371077833e-15
23		1.698243652461743e+00,0.000000000000000e+00
	-6.500062803599184e-02,6.972168297492556e-11
	1.000000000000000e+00,0.000000000000000e+00
	0.000000000000000e+00,0.000000000000000e+00
	6.500062803599231e-06,-6.972168297492633e-15
	2.311331040263789e-23,6.891131584060149e-13
	7.231276124772257e-14,7.183662892532309e-16
	-6.500062875911992e-06,-6.828593563977755e-13
	-6.500062803599184e-06,6.972168297492556e-15
	-2.311331040263789e-23,-6.891131584060151e-13
	-6.500062803599184e-06,6.972168297492556e-15
24		1.737800828749374e+00,0.000000000000000e+00
	-6.500062803599184e-02,7.134570959826169e-11
	1.000000000000000e+00,0.000000000000000e+00
	0.000000000000000e+00,0.000000000000000e+00
	6.500062803599231e-06,-7.134570959826186e-15
	2.420260716256396e-23,7.051646658853322e-13
	7.231276124772257e-14,7.350991896835964e-16
	-6.500062875911992e-06,-6.987651941151897e-13
	-6.500062803599184e-06,7.134570959826169e-15
	-2.420260716256396e-23,-7.051646658853324e-13
	-6.500062803599184e-06,7.134570959826169e-15
25		1.778279410038922e+00,0.000000000000000e+00
	-6.500062803599184e-02,7.300756466119892e-11
	1.000000000000000e+00,0.000000000000000e+00
	0.000000000000000e+00,0.000000000000000e+00
	6.500062803599231e-06,-7.300756466119980e-15
	2.534324089718190e-23,7.215900610044599e-13
	7.231276124772257e-14,7.522218494345373e-16
	-6.500062875911992e-06,-7.150415263877744e-13
	-6.500062803599184e-06,7.300756466119892e-15
	-2.534324089718190e-23,-7.215900610044601e-13
	-6.500062803599184e-06,7.300756466119892e-15
26		1.819700858609982e+00,0.000000000000000e+00
	-6.500062803599184e-02,7.470812930128889e-11
	1.000000000000000e+00,0.000000000000000e+00
	0.000000000000000e+00,0.000000000000000e+00
	6.500062803599231e-06,-7.470812930128902e-15
	2.653763104357026e-23,7.383980527253056e-13
	7.231276124772257e-14,7.697433471667366e-16
	-6.500062875911992e-06,-7.316969831423434e-13
	-6.500062803599184e-06,7.470812930128889e-15
	-2.653763104357026e-23,-7.383980527253057e-13
	-6.500062803599184e-06,7.470812930128889e-15
27		1.862087136662866e+00,0.000000000000000e+00
	-6.500062803599184e-02,7.644830518041339e-11
	1.000000000000000e+00,0.000000000000000e+00
	0.000000000000000e+00,0.000000000000000e+00
	6.500062803599231e-06,-7.644830518041354e-15
	2.778831106336420e-23,7.555975528675600e-13
	7.231276124772257e-14,7.876729730105298e-16
	-6.500062875911992e-06,-7.487403953225291e-13
	-6.500062803599184e-06,7.644830518041340e-15
	-2.778831106336420e-23,-7.555975528675602e-13
	-6.500062803599184e-06,7.644830518041340e-15
28		1.905460717963246e+00,0.000000000000000e+00
	-6.500062803599184e-02,7.822901496285749e-11
	1.000000000000000e+00,0.000000000000000e+00
	0.000000000000000e+00,0.000000000000000e+00
	6.500062803599231e-06,-7.822901496285737e-15
	2.909793381656730e-23,7.731976808338608e-13
	7.231276124772257e-14,8.060202334905679e-16
	-6.500062875911992e-06,-7.661807995710656e-13
	-6.500062803599184e-06,7.822901496285749e-15
	-2.909793381656730e-23,-7.731976808338610e-13
	-6.500062803599184e-06,7.822901496285749e-15
29		1.949844599758044e+00,0.000000000000000e+00
	-6.500062803599184e-02,8.005120280451833e-11
	1.000000000000000e+00,0.000000000000000e+00
	0.000000000000000e+00,0.000000000000000e+00
	6.500062803599231e-06,-8.005120280451844e-15
	3.046927718862329e-23,7.912077684450209e-13
	7.231276124772257e-14,8.247948565673582e-16
	-6.500062875911992e-06,-7.840274430211364e-13
	-6.500062803599184e-06,8.005120280451833e-15
	-3.046927718862329e-23,-7.912077684450211e-13
	-6.500062803599184e-06,8.005120280451833e-15
30		1.995262314968878e+00,0.000000000000000e+00
	-6.500062803599184e-02,8.191583485350905e-11
	1.000000000000000e+00,0.000000000000000e+00
	0.000000000000000e+00,0.000000000000000e+00
	6.500062803599231e-06,-8.191583485350938e-15
	3.190524998268349e-23,8.096373648878834e-13
	7.231276124772257e-14,8.440067967946221e-16
	-6.500062875911992e-06,-8.022897881993271e-13
	-6.500062803599184e-06,8.191583485350905e-15
	-3.190524998268349e-23,-8.096373648878835e-13
	-6.500062803599184e-06,8.191583485350905e-15
31		2.041737944669527e+00,0.000000000000000e+00
	-6.500062803599184e-02,8.382389976242334e-11
	1.000000000000000e+00,0.000000000000000e+00
	0.000000000000000e+00,0.000000000000000e+00
	6.500062803599231e-06,-8.382389976242384e-15
	3.340889808956834e-23,8.284962417784268e-13
	7.231276124772257e-14,8.636662405972166e-16
	-6.500062875911992e-06,-8.209775180427817e-13
	-6.500062803599184e-06,8.382389976242334e-15
	-3.340889808956834e-23,-8.284962417784270e-13
	-6.500062803599184e-06,8.382389976242334e-15
32		2.089296130854037e+00,0.000000000000000e+00
	-6.500062803599184e-02,8.577640921253219e-11
	1.000000000000000e+00,0.000000000000000e+00
	0.000000000000000e+00,0.000000000000000e+00
	6.500062803599231e-06,-8.577640921253192e-15
	3.498341094851018e-23,8.477943983428056e-13
	7.231276124772257e-14,8.837836116725465e-16
	-6.500062875911992e-06,-8.401005410332250e-13
	-6.500062803599184e-06,8.577640921253219e-15
	-3.498341094851018e-23,-8.477943983428058e-13
	-6.500062803599184e-06,8.577640921253219e-15
33		2.137962089502230e+00,0.000000000000000e+00
	-6.500062803599184e-02,8.777439845019049e-11
	1.000000000000000e+00,0.000000000000000e+00
	0.000000000000000e+00,0.000000000000000e+00
	6.500062803599231e-06,-8.777439845019095e-15
	3.663212831238139e-23,8.675420667190711e-13
	7.231276124772257e-14,9.043695765171351e-16
	-6.500062875911992e-06,-8.596689964505691e-13
	-6.500062803599184e-06,8.777439845019050e-15
	-3.663212831238139e-23,-8.675420667190713e-13
	-6.500062803599184e-06,8.777439845019050e-15
34		2.187761623949550e+00,0.000000000000000e+00
	-6.500062803599184e-02,8.981892683573862e-11
	1.000000000000000e+00,0.000000000000000e+00
	0.000000000000000e+00,0.000000000000000e+00
	6.500062803599231e-06,-8.981892683573966e-15
	3.835854733175817e-23,8.877497173823879e-13
	7.231276124772257e-14,9.254350500820372e-16
	-6.500062875911992e-06,-8.796932597488960e-13
	-6.500062803599184e-06,8.981892683573862e-15
	-3.835854733175817e-23,-8.877497173823881e-13
	-6.500062803599184e-06,8.981892683573862e-15
35		2.238721138568337e+00,0.000000000000000e+00
	-6.500062803599184e-02,9.191107840518911e-11
	1.000000000000000e+00,0.000000000000000e+00
	0.000000000000000e+00,0.000000000000000e+00
	6.500062803599231e-06,-9.191107840518994e-15
	4.016632997284565e-23,9.084280646966175e-13
	7.231276124772257e-14,9.469912015599226e-16
	-6.500062875911992e-06,-9.001839480576584e-13
	-6.500062803599184e-06,9.191107840518912e-15
	-4.016632997284565e-23,-9.084280646966177e-13
	-6.500062803599184e-06,9.191107840518912e-15
36		2.290867652767770e+00,0.000000000000000e+00
	-6.500062803599184e-02,9.405196244499695e-11
	1.000000000000000e+00,0.000000000000000e+00
	0.000000000000000e+00,0.000000000000000e+00
	6.500062803599231e-06,-9.405196244499765e-15
	4.205931078499918e-23,9.295880725952163e-13
	7.231276124772257e-14,9.690494603076671e-16
	-6.500062875911992e-06,-9.211519258110242e-13
	-6.500062803599184e-06,9.405196244499695e-15
	-4.205931078499918e-23,-9.295880725952165e-13
	-6.500062803599184e-06,9.405196244499695e-15
37		2.344228815319919e+00,0.000000000000000e+00
	-6.500062803599184e-02,9.624271408021805e-11
	1.000000000000000e+00,0.000000000000000e+00
	0.000000000000000e+00,0.000000000000000e+00
	6.500062803599231e-06,-9.624271408021764e-15
	4.404150503431773e-23,9.512409603944576e-13
	7.231276124772257e-14,9.916215219062688e-16
	-6.500062875911992e-06,-9.426083105083421e-13
	-6.500062803599184e-06,9.624271408021805e-15
	-4.404150503431773e-23,-9.512409603944578e-13
	-6.500062803599184e-06,9.624271408021805e-15
38		2.398832919019488e+00,0.000000000000000e+00
	-6.500062803599184e-02,9.848449487636738e-11
	1.000000000000000e+00,0.000000000000000e+00
	0.000000000000000e+00,0.000000000000000e+00
