Title: * GA CMOS Amp | W=3.833009658785291e-06 L=9.128502079233458e-07 Vbias=1.37044174027591
Date: Sat Sep  6 22:12:05 2025
Plotname: AC Analysis
Flags: complex forward log
No. Variables: 13
No. Points:          901
Offset:    0.0000000000000000e+00
Command: Linear Technology Corporation LTspice
Variables:
	0	frequency	frequency
	1	V(out)	voltage
	2	V(g)	voltage
	3	V(vdd)	voltage
	4	V(m1#dbody)	voltage
	5	V(m1#sbody)	voltage
	6	Id(M1)	device_current
	7	Ig(M1)	device_current
	8	Ib(M1)	device_current
	9	Is(M1)	device_current
	10	I(Rload)	device_current
	11	I(Vg)	device_current
	12	I(Vdd)	device_current
Values:
0		1.000000000000000e+00,0.000000000000000e+00
	-7.730650304105902e-02,1.338736011976896e-09
	1.000000000000000e+00,0.000000000000000e+00
	0.000000000000000e+00,0.000000000000000e+00
	5.034722127963134e-05,1.294146455532433e-13
	5.034722185942396e-05,1.355678355481199e-13
	7.730650304105899e-06,-1.338736011976897e-13
	3.244140955303469e-05,8.383629170533102e-13
	-2.685185163999900e-05,-7.189554310975303e-14
	-1.332020821714159e-05,-6.325937727458676e-13
	-7.730650304105903e-06,1.338736011976896e-13
	-3.244140955271924e-05,-8.383629170533099e-13
	-7.730650304105903e-06,1.338736011976896e-13
1		1.023292992280754e+00,0.000000000000000e+00
	-7.730650304105902e-02,1.369919179569842e-09
	1.000000000000000e+00,0.000000000000000e+00
	0.000000000000000e+00,0.000000000000000e+00
	5.034722127963134e-05,1.324290998931316e-13
	5.034722185942396e-05,1.387256160950608e-13
	7.730650304105899e-06,-1.369919179569841e-13
	3.244140955303469e-05,8.578908980087035e-13
	-2.685185163999900e-05,-7.357020544042915e-14
	-1.332020821714159e-05,-6.473287746112903e-13
	-7.730650304105903e-06,1.369919179569842e-13
	-3.244140955271924e-05,-8.578908980087034e-13
	-7.730650304105903e-06,1.369919179569842e-13
2		1.047128548050899e+00,0.000000000000000e+00
	-7.730650304105902e-02,1.401828696444819e-09
	1.000000000000000e+00,0.000000000000000e+00
	0.000000000000000e+00,0.000000000000000e+00
	5.034722127963134e-05,1.355137698946895e-13
	5.034722185942396e-05,1.419569507999060e-13
	7.730650304105899e-06,-1.401828696444819e-13
	3.244140955303469e-05,8.778737440737493e-13
	-2.685185163999900e-05,-7.528387566784656e-14
	-1.332020821714159e-05,-6.624069987614209e-13
	-7.730650304105903e-06,1.401828696444819e-13
	-3.244140955271924e-05,-8.778737440737490e-13
	-7.730650304105903e-06,1.401828696444819e-13
3		1.071519305237606e+00,0.000000000000000e+00
	-7.730650304105902e-02,1.434481481450048e-09
	1.000000000000000e+00,0.000000000000000e+00
	0.000000000000000e+00,0.000000000000000e+00
	5.034722127963134e-05,1.386702910907823e-13
	5.034722185942396e-05,1.452635529590875e-13
	7.730650304105899e-06,-1.434481481450048e-13
	3.244140955303469e-05,8.983220504179360e-13
	-2.685185163999900e-05,-7.703746240264294e-14
	-1.332020821714159e-05,-6.778364398702882e-13
	-7.730650304105903e-06,1.434481481450048e-13
	-3.244140955271924e-05,-8.983220504179358e-13
	-7.730650304105903e-06,1.434481481450048e-13
4		1.096478196143185e+00,0.000000000000000e+00
	-7.730650304105902e-02,1.467894847524348e-09
	1.000000000000000e+00,0.000000000000000e+00
	0.000000000000000e+00,0.000000000000000e+00
	5.034722127963134e-05,1.419003371107299e-13
	5.034722185942396e-05,1.486471757768385e-13
	7.730650304105899e-06,-1.467894847524348e-13
	3.244140955303469e-05,9.192466590039519e-13
	-2.685185163999900e-05,-7.883189541971658e-14
	-1.332020821714159e-05,-6.936252788318005e-13
	-7.730650304105903e-06,1.467894847524348e-13
	-3.244140955271924e-05,-9.192466590039519e-13
	-7.730650304105903e-06,1.467894847524348e-13
5		1.122018454301963e+00,0.000000000000000e+00
	-7.730650304105902e-02,1.502086510876692e-09
	1.000000000000000e+00,0.000000000000000e+00
	0.000000000000000e+00,0.000000000000000e+00
	5.034722127963134e-05,1.452056205676865e-13
	5.034722185942396e-05,1.521096132947643e-13
	7.730650304105899e-06,-1.502086510876691e-13
	3.244140955303469e-05,9.406586643362402e-13
	-2.685185163999900e-05,-8.066812615120526e-14
	-1.332020821714159e-05,-7.097818870973657e-13
	-7.730650304105903e-06,1.502086510876692e-13
	-3.244140955271924e-05,-9.406586643362400e-13
	-7.730650304105903e-06,1.502086510876692e-13
6		1.148153621496882e+00,0.000000000000000e+00
	-7.730650304105902e-02,1.537074600379567e-09
	1.000000000000000e+00,0.000000000000000e+00
	0.000000000000000e+00,0.000000000000000e+00
	5.034722127963134e-05,1.485878939666917e-13
	5.034722185942396e-05,1.556527013430677e-13
	7.730650304105899e-06,-1.537074600379567e-13
	3.244140955303469e-05,9.625694193434486e-13
	-2.685185163999900e-05,-8.254712819094817e-14
	-1.332020821714159e-05,-7.263148311145436e-13
	-7.730650304105903e-06,1.537074600379567e-13
	-3.244140955271924e-05,-9.625694193434484e-13
	-7.730650304105903e-06,1.537074600379567e-13
7		1.174897554939529e+00,0.000000000000000e+00
	-7.730650304105902e-02,1.572877667181152e-09
	1.000000000000000e+00,0.000000000000000e+00
	0.000000000000000e+00,0.000000000000000e+00
	5.034722127963134e-05,1.520489506338714e-13
	5.034722185942396e-05,1.592783185139303e-13
	7.730650304105899e-06,-1.572877667181151e-13
	3.244140955303469e-05,9.849905413979054e-13
	-2.685185163999900e-05,-8.446989781069835e-14
	-1.332020821714159e-05,-7.432328768690920e-13
	-7.730650304105903e-06,1.572877667181152e-13
	-3.244140955271924e-05,-9.849905413979054e-13
	-7.730650304105903e-06,1.572877667181152e-13
8		1.202264434617413e+00,0.000000000000000e+00
	-7.730650304105902e-02,1.609514694541373e-09
	1.000000000000000e+00,0.000000000000000e+00
	0.000000000000000e+00,0.000000000000000e+00
	5.034722127963134e-05,1.555906256672829e-13
	5.034722185942396e-05,1.629883871575667e-13
	7.730650304105899e-06,-1.609514694541373e-13
	3.244140955303469e-05,1.007933918475303e-12
	-2.685185163999900e-05,-8.643745448835903e-14
	-1.332020821714159e-05,-7.605449945328065e-13
	-7.730650304105903e-06,1.609514694541373e-13
	-3.244140955271924e-05,-1.007933918475302e-12
	-7.730650304105903e-06,1.609514694541373e-13
9		1.230268770812381e+00,0.000000000000000e+00
	-7.730650304105902e-02,1.647005107897085e-09
	1.000000000000000e+00,0.000000000000000e+00
	0.000000000000000e+00,0.000000000000000e+00
	5.034722127963134e-05,1.592147969099087e-13
	5.034722185942396e-05,1.667848744014805e-13
	7.730650304105899e-06,-1.647005107897085e-13
	3.244140955303469e-05,1.031411715457858e-12
	-2.685185163999900e-05,-8.845084144852444e-14
	-1.332020821714159e-05,-7.782603632196253e-13
	-7.730650304105903e-06,1.647005107897085e-13
	-3.244140955271924e-05,-1.031411715457858e-12
	-7.730650304105903e-06,1.647005107897085e-13
10		1.258925411794167e+00,0.000000000000000e+00
	-7.730650304105902e-02,1.685368785161695e-09
	1.000000000000000e+00,0.000000000000000e+00
	0.000000000000000e+00,0.000000000000000e+00
	5.034722127963134e-05,1.629233859453130e-13
	5.034722185942396e-05,1.706697931934608e-13
	7.730650304105899e-06,-1.685368785161695e-13
	3.244140955303469e-05,1.055436380584298e-12
	-2.685185163999900e-05,-9.051112621561113e-14
	-1.332020821714159e-05,-7.963883758525169e-13
	-7.730650304105903e-06,1.685368785161695e-13
	-3.244140955271924e-05,-1.055436380584297e-12
	-7.730650304105903e-06,1.685368785161695e-13
11		1.288249551693134e+00,0.000000000000000e+00
	-7.730650304105902e-02,1.724626067264690e-09
	1.000000000000000e+00,0.000000000000000e+00
	0.000000000000000e+00,0.000000000000000e+00
	5.034722127963134e-05,1.667183591164915e-13
	5.034722185942396e-05,1.746452033688740e-13
	7.730650304105899e-06,-1.724626067264691e-13
	3.244140955303469e-05,1.080020652050075e-12
	-2.685185163999900e-05,-9.261940117987370e-14
	-1.332020821714159e-05,-8.149386441437321e-13
	-7.730650304105903e-06,1.724626067264691e-13
	-3.244140955271924e-05,-1.080020652050075e-12
	-7.730650304105903e-06,1.724626067264691e-13
12		1.318256738556407e+00,0.000000000000000e+00
	-7.730650304105902e-02,1.764797768936674e-09
	1.000000000000000e+00,0.000000000000000e+00
	0.000000000000000e+00,0.000000000000000e+00
	5.034722127963134e-05,1.706017285684519e-13
	5.034722185942396e-05,1.787132127428159e-13
	7.730650304105899e-06,-1.764797768936675e-13
	3.244140955303469e-05,1.105177564761332e-12
	-2.685185163999900e-05,-9.477678417660459e-14
	-1.332020821714159e-05,-8.339210036910602e-13
	-7.730650304105903e-06,1.764797768936674e-13
	-3.244140955271924e-05,-1.105177564761332e-12
	-7.730650304105903e-06,1.764797768936674e-13
13		1.348962882591653e+00,0.000000000000000e+00
	-7.730650304105902e-02,1.805905189745608e-09
	1.000000000000000e+00,0.000000000000000e+00
	0.000000000000000e+00,0.000000000000000e+00
	5.034722127963134e-05,1.745755533150802e-13
	5.034722185942396e-05,1.828759782277031e-13
	7.730650304105899e-06,-1.805905189745609e-13
	3.244140955303469e-05,1.130920457246180e-12
	-2.685185163999900e-05,-9.698441907882493e-14
	-1.332020821714159e-05,-8.533455191927947e-13
	-7.730650304105903e-06,1.805905189745608e-13
	-3.244140955271924e-05,-1.130920457246180e-12
	-7.730650304105903e-06,1.805905189745608e-13
14		1.380384264602885e+00,0.000000000000000e+00
	-7.730650304105902e-02,1.847970125390127e-09
	1.000000000000000e+00,0.000000000000000e+00
	0.000000000000000e+00,0.000000000000000e+00
	5.034722127963134e-05,1.786419403308568e-13
	5.034722185942396e-05,1.871357069768963e-13
	7.730650304105899e-06,-1.847970125390127e-13
	3.244140955303469e-05,1.157262978726963e-12
	-2.685185163999900e-05,-9.924347640378144e-14
	-1.332020821714159e-05,-8.732224897841688e-13
	-7.730650304105903e-06,1.847970125390127e-13
	-3.244140955271924e-05,-1.157262978726963e-12
	-7.730650304105903e-06,1.847970125390127e-13
15		1.412537544622754e+00,0.000000000000000e+00
	-7.730650304105902e-02,1.891014879255903e-09
	1.000000000000000e+00,0.000000000000000e+00
	0.000000000000000e+00,0.000000000000000e+00
	5.034722127963134e-05,1.828030456680024e-13
	5.034722185942396e-05,1.914946575549627e-13
	7.730650304105899e-06,-1.891014879255903e-13
	3.244140955303469e-05,1.184219096357253e-12
	-2.685185163999900e-05,-1.015551539335699e-13
	-1.332020821714159e-05,-8.935624544980923e-13
	-7.730650304105903e-06,1.891014879255903e-13
	-3.244140955271924e-05,-1.184219096357252e-12
	-7.730650304105903e-06,1.891014879255903e-13
16		1.445439770745927e+00,0.000000000000000e+00
	-7.730650304105902e-02,1.935062274241202e-09
	1.000000000000000e+00,0.000000000000000e+00
	0.000000000000000e+00,0.000000000000000e+00
	5.034722127963134e-05,1.870610755996454e-13
	5.034722185942396e-05,1.959551411351960e-13
	7.730650304105899e-06,-1.935062274241201e-13
	3.244140955303469e-05,1.211803102627423e-12
	-2.685185163999900e-05,-1.039206773502153e-13
	-1.332020821714159e-05,-9.143761978530879e-13
	-7.730650304105903e-06,1.935062274241202e-13
	-3.244140955271924e-05,-1.211803102627423e-12
	-7.730650304105903e-06,1.935062274241202e-13
17		1.479108388168207e+00,0.000000000000000e+00
	-7.730650304105902e-02,1.980135664857880e-09
	1.000000000000000e+00,0.000000000000000e+00
	0.000000000000000e+00,0.000000000000000e+00
	5.034722127963134e-05,1.914182877896175e-13
	5.034722185942396e-05,2.005195227250322e-13
	7.730650304105899e-06,-1.980135664857880e-13
	3.244140955303469e-05,1.240029622942718e-12
	-2.685185163999900e-05,-1.063413008855447e-13
	-1.332020821714159e-05,-9.356747555713851e-13
	-7.730650304105903e-06,1.980135664857880e-13
	-3.244140955271924e-05,-1.240029622942717e-12
	-7.730650304105903e-06,1.980135664857880e-13
18		1.513561248436208e+00,0.000000000000000e+00
	-7.730650304105902e-02,2.026258949614261e-09
	1.000000000000000e+00,0.000000000000000e+00
	0.000000000000000e+00,0.000000000000000e+00
	5.034722127963134e-05,1.958769924894963e-13
	5.034722185942396e-05,2.051902224200069e-13
	7.730650304105899e-06,-2.026258949614260e-13
	3.244140955303469e-05,1.268913623377829e-12
	-2.685185163999900e-05,-1.088183079861970e-13
	-1.332020821714159e-05,-9.574694204302060e-13
	-7.730650304105903e-06,2.026258949614261e-13
	-3.244140955271924e-05,-1.268913623377829e-12
	-7.730650304105903e-06,2.026258949614261e-13
19		1.548816618912481e+00,0.000000000000000e+00
	-7.730650304105902e-02,2.073456583686435e-09
	1.000000000000000e+00,0.000000000000000e+00
	0.000000000000000e+00,0.000000000000000e+00
	5.034722127963134e-05,2.004395537635314e-13
	5.034722185942396e-05,2.099697166869223e-13
	7.730650304105899e-06,-2.073456583686436e-13
	3.244140955303469e-05,1.298470418612113e-12
	-2.685185163999900e-05,-1.113530119941242e-13
	-1.332020821714159e-05,-9.797717482493447e-13
	-7.730650304105903e-06,2.073456583686435e-13
	-3.244140955271924e-05,-1.298470418612112e-12
	-7.730650304105903e-06,2.073456583686435e-13
20		1.584893192461113e+00,0.000000000000000e+00
	-7.730650304105902e-02,2.121753591884722e-09
	1.000000000000000e+00,0.000000000000000e+00
	0.000000000000000e+00,0.000000000000000e+00
	5.034722127963134e-05,2.051083907421032e-13
	5.034722185942396e-05,2.148605396769029e-13
	7.730650304105899e-06,-2.121753591884722e-13
	3.244140955303469e-05,1.328715680049632e-12
	-2.685185163999900e-05,-1.139467568429421e-13
	-1.332020821714159e-05,-1.002593564018218e-12
	-7.730650304105903e-06,2.121753591884722e-13
	-3.244140955271924e-05,-1.328715680049632e-12
	-7.730650304105903e-06,2.121753591884722e-13
21		1.621810097358929e+00,0.000000000000000e+00
	-7.730650304105902e-02,2.171175581922155e-09
	1.000000000000000e+00,0.000000000000000e+00
	0.000000000000000e+00,0.000000000000000e+00
	5.034722127963134e-05,2.098859789043769e-13
	5.034722185942396e-05,2.198652845690357e-13
	7.730650304105899e-06,-2.171175581922155e-13
	3.244140955303469e-05,1.359665444128345e-12
	-2.685185163999900e-05,-1.166009177705017e-13
	-1.332020821714159e-05,-1.025946968165628e-12
	-7.730650304105903e-06,2.171175581922155e-13
	-3.244140955271924e-05,-1.359665444128345e-12
	-7.730650304105903e-06,2.171175581922155e-13
22		1.659586907437560e+00,0.000000000000000e+00
	-7.730650304105902e-02,2.221748757992030e-09
	1.000000000000000e+00,0.000000000000000e+00
	0.000000000000000e+00,0.000000000000000e+00
	5.034722127963134e-05,2.147748513908351e-13
	5.034722185942396e-05,2.249866049453081e-13
	7.730650304105899e-06,-2.221748757992030e-13
	3.244140955303469e-05,1.391336120822835e-12
	-2.685185163999900e-05,-1.193169020480588e-13
	-1.332020821714159e-05,-1.049844342975573e-12
	-7.730650304105903e-06,2.221748757992030e-13
	-3.244140955271924e-05,-1.391336120822834e-12
	-7.730650304105903e-06,2.221748757992030e-13
23		1.698243652461743e+00,0.000000000000000e+00
	-7.730650304105902e-02,2.273499934661713e-09
	1.000000000000000e+00,0.000000000000000e+00
	0.000000000000000e+00,0.000000000000000e+00
	5.034722127963134e-05,2.197776003463819e-13
	5.034722185942396e-05,2.302272161975722e-13
	7.730650304105899e-06,-2.273499934661714e-13
	3.244140955303469e-05,1.423744502345096e-12
	-2.685185163999900e-05,-1.220961497264278e-13
	-1.332020821714159e-05,-1.074298359152496e-12
	-7.730650304105903e-06,2.273499934661713e-13
	-3.244140955271924e-05,-1.423744502345095e-12
	-7.730650304105903e-06,2.273499934661713e-13
24		1.737800828749374e+00,0.000000000000000e+00
	-7.730650304105902e-02,2.326456551090083e-09
	1.000000000000000e+00,0.000000000000000e+00
	0.000000000000000e+00,0.000000000000000e+00
	5.034722127963134e-05,2.248968782947328e-13
	5.034722185942396e-05,2.355898969672817e-13
	7.730650304105897e-06,-2.326456551090082e-13
	3.244140955303469e-05,1.456907772047985e-12
	-2.685185163999900e-05,-1.249401343995152e-13
	-1.332020821714159e-05,-1.099321982539462e-12
	-7.730650304105903e-06,2.326456551090083e-13
	-3.244140955271924e-05,-1.456907772047985e-12
	-7.730650304105903e-06,2.326456551090083e-13
25		1.778279410038922e+00,0.000000000000000e+00
	-7.730650304105902e-02,2.380646685576134e-09
	1.000000000000000e+00,0.000000000000000e+00
	0.000000000000000e+00,0.000000000000000e+00
	5.034722127963134e-05,2.301353995448177e-13
	5.034722185942396e-05,2.410774906187643e-13
	7.730650304105897e-06,-2.380646685576133e-13
	3.244140955303469e-05,1.490843513536070e-12
	-2.685185163999900e-05,-1.278503639856395e-13
	-1.332020821714159e-05,-1.124928480992817e-12
	-7.730650304105903e-06,2.380646685576134e-13
	-3.244140955271924e-05,-1.490843513536070e-12
	-7.730650304105903e-06,2.380646685576134e-13
26		1.819700858609982e+00,0.000000000000000e+00
	-7.730650304105902e-02,2.436099070446461e-09
	1.000000000000000e+00,0.000000000000000e+00
	0.000000000000000e+00,0.000000000000000e+00
	5.034722127963134e-05,2.354959416299434e-13
	5.034722185942396e-05,2.466929067468107e-13
	7.730650304105897e-06,-2.436099070446461e-13
	3.244140955303469e-05,1.525569719988678e-12
	-2.685185163999900e-05,-1.308283815270486e-13
	-1.332020821714159e-05,-1.151131431416983e-12
	-7.730650304105903e-06,2.436099070446461e-13
	-3.244140955271924e-05,-1.525569719988678e-12
	-7.730650304105903e-06,2.436099070446461e-13
27		1.862087136662866e+00,0.000000000000000e+00
	-7.730650304105902e-02,2.492843107289523e-09
	1.000000000000000e+00,0.000000000000000e+00
	0.000000000000000e+00,0.000000000000000e+00
	5.034722127963134e-05,2.409813467804786e-13
	5.034722185942396e-05,2.524391227193809e-13
	7.730650304105897e-06,-2.492843107289524e-13
	3.244140955303469e-05,1.561104803700127e-12
	-2.685185163999900e-05,-1.338757660080617e-13
	-1.332020821714159e-05,-1.177944726963112e-12
	-7.730650304105903e-06,2.492843107289523e-13
	-3.244140955271924e-05,-1.561104803700126e-12
	-7.730650304105903e-06,2.492843107289523e-13
28		1.905460717963246e+00,0.000000000000000e+00
	-7.730650304105902e-02,2.550908882544749e-09
	1.000000000000000e+00,0.000000000000000e+00
	0.000000000000000e+00,0.000000000000000e+00
	5.034722127963134e-05,2.465945234308420e-13
	5.034722185942396e-05,2.583191852562437e-13
	7.730650304105897e-06,-2.550908882544750e-13
	3.244140955303469e-05,1.597467605842161e-12
	-2.685185163999900e-05,-1.369941331922675e-13
	-1.332020821714159e-05,-1.205382584395419e-12
	-7.730650304105903e-06,2.550908882544749e-13
	-3.244140955271924e-05,-1.597467605842161e-12
	-7.730650304105903e-06,2.550908882544749e-13
29		1.949844599758044e+00,0.000000000000000e+00
	-7.730650304105902e-02,2.610327183454772e-09
	1.000000000000000e+00,0.000000000000000e+00
	0.000000000000000e+00,0.000000000000000e+00
	5.034722127963134e-05,2.523384477615929e-13
	5.034722185942396e-05,2.643362120443883e-13
	7.730650304105897e-06,-2.610327183454771e-13
	3.244140955303469e-05,1.634677406453798e-12
	-2.685185163999900e-05,-1.401851364792236e-13
	-1.332020821714159e-05,-1.233459551629097e-12
	-7.730650304105903e-06,2.610327183454772e-13
	-3.244140955271924e-05,-1.634677406453798e-12
	-7.730650304105903e-06,2.610327183454772e-13
30		1.995262314968878e+00,0.000000000000000e+00
	-7.730650304105902e-02,2.671129514389226e-09
	1.000000000000000e+00,0.000000000000000e+00
	0.000000000000000e+00,0.000000000000000e+00
	5.034722127963134e-05,2.582161652774411e-13
	5.034722185942396e-05,2.704933933910619e-13
	7.730650304105897e-06,-2.671129514389226e-13
	3.244140955303469e-05,1.672753934663849e-12
	-2.685185163999900e-05,-1.434504677811106e-13
	-1.332020821714159e-05,-1.262190515443816e-12
	-7.730650304105903e-06,2.671129514389226e-13
	-3.244140955271924e-05,-1.672753934663849e-12
	-7.730650304105903e-06,2.671129514389226e-13
31		2.041737944669527e+00,0.000000000000000e+00
	-7.730650304105902e-02,2.733348113548788e-09
	1.000000000000000e+00,0.000000000000000e+00
	0.000000000000000e+00,0.000000000000000e+00
	5.034722127963134e-05,2.642307924220144e-13
	5.034722185942396e-05,2.767939939153149e-13
	7.730650304105897e-06,-2.733348113548787e-13
	3.244140955303469e-05,1.711717379151575e-12
	-2.685185163999900e-05,-1.467918584198066e-13
	-1.332020821714159e-05,-1.291590709376890e-12
	-7.730650304105903e-06,2.733348113548788e-13
	-3.244140955271924e-05,-1.711717379151575e-12
	-7.730650304105903e-06,2.733348113548788e-13
32		2.089296130854037e+00,0.000000000000000e+00
	-7.730650304105902e-02,2.797015970058294e-09
	1.000000000000000e+00,0.000000000000000e+00
	0.000000000000000e+00,0.000000000000000e+00
	5.034722127963134e-05,2.703855182302379e-13
