Title: * GA CMOS Amp | W=3.41704154542382e-05 L=1.8070469337698853e-07 Vbias=0.5824021411798797
Date: Sat Sep  6 22:01:03 2025
Plotname: AC Analysis
Flags: complex forward log
No. Variables: 13
No. Points:          901
Offset:    0.0000000000000000e+00
Command: Linear Technology Corporation LTspice
Variables:
	0	frequency	frequency
	1	V(out)	voltage
	2	V(g)	voltage
	3	V(vdd)	voltage
	4	V(m1#dbody)	voltage
	5	V(m1#sbody)	voltage
	6	Id(M1)	device_current
	7	Ig(M1)	device_current
	8	Ib(M1)	device_current
	9	Is(M1)	device_current
	10	I(Rload)	device_current
	11	I(Vg)	device_current
	12	I(Vdd)	device_current
Values:
0		1.000000000000000e+00,0.000000000000000e+00
	-3.594651486862065e-02,7.592418338377927e-11
	1.000000000000000e+00,0.000000000000000e+00
	0.000000000000000e+00,0.000000000000000e+00
	4.042599320112620e-10,-3.079623260706053e-14
	4.045863544920191e-10,-2.003247237477124e-15
	3.594651486862064e-06,-7.592418338377836e-15
	2.777182119065643e-07,1.628727244365945e-12
	-2.157576277268850e-10,2.987930679839837e-15
	-3.872153941140901e-06,-1.624122756707407e-12
	-3.594651486862065e-06,7.592418338377928e-15
	-2.777182119134691e-07,-1.628727244365946e-12
	-3.594651486862065e-06,7.592418338377928e-15
1		1.023292992280754e+00,0.000000000000000e+00
	-3.594651486862065e-02,7.769268480126021e-11
	1.000000000000000e+00,0.000000000000000e+00
	0.000000000000000e+00,0.000000000000000e+00
	4.042599320112545e-10,-3.151356901545311e-14
	4.045863544920145e-10,-2.049908859916118e-15
	3.594651486862064e-06,-7.769268480125821e-15
	2.777182119065643e-07,1.666665175496415e-12
	-2.157576277268824e-10,3.057528526100774e-15
	-3.872153941140901e-06,-1.661953435542390e-12
	-3.594651486862065e-06,7.769268480126023e-15
	-2.777182119134691e-07,-1.666665175496416e-12
	-3.594651486862065e-06,7.769268480126023e-15
2		1.047128548050899e+00,0.000000000000000e+00
	-3.594651486862065e-02,7.950237990860700e-11
	1.000000000000000e+00,0.000000000000000e+00
	0.000000000000000e+00,0.000000000000000e+00
	4.042599320112468e-10,-3.224761433526907e-14
	4.045863544920098e-10,-2.097657371166412e-15
	3.594651486862064e-06,-7.950237990860827e-15
	2.777182119065643e-07,1.705486794563855e-12
	-2.157576277268797e-10,3.128747514457434e-15
	-3.872153941140901e-06,-1.700665304087452e-12
	-3.594651486862065e-06,7.950237990860701e-15
	-2.777182119134691e-07,-1.705486794563855e-12
	-3.594651486862065e-06,7.950237990860701e-15
3		1.071519305237606e+00,0.000000000000000e+00
	-3.594651486862065e-02,8.135422823011975e-11
	1.000000000000000e+00,0.000000000000000e+00
	0.000000000000000e+00,0.000000000000000e+00
	4.042599320112387e-10,-3.299875776705322e-14
	4.045863544920049e-10,-2.146518088120645e-15
	3.594651486862064e-06,-8.135422823012077e-15
	2.777182119065643e-07,1.745212685304559e-12
	-2.157576277268769e-10,3.201625406160113e-15
	-3.872153941140901e-06,-1.740278887887707e-12
	-3.594651486862065e-06,8.135422823011976e-15
	-2.777182119134691e-07,-1.745212685304559e-12
	-3.594651486862065e-06,8.135422823011976e-15
4		1.096478196143185e+00,0.000000000000000e+00
	-3.594651486862065e-02,8.324921164029064e-11
	1.000000000000000e+00,0.000000000000000e+00
	0.000000000000000e+00,0.000000000000000e+00
	4.042599320112303e-10,-3.376739757699566e-14
	4.045863544919997e-10,-2.196516917377738e-15
	3.594651486862064e-06,-8.324921164029098e-15
	2.777182119065643e-07,1.785863910911632e-12
	-2.157576277268739e-10,3.276200842031666e-15
	-3.872153941140901e-06,-1.780815190589634e-12
	-3.594651486862065e-06,8.324921164029065e-15
	-2.777182119134691e-07,-1.785863910911632e-12
	-3.594651486862065e-06,8.324921164029065e-15
5		1.122018454301963e+00,0.000000000000000e+00
	-3.594651486862065e-02,8.518833488440682e-11
	1.000000000000000e+00,0.000000000000000e+00
	0.000000000000000e+00,0.000000000000000e+00
	4.042599320112214e-10,-3.455394130809779e-14
	4.045863544919943e-10,-2.247680368978764e-15
	3.594651486862064e-06,-8.518833488440685e-15
	2.777182119065643e-07,1.827462025202974e-12
	-2.157576277268708e-10,3.352513362955310e-15
	-3.872153941140901e-06,-1.822295705077489e-12
	-3.594651486862065e-06,8.518833488440682e-15
	-2.777182119134691e-07,-1.827462025202975e-12
	-3.594651486862065e-06,8.518833488440682e-15
6		1.148153621496882e+00,0.000000000000000e+00
	-3.594651486862065e-02,8.717262611127961e-11
	1.000000000000000e+00,0.000000000000000e+00
	0.000000000000000e+00,0.000000000000000e+00
	4.042599320112122e-10,-3.535880599625693e-14
	4.045863544919887e-10,-2.300035570462983e-15
	3.594651486862064e-06,-8.717262611127578e-15
	2.777182119065643e-07,1.870029084049397e-12
	-2.157576277268675e-10,3.430603430839750e-15
	-3.872153941140901e-06,-1.864742424869110e-12
	-3.594651486862065e-06,8.717262611127961e-15
	-2.777182119134691e-07,-1.870029084049398e-12
	-3.594651486862065e-06,8.717262611127961e-15
7		1.174897554939529e+00,0.000000000000000e+00
	-3.594651486862065e-02,8.920313741838269e-11
	1.000000000000000e+00,0.000000000000000e+00
	0.000000000000000e+00,0.000000000000000e+00
	4.042599320112025e-10,-3.618241839138442e-14
	4.045863544919828e-10,-2.353610281251237e-15
	3.594651486862064e-06,-8.920313741838120e-15
	2.777182119065643e-07,1.913587657068946e-12
	-2.157576277268641e-10,3.510512450072629e-15
	-3.872153941140901e-06,-1.908177855777180e-12
	-3.594651486862065e-06,8.920313741838268e-15
	-2.777182119134691e-07,-1.913587657068947e-12
	-3.594651486862065e-06,8.920313741838268e-15
8		1.202264434617413e+00,0.000000000000000e+00
	-3.594651486862065e-02,9.128094540968814e-11
	1.000000000000000e+00,0.000000000000000e+00
	0.000000000000000e+00,0.000000000000000e+00
	4.042599320111924e-10,-3.702521518367397e-14
	4.045863544919766e-10,-2.408432907364334e-15
	3.594651486862064e-06,-9.128094540968734e-15
	2.777182119065643e-07,1.958160839593600e-12
	-2.157576277268606e-10,3.592282789473667e-15
	-3.872153941140901e-06,-1.952625027842105e-12
	-3.594651486862065e-06,9.128094540968815e-15
	-2.777182119134691e-07,-1.958160839593600e-12
	-3.594651486862065e-06,9.128094540968815e-15
9		1.230268770812381e+00,0.000000000000000e+00
	-3.594651486862065e-02,9.340715176649594e-11
	1.000000000000000e+00,0.000000000000000e+00
	0.000000000000000e+00,0.000000000000000e+00
	4.042599320111818e-10,-3.788764323514053e-14
	4.045863544919701e-10,-2.464532516484265e-15
	3.594651486862064e-06,-9.340715176649476e-15
	2.777182119065643e-07,2.003772264914728e-12
	-2.157576277268568e-10,3.675957804759152e-15
	-3.872153941140901e-06,-1.998107507542838e-12
	-3.594651486862065e-06,9.340715176649594e-15
	-2.777182119134691e-07,-2.003772264914729e-12
	-3.594651486862065e-06,9.340715176649594e-15
10		1.258925411794167e+00,0.000000000000000e+00
	-3.594651486862065e-02,9.558288383156017e-11
	1.000000000000000e+00,0.000000000000000e+00
	0.000000000000000e+00,0.000000000000000e+00
	4.042599320111707e-10,-3.877015981655265e-14
	4.045863544919633e-10,-2.521938853366440e-15
	3.594651486862064e-06,-9.558288383155691e-15
	2.777182119065643e-07,2.050446116813776e-12
	-2.157576277268529e-10,3.761581861529805e-15
	-3.872153941140901e-06,-2.044649410292151e-12
	-3.594651486862065e-06,9.558288383156018e-15
	-2.777182119134691e-07,-2.050446116813777e-12
	-3.594651486862065e-06,9.558288383156018e-15
11		1.288249551693134e+00,0.000000000000000e+00
	-3.594651486862065e-02,9.780929520682091e-11
	1.000000000000000e+00,0.000000000000000e+00
	0.000000000000000e+00,0.000000000000000e+00
	4.042599320111589e-10,-3.967323284988319e-14
	4.045863544919562e-10,-2.580682355610404e-15
	3.594651486862064e-06,-9.780929520681911e-15
	2.777182119065643e-07,2.098207142384822e-12
	-2.157576277268488e-10,3.849200358793826e-15
	-3.872153941140901e-06,-2.092275413222934e-12
	-3.594651486862065e-06,9.780929520682092e-15
	-2.777182119134691e-07,-2.098207142384823e-12
	-3.594651486862065e-06,9.780929520682092e-15
12		1.318256738556407e+00,0.000000000000000e+00
	-3.594651486862065e-02,1.000875663650594e-10
	1.000000000000000e+00,0.000000000000000e+00
	0.000000000000000e+00,0.000000000000000e+00
	4.042599320111467e-10,-4.059734115640809e-14
	4.045863544919487e-10,-2.640794169798728e-15
	3.594651486862064e-06,-1.000875663650596e-14
	2.777182119065643e-07,2.147080665155815e-12
	-2.157576277268445e-10,3.938859753038293e-15
	-3.872153941140901e-06,-2.141010768272347e-12
	-3.594651486862065e-06,1.000875663650594e-14
	-2.777182119134691e-07,-2.147080665155815e-12
	-3.594651486862065e-06,1.000875663650594e-14
13		1.348962882591653e+00,0.000000000000000e+00
	-3.594651486862065e-02,1.024189052758002e-10
	1.000000000000000e+00,0.000000000000000e+00
	0.000000000000000e+00,0.000000000000000e+00
	4.042599320111339e-10,-4.154297471058346e-14
	4.045863544919409e-10,-2.702306168010918e-15
	3.594651486862064e-06,-1.024189052758004e-14
	2.777182119065643e-07,2.197092598515446e-12
	-2.157576277268400e-10,4.030607582860791e-15
	-3.872153941140901e-06,-2.190881315570727e-12
	-3.594651486862065e-06,1.024189052758002e-14
	-2.777182119134691e-07,-2.197092598515446e-12
	-3.594651486862065e-06,1.024189052758002e-14
14		1.380384264602885e+00,0.000000000000000e+00
	-3.594651486862065e-02,1.048045480457927e-10
	1.000000000000000e+00,0.000000000000000e+00
	0.000000000000000e+00,0.000000000000000e+00
	4.042599320111205e-10,-4.251063489983663e-14
	4.045863544919327e-10,-2.765250964722614e-15
	3.594651486862064e-06,-1.048045480457946e-14
	2.777182119065643e-07,2.248269459452768e-12
	-2.157576277268353e-10,4.124492494175108e-15
	-3.872153941140901e-06,-2.241913497142364e-12
	-3.594651486862065e-06,1.048045480457927e-14
	-2.777182119134691e-07,-2.248269459452769e-12
	-3.594651486862065e-06,1.048045480457927e-14
15		1.412537544622754e+00,0.000000000000000e+00
	-3.594651486862065e-02,1.072457595744113e-10
	1.000000000000000e+00,0.000000000000000e+00
	0.000000000000000e+00,0.000000000000000e+00
	4.042599320111064e-10,-4.350083479040850e-14
	4.045863544919242e-10,-2.829661934098255e-15
	3.594651486862064e-06,-1.072457595744075e-14
	2.777182119065643e-07,2.300638382616857e-12
	-2.157576277268304e-10,4.220564266003963e-15
	-3.872153941140901e-06,-2.294134370925420e-12
	-3.594651486862065e-06,1.072457595744113e-14
	-2.777182119134691e-07,-2.300638382616857e-12
	-3.594651486862065e-06,1.072457595744113e-14
16		1.445439770745927e+00,0.000000000000000e+00
	-3.594651486862065e-02,1.097438342243216e-10
	1.000000000000000e+00,0.000000000000000e+00
	0.000000000000000e+00,0.000000000000000e+00
	4.042599320110918e-10,-4.451409939938784e-14
	4.045863544919152e-10,-2.895573227686357e-15
	3.594651486862064e-06,-1.097438342243216e-14
	2.777182119065643e-07,2.354227134703958e-12
	-2.157576277268252e-10,4.318873836872422e-15
	-3.872153941140901e-06,-2.347571625118398e-12
	-3.594651486862065e-06,1.097438342243216e-14
	-2.777182119134691e-07,-2.354227134703958e-12
	-3.594651486862065e-06,1.097438342243216e-14
17		1.479108388168207e+00,0.000000000000000e+00
	-3.594651486862065e-02,1.123000965077691e-10
	1.000000000000000e+00,0.000000000000000e+00
	0.000000000000000e+00,0.000000000000000e+00
	4.042599320110763e-10,-4.555096597308248e-14
	4.045863544919057e-10,-2.963019792527207e-15
	3.594651486862064e-06,-1.123000965077714e-14
	2.777182119065642e-07,2.409064129179759e-12
	-2.157576277268198e-10,4.419473331816239e-15
	-3.872153941140901e-06,-2.402253592860798e-12
	-3.594651486862065e-06,1.123000965077691e-14
	-2.777182119134691e-07,-2.409064129179758e-12
	-3.594651486862065e-06,1.123000965077691e-14
18		1.513561248436208e+00,0.000000000000000e+00
	-3.594651486862065e-02,1.149159017888525e-10
	1.000000000000000e+00,0.000000000000000e+00
	0.000000000000000e+00,0.000000000000000e+00
	4.042599320110602e-10,-4.661198427187436e-14
	4.045863544918959e-10,-3.032037389682241e-15
	3.594651486862064e-06,-1.149159017888529e-14
	2.777182119065642e-07,2.465178441344585e-12
	-2.157576277268141e-10,4.522416090019220e-15
	-3.872153941140901e-06,-2.458209267255719e-12
	-3.594651486862065e-06,1.149159017888525e-14
	-2.777182119134691e-07,-2.465178441344585e-12
	-3.594651486862065e-06,1.149159017888525e-14
19		1.548816618912481e+00,0.000000000000000e+00
	-3.594651486862065e-02,1.175926370021562e-10
	1.000000000000000e+00,0.000000000000000e+00
	0.000000000000000e+00,0.000000000000000e+00
	4.042599320110434e-10,-4.769771686170976e-14
	4.045863544918856e-10,-3.102662613195058e-15
	3.594651486862064e-06,-1.175926370021556e-14
	2.777182119065642e-07,2.522599823749506e-12
	-2.157576277268082e-10,4.627756693094392e-15
	-3.872153941140901e-06,-2.515468316742385e-12
	-3.594651486862065e-06,1.175926370021562e-14
	-2.777182119134691e-07,-2.522599823749505e-12
	-3.594651486862065e-06,1.175926370021562e-14
20		1.584893192461113e+00,0.000000000000000e+00
	-3.594651486862065e-02,1.203317213881209e-10
	1.000000000000000e+00,0.000000000000000e+00
	0.000000000000000e+00,0.000000000000000e+00
	4.042599320110257e-10,-4.880873941237919e-14
	4.045863544918748e-10,-3.174932909494033e-15
	3.594651486862064e-06,-1.203317213881206e-14
	2.777182119065642e-07,2.581358721971534e-12
	-2.157576277268020e-10,4.735550994023867e-15
	-3.872153941140901e-06,-2.574061100826746e-12
	-3.594651486862065e-06,1.203317213881209e-14
	-2.777182119134691e-07,-2.581358721971535e-12
	-3.594651486862065e-06,1.203317213881209e-14
21		1.621810097358929e+00,0.000000000000000e+00
	-3.594651486862065e-02,1.231346072455443e-10
	1.000000000000000e+00,0.000000000000000e+00
	0.000000000000000e+00,0.000000000000000e+00
	4.042599320110072e-10,-4.994564100274506e-14
	4.045863544918636e-10,-3.248886597246764e-15
	3.594651486862064e-06,-1.231346072455411e-14
	2.777182119065642e-07,2.641486290756274e-12
	-2.157576277267955e-10,4.845856146772769e-15
	-3.872153941140901e-06,-2.634018686178493e-12
	-3.594651486862065e-06,1.231346072455443e-14
	-2.777182119134691e-07,-2.641486290756274e-12
	-3.594651486862065e-06,1.231346072455443e-14
22		1.659586907437560e+00,0.000000000000000e+00
	-3.594651486862065e-02,1.260027807016084e-10
	1.000000000000000e+00,0.000000000000000e+00
	0.000000000000000e+00,0.000000000000000e+00
	4.042599320109879e-10,-5.110902443307933e-14
	4.045863544918518e-10,-3.324562887677489e-15
	3.594651486862064e-06,-1.260027807016094e-14
	2.777182119065642e-07,2.703014410536579e-12
	-2.157576277267887e-10,4.958730636593198e-15
	-3.872153941140901e-06,-2.695372863103011e-12
	-3.594651486862065e-06,1.260027807016084e-14
	-2.777182119134691e-07,-2.703014410536579e-12
	-3.594651486862065e-06,1.260027807016084e-14
23		1.698243652461743e+00,0.000000000000000e+00
	-3.594651486862065e-02,1.289377624998445e-10
	1.000000000000000e+00,0.000000000000000e+00
	0.000000000000000e+00,0.000000000000000e+00
	4.042599320109676e-10,-5.229950654467592e-14
	4.045863544918394e-10,-3.402001905357042e-15
	3.594651486862064e-06,-1.289377624998433e-14
	2.777182119065642e-07,2.765975704335974e-12
	-2.157576277267816e-10,5.074234311033702e-15
	-3.872153941140901e-06,-2.758156162397024e-12
	-3.594651486862065e-06,1.289377624998446e-14
	-2.777182119134691e-07,-2.765975704335974e-12
	-3.594651486862065e-06,1.289377624998446e-14
24		1.737800828749374e+00,0.000000000000000e+00
	-3.594651486862065e-02,1.319411088064511e-10
	1.000000000000000e+00,0.000000000000000e+00
	0.000000000000000e+00,0.000000000000000e+00
	4.042599320109464e-10,-5.351771854690828e-14
	4.045863544918264e-10,-3.481244709477612e-15
	3.594651486862064e-06,-1.319411088064493e-14
	2.777182119065642e-07,2.830403555065825e-12
	-2.157576277267741e-10,5.192428411671337e-15
	-3.872153941140901e-06,-2.822401872596851e-12
	-3.594651486862065e-06,1.319411088064511e-14
	-2.777182119134691e-07,-2.830403555065826e-12
	-3.594651486862065e-06,1.319411088064511e-14
25		1.778279410038922e+00,0.000000000000000e+00
	-3.594651486862065e-02,1.350144120353939e-10
	1.000000000000000e+00,0.000000000000000e+00
	0.000000000000000e+00,0.000000000000000e+00
	4.042599320109242e-10,-5.476430635190502e-14
	4.045863544918128e-10,-3.562333315622920e-15
	3.594651486862064e-06,-1.350144120353955e-14
	2.777182119065642e-07,2.896332123225392e-12
	-2.157576277267663e-10,5.313375606582780e-15
	-3.872153941140901e-06,-2.888144057628435e-12
	-3.594651486862065e-06,1.350144120353939e-14
	-2.777182119134691e-07,-2.896332123225393e-12
	-3.594651486862065e-06,1.350144120353939e-14
26		1.819700858609982e+00,0.000000000000000e+00
	-3.594651486862065e-02,1.381593016927249e-10
	1.000000000000000e+00,0.000000000000000e+00
	0.000000000000000e+00,0.000000000000000e+00
	4.042599320109009e-10,-5.603993091702079e-14
	4.045863544917987e-10,-3.645310718045209e-15
	3.594651486862064e-06,-1.381593016927228e-14
	2.777182119065642e-07,2.963796365014181e-12
	-2.157576277267581e-10,5.437140023571666e-15
	-3.872153941140901e-06,-2.955417574868480e-12
	-3.594651486862065e-06,1.381593016927249e-14
	-2.777182119134691e-07,-2.963796365014182e-12
	-3.594651486862065e-06,1.381593016927249e-14
27		1.862087136662866e+00,0.000000000000000e+00
	-3.594651486862065e-02,1.413774452405679e-10
	1.000000000000000e+00,0.000000000000000e+00
	0.000000000000000e+00,0.000000000000000e+00
	4.042599320108765e-10,-5.734526859528492e-14
	4.045863544917837e-10,-3.730220912461564e-15
	3.594651486862064e-06,-1.413774452405676e-14
	2.777182119065642e-07,3.032832050866183e-12
	-2.157576277267495e-10,5.563787284170088e-15
	-3.872153941140901e-06,-3.024258093626297e-12
	-3.594651486862065e-06,1.413774452405679e-14
	-2.777182119134691e-07,-3.032832050866184e-12
	-3.594651486862065e-06,1.413774452405679e-14
28		1.905460717963246e+00,0.000000000000000e+00
	-3.594651486862065e-02,1.446705489812292e-10
	1.000000000000000e+00,0.000000000000000e+00
	0.000000000000000e+00,0.000000000000000e+00
	4.042599320108510e-10,-5.868101149401270e-14
	4.045863544917682e-10,-3.817108919381063e-15
	3.594651486862064e-06,-1.446705489812269e-14
	2.777182119065642e-07,3.103475784415833e-12
	-2.157576277267405e-10,5.693384538432033e-15
	-3.872153941140901e-06,-3.094702114056142e-12
	-3.594651486862065e-06,1.446705489812292e-14
	-2.777182119134691e-07,-3.103475784415833e-12
	-3.594651486862065e-06,1.446705489812292e-14
29		1.949844599758044e+00,0.000000000000000e+00
	-3.594651486862065e-02,1.480403589619014e-10
	1.000000000000000e+00,0.000000000000000e+00
	0.000000000000000e+00,0.000000000000000e+00
	4.042599320108243e-10,-6.004786784176956e-14
	4.045863544917519e-10,-3.906020807974982e-15
	3.594651486862064e-06,-1.480403589619050e-14
	2.777182119065642e-07,3.175765021905739e-12
	-2.157576277267312e-10,5.826000500537084e-15
	-3.872153941140901e-06,-3.166786986510086e-12
	-3.594651486862065e-06,1.480403589619014e-14
	-2.777182119134691e-07,-3.175765021905739e-12
	-3.594651486862065e-06,1.480403589619014e-14
30		1.995262314968878e+00,0.000000000000000e+00
	-3.594651486862065e-02,1.514886619004410e-10
	1.000000000000000e+00,0.000000000000000e+00
	0.000000000000000e+00,0.000000000000000e+00
	4.042599320107963e-10,-6.144656236388367e-14
	4.045863544917348e-10,-3.997003720503639e-15
	3.594651486862064e-06,-1.514886619004417e-14
	2.777182119065642e-07,3.249738092046477e-12
	-2.157576277267213e-10,5.961705485223780e-15
	-3.872153941140901e-06,-3.240550931341657e-12
	-3.594651486862065e-06,1.514886619004410e-14
	-2.777182119134691e-07,-3.249738092046478e-12
	-3.594651486862065e-06,1.514886619004410e-14
31		2.041737944669527e+00,0.000000000000000e+00
	-3.594651486862065e-02,1.550172861327098e-10
	1.000000000000000e+00,0.000000000000000e+00
	0.000000000000000e+00,0.000000000000000e+00
	4.042599320107669e-10,-6.287783666670446e-14
	4.045863544917169e-10,-4.090105897311463e-15
	3.594651486862064e-06,-1.550172861327100e-14
	2.777182119065641e-07,3.325434216338989e-12
	-2.157576277267110e-10,6.100571445071219e-15
	-3.872153941140901e-06,-3.316033059170789e-12
	-3.594651486862065e-06,1.550172861327098e-14
	-2.777182119134691e-07,-3.325434216338988e-12
	-3.594651486862065e-06,1.550172861327098e-14
32		2.089296130854037e+00,0.000000000000000e+00
	-3.594651486862065e-02,1.586281025819825e-10
	1.000000000000000e+00,0.000000000000000e+00
	0.000000000000000e+00,0.000000000000000e+00
