LTspice 24.0.9 for Windows
Circuit: * GA CMOS Amp | W=3.6116760685012814e-05 L=7.142572690813112e-07 Vbias=1.3519446336757888
Start Time: Sat Sep  6 22:02:14 2025
solver = Normal
Maximum thread count: 2
tnom = 27
temp = 27
method = modified trap
AsciiRawFile = 1
Direct Newton iteration for .op point succeeded.
Semiconductor Device Operating Points:
                        --- BSIM4 MOSFETS ---
Name:      m1
Model:      n
Id:      1.76e-04
Vgs:     1.35e+00
Vds:     3.78e-02
Vbs:     0.00e+00
Vth:     2.42e-01
Vdsat:   7.73e-01
Gm:     -2.44e-05
Gds:     4.69e-03
Gmb      9.24e-05
Cbd:     1.78e-14
Cbs:     2.89e-14


.measure op idd find i(vdd)
  Error: FIND can not be evaluated over an interval.

gain_db: MAX(db(v(out)/v(g)))=(32.0686dB,180°) FROM 1 TO 1e+09
gain_lin: MAX(mag(v(out)/v(g)))=(-5.59dB,0°) FROM 1 TO 1e+09

Measurement "fc" FAIL'ed

Total elapsed time: 1.516 seconds.

