LTspice 24.0.9 for Windows
Circuit: * GA CMOS Amp | W=2.3277433421123974e-05 L=9.71943027474546e-07 Vbias=1.4175404518344894
Start Time: Mon Sep  8 18:43:11 2025
solver = Normal
Maximum thread count: 2
tnom = 27
temp = 27
method = modified trap
AsciiRawFile = 1
Instance "m1": Length shorter than recommended for a level 3 MOSFET.
Direct Newton iteration for .op point succeeded.
Semiconductor Device Operating Points:
                        --- MOSFET Transistors ---
Name:          m1
Model:        n_1u
Id:          1.71e-04
Vgs:         1.42e+00
Vds:         8.76e-02
Vbs:         0.00e+00
Vth:         8.08e-01
Vdsat:       4.56e-01
Gm:          2.63e-04
Gds:         1.67e-03
Gmb:         6.66e-05
Cbd:         0.00e+00
Cbs:         0.00e+00
Cgsov:       4.66e-15
Cgdov:       4.66e-15
Cgbov:       7.72e-17
Cgs:         1.66e-14
Cgd:         1.44e-14
Cgb:         0.00e+00



gain_db: MAX(db(v(out)/v(g)))=(30.0806dB,121.247°) FROM 1 TO 1e+09
gain_lin: MAX(mag(v(out)/v(g)))=(-15.6981dB,0°) FROM 1 TO 1e+09

Measurement "fc" FAIL'ed

Total elapsed time: 0.463 seconds.

