Title: * GA CMOS Amp | W=1e-06 L=2.669226322330019e-07 Vbias=1.237592889690809
Date: Sat Sep  6 22:09:00 2025
Plotname: AC Analysis
Flags: complex forward log
No. Variables: 13
No. Points:          901
Offset:    0.0000000000000000e+00
Command: Linear Technology Corporation LTspice
Variables:
	0	frequency	frequency
	1	V(out)	voltage
	2	V(g)	voltage
	3	V(vdd)	voltage
	4	V(m1#dbody)	voltage
	5	V(m1#sbody)	voltage
	6	Id(M1)	device_current
	7	Ig(M1)	device_current
	8	Ib(M1)	device_current
	9	Is(M1)	device_current
	10	I(Rload)	device_current
	11	I(Vg)	device_current
	12	I(Vdd)	device_current
Values:
0		1.000000000000000e+00,0.000000000000000e+00
	-4.937754589543789e-01,1.783496747381299e-10
	1.000000000000000e+00,0.000000000000000e+00
	0.000000000000000e+00,0.000000000000000e+00
	8.851681438137732e-07,9.141591061446383e-15
	8.851718471296818e-07,1.909236308846779e-14
	4.937754589543786e-05,-1.783496747381299e-14
	6.834767587569496e-07,6.809303912352568e-14
	-4.720914052715049e-07,-9.519222200158119e-15
	-4.958893124892331e-05,-4.073884944955457e-14
	-4.937754589543789e-05,1.783496747381299e-14
	-6.834767587449164e-07,-6.809303912352569e-14
	-4.937754589543789e-05,1.783496747381299e-14
1		1.023292992280754e+00,0.000000000000000e+00
	-4.937754589543789e-01,1.825039723350802e-10
	1.000000000000000e+00,0.000000000000000e+00
	0.000000000000000e+00,0.000000000000000e+00
	8.851681438137732e-07,9.354526071474468e-15
	8.851718471296818e-07,1.953708135450883e-14
	4.937754589543786e-05,-1.825039723350801e-14
	6.834767587569496e-07,6.967912975820306e-14
	-4.720914052715049e-07,-9.740953369385189e-15
	-4.958893124892331e-05,-4.168777915530984e-14
	-4.937754589543789e-05,1.825039723350802e-14
	-6.834767587449164e-07,-6.967912975820307e-14
	-4.937754589543789e-05,1.825039723350802e-14
2		1.047128548050899e+00,0.000000000000000e+00
	-4.937754589543789e-01,1.867550359538882e-10
	1.000000000000000e+00,0.000000000000000e+00
	0.000000000000000e+00,0.000000000000000e+00
	8.851681438137732e-07,9.572420975047437e-15
	8.851718471296818e-07,1.999215843968787e-14
	4.937754589543786e-05,-1.867550359538882e-14
	6.834767587569496e-07,7.130216518979055e-14
	-4.720914052715049e-07,-9.967849321025464e-15
	-4.958893124892331e-05,-4.265881227337626e-14
	-4.937754589543789e-05,1.867550359538882e-14
	-6.834767587449164e-07,-7.130216518979056e-14
	-4.937754589543789e-05,1.867550359538882e-14
3		1.071519305237606e+00,0.000000000000000e+00
	-4.937754589543789e-01,1.911051195647541e-10
	1.000000000000000e+00,0.000000000000000e+00
	0.000000000000000e+00,0.000000000000000e+00
	8.851681438137732e-07,9.795391302927340e-15
	8.851718471296818e-07,2.045783563189912e-14
	4.937754589543786e-05,-1.911051195647540e-14
	6.834767587569496e-07,7.296300597315737e-14
	-4.720914052715049e-07,-1.020003035831583e-14
	-4.958893124892331e-05,-4.365246365836615e-14
	-4.937754589543789e-05,1.911051195647541e-14
	-6.834767587449164e-07,-7.296300597315739e-14
	-4.937754589543789e-05,1.911051195647541e-14
4		1.096478196143185e+00,0.000000000000000e+00
	-4.937754589543789e-01,1.955565296395884e-10
	1.000000000000000e+00,0.000000000000000e+00
	0.000000000000000e+00,0.000000000000000e+00
	8.851681438137732e-07,1.002355527693339e-14
	8.851718471296818e-07,2.093435983935388e-14
	4.937754589543786e-05,-1.955565296395884e-14
	6.834767587569496e-07,7.466253270807074e-14
	-4.720914052715049e-07,-1.043761958671553e-14
	-4.958893124892331e-05,-4.466926015739636e-14
	-4.937754589543789e-05,1.955565296395885e-14
	-6.834767587449164e-07,-7.466253270807075e-14
	-4.937754589543789e-05,1.955565296395885e-14
5		1.122018454301963e+00,0.000000000000000e+00
	-4.937754589543789e-01,2.001116263749345e-10
	1.000000000000000e+00,0.000000000000000e+00
	0.000000000000000e+00,0.000000000000000e+00
	8.851681438137732e-07,1.025703387262471e-14
	8.851718471296818e-07,2.142198372149449e-14
	4.937754589543786e-05,-2.001116263749344e-14
	6.834767587569496e-07,7.640164650610139e-14
	-4.720914052715049e-07,-1.068074297917835e-14
	-4.958893124892331e-05,-4.570974088942960e-14
	-4.937754589543789e-05,2.001116263749345e-14
	-6.834767587449164e-07,-7.640164650610140e-14
	-4.937754589543789e-05,2.001116263749345e-14
6		1.148153621496882e+00,0.000000000000000e+00
	-4.937754589543789e-01,2.047728249433749e-10
	1.000000000000000e+00,0.000000000000000e+00
	0.000000000000000e+00,0.000000000000000e+00
	8.851681438137732e-07,1.049595088344320e-14
	8.851718471296818e-07,2.192096582295770e-14
	4.937754589543786e-05,-2.047728249433749e-14
	6.834767587569496e-07,7.818126946840491e-14
	-4.720914052715049e-07,-1.092952944294507e-14
	-4.958893124892331e-05,-4.677445753112235e-14
	-4.937754589543789e-05,2.047728249433749e-14
	-6.834767587449164e-07,-7.818126946840492e-14
	-4.937754589543789e-05,2.047728249433749e-14
7		1.174897554939529e+00,0.000000000000000e+00
	-4.937754589543789e-01,2.095425967740892e-10
	1.000000000000000e+00,0.000000000000000e+00
	0.000000000000000e+00,0.000000000000000e+00
	8.851681438137732e-07,1.074043298635042e-14
	8.851718471296818e-07,2.243157071065853e-14
	4.937754589543786e-05,-2.095425967740892e-14
	6.834767587569496e-07,8.000234517463203e-14
	-4.720914052715049e-07,-1.118411088789186e-14
	-4.958893124892331e-05,-4.786397460933125e-14
	-4.937754589543789e-05,2.095425967740892e-14
	-6.834767587449164e-07,-8.000234517463205e-14
	-4.937754589543789e-05,2.095425967740892e-14
8		1.202264434617413e+00,0.000000000000000e+00
	-4.937754589543789e-01,2.144234708632372e-10
	1.000000000000000e+00,0.000000000000000e+00
	0.000000000000000e+00,0.000000000000000e+00
	8.851681438137732e-07,1.099060980899343e-14
	8.851718471296818e-07,2.295406911406709e-14
	4.937754589543786e-05,-2.144234708632372e-14
	6.834767587569496e-07,8.186583918322696e-14
	-4.720914052715049e-07,-1.144462229647063e-14
	-4.958893124892331e-05,-4.897886980043262e-14
	-4.937754589543789e-05,2.144234708632373e-14
	-6.834767587449164e-07,-8.186583918322695e-14
	-4.937754589543789e-05,2.144234708632373e-14
9		1.230268770812381e+00,0.000000000000000e+00
	-4.937754589543789e-01,2.194180351148671e-10
	1.000000000000000e+00,0.000000000000000e+00
	0.000000000000000e+00,0.000000000000000e+00
	8.851681438137732e-07,1.124661399843509e-14
	8.851718471296818e-07,2.348873806875294e-14
	4.937754589543786e-05,-2.194180351148671e-14
	6.834767587569496e-07,8.377273954337932e-14
	-4.720914052715049e-07,-1.171120179527846e-14
	-4.958893124892331e-05,-5.011973423661415e-14
	-4.937754589543789e-05,2.194180351148671e-14
	-6.834767587449164e-07,-8.377273954337932e-14
	-4.937754589543789e-05,2.194180351148671e-14
10		1.258925411794167e+00,0.000000000000000e+00
	-4.937754589543789e-01,2.245289377130560e-10
	1.000000000000000e+00,0.000000000000000e+00
	0.000000000000000e+00,0.000000000000000e+00
	8.851681438137732e-07,1.150858129148527e-14
	8.851718471296818e-07,2.403586106327307e-14
	4.937754589543786e-05,-2.245289377130559e-14
	6.834767587569496e-07,8.572405731890089e-14
	-4.720914052715049e-07,-1.198399072829424e-14
	-4.958893124892331e-05,-5.128717281930106e-14
	-4.937754589543789e-05,2.245289377130560e-14
	-6.834767587449164e-07,-8.572405731890089e-14
	-4.937754589543789e-05,2.245289377130560e-14
11		1.288249551693134e+00,0.000000000000000e+00
	-4.937754589543789e-01,2.297588885260121e-10
	1.000000000000000e+00,0.000000000000000e+00
	0.000000000000000e+00,0.000000000000000e+00
	8.851681438137732e-07,1.177665058667027e-14
	8.851718471296818e-07,2.459572818948117e-14
	4.937754589543786e-05,-2.297588885260120e-14
	6.834767587569496e-07,8.772082712430497e-14
	-4.720914052715049e-07,-1.226313373182103e-14
	-4.958893124892331e-05,-5.248180453988274e-14
	-4.937754589543789e-05,2.297588885260122e-14
	-6.834767587449164e-07,-8.772082712430499e-14
	-4.937754589543789e-05,2.297588885260122e-14
12		1.318256738556407e+00,0.000000000000000e+00
	-4.937754589543789e-01,2.351106605428832e-10
	1.000000000000000e+00,0.000000000000000e+00
	0.000000000000000e+00,0.000000000000000e+00
	8.851681438137732e-07,1.205096401787871e-14
	8.851718471296818e-07,2.516863629633828e-14
	4.937754589543786e-05,-2.351106605428831e-14
	6.834767587569496e-07,8.976410767337279e-14
	-4.720914052715049e-07,-1.254877881117419e-14
	-4.958893124892331e-05,-5.370426280791028e-14
	-4.937754589543789e-05,2.351106605428832e-14
	-6.834767587449164e-07,-8.976410767337279e-14
	-4.937754589543789e-05,2.351106605428832e-14
13		1.348962882591653e+00,0.000000000000000e+00
	-4.937754589543789e-01,2.405870913440316e-10
	1.000000000000000e+00,0.000000000000000e+00
	0.000000000000000e+00,0.000000000000000e+00
	8.851681438137732e-07,1.233166702972281e-14
	8.851718471296818e-07,2.575488914730600e-14
	4.937754589543786e-05,-2.405870913440315e-14
	6.834767587569496e-07,9.185498234049744e-14
	-4.720914052715049e-07,-1.284107741915576e-14
	-4.958893124892331e-05,-5.495519578693852e-14
	-4.937754589543789e-05,2.405870913440316e-14
	-6.834767587449164e-07,-9.185498234049744e-14
	-4.937754589543789e-05,2.405870913440316e-14
14		1.380384264602885e+00,0.000000000000000e+00
	-4.937754589543789e-01,2.461910846055571e-10
	1.000000000000000e+00,0.000000000000000e+00
	0.000000000000000e+00,0.000000000000000e+00
	8.851681438137732e-07,1.261890845465498e-14
	8.851718471296818e-07,2.635479758140587e-14
	4.937754589543786e-05,-2.461910846055571e-14
	6.834767587569496e-07,9.399455973510346e-14
	-4.720914052715049e-07,-1.314018453635672e-14
	-4.958893124892331e-05,-5.623526673819101e-14
	-4.937754589543789e-05,2.461910846055571e-14
	-6.834767587449164e-07,-9.399455973510346e-14
	-4.937754589543789e-05,2.461910846055571e-14
15		1.412537544622754e+00,0.000000000000000e+00
	-4.937754589543789e-01,2.519256116388649e-10
	1.000000000000000e+00,0.000000000000000e+00
	0.000000000000000e+00,0.000000000000000e+00
	8.851681438137732e-07,1.291284059188080e-14
	8.851718471296818e-07,2.696867967803040e-14
	4.937754589543786e-05,-2.519256116388648e-14
	6.834767587569496e-07,9.618397428944610e-14
	-4.720914052715049e-07,-1.344625875332976e-14
	-4.958893124892331e-05,-5.754515437222984e-14
	-4.937754589543789e-05,2.519256116388649e-14
	-6.834767587449164e-07,-9.618397428944612e-14
	-4.937754589543789e-05,2.519256116388649e-14
16		1.445439770745927e+00,0.000000000000000e+00
	-4.937754589543789e-01,2.577937129660932e-10
	1.000000000000000e+00,0.000000000000000e+00
	0.000000000000000e+00,0.000000000000000e+00
	8.851681438137732e-07,1.321361928811009e-14
	8.851718471296818e-07,2.759686092559289e-14
	4.937754589543786e-05,-2.577937129660931e-14
	6.834767587569496e-07,9.842438686010240e-14
	-4.720914052715049e-07,-1.375946235467610e-14
	-4.958893124892331e-05,-5.888555320881699e-14
	-4.937754589543789e-05,2.577937129660932e-14
	-6.834767587449164e-07,-9.842438686010241e-14
	-4.937754589543789e-05,2.577937129660932e-14
17		1.479108388168207e+00,0.000000000000000e+00
	-4.937754589543789e-01,2.637984999322393e-10
	1.000000000000000e+00,0.000000000000000e+00
	0.000000000000000e+00,0.000000000000000e+00
	8.851681438137732e-07,1.352140402018884e-14
	8.851718471296818e-07,2.823967439410575e-14
	4.937754589543786e-05,-2.637984999322392e-14
	6.834767587569496e-07,1.007169853434727e-13
	-4.720914052715049e-07,-1.407996140509089e-14
	-4.958893124892331e-05,-6.025717394515790e-14
	-4.937754589543789e-05,2.637984999322393e-14
	-6.834767587449164e-07,-1.007169853434727e-13
	-4.937754589543789e-05,2.637984999322393e-14
18		1.513561248436208e+00,0.000000000000000e+00
	-4.937754589543789e-01,2.699431563548355e-10
	1.000000000000000e+00,0.000000000000000e+00
	0.000000000000000e+00,0.000000000000000e+00
	8.851681438137732e-07,1.383635797965607e-14
	8.851718471296818e-07,2.889746091177868e-14
	4.937754589543786e-05,-2.699431563548354e-14
	6.834767587569496e-07,1.030629853056190e-13
	-4.720914052715049e-07,-1.440792583741299e-14
	-4.958893124892331e-05,-6.166074383272252e-14
	-4.937754589543789e-05,2.699431563548355e-14
	-6.834767587449164e-07,-1.030629853056191e-13
	-4.937754589543789e-05,2.699431563548355e-14
19		1.548816618912481e+00,0.000000000000000e+00
	-4.937754589543789e-01,2.762309402120510e-10
	1.000000000000000e+00,0.000000000000000e+00
	0.000000000000000e+00,0.000000000000000e+00
	8.851681438137732e-07,1.415864815926995e-14
	8.851718471296818e-07,2.957056924573013e-14
	4.937754589543786e-05,-2.762309402120510e-14
	6.834767587569496e-07,1.054636306267743e-13
	-4.720914052715049e-07,-1.474352954272553e-14
	-4.958893124892331e-05,-6.309700706284368e-14
	-4.937754589543789e-05,2.762309402120511e-14
	-6.834767587449164e-07,-1.054636306267743e-13
	-4.937754589543789e-05,2.762309402120511e-14
20		1.584893192461113e+00,0.000000000000000e+00
	-4.937754589543789e-01,2.826651853701158e-10
	1.000000000000000e+00,0.000000000000000e+00
	0.000000000000000e+00,0.000000000000000e+00
	8.851681438137732e-07,1.448844544154974e-14
	8.851718471296818e-07,3.025935628690843e-14
	4.937754589543786e-05,-2.826651853701158e-14
	6.834767587569496e-07,1.079201941608641e-13
	-4.720914052715049e-07,-1.508695046255531e-14
	-4.958893124892331e-05,-6.456672516129719e-14
	-4.937754589543789e-05,2.826651853701158e-14
	-6.834767587449164e-07,-1.079201941608641e-13
	-4.937754589543789e-05,2.826651853701158e-14
21		1.621810097358929e+00,0.000000000000000e+00
	-4.937754589543789e-01,2.892493033509798e-10
	1.000000000000000e+00,0.000000000000000e+00
	0.000000000000000e+00,0.000000000000000e+00
	8.851681438137732e-07,1.482592468937987e-14
	8.851718471296818e-07,3.096418723931998e-14
	4.937754589543786e-05,-2.892493033509798e-14
	6.834767587569496e-07,1.104339784103906e-13
	-4.720914052715049e-07,-1.543837068321972e-14
	-4.958893124892331e-05,-6.607067739207286e-14
	-4.937754589543789e-05,2.892493033509798e-14
	-6.834767587449164e-07,-1.104339784103906e-13
	-4.937754589543789e-05,2.892493033509798e-14
22		1.659586907437560e+00,0.000000000000000e+00
	-4.937754589543789e-01,2.959867851411478e-10
	1.000000000000000e+00,0.000000000000000e+00
	0.000000000000000e+00,0.000000000000000e+00
	8.851681438137732e-07,1.517126483872464e-14
	8.851718471296818e-07,3.168543581366528e-14
	4.937754589543786e-05,-2.959867851411476e-14
	6.834767587569496e-07,1.130063162170368e-13
	-4.720914052715049e-07,-1.579797653237138e-14
	-4.958893124892331e-05,-6.760966117055061e-14
	-4.937754589543789e-05,2.959867851411478e-14
	-6.834767587449164e-07,-1.130063162170368e-13
	-4.937754589543789e-05,2.959867851411478e-14
23		1.698243652461743e+00,0.000000000000000e+00
	-4.937754589543789e-01,3.028812030426458e-10
	1.000000000000000e+00,0.000000000000000e+00
	0.000000000000000e+00,0.000000000000000e+00
	8.851681438137732e-07,1.552464899350234e-14
	8.851718471296818e-07,3.242348442548533e-14
	4.937754589543786e-05,-3.028812030426457e-14
	6.834767587569496e-07,1.156385714683567e-13
	-4.720914052715049e-07,-1.616595867779145e-14
	-4.958893124892331e-05,-6.918449248630064e-14
	-4.937754589543789e-05,3.028812030426458e-14
	-6.834767587449164e-07,-1.156385714683567e-13
	-4.937754589543789e-05,3.028812030426458e-14
24		1.737800828749374e+00,0.000000000000000e+00
	-4.937754589543789e-01,3.099362125671036e-10
	1.000000000000000e+00,0.000000000000000e+00
	0.000000000000000e+00,0.000000000000000e+00
	8.851681438137732e-07,1.588626452266939e-14
	8.851718471296818e-07,3.317872439792329e-14
	4.937754589543786e-05,-3.099362125671035e-14
	6.834767587569496e-07,1.183321398209265e-13
	-4.720914052715049e-07,-1.654251222848422e-14
	-4.958893124892331e-05,-7.079600633573193e-14
	-4.937754589543789e-05,3.099362125671036e-14
	-6.834767587449164e-07,-1.183321398209265e-13
	-4.937754589543789e-05,3.099362125671036e-14
25		1.778279410038922e+00,0.000000000000000e+00
	-4.937754589543789e-01,3.171555543739553e-10
	1.000000000000000e+00,0.000000000000000e+00
	0.000000000000000e+00,0.000000000000000e+00
	8.851681438137732e-07,1.625630315956597e-14
	8.851718471296818e-07,3.395155616920940e-14
	4.937754589543786e-05,-3.171555543739552e-14
	6.834767587569496e-07,1.210884494403405e-13
	-4.720914052715049e-07,-1.692783683812660e-14
	-4.958893124892331e-05,-7.244505716481836e-14
	-4.937754589543789e-05,3.171555543739553e-14
	-6.834767587449164e-07,-1.210884494403405e-13
	-4.937754589543789e-05,3.171555543739553e-14
26		1.819700858609982e+00,0.000000000000000e+00
	-4.937754589543789e-01,3.245430562537861e-10
	1.000000000000000e+00,0.000000000000000e+00
	0.000000000000000e+00,0.000000000000000e+00
	8.851681438137732e-07,1.663496110357532e-14
	8.851718471296818e-07,3.474238950497837e-14
	4.937754589543786e-05,-3.245430562537861e-14
	6.834767587569496e-07,1.239089617584428e-13
	-4.720914052715049e-07,-1.732213681092694e-14
	-4.958893124892331e-05,-7.413251932213725e-14
	-4.937754589543789e-05,3.245430562537861e-14
	-6.834767587449164e-07,-1.239089617584428e-13
	-4.937754589543789e-05,3.245430562537861e-14
27		1.862087136662866e+00,0.000000000000000e+00
	-4.937754589543789e-01,3.321026351578779e-10
	1.000000000000000e+00,0.000000000000000e+00
	0.000000000000000e+00,0.000000000000000e+00
	8.851681438137732e-07,1.702243912415155e-14
	8.851718471296818e-07,3.555164371553278e-14
	4.937754589543786e-05,-3.321026351578778e-14
	6.834767587569496e-07,1.267951722481984e-13
	-4.720914052715049e-07,-1.772562120995003e-14
	-4.958893124892331e-05,-7.585928752246065e-14
	-4.937754589543789e-05,3.321026351578779e-14
	-6.834767587449164e-07,-1.267951722481985e-13
	-4.937754589543789e-05,3.321026351578779e-14
28		1.905460717963246e+00,0.000000000000000e+00
	-4.937754589543789e-01,3.398382992750285e-10
	1.000000000000000e+00,0.000000000000000e+00
	0.000000000000000e+00,0.000000000000000e+00
	8.851681438137732e-07,1.741894266727001e-14
	8.851718471296818e-07,3.637974787816680e-14
	4.937754589543786e-05,-3.398382992750283e-14
	6.834767587569496e-07,1.297486112166126e-13
	-4.720914052715049e-07,-1.813850396796496e-14
	-4.958893124892331e-05,-7.762627732114483e-14
	-4.937754589543789e-05,3.398382992750285e-14
	-6.834767587449164e-07,-1.297486112166127e-13
	-4.937754589543789e-05,3.398382992750285e-14
29		1.949844599758044e+00,0.000000000000000e+00
	-4.937754589543789e-01,3.477541501567463e-10
	1.000000000000000e+00,0.000000000000000e+00
	0.000000000000000e+00,0.000000000000000e+00
	8.851681438137732e-07,1.782468196435764e-14
	8.851718471296818e-07,3.722714106466873e-14
	4.937754589543786e-05,-3.477541501567462e-14
	6.834767587569496e-07,1.327708446161198e-13
	-4.720914052715049e-07,-1.856100400087520e-14
	-4.958893124892331e-05,-7.943442559956995e-14
	-4.937754589543789e-05,3.477541501567463e-14
	-6.834767587449164e-07,-1.327708446161198e-13
	-4.937754589543789e-05,3.477541501567463e-14
30		1.995262314968878e+00,0.000000000000000e+00
	-4.937754589543789e-01,3.558543848919476e-10
	1.000000000000000e+00,0.000000000000000e+00
	0.000000000000000e+00,0.000000000000000e+00
	8.851681438137732e-07,1.823987214376032e-14
	8.851718471296818e-07,3.809427257412260e-14
	4.937754589543786e-05,-3.558543848919474e-14
	6.834767587569496e-07,1.358634748748722e-13
	-4.720914052715049e-07,-1.899334532379063e-14
	-4.958893124892331e-05,-8.128469106188685e-14
	-4.937754589543789e-05,3.558543848919476e-14
	-6.834767587449164e-07,-1.358634748748722e-13
	-4.937754589543789e-05,3.558543848919476e-14
31		2.041737944669527e+00,0.000000000000000e+00
	-4.937754589543789e-01,3.641432983323082e-10
	1.000000000000000e+00,0.000000000000000e+00
	0.000000000000000e+00,0.000000000000000e+00
	8.851681438137732e-07,1.866473334480686e-14
	8.851718471296818e-07,3.898160217113257e-14
	4.937754589543786e-05,-3.641432983323081e-14
	6.834767587569496e-07,1.390281417463690e-13
	-4.720914052715049e-07,-1.943575716980338e-14
	-4.958893124892331e-05,-8.317805474333486e-14
	-4.937754589543789e-05,3.641432983323082e-14
	-6.834767587449164e-07,-1.390281417463691e-13
	-4.937754589543789e-05,3.641432983323082e-14
32		2.089296130854037e+00,0.000000000000000e+00
	-4.937754589543789e-01,3.726252853694510e-10
	1.000000000000000e+00,0.000000000000000e+00
	0.000000000000000e+00,0.000000000000000e+00
	8.851681438137732e-07,1.909949083452980e-14
