Title: * GA CMOS Amp | W=3.520599165509512e-05 L=4.7086590140854706e-07 Vbias=1.0777114220573085
Date: Mon Sep  8 18:44:49 2025
Plotname: AC Analysis
Flags: complex forward log
No. Variables: 11
No. Points:          901
Offset:    0.0000000000000000e+00
Command: Linear Technology Corporation LTspice
Variables:
	0	frequency	frequency
	1	V(out)	voltage
	2	V(g)	voltage
	3	V(vdd)	voltage
	4	Id(M1)	device_current
	5	Ig(M1)	device_current
	6	Ib(M1)	device_current
	7	Is(M1)	device_current
	8	I(Rload)	device_current
	9	I(Vg)	device_current
	10	I(Vdd)	device_current
Values:
0		1.000000000000000e+00,0.000000000000000e+00
	-7.669755622656377e-02,1.987671819594331e-11
	1.000000000000000e+00,0.000000000000000e+00
	0.000000000000000e+00,0.000000000000000e+00
	7.669755622656429e-06,-1.987671819594329e-15
	1.897640444266513e-24,1.994195472795192e-13
	8.587455833236612e-14,1.642872142565663e-16
	-7.669755708530988e-06,-1.975961626741814e-13
	-7.669755622656377e-06,1.987671819594331e-15
	-1.897640444266513e-24,-1.994195472795192e-13
	-7.669755622656377e-06,1.987671819594331e-15
1		1.023292992280754e+00,0.000000000000000e+00
	-7.669755622656377e-02,2.033970643944814e-11
	1.000000000000000e+00,0.000000000000000e+00
	0.000000000000000e+00,0.000000000000000e+00
	7.669755622656429e-06,-2.033970643944806e-15
	1.987073483127458e-24,2.040646252549325e-13
	8.587455833236612e-14,1.681139550700544e-16
	-7.669755708530988e-06,-2.021987685660578e-13
	-7.669755622656377e-06,2.033970643944814e-15
	-1.987073483127458e-24,-2.040646252549325e-13
	-7.669755622656377e-06,2.033970643944814e-15
2		1.047128548050899e+00,0.000000000000000e+00
	-7.669755622656377e-02,2.081347906453501e-11
	1.000000000000000e+00,0.000000000000000e+00
	0.000000000000000e+00,0.000000000000000e+00
	7.669755622656429e-06,-2.081347906453516e-15
	2.080721371257697e-24,2.088179009957706e-13
	8.587455833236612e-14,1.720298321278006e-16
	-7.669755708530988e-06,-2.069085829214449e-13
	-7.669755622656377e-06,2.081347906453500e-15
	-2.080721371257697e-24,-2.088179009957706e-13
	-7.669755622656377e-06,2.081347906453500e-15
3		1.071519305237606e+00,0.000000000000000e+00
	-7.669755622656377e-02,2.129828727172086e-11
	1.000000000000000e+00,0.000000000000000e+00
	0.000000000000000e+00,0.000000000000000e+00
	7.669755622656429e-06,-2.129828727172076e-15
	2.178782748383549e-24,2.136818947517484e-13
	8.587455833236612e-14,1.760369216795978e-16
	-7.669755708530988e-06,-2.117281029462559e-13
	-7.669755622656377e-06,2.129828727172086e-15
	-2.178782748383549e-24,-2.136818947517484e-13
	-7.669755622656377e-06,2.129828727172086e-15
4		1.096478196143185e+00,0.000000000000000e+00
	-7.669755622656377e-02,2.179438811273433e-11
	1.000000000000000e+00,0.000000000000000e+00
	0.000000000000000e+00,0.000000000000000e+00
	7.669755622656429e-06,-2.179438811273425e-15
	2.281465615833213e-24,2.186591854767377e-13
	8.587455833236612e-14,1.801373483374231e-16
	-7.669755708530988e-06,-2.166598840138017e-13
	-7.669755622656377e-06,2.179438811273433e-15
	-2.281465615833213e-24,-2.186591854767377e-13
	-7.669755622656377e-06,2.179438811273433e-15
5		1.122018454301963e+00,0.000000000000000e+00
	-7.669755622656377e-02,2.230204462680801e-11
	1.000000000000000e+00,0.000000000000000e+00
	0.000000000000000e+00,0.000000000000000e+00
	7.669755622656429e-06,-2.230204462680800e-15
	2.388987777735485e-24,2.237524121961634e-13
	8.587455833236612e-14,1.843332862017166e-16
	-7.669755708530988e-06,-2.217065410196843e-13
	-7.669755622656377e-06,2.230204462680802e-15
	-2.388987777735485e-24,-2.237524121961634e-13
	-7.669755622656377e-06,2.230204462680802e-15
6		1.148153621496882e+00,0.000000000000000e+00
	-7.669755622656377e-02,2.282152598014528e-11
	1.000000000000000e+00,0.000000000000000e+00
	0.000000000000000e+00,0.000000000000000e+00
	7.669755622656429e-06,-2.282152598014533e-15
	2.501577303011503e-24,2.289642754062487e-13
	8.587455833236612e-14,1.886269600143177e-16
	-7.669755708530988e-06,-2.268707497682485e-13
	-7.669755622656377e-06,2.282152598014529e-15
	-2.501577303011503e-24,-2.289642754062487e-13
	-7.669755622656377e-06,2.282152598014529e-15
7		1.174897554939529e+00,0.000000000000000e+00
	-7.669755622656377e-02,2.335310760863584e-11
	1.000000000000000e+00,0.000000000000000e+00
	0.000000000000000e+00,0.000000000000000e+00
	7.669755622656429e-06,-2.335310760863605e-15
	2.619473009139519e-24,2.342975385058549e-13
	8.587455833236612e-14,1.930206463379065e-16
	-7.669755708530988e-06,-2.321552483913292e-13
	-7.669755622656377e-06,2.335310760863584e-15
	-2.619473009139519e-24,-2.342975385058549e-13
	-7.669755622656377e-06,2.335310760863584e-15
8		1.202264434617413e+00,0.000000000000000e+00
	-7.669755622656377e-02,2.389707136389541e-11
	1.000000000000000e+00,0.000000000000000e+00
	0.000000000000000e+00,0.000000000000000e+00
	7.669755622656429e-06,-2.389707136389518e-15
	2.742924968718786e-24,2.397550292616715e-13
	8.587455833236612e-14,1.975166747630245e-16
	-7.669755708530988e-06,-2.375628388000450e-13
	-7.669755622656377e-06,2.389707136389541e-15
	-2.742924968718786e-24,-2.397550292616715e-13
	-7.669755622656377e-06,2.389707136389541e-15
9		1.230268770812381e+00,0.000000000000000e+00
	-7.669755622656377e-02,2.445370566270726e-11
	1.000000000000000e+00,0.000000000000000e+00
	0.000000000000000e+00,0.000000000000000e+00
	7.669755622656429e-06,-2.445370566270730e-15
	2.872195039907061e-24,2.453396413075356e-13
	8.587455833236612e-14,2.021174291435691e-16
	-7.669755708530988e-06,-2.430963881704085e-13
	-7.669755622656377e-06,2.445370566270726e-15
	-2.872195039907061e-24,-2.453396413075356e-13
	-7.669755622656377e-06,2.445370566270726e-15
10		1.258925411794167e+00,0.000000000000000e+00
	-7.669755622656377e-02,2.502330563994454e-11
	1.000000000000000e+00,0.000000000000000e+00
	0.000000000000000e+00,0.000000000000000e+00
	7.669755622656429e-06,-2.502330563994437e-15
	3.007557421856877e-24,2.510543356786750e-13
	8.587455833236612e-14,2.068253488604607e-16
	-7.669755708530988e-06,-2.487588304635410e-13
	-7.669755622656377e-06,2.502330563994454e-15
	-3.007557421856877e-24,-2.510543356786750e-13
	-7.669755622656377e-06,2.502330563994454e-15
11		1.288249551693134e+00,0.000000000000000e+00
	-7.669755622656377e-02,2.560617330505471e-11
	1.000000000000000e+00,0.000000000000000e+00
	0.000000000000000e+00,0.000000000000000e+00
	7.669755622656429e-06,-2.560617330505481e-15
	3.149299236328699e-24,2.569021423816883e-13
	8.587455833236612e-14,2.116429301149456e-16
	-7.669755708530988e-06,-2.545531679812978e-13
	-7.669755622656377e-06,2.560617330505472e-15
	-3.149299236328699e-24,-2.569021423816883e-13
	-7.669755622656377e-06,2.560617330505472e-15
12		1.318256738556407e+00,0.000000000000000e+00
	-7.669755622656377e-02,2.620261770218901e-11
	1.000000000000000e+00,0.000000000000000e+00
	0.000000000000000e+00,0.000000000000000e+00
	7.669755622656429e-06,-2.620261770218888e-15
	3.297721136714677e-24,2.628861620010942e-13
	8.587455833236612e-14,2.165727272523168e-16
	-7.669755708530988e-06,-2.604824729581276e-13
	-7.669755622656377e-06,2.620261770218901e-15
	-3.297721136714677e-24,-2.628861620010942e-13
	-7.669755622656377e-06,2.620261770218901e-15
13		1.348962882591653e+00,0.000000000000000e+00
	-7.669755622656377e-02,2.681295507406164e-11
	1.000000000000000e+00,0.000000000000000e+00
	0.000000000000000e+00,0.000000000000000e+00
	7.669755622656429e-06,-2.681295507406184e-15
	3.453137945764801e-24,2.690095673433027e-13
	8.587455833236612e-14,2.216173541165084e-16
	-7.669755708530988e-06,-2.665498891900130e-13
	-7.669755622656377e-06,2.681295507406165e-15
	-3.453137945764801e-24,-2.690095673433027e-13
	-7.669755622656377e-06,2.681295507406165e-15
14		1.380384264602885e+00,0.000000000000000e+00
	-7.669755622656377e-02,2.743750902962598e-11
	1.000000000000000e+00,0.000000000000000e+00
	0.000000000000000e+00,0.000000000000000e+00
	7.669755622656429e-06,-2.743750902962595e-15
	3.615879323368164e-24,2.752756051188793e-13
	8.587455833236612e-14,2.267794854352345e-16
	-7.669755708530988e-06,-2.727586337013519e-13
	-7.669755622656377e-06,2.743750902962598e-15
	-3.615879323368164e-24,-2.752756051188793e-13
	-7.669755622656377e-06,2.743750902962598e-15
15		1.412537544622754e+00,0.000000000000000e+00
	-7.669755622656377e-02,2.807661071565618e-11
	1.000000000000000e+00,0.000000000000000e+00
	0.000000000000000e+00,0.000000000000000e+00
	7.669755622656429e-06,-2.807661071565614e-15
	3.786290465805774e-24,2.816875976639932e-13
	8.587455833236612e-14,2.320618582389033e-16
	-7.669755708530988e-06,-2.791119984506665e-13
	-7.669755622656377e-06,2.807661071565618e-15
	-3.786290465805774e-24,-2.816875976639932e-13
	-7.669755622656377e-06,2.807661071565618e-15
16		1.445439770745927e+00,0.000000000000000e+00
	-7.669755622656377e-02,2.873059899232569e-11
	1.000000000000000e+00,0.000000000000000e+00
	0.000000000000000e+00,0.000000000000000e+00
	7.669755622656429e-06,-2.873059899232570e-15
	3.964732837958163e-24,2.882489447019648e-13
	8.587455833236612e-14,2.374672733114906e-16
	-7.669755708530988e-06,-2.856133520760437e-13
	-7.669755622656377e-06,2.873059899232569e-15
	-3.964732837958163e-24,-2.882489447019648e-13
	-7.669755622656377e-06,2.873059899232569e-15
17		1.479108388168207e+00,0.000000000000000e+00
	-7.669755622656377e-02,2.939982061287537e-11
	1.000000000000000e+00,0.000000000000000e+00
	0.000000000000000e+00,0.000000000000000e+00
	7.669755622656429e-06,-2.939982061287552e-15
	4.151584940020852e-24,2.949631251458431e-13
	8.587455833236612e-14,2.429985966757438e-16
	-7.669755708530988e-06,-2.922661416812313e-13
	-7.669755622656377e-06,2.939982061287537e-15
	-4.151584940020852e-24,-2.949631251458431e-13
	-7.669755622656377e-06,2.939982061287537e-15
18		1.513561248436208e+00,0.000000000000000e+00
	-7.669755622656377e-02,3.008463040746663e-11
	1.000000000000000e+00,0.000000000000000e+00
	0.000000000000000e+00,0.000000000000000e+00
	7.669755622656429e-06,-3.008463040746682e-15
	4.347243110354015e-24,3.018336989429724e-13
	8.587455833236612e-14,2.486587611122882e-16
	-7.669755708530988e-06,-2.990738946633380e-13
	-7.669755622656377e-06,3.008463040746663e-15
	-4.347243110354015e-24,-3.018336989429724e-13
	-7.669755622656377e-06,3.008463040746663e-15
19		1.548816618912481e+00,0.000000000000000e+00
	-7.669755622656377e-02,3.078539147131709e-11
	1.000000000000000e+00,0.000000000000000e+00
	0.000000000000000e+00,0.000000000000000e+00
	7.669755622656429e-06,-3.078539147131712e-15
	4.552122366169276e-24,3.088643089625225e-13
	8.587455833236612e-14,2.544507677153617e-16
	-7.669755708530988e-06,-3.060402205831062e-13
	-7.669755622656377e-06,3.078539147131709e-15
	-4.552122366169276e-24,-3.088643089625225e-13
	-7.669755622656377e-06,3.078539147131709e-15
20		1.584893192461113e+00,0.000000000000000e+00
	-7.669755622656377e-02,3.150247535721848e-11
	1.000000000000000e+00,0.000000000000000e+00
	0.000000000000000e+00,0.000000000000000e+00
	7.669755622656429e-06,-3.150247535721831e-15
	4.766657283836861e-24,3.160586829269870e-13
	8.587455833236612e-14,2.603776874836885e-16
	-7.669755708530988e-06,-3.131688130787488e-13
	-7.669755622656377e-06,3.150247535721848e-15
	-4.766657283836861e-24,-3.160586829269870e-13
	-7.669755622656377e-06,3.150247535721848e-15
21		1.621810097358929e+00,0.000000000000000e+00
	-7.669755622656377e-02,3.223626227253881e-11
	1.000000000000000e+00,0.000000000000000e+00
	0.000000000000000e+00,0.000000000000000e+00
	7.669755622656429e-06,-3.223626227253890e-15
	4.991302920680335e-24,3.234206353886706e-13
	8.587455833236612e-14,2.664426629481830e-16
	-7.669755708530988e-06,-3.204634518243649e-13
	-7.669755622656377e-06,3.223626227253881e-15
	-4.991302920680335e-24,-3.234206353886706e-13
	-7.669755622656377e-06,3.223626227253881e-15
22		1.659586907437560e+00,0.000000000000000e+00
	-7.669755622656377e-02,3.298714128081342e-11
	1.000000000000000e+00,0.000000000000000e+00
	0.000000000000000e+00,0.000000000000000e+00
	7.669755622656429e-06,-3.298714128081338e-15
	5.226535780214214e-24,3.309540697522155e-13
	8.587455833236612e-14,2.726489098395895e-16
	-7.669755708530988e-06,-3.279280045339738e-13
	-7.669755622656377e-06,3.298714128081343e-15
	-5.226535780214214e-24,-3.309540697522155e-13
	-7.669755622656377e-06,3.298714128081343e-15
23		1.698243652461743e+00,0.000000000000000e+00
	-7.669755622656377e-02,3.375551050803155e-11
	1.000000000000000e+00,0.000000000000000e+00
	0.000000000000000e+00,0.000000000000000e+00
	7.669755622656429e-06,-3.375551050803179e-15
	5.472854822871785e-24,3.386629803442380e-13
	8.587455833236612e-14,2.789997187918406e-16
	-7.669755708530988e-06,-3.355664290122267e-13
	-7.669755622656377e-06,3.375551050803155e-15
	-5.472854822871785e-24,-3.386629803442380e-13
	-7.669755622656377e-06,3.375551050803155e-15
24		1.737800828749374e+00,0.000000000000000e+00
	-7.669755622656377e-02,3.454177735372804e-11
	1.000000000000000e+00,0.000000000000000e+00
	0.000000000000000e+00,0.000000000000000e+00
	7.669755622656429e-06,-3.454177735372803e-15
	5.730782524367093e-24,3.465514545311735e-13
	8.587455833236612e-14,2.854984570879270e-16
	-7.669755708530988e-06,-3.433827752528886e-13
	-7.669755622656377e-06,3.454177735372804e-15
	-5.730782524367093e-24,-3.465514545311735e-13
	-7.669755622656377e-06,3.454177735372804e-15
25		1.778279410038922e+00,0.000000000000000e+00
	-7.669755622656377e-02,3.534635870699196e-11
	1.000000000000000e+00,0.000000000000000e+00
	0.000000000000000e+00,0.000000000000000e+00
	7.669755622656429e-06,-3.534635870699169e-15
	6.000865983935984e-24,3.546236748864523e-13
	8.587455833236612e-14,2.921485704450951e-16
	-7.669755708530988e-06,-3.513811875861982e-13
	-7.669755622656377e-06,3.534635870699197e-15
	-6.000865983935984e-24,-3.546236748864523e-13
	-7.669755622656377e-06,3.534635870699197e-15
26		1.819700858609982e+00,0.000000000000000e+00
	-7.669755622656377e-02,3.616968116750668e-11
	1.000000000000000e+00,0.000000000000000e+00
	0.000000000000000e+00,0.000000000000000e+00
	7.669755622656429e-06,-3.616968116750686e-15
	6.283678084806917e-24,3.628839214081551e-13
	8.587455833236612e-14,2.989535848412441e-16
	-7.669755708530988e-06,-3.595659068762456e-13
	-7.669755622656377e-06,3.616968116750669e-15
	-6.283678084806917e-24,-3.628839214081551e-13
	-7.669755622656377e-06,3.616968116750669e-15
27		1.862087136662866e+00,0.000000000000000e+00
	-7.669755622656377e-02,3.701218127173875e-11
	1.000000000000000e+00,0.000000000000000e+00
	0.000000000000000e+00,0.000000000000000e+00
	7.669755622656429e-06,-3.701218127173915e-15
	6.579818709363124e-24,3.713365737883249e-13
	8.587455833236612e-14,3.059171083853459e-16
	-7.669755708530988e-06,-3.679412727695363e-13
	-7.669755622656377e-06,3.701218127173875e-15
	-6.579818709363124e-24,-3.713365737883249e-13
	-7.669755622656377e-06,3.701218127173875e-15
28		1.905460717963246e+00,0.000000000000000e+00
	-7.669755622656377e-02,3.787430572439524e-11
	1.000000000000000e+00,0.000000000000000e+00
	0.000000000000000e+00,0.000000000000000e+00
	7.669755622656429e-06,-3.787430572439526e-15
	6.889916011573551e-24,3.799861137351381e-13
	8.587455833236612e-14,3.130428332294927e-16
	-7.669755708530988e-06,-3.765117259959280e-13
	-7.669755622656377e-06,3.787430572439524e-15
	-6.889916011573551e-24,-3.799861137351381e-13
	-7.669755622656377e-06,3.787430572439524e-15
29		1.949844599758044e+00,0.000000000000000e+00
	-7.669755622656377e-02,3.875651163527250e-11
	1.000000000000000e+00,0.000000000000000e+00
	0.000000000000000e+00,0.000000000000000e+00
	7.669755622656429e-06,-3.875651163527242e-15
	7.214627749391659e-24,3.888371273491645e-13
	8.587455833236612e-14,3.203345375274182e-16
	-7.669755708530988e-06,-3.852818107231646e-13
	-7.669755622656377e-06,3.875651163527250e-15
	-7.214627749391659e-24,-3.888371273491645e-13
	-7.669755622656377e-06,3.875651163527250e-15
30		1.995262314968878e+00,0.000000000000000e+00
	-7.669755622656377e-02,3.965926676162186e-11
	1.000000000000000e+00,0.000000000000000e+00
	0.000000000000000e+00,0.000000000000000e+00
	7.669755622656429e-06,-3.965926676162213e-15
	7.554642679948214e-24,3.978943075549791e-13
	8.587455833236612e-14,3.277960874373706e-16
	-7.669755708530988e-06,-3.942561769662543e-13
	-7.669755622656377e-06,3.965926676162186e-15
	-7.554642679948214e-24,-3.978943075549791e-13
	-7.669755622656377e-06,3.965926676162186e-15
31		2.041737944669527e+00,0.000000000000000e+00
	-7.669755622656377e-02,4.058304975616067e-11
	1.000000000000000e+00,0.000000000000000e+00
	0.000000000000000e+00,0.000000000000000e+00
	7.669755622656429e-06,-4.058304975616050e-15
	7.910682020497529e-24,4.071624565894132e-13
	8.587455833236612e-14,3.354314391716366e-16
	-7.669755708530988e-06,-4.034395830529687e-13
	-7.669755622656377e-06,4.058304975616068e-15
	-7.910682020497529e-24,-4.071624565894132e-13
	-7.669755622656377e-06,4.058304975616068e-15
32		2.089296130854037e+00,0.000000000000000e+00
	-7.669755622656377e-02,4.152835042086039e-11
	1.000000000000000e+00,0.000000000000000e+00
	0.000000000000000e+00,0.000000000000000e+00
	7.669755622656429e-06,-4.152835042086033e-15
	8.283500978215934e-24,4.166464885477633e-13
	8.587455833236612e-14,3.432446410950379e-16
	-7.669755708530988e-06,-4.128368981467723e-13
	-7.669755622656377e-06,4.152835042086039e-15
	-8.283500978215934e-24,-4.166464885477633e-13
	-7.669755622656377e-06,4.152835042086039e-15
33		2.137962089502230e+00,0.000000000000000e+00
	-7.669755622656377e-02,4.249566996664594e-11
	1.000000000000000e+00,0.000000000000000e+00
	0.000000000000000e+00,0.000000000000000e+00
	7.669755622656429e-06,-4.249566996664611e-15
	8.673890352097456e-24,4.263514319893096e-13
	8.587455833236612e-14,3.512398358705315e-16
	-7.669755708530988e-06,-4.224531048285155e-13
	-7.669755622656377e-06,4.249566996664594e-15
	-8.673890352097456e-24,-4.263514319893096e-13
	-7.669755622656377e-06,4.249566996664594e-15
34		2.187761623949550e+00,0.000000000000000e+00
	-7.669755622656377e-02,4.348552127914450e-11
	1.000000000000000e+00,0.000000000000000e+00
	0.000000000000000e+00,0.000000000000000e+00
	7.669755622656429e-06,-4.348552127914449e-15
	9.082678210344514e-24,4.362824326035250e-13
	8.587455833236612e-14,3.594212626561053e-16
	-7.669755708530988e-06,-4.322933017382667e-13
	-7.669755622656377e-06,4.348552127914450e-15
	-9.082678210344514e-24,-4.362824326035250e-13
	-7.669755622656377e-06,4.348552127914450e-15
35		2.238721138568337e+00,0.000000000000000e+00
	-7.669755622656377e-02,4.449842919062418e-11
	1.000000000000000e+00,0.000000000000000e+00
	0.000000000000000e+00,0.000000000000000e+00
	7.669755622656429e-06,-4.449842919062448e-15
	9.510731646811594e-24,4.464447559383876e-13
	8.587455833236612e-14,3.677932593527671e-16
	-7.669755708530988e-06,-4.423627062786779e-13
	-7.669755622656377e-06,4.449842919062418e-15
	-9.510731646811594e-24,-4.464447559383876e-13
	-7.669755622656377e-06,4.449842919062418e-15
36		2.290867652767770e+00,0.000000000000000e+00
	-7.669755622656377e-02,4.553493075826707e-11
	1.000000000000000e+00,0.000000000000000e+00
	0.000000000000000e+00,0.000000000000000e+00
	7.669755622656429e-06,-4.553493075826710e-15
	9.958958620227563e-24,4.568437901922436e-13
	8.587455833236612e-14,3.763602649036253e-16
	-7.669755708530988e-06,-4.526666573813206e-13
	-7.669755622656377e-06,4.553493075826707e-15
	-9.958958620227563e-24,-4.568437901922436e-13
	-7.669755622656377e-06,4.553493075826707e-15
37		2.344228815319919e+00,0.000000000000000e+00
	-7.669755622656377e-02,4.659557554892406e-11
	1.000000000000000e+00,0.000000000000000e+00
	0.000000000000000e+00,0.000000000000000e+00
	7.669755622656429e-06,-4.659557554892410e-15
	1.042830988009788e-23,4.674850490707019e-13
	8.587455833236612e-14,3.851268216488855e-16
	-7.669755708530988e-06,-4.632106183374584e-13
	-7.669755622656377e-06,4.659557554892406e-15
	-1.042830988009788e-23,-4.674850490707019e-13
	-7.669755622656377e-06,4.659557554892406e-15
38		2.398832919019488e+00,0.000000000000000e+00
	-7.669755622656377e-02,4.768092593050245e-11
	1.000000000000000e+00,0.000000000000000e+00
	0.000000000000000e+00,0.000000000000000e+00
