Title: * GA CMOS Amp | W=2.7451632070646824e-05 L=9.126126403555542e-07 Vbias=1.1314010273048736
Date: Mon Sep  8 18:45:11 2025
Plotname: AC Analysis
Flags: complex forward log
No. Variables: 11
No. Points:          901
Offset:    0.0000000000000000e+00
Command: Linear Technology Corporation LTspice
Variables:
	0	frequency	frequency
	1	V(out)	voltage
	2	V(g)	voltage
	3	V(vdd)	voltage
	4	Id(M1)	device_current
	5	Ig(M1)	device_current
	6	Ib(M1)	device_current
	7	Is(M1)	device_current
	8	I(Rload)	device_current
	9	I(Vg)	device_current
	10	I(Vdd)	device_current
Values:
0		1.000000000000000e+00,0.000000000000000e+00
	-5.895281610743236e-01,2.896040935619831e-10
	1.000000000000000e+00,0.000000000000000e+00
	0.000000000000000e+00,0.000000000000000e+00
	5.895281610743231e-05,-2.896040935619830e-14
	3.936623590831690e-23,3.615291140858251e-13
	5.907344925726310e-13,4.628326064633949e-15
	-5.895281669816680e-05,-3.371970307942608e-13
	-5.895281610743236e-05,2.896040935619831e-14
	-3.936623590831690e-23,-3.615291140858251e-13
	-5.895281610743236e-05,2.896040935619831e-14
1		1.023292992280754e+00,0.000000000000000e+00
	-5.895281610743236e-01,2.963498394777971e-10
	1.000000000000000e+00,0.000000000000000e+00
	0.000000000000000e+00,0.000000000000000e+00
	5.895281610743231e-05,-2.963498394777974e-14
	4.122150944890505e-23,3.699502089494941e-13
	5.907344925726310e-13,4.736133627930273e-15
	-5.895281669816680e-05,-3.450513586296446e-13
	-5.895281610743236e-05,2.963498394777971e-14
	-4.122150944890505e-23,-3.699502089494941e-13
	-5.895281610743236e-05,2.963498394777971e-14
2		1.047128548050899e+00,0.000000000000000e+00
	-5.895281610743236e-01,3.032527140011561e-10
	1.000000000000000e+00,0.000000000000000e+00
	0.000000000000000e+00,0.000000000000000e+00
	5.895281610743231e-05,-3.032527140011561e-14
	4.316421933769838e-23,3.785674563108180e-13
	5.907344925726310e-13,4.846452351966292e-15
	-5.895281669816680e-05,-3.530886372626687e-13
	-5.895281610743236e-05,3.032527140011561e-14
	-4.316421933769838e-23,-3.785674563108180e-13
	-5.895281610743236e-05,3.032527140011561e-14
3		1.071519305237606e+00,0.000000000000000e+00
	-5.895281610743236e-01,3.103163771275027e-10
	1.000000000000000e+00,0.000000000000000e+00
	0.000000000000000e+00,0.000000000000000e+00
	5.895281610743231e-05,-3.103163771275026e-14
	4.519848632283465e-23,3.873854251484106e-13
	5.907344925726310e-13,4.959340729189602e-15
	-5.895281669816680e-05,-3.613131281648500e-13
	-5.895281610743236e-05,3.103163771275028e-14
	-4.519848632283465e-23,-3.873854251484106e-13
	-5.895281610743236e-05,3.103163771275028e-14
4		1.096478196143185e+00,0.000000000000000e+00
	-5.895281610743236e-01,3.175445741045252e-10
	1.000000000000000e+00,0.000000000000000e+00
	0.000000000000000e+00,0.000000000000000e+00
	5.895281610743231e-05,-3.175445741045250e-14
	4.732862535732827e-23,3.964087908660691e-13
	5.907344925726310e-13,5.074858614512264e-15
	-5.895281669816680e-05,-3.697291920701289e-13
	-5.895281610743236e-05,3.175445741045252e-14
	-4.732862535732827e-23,-3.964087908660691e-13
	-5.895281610743236e-05,3.175445741045252e-14
5		1.122018454301963e+00,0.000000000000000e+00
	-5.895281610743236e-01,3.249411374179373e-10
	1.000000000000000e+00,0.000000000000000e+00
	0.000000000000000e+00,0.000000000000000e+00
	5.895281610743231e-05,-3.249411374179368e-14
	4.955915475166416e-23,4.056423377717356e-13
	5.907344925726310e-13,5.193067257046033e-15
	-5.895281669816680e-05,-3.783412912869880e-13
	-5.895281610743236e-05,3.249411374179373e-14
	-4.955915475166416e-23,-4.056423377717356e-13
	-5.895281610743236e-05,3.249411374179373e-14
6		1.148153621496882e+00,0.000000000000000e+00
	-5.895281610743236e-01,3.325099888235128e-10
	1.000000000000000e+00,0.000000000000000e+00
	0.000000000000000e+00,0.000000000000000e+00
	5.895281610743231e-05,-3.325099888235132e-14
	5.189480575773992e-23,4.150909616141997e-13
	5.907344925726310e-13,5.314029332577931e-15
	-5.895281669816680e-05,-3.871539920644263e-13
	-5.895281610743236e-05,3.325099888235128e-14
	-5.189480575773992e-23,-4.150909616141997e-13
	-5.895281610743236e-05,3.325099888235128e-14
7		1.174897554939529e+00,0.000000000000000e+00
	-5.895281610743236e-01,3.402551414264525e-10
	1.000000000000000e+00,0.000000000000000e+00
	0.000000000000000e+00,0.000000000000000e+00
	5.895281610743231e-05,-3.402551414264528e-14
	5.434053260448566e-23,4.247596721788900e-13
	5.907344925726310e-13,5.437808976801365e-15
	-5.895281669816680e-05,-3.961719670130461e-13
	-5.895281610743236e-05,3.402551414264525e-14
	-5.434053260448566e-23,-4.247596721788900e-13
	-5.895281610743236e-05,3.402551414264525e-14
8		1.202264434617413e+00,0.000000000000000e+00
	-5.895281610743236e-01,3.481807018091857e-10
	1.000000000000000e+00,0.000000000000000e+00
	0.000000000000000e+00,0.000000000000000e+00
	5.895281610743231e-05,-3.481807018091865e-14
	5.690152300644764e-23,4.346535959441286e-13
	5.907344925726310e-13,5.564471819322207e-15
	-5.895281669816680e-05,-4.053999975825321e-13
	-5.895281610743236e-05,3.481807018091857e-14
	-5.690152300644764e-23,-4.346535959441286e-13
	-5.895281610743236e-05,3.481807018091857e-14
9		1.230268770812381e+00,0.000000000000000e+00
	-5.895281610743236e-01,3.562908722087346e-10
	1.000000000000000e+00,0.000000000000000e+00
	0.000000000000000e+00,0.000000000000000e+00
	5.895281610743231e-05,-3.562908722087355e-14
	5.958320916762636e-23,4.447779787992572e-13
	5.907344925726310e-13,5.694085018456129e-15
	-5.895281669816680e-05,-4.148429765968397e-13
	-5.895281610743236e-05,3.562908722087346e-14
	-5.958320916762636e-23,-4.447779787992572e-13
	-5.895281610743236e-05,3.562908722087346e-14
10		1.258925411794167e+00,0.000000000000000e+00
	-5.895281610743236e-01,3.645899527447960e-10
	1.000000000000000e+00,0.000000000000000e+00
	0.000000000000000e+00,0.000000000000000e+00
	5.895281610743231e-05,-3.645899527447958e-14
	6.239127930390966e-23,4.551381888260777e-13
	5.907344925726310e-13,5.826717296836939e-15
	-5.895281669816680e-05,-4.245059108484351e-13
	-5.895281610743236e-05,3.645899527447960e-14
	-6.239127930390966e-23,-4.551381888260777e-13
	-5.895281610743236e-05,3.645899527447960e-14
11		1.288249551693134e+00,0.000000000000000e+00
	-5.895281610743236e-01,3.730823436997210e-10
	1.000000000000000e+00,0.000000000000000e+00
	0.000000000000000e+00,0.000000000000000e+00
	5.895281610743231e-05,-3.730823436997215e-14
	6.533168970854106e-23,4.657397191450800e-13
	5.907344925726310e-13,5.962438977854343e-15
	-5.895281669816680e-05,-4.343939237529621e-13
	-5.895281610743236e-05,3.730823436997209e-14
	-6.533168970854106e-23,-4.657397191450800e-13
	-5.895281610743236e-05,3.730823436997209e-14
12		1.318256738556407e+00,0.000000000000000e+00
	-5.895281610743236e-01,3.817725478516042e-10
	1.000000000000000e+00,0.000000000000000e+00
	0.000000000000000e+00,0.000000000000000e+00
	5.895281610743231e-05,-3.817725478516040e-14
	6.841067738621649e-23,4.765881908279669e-13
	5.907344925726310e-13,6.101322022939920e-15
	-5.895281669816680e-05,-4.445122580657464e-13
	-5.895281610743236e-05,3.817725478516043e-14
	-6.841067738621649e-23,-4.765881908279669e-13
	-5.895281610743236e-05,3.817725478516043e-14
13		1.348962882591653e+00,0.000000000000000e+00
	-5.895281610743236e-01,3.906651728617155e-10
	1.000000000000000e+00,0.000000000000000e+00
	0.000000000000000e+00,0.000000000000000e+00
	5.895281610743231e-05,-3.906651728617154e-14
	7.163477328260739e-23,4.876893558780213e-13
	5.907344925726310e-13,6.243440069722701e-15
	-5.895281669816680e-05,-4.548662786615725e-13
	-5.895281610743236e-05,3.906651728617155e-14
	-7.163477328260739e-23,-4.876893558780213e-13
	-5.895281610743236e-05,3.906651728617155e-14
14		1.380384264602885e+00,0.000000000000000e+00
	-5.895281610743236e-01,3.997649337175429e-10
	1.000000000000000e+00,0.000000000000000e+00
	0.000000000000000e+00,0.000000000000000e+00
	5.895281610743231e-05,-3.997649337175429e-14
	7.501081613737205e-23,4.990491002798941e-13
	5.907344925726310e-13,6.388868471072102e-15
	-5.895281669816680e-05,-4.654614753792119e-13
	-5.895281610743236e-05,3.997649337175430e-14
	-7.501081613737205e-23,-4.990491002798941e-13
	-5.895281610743236e-05,3.997649337175430e-14
15		1.412537544622754e+00,0.000000000000000e+00
	-5.895281610743236e-01,4.090766552327418e-10
	1.000000000000000e+00,0.000000000000000e+00
	0.000000000000000e+00,0.000000000000000e+00
	5.895281610743231e-05,-4.090766552327419e-14
	7.854596699003937e-23,5.106734471204310e-13
	5.907344925726310e-13,6.537684335051545e-15
	-5.895281669816680e-05,-4.763034659322083e-13
	-5.895281610743236e-05,4.090766552327419e-14
	-7.854596699003937e-23,-5.106734471204310e-13
	-5.895281610743236e-05,4.090766552327419e-14
16		1.445439770745927e+00,0.000000000000000e+00
	-5.895281610743236e-01,4.186052746053147e-10
	1.000000000000000e+00,0.000000000000000e+00
	0.000000000000000e+00,0.000000000000000e+00
	5.895281610743231e-05,-4.186052746053147e-14
	8.224772436953379e-23,5.225685597821931e-13
	5.907344925726310e-13,6.689966565801902e-15
	-5.895281669816680e-05,-4.873979988874636e-13
	-5.895281610743236e-05,4.186052746053147e-14
	-8.224772436953379e-23,-5.225685597821931e-13
	-5.895281610743236e-05,4.186052746053147e-14
17		1.479108388168207e+00,0.000000000000000e+00
	-5.895281610743236e-01,4.283558440353793e-10
	1.000000000000000e+00,0.000000000000000e+00
	0.000000000000000e+00,0.000000000000000e+00
	5.895281610743231e-05,-4.283558440353791e-14
	8.612394019956048e-23,5.347407452113645e-13
	5.907344925726310e-13,6.845795905377577e-15
	-5.895281669816680e-05,-4.987509567132042e-13
	-5.895281610743236e-05,4.283558440353792e-14
	-8.612394019956048e-23,-5.347407452113645e-13
	-5.895281610743236e-05,4.283558440353792e-14
18		1.513561248436208e+00,0.000000000000000e+00
	-5.895281610743236e-01,4.383335334039113e-10
	1.000000000000000e+00,0.000000000000000e+00
	0.000000000000000e+00,0.000000000000000e+00
	5.895281610743231e-05,-4.383335334039113e-14
	9.018283645358827e-23,5.471964572617776e-13
	5.907344925726310e-13,7.005254976557139e-15
	-5.895281669816680e-05,-5.103683588979436e-13
	-5.895281610743236e-05,4.383335334039113e-14
	-9.018283645358827e-23,-5.471964572617776e-13
	-5.895281610743236e-05,4.383335334039113e-14
19		1.548816618912481e+00,0.000000000000000e+00
	-5.895281610743236e-01,4.485436330138842e-10
	1.000000000000000e+00,0.000000000000000e+00
	0.000000000000000e+00,0.000000000000000e+00
	5.895281610743231e-05,-4.485436330138842e-14
	9.443302259475761e-23,5.599423001168321e-13
	5.907344925726310e-13,7.168428326650881e-15
	-5.895281669816680e-05,-5.222563651420946e-13
	-5.895281610743236e-05,4.485436330138843e-14
	-9.443302259475761e-23,-5.599423001168321e-13
	-5.895281610743236e-05,4.485436330138843e-14
20		1.584893192461113e+00,0.000000000000000e+00
	-5.895281610743236e-01,4.589915563952579e-10
	1.000000000000000e+00,0.000000000000000e+00
	0.000000000000000e+00,0.000000000000000e+00
	5.895281610743231e-05,-4.589915563952592e-14
	9.888351383770630e-23,5.729850317911212e-13
	5.907344925726310e-13,7.335402472328566e-15
	-5.895281669816680e-05,-5.344212786239239e-13
	-5.895281610743236e-05,4.589915563952580e-14
	-9.888351383770630e-23,-5.729850317911212e-13
	-5.895281610743236e-05,4.589915563952580e-14
21		1.621810097358929e+00,0.000000000000000e+00
	-5.895281610743236e-01,4.696828431753041e-10
	1.000000000000000e+00,0.000000000000000e+00
	0.000000000000000e+00,0.000000000000000e+00
	5.895281610743231e-05,-4.696828431753041e-14
	1.035437502710484e-22,5.863315677136194e-13
	5.907344925726310e-13,7.506265945492805e-15
	-5.895281669816680e-05,-5.468695493415818e-13
	-5.895281610743236e-05,4.696828431753041e-14
	-1.035437502710484e-22,-5.863315677136194e-13
	-5.895281610743236e-05,4.696828431753041e-14
22		1.659586907437560e+00,0.000000000000000e+00
	-5.895281610743236e-01,4.806231620157892e-10
	1.000000000000000e+00,0.000000000000000e+00
	0.000000000000000e+00,0.000000000000000e+00
	5.895281610743231e-05,-4.806231620157894e-14
	1.084236168810679e-22,5.999889843943353e-13
	5.907344925726310e-13,7.681109340218487e-15
	-5.895281669816680e-05,-5.596077775329749e-13
	-5.895281610743236e-05,4.806231620157892e-14
	-1.084236168810679e-22,-5.999889843943353e-13
	-5.895281610743236e-05,4.806231620157892e-14
23		1.698243652461743e+00,0.000000000000000e+00
	-5.895281610743236e-01,4.918183136185746e-10
	1.000000000000000e+00,0.000000000000000e+00
	0.000000000000000e+00,0.000000000000000e+00
	5.895281610743231e-05,-4.918183136185744e-14
	1.135334645190997e-22,6.139645231763701e-13
	5.907344925726310e-13,7.860025360787712e-15
	-5.895281669816680e-05,-5.726427171753004e-13
	-5.895281610743236e-05,4.918183136185746e-14
	-1.135334645190997e-22,-6.139645231763701e-13
	-5.895281610743236e-05,4.918183136185746e-14
24		1.737800828749374e+00,0.000000000000000e+00
	-5.895281610743236e-01,5.032742338012255e-10
	1.000000000000000e+00,0.000000000000000e+00
	0.000000000000000e+00,0.000000000000000e+00
	5.895281610743231e-05,-5.032742338012255e-14
	1.188841318570731e-22,6.282655940753740e-13
	5.907344925726310e-13,8.043108870843223e-15
	-5.895281669816680e-05,-5.859812795660947e-13
	-5.895281610743236e-05,5.032742338012255e-14
	-1.188841318570731e-22,-6.282655940753740e-13
	-5.895281610743236e-05,5.032742338012255e-14
25		1.778279410038922e+00,0.000000000000000e+00
	-5.895281610743236e-01,5.149969966442598e-10
	1.000000000000000e+00,0.000000000000000e+00
	0.000000000000000e+00,0.000000000000000e+00
	5.895281610743231e-05,-5.149969966442600e-14
	1.244869683777886e-22,6.428997797084351e-13
	5.907344925726310e-13,8.230456943685018e-15
	-5.895281669816680e-05,-5.996305369876941e-13
	-5.895281610743236e-05,5.149969966442598e-14
	-1.244869683777886e-22,-6.428997797084351e-13
	-5.895281610743236e-05,5.149969966442598e-14
26		1.819700858609982e+00,0.000000000000000e+00
	-5.895281610743236e-01,5.269928177117061e-10
	1.000000000000000e+00,0.000000000000000e+00
	0.000000000000000e+00,0.000000000000000e+00
	5.895281610743231e-05,-5.269928177117064e-14
	1.303538584486920e-22,6.578748393144821e-13
	5.907344925726310e-13,8.422168913741340e-15
	-5.895281669816680e-05,-6.135977264570528e-13
	-5.895281610743236e-05,5.269928177117061e-14
	-1.303538584486920e-22,-6.578748393144821e-13
	-5.895281610743236e-05,5.269928177117061e-14
27		1.862087136662866e+00,0.000000000000000e+00
	-5.895281610743236e-01,5.392680573466778e-10
	1.000000000000000e+00,0.000000000000000e+00
	0.000000000000000e+00,0.000000000000000e+00
	5.895281610743231e-05,-5.392680573466772e-14
	1.364972465302114e-22,6.731987128683367e-13
	5.907344925726310e-13,8.618346429236258e-15
	-5.895281669816680e-05,-6.278902535629052e-13
	-5.895281610743236e-05,5.392680573466777e-14
	-1.364972465302114e-22,-6.731987128683367e-13
	-5.895281610743236e-05,5.392680573466777e-14
28		1.905460717963246e+00,0.000000000000000e+00
	-5.895281610743236e-01,5.518292240437111e-10
	1.000000000000000e+00,0.000000000000000e+00
	0.000000000000000e+00,0.000000000000000e+00
	5.895281610743231e-05,-5.518292240437120e-14
	1.429301635721259e-22,6.888795252905924e-13
	5.907344925726310e-13,8.819093506085459e-15
	-5.895281669816680e-05,-6.425156963923067e-13
	-5.895281610743236e-05,5.518292240437111e-14
	-1.429301635721259e-22,-6.888795252905924e-13
	-5.895281610743236e-05,5.518292240437111e-14
29		1.949844599758044e+00,0.000000000000000e+00
	-5.895281610743236e-01,5.646829778996559e-10
	1.000000000000000e+00,0.000000000000000e+00
	0.000000000000000e+00,0.000000000000000e+00
	5.895281610743231e-05,-5.646829778996560e-14
	1.496662546539578e-22,7.049255907555559e-13
	5.907344925726310e-13,9.024516583045823e-15
	-5.895281669816680e-05,-6.574818095486361e-13
	-5.895281610743236e-05,5.646829778996559e-14
	-1.496662546539578e-22,-7.049255907555559e-13
	-5.895281610743236e-05,5.646829778996559e-14
30		1.995262314968878e+00,0.000000000000000e+00
	-5.895281610743236e-01,5.778361341449458e-10
	1.000000000000000e+00,0.000000000000000e+00
	0.000000000000000e+00,0.000000000000000e+00
	5.895281610743231e-05,-5.778361341449466e-14
	1.567198079280150e-22,7.213454170995311e-13
	5.907344925726310e-13,9.234724578152280e-15
	-5.895281669816680e-05,-6.727965282631887e-13
	-5.895281610743236e-05,5.778361341449457e-14
	-1.567198079280150e-22,-7.213454170995311e-13
	-5.895281610743236e-05,5.778361341449457e-14
31		2.041737944669527e+00,0.000000000000000e+00
	-5.895281610743236e-01,5.912956667571246e-10
	1.000000000000000e+00,0.000000000000000e+00
	0.000000000000000e+00,0.000000000000000e+00
	5.895281610743231e-05,-5.912956667571256e-14
	1.641057849264781e-22,7.381477103317877e-13
	5.907344925726310e-13,9.449828946466005e-15
	-5.895281669816680e-05,-6.884679726025411e-13
	-5.895281610743236e-05,5.912956667571246e-14
	-1.641057849264781e-22,-7.381477103317877e-13
	-5.895281610743236e-05,5.912956667571246e-14
32		2.089296130854037e+00,0.000000000000000e+00
	-5.895281610743236e-01,6.050687121585418e-10
	1.000000000000000e+00,0.000000000000000e+00
	0.000000000000000e+00,0.000000000000000e+00
	5.895281610743231e-05,-6.050687121585431e-14
	1.718398522968162e-22,7.553413792506024e-13
	5.907344925726310e-13,9.669943739170685e-15
	-5.895281669816680e-05,-7.045044517739187e-13
	-5.895281610743236e-05,6.050687121585418e-14
	-1.718398522968162e-22,-7.553413792506024e-13
	-5.895281610743236e-05,6.050687121585418e-14
33		2.137962089502230e+00,0.000000000000000e+00
	-5.895281610743236e-01,6.191625730001765e-10
	1.000000000000000e+00,0.000000000000000e+00
	0.000000000000000e+00,0.000000000000000e+00
	5.895281610743231e-05,-6.191625730001780e-14
	1.799384150328462e-22,7.729355401668208e-13
	5.907344925726310e-13,9.895185664042375e-15
	-5.895281669816680e-05,-7.209144685308454e-13
	-5.895281610743236e-05,6.191625730001765e-14
	-1.799384150328462e-22,-7.729355401668208e-13
	-5.895281610743236e-05,6.191625730001765e-14
34		2.187761623949550e+00,0.000000000000000e+00
	-5.895281610743236e-01,6.335847220336014e-10
	1.000000000000000e+00,0.000000000000000e+00
	0.000000000000000e+00,0.000000000000000e+00
	5.895281610743231e-05,-6.335847220336018e-14
	1.884186512719244e-22,7.909395217374470e-13
	5.907344925726310e-13,1.012567414733159e-14
	-5.895281669816680e-05,-7.377067236814184e-13
	-5.895281610743236e-05,6.335847220336014e-14
	-1.884186512719244e-22,-7.909395217374470e-13
	-5.895281610743236e-05,6.335847220336014e-14
35		2.238721138568337e+00,0.000000000000000e+00
	-5.895281610743236e-01,6.483428060731338e-10
	1.000000000000000e+00,0.000000000000000e+00
	0.000000000000000e+00,0.000000000000000e+00
	5.895281610743231e-05,-6.483428060731347e-14
	1.972985487320789e-22,8.093628699118207e-13
	5.907344925726310e-13,1.036153139708269e-14
	-5.895281669816680e-05,-7.548901207015900e-13
	-5.895281610743236e-05,6.483428060731339e-14
	-1.972985487320789e-22,-8.093628699118207e-13
	-5.895281610743236e-05,6.483428060731339e-14
36		2.290867652767770e+00,0.000000000000000e+00
	-5.895281610743236e-01,6.634446500502779e-10
	1.000000000000000e+00,0.000000000000000e+00
	0.000000000000000e+00,0.000000000000000e+00
	5.895281610743231e-05,-6.634446500502778e-14
	2.065969428663714e-22,8.282153529930057e-13
	5.907344925726310e-13,1.060288246793179e-14
	-5.895281669816680e-05,-7.724737704559098e-13
	-5.895281610743236e-05,6.634446500502779e-14
	-2.065969428663714e-22,-8.282153529930057e-13
	-5.895281610743236e-05,6.634446500502779e-14
37		2.344228815319919e+00,0.000000000000000e+00
	-5.895281610743236e-01,6.788982611626065e-10
	1.000000000000000e+00,0.000000000000000e+00
	0.000000000000000e+00,0.000000000000000e+00
	5.895281610743231e-05,-6.788982611626067e-14
	2.163335568154181e-22,8.475069668170737e-13
	5.907344925726310e-13,1.084985532741121e-14
	-5.895281669816680e-05,-7.904669960282243e-13
	-5.895281610743236e-05,6.788982611626065e-14
	-2.163335568154181e-22,-8.475069668170737e-13
	-5.895281610743236e-05,6.788982611626065e-14
38		2.398832919019488e+00,0.000000000000000e+00
	-5.895281610743236e-01,6.947118331192845e-10
	1.000000000000000e+00,0.000000000000000e+00
	0.000000000000000e+00,0.000000000000000e+00
