LTspice 24.0.9 for Windows
Circuit: * GA CMOS Amp | W=4.6271220780242976e-05 L=6.599815647112036e-07 Vbias=0.6538662504861429
Start Time: Sat Sep  6 22:33:40 2025
solver = Normal
Maximum thread count: 2
tnom = 27
temp = 27
method = modified trap
AsciiRawFile = 1
Direct Newton iteration for .op point succeeded.
Semiconductor Device Operating Points:
                        --- BSIM4 MOSFETS ---
Name:      m1
Model:      n
Id:      1.77e-04
Vgs:     6.54e-01
Vds:     3.03e-02
Vbs:     0.00e+00
Vth:     2.43e-01
Vdsat:   3.14e-01
Gm:      1.85e-04
Gds:     5.55e-03
Gmb      1.91e-04
Cbd:     2.29e-14
Cbs:     3.70e-14


.measure op idd find i(vdd)
  Error: FIND can not be evaluated over an interval.

gain_db: MAX(db(v(out)/v(g)))=(32.1217dB,137.476°) FROM 1 TO 1e+09
gain_lin: MAX(mag(v(out)/v(g)))=(-5.70921dB,0°) FROM 1 TO 1e+09

Measurement "fc" FAIL'ed

Total elapsed time: 0.496 seconds.

