LTspice 24.0.9 for Windows
Circuit: * GA CMOS Amp | W=4.757684898406271e-05 L=7.465528278448773e-07 Vbias=0.8738091516960116
Start Time: Sat Sep  6 22:03:13 2025
solver = Normal
Maximum thread count: 2
tnom = 27
temp = 27
method = modified trap
AsciiRawFile = 1
Direct Newton iteration for .op point succeeded.
Semiconductor Device Operating Points:
                        --- BSIM4 MOSFETS ---
Name:      m1
Model:      n
Id:      1.77e-04
Vgs:     8.74e-01
Vds:     2.91e-02
Vbs:     0.00e+00
Vth:     2.41e-01
Vdsat:   4.62e-01
Gm:      4.64e-05
Gds:     5.90e-03
Gmb      1.39e-04
Cbd:     2.36e-14
Cbs:     3.81e-14


.measure op idd find i(vdd)
  Error: FIND can not be evaluated over an interval.

gain_db: MAX(db(v(out)/v(g)))=(34.1455dB,147.628°) FROM 1 TO 1e+09
gain_lin: MAX(mag(v(out)/v(g)))=(-5.13032dB,0°) FROM 1 TO 1e+09

Measurement "fc" FAIL'ed

Total elapsed time: 17.327 seconds.

