LTspice 24.0.9 for Windows
Circuit: * GA CMOS Amp | W=1.8184615081976767e-05 L=9.139229241195388e-07 Vbias=1.2947836622548312
Start Time: Sat Sep  6 22:06:09 2025
solver = Normal
Maximum thread count: 2
tnom = 27
temp = 27
method = modified trap
AsciiRawFile = 1
Direct Newton iteration for .op point succeeded.
Semiconductor Device Operating Points:
                        --- BSIM4 MOSFETS ---
Name:      m1
Model:      n
Id:      1.71e-04
Vgs:     1.29e+00
Vds:     9.39e-02
Vbs:     0.00e+00
Vth:     2.37e-01
Vdsat:   7.38e-01
Gm:     -1.50e-05
Gds:     1.72e-03
Gmb      9.31e-05
Cbd:     8.83e-15
Cbs:     1.45e-14


.measure op idd find i(vdd)
  Error: FIND can not be evaluated over an interval.

gain_db: MAX(db(v(out)/v(g)))=(31.3107dB,180°) FROM 1 TO 1e+09
gain_lin: MAX(mag(v(out)/v(g)))=(-3.18734dB,0°) FROM 1 TO 1e+09

Measurement "fc" FAIL'ed

Total elapsed time: 0.595 seconds.

