LTspice 24.0.9 for Windows
Circuit: * GA CMOS Amp | W=6.013738985223963e-06 L=7.378247741370537e-07 Vbias=1.0623212341003212
Start Time: Mon Sep  8 18:43:38 2025
solver = Normal
Maximum thread count: 2
tnom = 27
temp = 27
method = modified trap
AsciiRawFile = 1
Instance "m1": Length shorter than recommended for a level 3 MOSFET.
Direct Newton iteration for .op point succeeded.
Semiconductor Device Operating Points:
                        --- MOSFET Transistors ---
Name:          m1
Model:        n_1u
Id:          4.62e-05
Vgs:         1.06e+00
Vds:         1.34e+00
Vbs:         0.00e+00
Vth:         8.08e-01
Vdsat:       2.26e-01
Gm:          2.54e-04
Gds:         1.41e-05
Gmb:         6.14e-05
Cbd:         0.00e+00
Cbs:         0.00e+00
Cgsov:       1.20e-15
Cgdov:       1.20e-15
Cgbov:       5.38e-17
Cgs:         3.72e-15
Cgd:         0.00e+00
Cgb:         0.00e+00



gain_db: MAX(db(v(out)/v(g)))=(28.9938dB,75.6713°) FROM 1 TO 1e+09
gain_lin: MAX(mag(v(out)/v(g)))=(6.97006dB,0°) FROM 1 TO 1e+09

Measurement "fc" FAIL'ed

Total elapsed time: 0.472 seconds.

