Title: * GA CMOS Amp | W=1.6469645327031044e-05 L=1e-06 Vbias=0.7182818739416265
Date: Mon Sep  8 18:46:27 2025
Plotname: AC Analysis
Flags: complex forward log
No. Variables: 11
No. Points:          901
Offset:    0.0000000000000000e+00
Command: Linear Technology Corporation LTspice
Variables:
	0	frequency	frequency
	1	V(out)	voltage
	2	V(g)	voltage
	3	V(vdd)	voltage
	4	Id(M1)	device_current
	5	Ig(M1)	device_current
	6	Ib(M1)	device_current
	7	Is(M1)	device_current
	8	I(Rload)	device_current
	9	I(Vg)	device_current
	10	I(Vdd)	device_current
Values:
0		1.000000000000000e+00,0.000000000000000e+00
	-1.167926678625060e-01,2.310569783374458e-10
	1.000000000000000e+00,0.000000000000000e+00
	0.000000000000000e+00,0.000000000000000e+00
	1.167926678625061e-05,-2.310569783374458e-14
	4.782039953802743e-24,1.433459977451401e-13
	1.167926669818405e-13,-4.246040187914112e-15
	-1.167926690304327e-05,-1.159942597234814e-13
	-1.167926678625061e-05,2.310569783374458e-14
	-4.782039953802743e-24,-1.433459977451401e-13
	-1.167926678625061e-05,2.310569783374458e-14
1		1.023292992280754e+00,0.000000000000000e+00
	-1.167926678625060e-01,2.364389867502743e-10
	1.000000000000000e+00,0.000000000000000e+00
	0.000000000000000e+00,0.000000000000000e+00
	1.167926678625061e-05,-2.364389867502743e-14
	5.007410553546856e-24,1.466849549640946e-13
	1.167926669818405e-13,-4.344943169234949e-15
	-1.167926690304327e-05,-1.186961131198323e-13
	-1.167926678625061e-05,2.364389867502743e-14
	-5.007410553546856e-24,-1.466849549640946e-13
	-1.167926678625061e-05,2.364389867502743e-14
2		1.047128548050899e+00,0.000000000000000e+00
	-1.167926678625060e-01,2.419463582435177e-10
	1.000000000000000e+00,0.000000000000000e+00
	0.000000000000000e+00,0.000000000000000e+00
	1.167926678625061e-05,-2.419463582435177e-14
	5.243402542430269e-24,1.501016864877761e-13
	1.167926669818405e-13,-4.446149896936287e-15
	-1.167926690304327e-05,-1.214609007664880e-13
	-1.167926678625061e-05,2.419463582435177e-14
	-5.243402542430269e-24,-1.501016864877760e-13
	-1.167926678625061e-05,2.419463582435177e-14
3		1.071519305237606e+00,0.000000000000000e+00
	-1.167926678625060e-01,2.475820128984406e-10
	1.000000000000000e+00,0.000000000000000e+00
	0.000000000000000e+00,0.000000000000000e+00
	1.167926678625061e-05,-2.475820128984406e-14
	5.490516491101402e-24,1.535980039124640e-13
	1.167926669818405e-13,-4.549714032164678e-15
	-1.167926690304327e-05,-1.242900885904552e-13
	-1.167926678625061e-05,2.475820128984406e-14
	-5.490516491101402e-24,-1.535980039124640e-13
	-1.167926678625061e-05,2.475820128984406e-14
4		1.096478196143185e+00,0.000000000000000e+00
	-1.167926678625060e-01,2.533489388137375e-10
	1.000000000000000e+00,0.000000000000000e+00
	0.000000000000000e+00,0.000000000000000e+00
	1.167926678625061e-05,-2.533489388137374e-14
	5.749276561376530e-24,1.571757610319362e-13
	1.167926669818405e-13,-4.655690485995525e-15
	-1.167926690304327e-05,-1.271851766645669e-13
	-1.167926678625061e-05,2.533489388137375e-14
	-5.749276561376530e-24,-1.571757610319362e-13
	-1.167926678625061e-05,2.533489388137375e-14
5		1.122018454301963e+00,0.000000000000000e+00
	-1.167926678625060e-01,2.592501936898632e-10
	1.000000000000000e+00,0.000000000000000e+00
	0.000000000000000e+00,0.000000000000000e+00
	1.167926678625061e-05,-2.592501936898632e-14
	6.020231618057276e-24,1.608368548203748e-13
	1.167926669818405e-13,-4.764135448547406e-15
	-1.167926690304327e-05,-1.301477000028411e-13
	-1.167926678625061e-05,2.592501936898632e-14
	-6.020231618057276e-24,-1.608368548203748e-13
	-1.167926678625061e-05,2.592501936898632e-14
6		1.148153621496882e+00,0.000000000000000e+00
	-1.167926678625060e-01,2.652889064502652e-10
	1.000000000000000e+00,0.000000000000000e+00
	0.000000000000000e+00,0.000000000000000e+00
	1.167926678625061e-05,-2.652889064502651e-14
	6.303956393146433e-24,1.645832264381665e-13
	1.167926669818405e-13,-4.875106418774869e-15
	-1.167926690304327e-05,-1.331792293743652e-13
	-1.167926678625061e-05,2.652889064502652e-14
	-6.303956393146433e-24,-1.645832264381665e-13
	-1.167926678625061e-05,2.652889064502652e-14
7		1.174897554939529e+00,0.000000000000000e+00
	-1.167926678625060e-01,2.714682789003808e-10
	1.000000000000000e+00,0.000000000000000e+00
	0.000000000000000e+00,0.000000000000000e+00
	1.167926678625061e-05,-2.714682789003809e-14
	6.601052704931608e-24,1.684168622611323e-13
	1.167926669818405e-13,-4.988662234955263e-15
	-1.167926690304327e-05,-1.362813721361390e-13
	-1.167926678625061e-05,2.714682789003808e-14
	-6.601052704931608e-24,-1.684168622611323e-13
	-1.167926678625061e-05,2.714682789003808e-14
8		1.202264434617413e+00,0.000000000000000e+00
	-1.167926678625060e-01,2.777915874252770e-10
	1.000000000000000e+00,0.000000000000000e+00
	0.000000000000000e+00,0.000000000000000e+00
	1.167926678625061e-05,-2.777915874252770e-14
	6.912150734522497e-24,1.723397949337298e-13
	1.167926669818405e-13,-5.104863105885369e-15
	-1.167926690304327e-05,-1.394557730853167e-13
	-1.167926678625061e-05,2.777915874252770e-14
	-6.912150734522497e-24,-1.723397949337297e-13
	-1.167926678625061e-05,2.777915874252770e-14
9		1.230268770812381e+00,0.000000000000000e+00
	-1.167926678625060e-01,2.842621847268324e-10
	1.000000000000000e+00,0.000000000000000e+00
	0.000000000000000e+00,0.000000000000000e+00
	1.167926678625061e-05,-2.842621847268324e-14
	7.237910362549501e-24,1.763541044467879e-13
	1.167926669818405e-13,-5.223770642805068e-15
	-1.167926690304327e-05,-1.427041153312996e-13
	-1.167926678625061e-05,2.842621847268324e-14
	-7.237910362549501e-24,-1.763541044467878e-13
	-1.167926678625061e-05,2.842621847268324e-14
10		1.258925411794167e+00,0.000000000000000e+00
	-1.167926678625060e-01,2.908835016013849e-10
	1.000000000000000e+00,0.000000000000000e+00
	0.000000000000000e+00,0.000000000000000e+00
	1.167926678625061e-05,-2.908835016013849e-14
	7.579022568859021e-24,1.804619192403462e-13
	1.167926669818405e-13,-5.345447892064337e-15
	-1.167926690304327e-05,-1.460281211881434e-13
	-1.167926678625061e-05,2.908835016013849e-14
	-7.579022568859021e-24,-1.804619192403462e-13
	-1.167926678625061e-05,2.908835016013849e-14
11		1.288249551693134e+00,0.000000000000000e+00
	-1.167926678625060e-01,2.976590487587847e-10
	1.000000000000000e+00,0.000000000000000e+00
	0.000000000000000e+00,0.000000000000000e+00
	1.167926678625061e-05,-2.976590487587847e-14
	7.936210898174346e-24,1.846654173321817e-13
	1.167926669818405e-13,-5.469959368551380e-15
	-1.167926690304327e-05,-1.494295530877519e-13
	-1.167926678625061e-05,2.976590487587847e-14
	-7.936210898174346e-24,-1.846654173321817e-13
	-1.167926678625061e-05,2.976590487587847e-14
12		1.318256738556407e+00,0.000000000000000e+00
	-1.167926678625060e-01,3.045924186838196e-10
	1.000000000000000e+00,0.000000000000000e+00
	0.000000000000000e+00,0.000000000000000e+00
	1.167926678625061e-05,-3.045924186838196e-14
	8.310232994831027e-24,1.889668274726224e-13
	1.167926669818405e-13,-5.597371089899109e-15
	-1.167926690304327e-05,-1.529102145143414e-13
	-1.167926678625061e-05,3.045924186838197e-14
	-8.310232994831027e-24,-1.889668274726224e-13
	-1.167926678625061e-05,3.045924186838197e-14
13		1.348962882591653e+00,0.000000000000000e+00
	-1.167926678625060e-01,3.116872875409981e-10
	1.000000000000000e+00,0.000000000000000e+00
	0.000000000000000e+00,0.000000000000000e+00
	1.167926678625061e-05,-3.116872875409981e-14
	8.701882209842092e-24,1.933684303262608e-13
	1.167926669818405e-13,-5.727750611488610e-15
	-1.167926690304327e-05,-1.564719509606724e-13
	-1.167926678625061e-05,3.116872875409981e-14
	-8.701882209842092e-24,-1.933684303262608e-13
	-1.167926678625061e-05,3.116872875409981e-14
14		1.380384264602885e+00,0.000000000000000e+00
	-1.167926678625060e-01,3.189474171236998e-10
	1.000000000000000e+00,0.000000000000000e+00
	0.000000000000000e+00,0.000000000000000e+00
	1.167926678625061e-05,-3.189474171236998e-14
	9.111989283701907e-24,1.978725596811920e-13
	1.167926669818405e-13,-5.861167062268115e-15
	-1.167926690304327e-05,-1.601166509065539e-13
	-1.167926678625061e-05,3.189474171236998e-14
	-9.111989283701907e-24,-1.978725596811920e-13
	-1.167926678625061e-05,3.189474171236998e-14
15		1.412537544622754e+00,0.000000000000000e+00
	-1.167926678625060e-01,3.263766568487286e-10
	1.000000000000000e+00,0.000000000000000e+00
	0.000000000000000e+00,0.000000000000000e+00
	1.167926678625061e-05,-3.263766568487286e-14
	9.541424108498130e-24,2.024816036864190e-13
	1.167926669818405e-13,-5.997691181405721e-15
	-1.167926690304327e-05,-1.638462468201404e-13
	-1.167926678625061e-05,3.263766568487285e-14
	-9.541424108498130e-24,-2.024816036864190e-13
	-1.167926678625061e-05,3.263766568487285e-14
16		1.445439770745927e+00,0.000000000000000e+00
	-1.167926678625060e-01,3.339789457973243e-10
	1.000000000000000e+00,0.000000000000000e+00
	0.000000000000000e+00,0.000000000000000e+00
	1.167926678625061e-05,-3.339789457973243e-14
	9.991097573069493e-24,2.071980061180815e-13
	1.167926669818405e-13,-6.137395355796559e-15
	-1.167926690304327e-05,-1.676627161825525e-13
	-1.167926678625061e-05,3.339789457973243e-14
	-9.991097573069493e-24,-2.071980061180814e-13
	-1.167926678625061e-05,3.339789457973243e-14
17		1.479108388168207e+00,0.000000000000000e+00
	-1.167926678625060e-01,3.417583148037157e-10
	1.000000000000000e+00,0.000000000000000e+00
	0.000000000000000e+00,0.000000000000000e+00
	1.167926678625061e-05,-3.417583148037158e-14
	1.046196349512312e-23,2.120242676751776e-13
	1.167926669818405e-13,-6.280353658443062e-15
	-1.167926690304327e-05,-1.715680825363629e-13
	-1.167926678625061e-05,3.417583148037158e-14
	-1.046196349512312e-23,-2.120242676751776e-13
	-1.167926678625061e-05,3.417583148037158e-14
18		1.513561248436208e+00,0.000000000000000e+00
	-1.167926678625060e-01,3.497188885923223e-10
	1.000000000000000e+00,0.000000000000000e+00
	0.000000000000000e+00,0.000000000000000e+00
	1.167926678625061e-05,-3.497188885923223e-14
	1.095502064440979e-23,2.169629473054680e-13
	1.167926669818405e-13,-6.426641887729590e-15
	-1.167926690304327e-05,-1.755644165585062e-13
	-1.167926678625061e-05,3.497188885923223e-14
	-1.095502064440979e-23,-2.169629473054680e-13
	-1.167926678625061e-05,3.497188885923223e-14
19		1.548816618912481e+00,0.000000000000000e+00
	-1.167926678625060e-01,3.578648879647371e-10
	1.000000000000000e+00,0.000000000000000e+00
	0.000000000000000e+00,0.000000000000000e+00
	1.167926678625061e-05,-3.578648879647371e-14
	1.147131486124845e-23,2.220166635622640e-13
	1.167926669818405e-13,-6.576337607611661e-15
	-1.167926690304327e-05,-1.796538371581786e-13
	-1.167926678625061e-05,3.578648879647372e-14
	-1.147131486124845e-23,-2.220166635622639e-13
	-1.167926678625061e-05,3.578648879647372e-14
20		1.584893192461113e+00,0.000000000000000e+00
	-1.167926678625060e-01,3.662006320376526e-10
	1.000000000000000e+00,0.000000000000000e+00
	0.000000000000000e+00,0.000000000000000e+00
	1.167926678625061e-05,-3.662006320376527e-14
	1.201194127489380e-23,2.271880959928186e-13
	1.167926669818405e-13,-6.729520188741388e-15
	-1.167926690304327e-05,-1.838385126003119e-13
	-1.167926678625061e-05,3.662006320376527e-14
	-1.201194127489380e-23,-2.271880959928185e-13
	-1.167926678625061e-05,3.662006320376527e-14
21		1.621810097358929e+00,0.000000000000000e+00
	-1.167926678625060e-01,3.747305405329130e-10
	1.000000000000000e+00,0.000000000000000e+00
	0.000000000000000e+00,0.000000000000000e+00
	1.167926678625061e-05,-3.747305405329130e-14
	1.257804662645221e-23,2.324799865590585e-13
	1.167926669818405e-13,-6.886270850550912e-15
	-1.167926690304327e-05,-1.881206616552163e-13
	-1.167926678625061e-05,3.747305405329130e-14
	-1.257804662645221e-23,-2.324799865590585e-13
	-1.167926678625061e-05,3.747305405329130e-14
22		1.659586907437560e+00,0.000000000000000e+00
	-1.167926678625060e-01,3.834591361209089e-10
	1.000000000000000e+00,0.000000000000000e+00
	0.000000000000000e+00,0.000000000000000e+00
	1.167926678625061e-05,-3.834591361209090e-14
	1.317083170127342e-23,2.378951410914085e-13
	1.167926669818405e-13,-7.046672704315986e-15
	-1.167926690304327e-05,-1.925025547750016e-13
	-1.167926678625061e-05,3.834591361209090e-14
	-1.317083170127342e-23,-2.378951410914085e-13
	-1.167926678625061e-05,3.834591361209090e-14
23		1.698243652461743e+00,0.000000000000000e+00
	-1.167926678625060e-01,3.923910468185578e-10
	1.000000000000000e+00,0.000000000000000e+00
	0.000000000000000e+00,0.000000000000000e+00
	1.167926678625061e-05,-3.923910468185579e-14
	1.379155387597719e-23,2.434364307764796e-13
	1.167926669818405e-13,-7.210810797222605e-15
	-1.167926690304327e-05,-1.969865152974012e-13
	-1.167926678625061e-05,3.923910468185579e-14
	-1.379155387597719e-23,-2.434364307764795e-13
	-1.167926678625061e-05,3.923910468185579e-14
24		1.737800828749374e+00,0.000000000000000e+00
	-1.167926678625060e-01,4.015310084431395e-10
	1.000000000000000e+00,0.000000000000000e+00
	0.000000000000000e+00,0.000000000000000e+00
	1.167926678625061e-05,-4.015310084431395e-14
	1.444152978551775e-23,2.491067936794105e-13
	1.167926669818405e-13,-7.378772157460350e-15
	-1.167926690304327e-05,-2.015749206776362e-13
	-1.167926678625061e-05,4.015310084431395e-14
	-1.444152978551775e-23,-2.491067936794104e-13
	-1.167926678625061e-05,4.015310084431395e-14
25		1.778279410038922e+00,0.000000000000000e+00
	-1.167926678625060e-01,4.108838671232891e-10
	1.000000000000000e+00,0.000000000000000e+00
	0.000000000000000e+00,0.000000000000000e+00
	1.167926678625061e-05,-4.108838671232891e-14
	1.512213811594303e-23,2.549092363016683e-13
	1.167926669818405e-13,-7.550645840365420e-15
	-1.167926690304327e-05,-2.062702037489740e-13
	-1.167926678625061e-05,4.108838671232891e-14
	-1.512213811594303e-23,-2.549092363016683e-13
	-1.167926678625061e-05,4.108838671232891e-14
26		1.819700858609982e+00,0.000000000000000e+00
	-1.167926678625060e-01,4.204545818684781e-10
	1.000000000000000e+00,0.000000000000000e+00
	0.000000000000000e+00,0.000000000000000e+00
	1.167926678625061e-05,-4.204545818684782e-14
	1.583482252877258e-23,2.608468351751360e-13
	1.167926669818405e-13,-7.726522975639745e-15
	-1.167926690304327e-05,-2.110748540126484e-13
	-1.167926678625061e-05,4.204545818684781e-14
	-1.583482252877258e-23,-2.608468351751360e-13
	-1.167926678625061e-05,4.204545818684781e-14
27		1.862087136662866e+00,0.000000000000000e+00
	-1.167926678625060e-01,4.302482271983483e-10
	1.000000000000000e+00,0.000000000000000e+00
	0.000000000000000e+00,0.000000000000000e+00
	1.167926678625061e-05,-4.302482271983483e-14
	1.658109472319730e-23,2.669227384933296e-13
	1.167926669818405e-13,-7.906496815668425e-15
	-1.167926690304327e-05,-2.159914189578263e-13
	-1.167926678625061e-05,4.302482271983484e-14
	-1.658109472319730e-23,-2.669227384933295e-13
	-1.167926678625061e-05,4.302482271983484e-14
28		1.905460717963246e+00,0.000000000000000e+00
	-1.167926678625060e-01,4.402699958332875e-10
	1.000000000000000e+00,0.000000000000000e+00
	0.000000000000000e+00,0.000000000000000e+00
	1.167926678625061e-05,-4.402699958332876e-14
	1.736253764259602e-23,2.731401677806124e-13
	1.167926669818405e-13,-8.090662784963580e-15
	-1.167926690304327e-05,-2.210225054123201e-13
	-1.167926678625061e-05,4.402699958332876e-14
	-1.736253764259602e-23,-2.731401677806124e-13
	-1.167926678625061e-05,4.402699958332876e-14
29		1.949844599758044e+00,0.000000000000000e+00
	-1.167926678625060e-01,4.505252014476801e-10
	1.000000000000000e+00,0.000000000000000e+00
	0.000000000000000e+00,0.000000000000000e+00
	1.167926678625061e-05,-4.505252014476801e-14
	1.818080883217067e-23,2.795024196002902e-13
	1.167926669818405e-13,-8.279118530759973e-15
	-1.167926690304327e-05,-2.261707809247622e-13
	-1.167926678625061e-05,4.505252014476801e-14
	-1.818080883217067e-23,-2.795024196002901e-13
	-1.167926678625061e-05,4.505252014476801e-14
30		1.995262314968878e+00,0.000000000000000e+00
	-1.167926678625060e-01,4.610192814872860e-10
	1.000000000000000e+00,0.000000000000000e+00
	0.000000000000000e+00,0.000000000000000e+00
	1.167926678625061e-05,-4.610192814872860e-14
	1.903764395482184e-23,2.860128673024918e-13
	1.167926669818405e-13,-8.471963974788404e-15
	-1.167926690304327e-05,-2.314389751789748e-13
	-1.167926678625061e-05,4.610192814872860e-14
	-1.903764395482184e-23,-2.860128673024917e-13
	-1.167926678625061e-05,4.610192814872860e-14
31		2.041737944669527e+00,0.000000000000000e+00
	-1.167926678625060e-01,4.717578000522481e-10
	1.000000000000000e+00,0.000000000000000e+00
	0.000000000000000e+00,0.000000000000000e+00
	1.167926678625061e-05,-4.717578000522481e-14
	1.993486047272257e-23,2.926749628127650e-13
	1.167926669818405e-13,-8.669301366255928e-15
	-1.167926690304327e-05,-2.368298814412843e-13
	-1.167926678625061e-05,4.717578000522481e-14
	-1.993486047272257e-23,-2.926749628127650e-13
	-1.167926678625061e-05,4.717578000522481e-14
32		2.089296130854037e+00,0.000000000000000e+00
	-1.167926678625060e-01,4.827464508472506e-10
	1.000000000000000e+00,0.000000000000000e+00
	0.000000000000000e+00,0.000000000000000e+00
	1.167926678625061e-05,-4.827464508472507e-14
	2.087436150239925e-23,2.994922384623328e-13
	1.167926669818405e-13,-8.871235336059696e-15
	-1.167926690304327e-05,-2.423463580415480e-13
	-1.167926678625061e-05,4.827464508472506e-14
	-2.087436150239925e-23,-2.994922384623328e-13
	-1.167926678625061e-05,4.827464508472506e-14
33		2.137962089502230e+00,0.000000000000000e+00
	-1.167926678625060e-01,4.939910602003972e-10
	1.000000000000000e+00,0.000000000000000e+00
	0.000000000000000e+00,0.000000000000000e+00
	1.167926678625061e-05,-4.939910602003972e-14
	2.185813985149692e-23,3.064683088609817e-13
	1.167926669818405e-13,-9.077872952263328e-15
	-1.167926690304327e-05,-2.479913298886787e-13
	-1.167926678625061e-05,4.939910602003972e-14
	-2.185813985149692e-23,-3.064683088609817e-13
	-1.167926678625061e-05,4.939910602003972e-14
34		2.187761623949550e+00,0.000000000000000e+00
	-1.167926678625060e-01,5.054975901524066e-10
	1.000000000000000e+00,0.000000000000000e+00
	0.000000000000000e+00,0.000000000000000e+00
	1.167926678625061e-05,-5.054975901524065e-14
	2.288828224579147e-23,3.136068728135763e-13
	1.167926669818405e-13,-9.289323776865997e-15
	-1.167926690304327e-05,-2.537677900214696e-13
	-1.167926678625061e-05,5.054975901524066e-14
	-2.288828224579147e-23,-3.136068728135762e-13
	-1.167926678625061e-05,5.054975901524066e-14
35		2.238721138568337e+00,0.000000000000000e+00
	-1.167926678625060e-01,5.172721416177663e-10
	1.000000000000000e+00,0.000000000000000e+00
	0.000000000000000e+00,0.000000000000000e+00
	1.167926678625061e-05,-5.172721416177664e-14
	2.396697375541480e-23,3.209117152812143e-13
	1.167926669818405e-13,-9.505699923893962e-15
	-1.167926690304327e-05,-2.596788011955437e-13
	-1.167926678625061e-05,5.172721416177663e-14
	-2.396697375541480e-23,-3.209117152812143e-13
	-1.167926678625061e-05,5.172721416177663e-14
36		2.290867652767770e+00,0.000000000000000e+00
	-1.167926678625060e-01,5.293209576195180e-10
	1.000000000000000e+00,0.000000000000000e+00
	0.000000000000000e+00,0.000000000000000e+00
	1.167926678625061e-05,-5.293209576195181e-14
	2.509650242968152e-23,3.283867093880632e-13
	1.167926669818405e-13,-9.727116118844390e-15
	-1.167926690304327e-05,-2.657274975072670e-13
	-1.167926678625061e-05,5.293209576195181e-14
	-2.509650242968152e-23,-3.283867093880632e-13
	-1.167926678625061e-05,5.293209576195181e-14
37		2.344228815319919e+00,0.000000000000000e+00
	-1.167926678625060e-01,5.416504265993909e-10
	1.000000000000000e+00,0.000000000000000e+00
	0.000000000000000e+00,0.000000000000000e+00
	1.167926678625061e-05,-5.416504265993909e-14
	2.627926415034828e-23,3.360358184749417e-13
	1.167926669818405e-13,-9.953689759514670e-15
	-1.167926690304327e-05,-2.719170860554879e-13
	-1.167926678625061e-05,5.416504265993908e-14
	-2.627926415034828e-23,-3.360358184749416e-13
	-1.167926678625061e-05,5.416504265993908e-14
38		2.398832919019488e+00,0.000000000000000e+00
	-1.167926678625060e-01,5.542670858050377e-10
	1.000000000000000e+00,0.000000000000000e+00
	0.000000000000000e+00,0.000000000000000e+00
