Title: * GA CMOS Amp | W=4.60216210114592e-05 L=6.699848396566937e-07 Vbias=0.7232705926348207
Date: Sat Sep  6 22:38:26 2025
Plotname: AC Analysis
Flags: complex forward log
No. Variables: 13
No. Points:          901
Offset:    0.0000000000000000e+00
Command: Linear Technology Corporation LTspice
Variables:
	0	frequency	frequency
	1	V(out)	voltage
	2	V(g)	voltage
	3	V(vdd)	voltage
	4	V(m1#dbody)	voltage
	5	V(m1#sbody)	voltage
	6	Id(M1)	device_current
	7	Ig(M1)	device_current
	8	Ib(M1)	device_current
	9	Is(M1)	device_current
	10	I(Rload)	device_current
	11	I(Vg)	device_current
	12	I(Vdd)	device_current
Values:
0		1.000000000000000e+00,0.000000000000000e+00
	-2.045956817830875e-02,6.564847522274610e-10
	1.000000000000000e+00,0.000000000000000e+00
	0.000000000000000e+00,0.000000000000000e+00
	9.417746230991975e-08,2.030095701927747e-14
	9.417763504092716e-08,4.227762882846378e-14
	2.045956817830910e-06,-6.564847522274641e-14
	3.494783616604538e-06,7.785821170031467e-12
	-5.022806054443619e-08,-2.108302262774157e-14
	-5.490512373891013e-06,-7.699089672180980e-12
	-2.045956817830875e-06,6.564847522274610e-14
	-3.494783616608821e-06,-7.785821170031467e-12
	-2.045956817830875e-06,6.564847522274610e-14
1		1.023292992280754e+00,0.000000000000000e+00
	-2.045956817830875e-02,6.717762464935282e-10
	1.000000000000000e+00,0.000000000000000e+00
	0.000000000000000e+00,0.000000000000000e+00
	9.417746230991955e-08,2.077382705441941e-14
	9.417763504092700e-08,4.326240131041376e-14
	2.045956817830910e-06,-6.717762464935334e-14
	3.494783616604538e-06,7.967176242444343e-12
	-5.022806054443610e-08,-2.157410931106450e-14
	-5.490512373891013e-06,-7.878424508483924e-12
	-2.045956817830875e-06,6.717762464935282e-14
	-3.494783616608821e-06,-7.967176242444343e-12
	-2.045956817830875e-06,6.717762464935282e-14
2		1.047128548050899e+00,0.000000000000000e+00
	-2.045956817830875e-02,6.874239254174957e-10
	1.000000000000000e+00,0.000000000000000e+00
	0.000000000000000e+00,0.000000000000000e+00
	9.417746230991935e-08,2.125771164763973e-14
	9.417763504092683e-08,4.427011209018412e-14
	2.045956817830910e-06,-6.874239254175159e-14
	3.494783616604538e-06,8.152755617159007e-12
	-5.022806054443602e-08,-2.207663487271128e-14
	-5.490512373891013e-06,-8.061936589744543e-12
	-2.045956817830875e-06,6.874239254174957e-14
	-3.494783616608821e-06,-8.152755617159002e-12
	-2.045956817830875e-06,6.874239254174957e-14
3		1.071519305237606e+00,0.000000000000000e+00
	-2.045956817830875e-02,7.034360856058512e-10
	1.000000000000000e+00,0.000000000000000e+00
	0.000000000000000e+00,0.000000000000000e+00
	9.417746230991913e-08,2.175286736095467e-14
	9.417763504092664e-08,4.530129546936887e-14
	2.045956817830910e-06,-7.034360856058580e-14
	3.494783616604538e-06,8.342657690816366e-12
	-5.022806054443591e-08,-2.259086575838636e-14
	-5.490512373891013e-06,-8.249723216497393e-12
	-2.045956817830875e-06,7.034360856058512e-14
	-3.494783616608821e-06,-8.342657690816364e-12
	-2.045956817830875e-06,7.034360856058512e-14
4		1.096478196143185e+00,0.000000000000000e+00
	-2.045956817830875e-02,7.198212169178721e-10
	1.000000000000000e+00,0.000000000000000e+00
	0.000000000000000e+00,0.000000000000000e+00
	9.417746230991889e-08,2.225955673247768e-14
	9.417763504092645e-08,4.635649819504505e-14
	2.045956817830910e-06,-7.198212169178795e-14
	3.494783616604538e-06,8.536983152009521e-12
	-5.022806054443580e-08,-2.311707462011201e-14
	-5.490512373891013e-06,-8.441883955697622e-12
	-2.045956817830875e-06,7.198212169178721e-14
	-3.494783616608821e-06,-8.536983152009521e-12
	-2.045956817830875e-06,7.198212169178721e-14
5		1.122018454301963e+00,0.000000000000000e+00
	-2.045956817830875e-02,7.365880069670631e-10
	1.000000000000000e+00,0.000000000000000e+00
	0.000000000000000e+00,0.000000000000000e+00
	9.417746230991865e-08,2.277804841562029e-14
	9.417763504092625e-08,4.743627974966503e-14
	2.045956817830910e-06,-7.365880069670744e-14
	3.494783616604538e-06,8.735835034670211e-12
	-5.022806054443569e-08,-2.365554046079190e-14
	-5.490512373891013e-06,-8.638520693512711e-12
	-2.045956817830875e-06,7.365880069670631e-14
	-3.494783616608821e-06,-8.735835034670209e-12
	-2.045956817830875e-06,7.365880069670631e-14
6		1.148153621496882e+00,0.000000000000000e+00
	-2.045956817830875e-02,7.537453457274430e-10
	1.000000000000000e+00,0.000000000000000e+00
	0.000000000000000e+00,0.000000000000000e+00
	9.417746230991842e-08,2.330861732153598e-14
	9.417763504092605e-08,4.854121264770168e-14
	2.045956817830910e-06,-7.537453457274484e-14
	3.494783616604538e-06,8.939318772698721e-12
	-5.022806054443559e-08,-2.420654878214220e-14
	-5.490512373891013e-06,-8.839737689343835e-12
	-2.045956817830875e-06,7.537453457274430e-14
	-3.494783616608821e-06,-8.939318772698721e-12
	-2.045956817830875e-06,7.537453457274430e-14
7		1.174897554939529e+00,0.000000000000000e+00
	-2.045956817830875e-02,7.713023302471266e-10
	1.000000000000000e+00,0.000000000000000e+00
	0.000000000000000e+00,0.000000000000000e+00
	9.417746230991814e-08,2.385154476488155e-14
	9.417763504092582e-08,4.967188273920303e-14
	2.045956817830910e-06,-7.713023302471401e-14
	3.494783616604538e-06,9.147542255866392e-12
	-5.022806054443547e-08,-2.477039173606832e-14
	-5.490512373891013e-06,-9.045641631105611e-12
	-2.045956817830875e-06,7.713023302471266e-14
	-3.494783616608821e-06,-9.147542255866392e-12
	-2.045956817830875e-06,7.713023302471266e-14
8		1.202264434617413e+00,0.000000000000000e+00
	-2.045956817830875e-02,7.892682694717007e-10
	1.000000000000000e+00,0.000000000000000e+00
	0.000000000000000e+00,0.000000000000000e+00
	9.417746230991787e-08,2.440711861297399e-14
	9.417763504092560e-08,5.082888952041779e-14
	2.045956817830910e-06,-7.892682694717239e-14
	3.494783616604537e-06,9.360615887020165e-12
	-5.022806054443533e-08,-2.534736827956782e-14
	-5.490512373891013e-06,-9.256341691793425e-12
	-2.045956817830875e-06,7.892682694717007e-14
	-3.494783616608821e-06,-9.360615887020165e-12
	-2.045956817830875e-06,7.892682694717007e-14
9		1.230268770812381e+00,0.000000000000000e+00
	-2.045956817830875e-02,8.076526891799489e-10
	1.000000000000000e+00,0.000000000000000e+00
	0.000000000000000e+00,0.000000000000000e+00
	9.417746230991758e-08,2.497563343842151e-14
	9.417763504092536e-08,5.201284645165624e-14
	2.045956817830910e-06,-8.076526891799740e-14
	3.494783616604537e-06,9.578652640619628e-12
	-5.022806054443521e-08,-2.593778433324125e-14
	-5.490512373891013e-06,-9.471949587368390e-12
	-2.045956817830875e-06,8.076526891799490e-14
	-3.494783616608821e-06,-9.578652640619627e-12
	-2.045956817830875e-06,8.076526891799490e-14
10		1.258925411794167e+00,0.000000000000000e+00
	-2.045956817830875e-02,8.264653370345480e-10
	1.000000000000000e+00,0.000000000000000e+00
	0.000000000000000e+00,0.000000000000000e+00
	9.417746230991729e-08,2.555739067530957e-14
	9.417763504092511e-08,5.322438128255469e-14
	2.045956817830910e-06,-8.264653370345533e-14
	3.494783616604537e-06,9.801768122637606e-12
	-5.022806054443508e-08,-2.654195294349529e-14
	-5.490512373891013e-06,-9.692579635990655e-12
	-2.045956817830875e-06,8.264653370345480e-14
	-3.494783616608821e-06,-9.801768122637608e-12
	-2.045956817830875e-06,8.264653370345480e-14
11		1.288249551693134e+00,0.000000000000000e+00
	-2.045956817830875e-02,8.457161877504046e-10
	1.000000000000000e+00,0.000000000000000e+00
	0.000000000000000e+00,0.000000000000000e+00
	9.417746230991697e-08,2.615269877902580e-14
	9.417763504092484e-08,5.446413638491718e-14
	2.045956817830910e-06,-8.457161877504224e-14
	3.494783616604537e-06,1.003008063185595e-11
	-5.022806054443493e-08,-2.716019444852428e-14
	-5.490512373891013e-06,-9.918348818632382e-12
	-2.045956817830875e-06,8.457161877504046e-14
	-3.494783616608821e-06,-1.003008063185595e-11
	-2.045956817830875e-06,8.457161877504046e-14
12		1.318256738556407e+00,0.000000000000000e+00
	-2.045956817830875e-02,8.654154483833835e-10
	1.000000000000000e+00,0.000000000000000e+00
	0.000000000000000e+00,0.000000000000000e+00
	9.417746230991664e-08,2.676187338980649e-14
	9.417763504092458e-08,5.573276909330896e-14
	2.045956817830910e-06,-8.654154483834071e-14
	3.494783616604537e-06,1.026371122258911e-11
	-5.022806054443479e-08,-2.779283664815751e-14
	-5.490512373891013e-06,-1.014937684110261e-11
	-2.045956817830875e-06,8.654154483833835e-14
	-3.494783616608821e-06,-1.026371122258911e-11
	-2.045956817830875e-06,8.654154483833835e-14
13		1.348962882591653e+00,0.000000000000000e+00
	-2.045956817830875e-02,8.855735637422231e-10
	1.000000000000000e+00,0.000000000000000e+00
	0.000000000000000e+00,0.000000000000000e+00
	9.417746230991630e-08,2.738523750009377e-14
	9.417763504092429e-08,5.703095205358445e-14
	2.045956817830910e-06,-8.855735637422297e-14
	3.494783616604537e-06,1.050278376886877e-11
	-5.022806054443462e-08,-2.844021497766330e-14
	-5.490512373891013e-06,-1.038578619751688e-11
	-2.045956817830875e-06,8.855735637422231e-14
	-3.494783616608821e-06,-1.050278376886877e-11
	-2.045956817830875e-06,8.855735637422231e-14
14		1.380384264602885e+00,0.000000000000000e+00
	-2.045956817830875e-02,9.062012219265109e-10
	1.000000000000000e+00,0.000000000000000e+00
	0.000000000000000e+00,0.000000000000000e+00
	9.417746230991593e-08,2.802312162579011e-14
	9.417763504092398e-08,5.835937357953270e-14
	2.045956817830910e-06,-9.062012219265234e-14
	3.494783616604537e-06,1.074742503012346e-11
	-5.022806054443446e-08,-2.910267268560103e-14
	-5.490512373891013e-06,-1.062770223524520e-11
	-2.045956817830875e-06,9.062012219265109e-14
	-3.494783616608821e-06,-1.074742503012346e-11
	-2.045956817830875e-06,9.062012219265109e-14
15		1.412537544622754e+00,0.000000000000000e+00
	-2.045956817830875e-02,9.273093599936549e-10
	1.000000000000000e+00,0.000000000000000e+00
	0.000000000000000e+00,0.000000000000000e+00
	9.417746230991557e-08,2.867586398150227e-14
	9.417763504092368e-08,5.971873801783039e-14
	2.045956817830910e-06,-9.273093599936662e-14
	3.494783616604537e-06,1.099776471838811e-11
	-5.022806054443429e-08,-2.978056101581604e-14
	-5.490512373891013e-06,-1.087525322137292e-11
	-2.045956817830875e-06,9.273093599936550e-14
	-3.494783616608821e-06,-1.099776471838811e-11
	-2.045956817830875e-06,9.273093599936550e-14
16		1.445439770745927e+00,0.000000000000000e+00
	-2.045956817830875e-02,9.489091697578580e-10
	1.000000000000000e+00,0.000000000000000e+00
	0.000000000000000e+00,0.000000000000000e+00
	9.417746230991517e-08,2.934381065986730e-14
	9.417763504092335e-08,6.110976612149602e-14
	2.045956817830910e-06,-9.489091697578658e-14
	3.494783616604536e-06,1.125393556707907e-11
	-5.022806054443411e-08,-3.047423939367394e-14
	-5.490512373891013e-06,-1.112857041070961e-11
	-2.045956817830875e-06,9.489091697578580e-14
	-3.494783616608821e-06,-1.125393556707907e-11
	-2.045956817830875e-06,9.489091697578580e-14
17		1.479108388168207e+00,0.000000000000000e+00
	-2.045956817830875e-02,9.710121037241646e-10
	1.000000000000000e+00,0.000000000000000e+00
	0.000000000000000e+00,0.000000000000000e+00
	9.417746230991474e-08,3.002731581505555e-14
	9.417763504092299e-08,6.253319543204277e-14
	2.045956817830910e-06,-9.710121037241872e-14
	3.494783616604536e-06,1.151607340137114e-11
	-5.022806054443392e-08,-3.118407561663266e-14
	-5.490512373891013e-06,-1.138778811538209e-11
	-2.045956817830875e-06,9.710121037241647e-14
	-3.494783616608821e-06,-1.151607340137114e-11
	-2.045956817830875e-06,9.710121037241647e-14
18		1.513561248436208e+00,0.000000000000000e+00
	-2.045956817830875e-02,9.936298811607301e-10
	1.000000000000000e+00,0.000000000000000e+00
	0.000000000000000e+00,0.000000000000000e+00
	9.417746230991431e-08,3.072674185054737e-14
	9.417763504092263e-08,6.398978067053220e-14
	2.045956817830910e-06,-9.936298811607528e-14
	3.494783616604536e-06,1.178431721021388e-11
	-5.022806054443371e-08,-3.191044604925332e-14
	-5.490512373891013e-06,-1.165304377604855e-11
	-2.045956817830875e-06,9.936298811607302e-14
	-3.494783616608821e-06,-1.178431721021388e-11
	-2.045956817830875e-06,9.936298811607302e-14
19		1.548816618912481e+00,0.000000000000000e+00
	-2.045956817830875e-02,1.016774494312534e-09
	1.000000000000000e+00,0.000000000000000e+00
	0.000000000000000e+00,0.000000000000000e+00
	9.417746230991385e-08,3.144245961128494e-14
	9.417763504092225e-08,6.548029413773811e-14
	2.045956817830897e-06,-1.016774494312566e-13
	3.494783616604549e-06,1.205880922002535e-11
	-5.022806054443351e-08,-3.265373582275402e-14
	-5.490512373891013e-06,-1.192447803477134e-11
	-2.045956817830875e-06,1.016774494312534e-13
	-3.494783616608821e-06,-1.205880922002535e-11
	-2.045956817830875e-06,1.016774494312534e-13
20		1.584893192461113e+00,0.000000000000000e+00
	-2.045956817830875e-02,1.040458214759824e-09
	1.000000000000000e+00,0.000000000000000e+00
	0.000000000000000e+00,0.000000000000000e+00
	9.417746230991337e-08,3.217484858029849e-14
	9.417763504092185e-08,6.700552612362990e-14
	2.045956817830897e-06,-1.040458214759830e-13
	3.494783616604549e-06,1.233969497010249e-11
	-5.022806054443330e-08,-3.341433903921120e-14
	-5.490512373891013e-06,-1.220223480958729e-11
	-2.045956817830875e-06,1.040458214759824e-13
	-3.494783616608821e-06,-1.233969497010249e-11
	-2.045956817830875e-06,1.040458214759824e-13
21		1.621810097358929e+00,0.000000000000000e+00
	-2.045956817830875e-02,1.064693599924671e-09
	1.000000000000000e+00,0.000000000000000e+00
	0.000000000000000e+00,0.000000000000000e+00
	9.417746230991288e-08,3.292429707991382e-14
	9.417763504092144e-08,6.856628532639549e-14
	2.045956817830897e-06,-1.064693599924679e-13
	3.494783616604549e-06,1.262712338978795e-11
	-5.022806054443306e-08,-3.419265898051805e-14
	-5.490512373891013e-06,-1.248646137081496e-11
	-2.045956817830875e-06,1.064693599924671e-13
	-3.494783616608821e-06,-1.262712338978794e-11
	-2.045956817830875e-06,1.064693599924671e-13
22		1.659586907437560e+00,0.000000000000000e+00
	-2.045956817830875e-02,1.089493499729085e-09
	1.000000000000000e+00,0.000000000000000e+00
	0.000000000000000e+00,0.000000000000000e+00
	9.417746230991235e-08,3.369120247764551e-14
	9.417763504092101e-08,7.016339928122320e-14
	2.045956817830897e-06,-1.089493499729101e-13
	3.494783616604548e-06,1.292124687743440e-11
	-5.022806054443283e-08,-3.498910832220971e-14
	-5.490512373891013e-06,-1.277730841913929e-11
	-2.045956817830875e-06,1.089493499729085e-13
	-3.494783616608821e-06,-1.292124687743440e-11
	-2.045956817830875e-06,1.089493499729085e-13
23		1.698243652461743e+00,0.000000000000000e+00
	-2.045956817830875e-02,1.114871063408206e-09
	1.000000000000000e+00,0.000000000000000e+00
	0.000000000000000e+00,0.000000000000000e+00
	9.417746230991180e-08,3.447597139688659e-14
	9.417763504092054e-08,7.179771479907218e-14
	2.045956817830897e-06,-1.114871063408224e-13
	3.494783616604548e-06,1.322222138120821e-11
	-5.022806054443258e-08,-3.580410935226940e-14
	-5.490512373891013e-06,-1.307493016551511e-11
	-2.045956817830875e-06,1.114871063408206e-13
	-3.494783616608821e-06,-1.322222138120820e-11
	-2.045956817830875e-06,1.114871063408206e-13
24		1.737800828749374e+00,0.000000000000000e+00
	-2.045956817830875e-02,1.140839746482210e-09
	1.000000000000000e+00,0.000000000000000e+00
	0.000000000000000e+00,0.000000000000000e+00
	9.417746230991124e-08,3.527901993250579e-14
	9.417763504092008e-08,7.347009841566276e-14
	2.045956817830897e-06,-1.140839746482226e-13
	3.494783616604548e-06,1.353020648177511e-11
	-5.022806054443232e-08,-3.663809419503110e-14
	-5.490512373891013e-06,-1.337948441293185e-11
	-2.045956817830875e-06,1.140839746482210e-13
	-3.494783616608821e-06,-1.353020648177511e-11
	-2.045956817830875e-06,1.140839746482210e-13
25		1.778279410038922e+00,0.000000000000000e+00
	-2.045956817830875e-02,1.167413317890597e-09
	1.000000000000000e+00,0.000000000000000e+00
	0.000000000000000e+00,0.000000000000000e+00
	9.417746230991065e-08,3.610077387146629e-14
	9.417763504091958e-08,7.518143685092512e-14
	2.045956817830897e-06,-1.167413317890620e-13
	3.494783616604548e-06,1.384536547691210e-11
	-5.022806054443205e-08,-3.749150504029753e-14
	-5.490512373891013e-06,-1.369113264008275e-11
	-2.045956817830875e-06,1.167413317890597e-13
	-3.494783616608821e-06,-1.384536547691210e-11
	-2.045956817830875e-06,1.167413317890597e-13
26		1.819700858609982e+00,0.000000000000000e+00
	-2.045956817830875e-02,1.194605867292672e-09
	1.000000000000000e+00,0.000000000000000e+00
	0.000000000000000e+00,0.000000000000000e+00
	9.417746230991002e-08,3.694166891858353e-14
	9.417763504091906e-08,7.693263747914965e-14
	2.045956817830897e-06,-1.194605867292699e-13
	3.494783616604548e-06,1.416786546809004e-11
	-5.022806054443176e-08,-3.836479437779500e-14
	-5.490512373891013e-06,-1.401004008698297e-11
	-2.045956817830875e-06,1.194605867292672e-13
	-3.494783616608821e-06,-1.416786546809004e-11
	-2.045956817830875e-06,1.194605867292672e-13
27		1.862087136662866e+00,0.000000000000000e+00
	-2.045956817830875e-02,1.222431812538064e-09
	1.000000000000000e+00,0.000000000000000e+00
	0.000000000000000e+00,0.000000000000000e+00
	9.417746230990935e-08,3.780215092754235e-14
	9.417763504091850e-08,7.872462881008961e-14
	2.045956817830897e-06,-1.222431812538064e-13
	3.494783616604547e-06,1.449787744907302e-11
	-5.022806054443146e-08,-3.925842523708974e-14
	-5.490512373891013e-06,-1.433637584258212e-11
	-2.045956817830875e-06,1.222431812538064e-13
	-3.494783616608821e-06,-1.449787744907302e-11
	-2.045956817830875e-06,1.222431812538064e-13
28		1.905460717963246e+00,0.000000000000000e+00
	-2.045956817830875e-02,1.250905907311261e-09
	1.000000000000000e+00,0.000000000000000e+00
	0.000000000000000e+00,0.000000000000000e+00
	9.417746230990867e-08,3.868267613729346e-14
	9.417763504091794e-08,8.055836098126820e-14
	2.045956817830897e-06,-1.250905907311288e-13
	3.494783616604547e-06,1.483557639658160e-11
	-5.022806054443115e-08,-4.017287143309181e-14
	-5.490512373891013e-06,-1.467031293441738e-11
	-2.045956817830875e-06,1.250905907311261e-13
	-3.494783616608821e-06,-1.483557639658160e-11
	-2.045956817830875e-06,1.250905907311261e-13
29		1.949844599758044e+00,0.000000000000000e+00
	-2.045956817830875e-02,1.280043248954213e-09
	1.000000000000000e+00,0.000000000000000e+00
	0.000000000000000e+00,0.000000000000000e+00
	9.417746230990793e-08,3.958371141395831e-14
	9.417763504091733e-08,8.243480626175506e-14
	2.045956817830910e-06,-1.280043248954210e-13
	3.494783616604560e-06,1.518114136306771e-11
	-5.022806054443081e-08,-4.110861781727853e-14
	-5.490512373891040e-06,-1.501202842035501e-11
	-2.045956817830875e-06,1.280043248954213e-13
	-3.494783616608821e-06,-1.518114136306771e-11
	-2.045956817830875e-06,1.280043248954213e-13
30		1.995262314968878e+00,0.000000000000000e+00
	-2.045956817830875e-02,1.309859286471134e-09
	1.000000000000000e+00,0.000000000000000e+00
	0.000000000000000e+00,0.000000000000000e+00
	9.417746230990719e-08,4.050573449836719e-14
	9.417763504091670e-08,8.435495956767553e-14
	2.045956817830910e-06,-1.309859286471137e-13
	3.494783616604560e-06,1.553475557165068e-11
	-5.022806054443048e-08,-4.206616053476883e-14
	-5.490512373891040e-06,-1.536170348246880e-11
	-2.045956817830875e-06,1.309859286471134e-13
	-3.494783616608821e-06,-1.553475557165068e-11
	-2.045956817830875e-06,1.309859286471134e-13
31		2.041737944669527e+00,0.000000000000000e+00
	-2.045956817830875e-02,1.340369828719780e-09
	1.000000000000000e+00,0.000000000000000e+00
	0.000000000000000e+00,0.000000000000000e+00
	9.417746230990641e-08,4.144923425936406e-14
	9.417763504091606e-08,8.631983898972883e-14
	2.045956817830910e-06,-1.340369828719810e-13
	3.494783616604559e-06,1.589660651326454e-11
	-5.022806054443012e-08,-4.304600728738623e-14
	-5.490512373891040e-06,-1.571952352310518e-11
	-2.045956817830875e-06,1.340369828719780e-13
	-3.494783616608821e-06,-1.589660651326454e-11
	-2.045956817830875e-06,1.340369828719780e-13
32		2.089296130854037e+00,0.000000000000000e+00
	-2.045956817830875e-02,1.371591052793506e-09
	1.000000000000000e+00,0.000000000000000e+00
	0.000000000000000e+00,0.000000000000000e+00
	9.417746230990558e-08,4.241471095301053e-14
