Title: * GA CMOS Amp | W=6.92114201703108e-06 L=1e-07 Vbias=1.0293235504753881
Date: Sat Sep  6 22:04:28 2025
Plotname: AC Analysis
Flags: complex forward log
No. Variables: 13
No. Points:          901
Offset:    0.0000000000000000e+00
Command: Linear Technology Corporation LTspice
Variables:
	0	frequency	frequency
	1	V(out)	voltage
	2	V(g)	voltage
	3	V(vdd)	voltage
	4	V(m1#dbody)	voltage
	5	V(m1#sbody)	voltage
	6	Id(M1)	device_current
	7	Ig(M1)	device_current
	8	Ib(M1)	device_current
	9	Is(M1)	device_current
	10	I(Rload)	device_current
	11	I(Vg)	device_current
	12	I(Vdd)	device_current
Values:
0		1.000000000000000e+00,0.000000000000000e+00
	-1.254892990294198e-02,2.055772365163729e-11
	1.000000000000000e+00,0.000000000000000e+00
	0.000000000000000e+00,0.000000000000000e+00
	5.345865564107010e-08,-1.222941197392542e-15
	5.345875996758958e-08,8.017512976026656e-16
	1.254892990294203e-06,-2.055772365163723e-15
	2.746307373797574e-07,2.171001868272297e-13
	-2.851133171582840e-08,-2.926267719123701e-16
	-1.501012395958132e-06,-2.147517876901536e-13
	-1.254892990294199e-06,2.055772365163729e-15
	-2.746307373735490e-07,-2.171001868272297e-13
	-1.254892990294199e-06,2.055772365163729e-15
1		1.023292992280754e+00,0.000000000000000e+00
	-1.254892990294198e-02,2.103657454996475e-11
	1.000000000000000e+00,0.000000000000000e+00
	0.000000000000000e+00,0.000000000000000e+00
	5.345865564107010e-08,-1.251427157263223e-15
	5.345875996758958e-08,8.204264843888094e-16
	1.254892990294203e-06,-2.103657454996495e-15
	2.746307373797574e-07,2.221570998031467e-13
	-2.851133171582840e-08,-2.994429250516670e-16
	-1.501012395958132e-06,-2.197539994230985e-13
	-1.254892990294199e-06,2.103657454996475e-15
	-2.746307373735490e-07,-2.221570998031466e-13
	-1.254892990294199e-06,2.103657454996475e-15
2		1.047128548050899e+00,0.000000000000000e+00
	-1.254892990294198e-02,2.152657931857059e-11
	1.000000000000000e+00,0.000000000000000e+00
	0.000000000000000e+00,0.000000000000000e+00
	5.345865564107010e-08,-1.280576640377281e-15
	5.345875996758958e-08,8.395366721566035e-16
	1.254892990294203e-06,-2.152657931857056e-15
	2.746307373797574e-07,2.273318034139760e-13
	-2.851133171582840e-08,-3.064178467934216e-16
	-1.501012395958132e-06,-2.248727276353256e-13
	-1.254892990294199e-06,2.152657931857059e-15
	-2.746307373735490e-07,-2.273318034139760e-13
	-1.254892990294199e-06,2.152657931857059e-15
3		1.071519305237606e+00,0.000000000000000e+00
	-1.254892990294198e-02,2.202799776446909e-11
	1.000000000000000e+00,0.000000000000000e+00
	0.000000000000000e+00,0.000000000000000e+00
	5.345865564107010e-08,-1.310405102176503e-15
	5.345875996758958e-08,8.590919933805576e-16
	1.254892990294203e-06,-2.202799776446923e-15
	2.746307373797574e-07,2.326270413560677e-13
	-2.851133171582840e-08,-3.135552353334662e-16
	-1.501012395958132e-06,-2.301106863442873e-13
	-1.254892990294199e-06,2.202799776446910e-15
	-2.746307373735490e-07,-2.326270413560677e-13
	-1.254892990294199e-06,2.202799776446910e-15
4		1.096478196143185e+00,0.000000000000000e+00
	-1.254892990294198e-02,2.254109574635734e-11
	1.000000000000000e+00,0.000000000000000e+00
	0.000000000000000e+00,0.000000000000000e+00
	5.345865564107010e-08,-1.340928358106160e-15
	5.345875996758958e-08,8.791028165508288e-16
	1.254892990294203e-06,-2.254109574635719e-15
	2.746307373797574e-07,2.380456212346692e-13
	-2.851133171582840e-08,-3.208588750096789e-16
	-1.501012395958132e-06,-2.354706527850238e-13
	-1.254892990294199e-06,2.254109574635734e-15
	-2.746307373735490e-07,-2.380456212346692e-13
	-1.254892990294199e-06,2.254109574635734e-15
5		1.122018454301963e+00,0.000000000000000e+00
	-1.254892990294198e-02,2.306614531557698e-11
	1.000000000000000e+00,0.000000000000000e+00
	0.000000000000000e+00,0.000000000000000e+00
	5.345865564107010e-08,-1.372162592000571e-15
	5.345875996758958e-08,8.995797516707370e-16
	1.254892990294203e-06,-2.306614531557711e-15
	2.746307373797574e-07,2.435904160525557e-13
	-2.851133171582840e-08,-3.283326383084910e-16
	-1.501012395958132e-06,-2.409554688826895e-13
	-1.254892990294199e-06,2.306614531557698e-15
	-2.746307373735490e-07,-2.435904160525557e-13
	-1.254892990294199e-06,2.306614531557698e-15
6		1.148153621496882e+00,0.000000000000000e+00
	-1.254892990294198e-02,2.360342486035947e-11
	1.000000000000000e+00,0.000000000000000e+00
	0.000000000000000e+00,0.000000000000000e+00
	5.345865564107010e-08,-1.404124364663982e-15
	5.345875996758958e-08,9.205336558823251e-16
	1.254892990294203e-06,-2.360342486035938e-15
	2.746307373797574e-07,2.492643657333336e-13
	-2.851133171582840e-08,-3.359804879181298e-16
	-1.501012395958132e-06,-2.465680427593795e-13
	-1.254892990294199e-06,2.360342486035947e-15
	-2.746307373735490e-07,-2.492643657333335e-13
	-1.254892990294199e-06,2.360342486035947e-15
7		1.174897554939529e+00,0.000000000000000e+00
	-1.254892990294198e-02,2.415321925343118e-11
	1.000000000000000e+00,0.000000000000000e+00
	0.000000000000000e+00,0.000000000000000e+00
	5.345865564107010e-08,-1.436830622651318e-15
	5.345875996758958e-08,9.419756392229669e-16
	1.254892990294203e-06,-2.415321925343088e-15
	2.746307373797574e-07,2.550704786802272e-13
	-2.851133171582840e-08,-3.438064788296910e-16
	-1.501012395958132e-06,-2.523113502760544e-13
	-1.254892990294199e-06,2.415321925343119e-15
	-2.746307373735490e-07,-2.550704786802271e-13
	-1.254892990294199e-06,2.415321925343119e-15
8		1.202264434617413e+00,0.000000000000000e+00
	-1.254892990294198e-02,2.471582000305671e-11
	1.000000000000000e+00,0.000000000000000e+00
	0.000000000000000e+00,0.000000000000000e+00
	5.345865564107010e-08,-1.470298707253487e-15
	5.345875996758958e-08,9.639170705160450e-16
	1.254892990294203e-06,-2.471582000305693e-15
	2.746307373797574e-07,2.610118333711740e-13
	-2.851133171582840e-08,-3.518147604871437e-16
	-1.501012395958132e-06,-2.581884366103811e-13
	-1.254892990294199e-06,2.471582000305672e-15
	-2.746307373735490e-07,-2.610118333711739e-13
	-1.254892990294199e-06,2.471582000305672e-15
9		1.230268770812381e+00,0.000000000000000e+00
	-1.254892990294198e-02,2.529152540760042e-11
	1.000000000000000e+00,0.000000000000000e+00
	0.000000000000000e+00,0.000000000000000e+00
	5.345865564107010e-08,-1.504546363691944e-15
	5.345875996758958e-08,9.863695833988634e-16
	1.254892990294203e-06,-2.529152540760078e-15
	2.746307373797574e-07,2.670915799910743e-13
	-2.851133171582840e-08,-3.600095789874267e-16
	-1.501012395958132e-06,-2.642024178713267e-13
	-1.254892990294199e-06,2.529152540760042e-15
	-2.746307373735490e-07,-2.670915799910742e-13
	-1.254892990294199e-06,2.529152540760042e-15
10		1.258925411794167e+00,0.000000000000000e+00
	-1.254892990294198e-02,2.588064071368816e-11
	1.000000000000000e+00,0.000000000000000e+00
	0.000000000000000e+00,0.000000000000000e+00
	5.345865564107010e-08,-1.539591750527457e-15
	5.345875996758958e-08,1.009345082490944e-15
	1.254892990294203e-06,-2.588064071368826e-15
	2.746307373797574e-07,2.733129421020607e-13
	-2.851133171582840e-08,-3.683952793317783e-16
	-1.501012395958132e-06,-2.703564827513601e-13
	-1.254892990294199e-06,2.588064071368816e-15
	-2.746307373735490e-07,-2.733129421020607e-13
	-1.254892990294199e-06,2.588064071368816e-15
11		1.288249551693134e+00,0.000000000000000e+00
	-1.254892990294198e-02,2.648347827805307e-11
	1.000000000000000e+00,0.000000000000000e+00
	0.000000000000000e+00,0.000000000000000e+00
	5.345865564107010e-08,-1.575453449288007e-15
	5.345875996758958e-08,1.032855749706022e-15
	1.254892990294203e-06,-2.648347827805309e-15
	2.746307373797574e-07,2.796792183526742e-13
	-2.851133171582840e-08,-3.769763077295193e-16
	-1.501012395958132e-06,-2.766538942171394e-13
	-1.254892990294199e-06,2.648347827805307e-15
	-2.746307373735490e-07,-2.796792183526743e-13
	-1.254892990294199e-06,2.648347827805307e-15
12		1.318256738556407e+00,0.000000000000000e+00
	-1.254892990294198e-02,2.710035773315128e-11
	1.000000000000000e+00,0.000000000000000e+00
	0.000000000000000e+00,0.000000000000000e+00
	5.345865564107010e-08,-1.612150474320961e-15
	5.345875996758958e-08,1.056914050711056e-15
	1.254892990294203e-06,-2.710035773315141e-15
	2.746307373797574e-07,2.861937842268504e-13
	-2.851133171582840e-08,-3.857572139554899e-16
	-1.501012395958132e-06,-2.830979912395798e-13
	-1.254892990294199e-06,2.710035773315128e-15
	-2.746307373735490e-07,-2.861937842268504e-13
	-1.254892990294199e-06,2.710035773315128e-15
13		1.348962882591653e+00,0.000000000000000e+00
	-1.254892990294198e-02,2.773160615663525e-11
	1.000000000000000e+00,0.000000000000000e+00
	0.000000000000000e+00,0.000000000000000e+00
	5.345865564107010e-08,-1.649702282874732e-15
	5.345875996758958e-08,1.081532741535690e-15
	1.254892990294203e-06,-2.773160615663536e-15
	2.746307373797574e-07,2.928600938336463e-13
	-2.851133171582840e-08,-3.947426537624010e-16
	-1.501012395958132e-06,-2.896921905642204e-13
	-1.254892990294199e-06,2.773160615663525e-15
	-2.746307373735490e-07,-2.928600938336463e-13
	-1.254892990294199e-06,2.773160615663525e-15
14		1.380384264602885e+00,0.000000000000000e+00
	-1.254892990294198e-02,2.837755824477467e-11
	1.000000000000000e+00,0.000000000000000e+00
	0.000000000000000e+00,0.000000000000000e+00
	5.345865564107010e-08,-1.688128785415275e-15
	5.345875996758958e-08,1.106724875335665e-15
	1.254892990294203e-06,-2.837755824477506e-15
	2.746307373797574e-07,2.996816817386543e-13
	-2.851133171582840e-08,-4.039373913493735e-16
	-1.501012395958132e-06,-2.964399885228274e-13
	-1.254892990294199e-06,2.837755824477467e-15
	-2.746307373735490e-07,-2.996816817386543e-13
	-1.254892990294199e-06,2.837755824477467e-15
15		1.412537544622754e+00,0.000000000000000e+00
	-1.254892990294198e-02,2.903855648991685e-11
	1.000000000000000e+00,0.000000000000000e+00
	0.000000000000000e+00,0.000000000000000e+00
	5.345865564107010e-08,-1.727450356182873e-15
	5.345875996758958e-08,1.132503809313776e-15
	1.254892990294203e-06,-2.903855648991713e-15
	2.746307373797574e-07,3.066621648380763e-13
	-2.851133171582840e-08,-4.133463018879817e-16
	-1.501012395958132e-06,-3.033449628871965e-13
	-1.254892990294199e-06,2.903855648991685e-15
	-2.746307373735490e-07,-3.066621648380762e-13
	-1.254892990294199e-06,2.903855648991685e-15
16		1.445439770745927e+00,0.000000000000000e+00
	-1.254892990294198e-02,2.971495136208072e-11
	1.000000000000000e+00,0.000000000000000e+00
	0.000000000000000e+00,0.000000000000000e+00
	5.345865564107010e-08,-1.767687843994825e-15
	5.345875996758958e-08,1.158883211802046e-15
	1.254892990294203e-06,-2.971495136208082e-15
	2.746307373797574e-07,3.138052442764488e-13
	-2.851133171582840e-08,-4.229743741071368e-16
	-1.501012395958132e-06,-3.104107747661336e-13
	-1.254892990294199e-06,2.971495136208073e-15
	-2.746307373735490e-07,-3.138052442764488e-13
	-1.254892990294199e-06,2.971495136208073e-15
17		1.479108388168207e+00,0.000000000000000e+00
	-1.254892990294198e-02,3.040710149478066e-11
	1.000000000000000e+00,0.000000000000000e+00
	0.000000000000000e+00,0.000000000000000e+00
	5.345865564107010e-08,-1.808862583299780e-15
	5.345875996758958e-08,1.185877069508847e-15
	1.254892990294203e-06,-3.040710149478025e-15
	2.746307373797574e-07,3.211147074090403e-13
	-2.851133171582840e-08,-4.328267129381709e-16
	-1.501012395958132e-06,-3.176411705466241e-13
	-1.254892990294199e-06,3.040710149478066e-15
	-2.746307373735490e-07,-3.211147074090402e-13
	-1.254892990294199e-06,3.040710149478066e-15
18		1.513561248436208e+00,0.000000000000000e+00
	-1.254892990294198e-02,3.111537387517869e-11
	1.000000000000000e+00,0.000000000000000e+00
	0.000000000000000e+00,0.000000000000000e+00
	5.345865564107010e-08,-1.850996405489527e-15
	5.345875996758958e-08,1.213499694934840e-15
	1.254892990294203e-06,-3.111537387517828e-15
	2.746307373797574e-07,3.285944298099557e-13
	-2.851133171582840e-08,-4.429085422215443e-16
	-1.501012395958132e-06,-3.250399838802163e-13
	-1.254892990294199e-06,3.111537387517869e-15
	-2.746307373735490e-07,-3.285944298099556e-13
	-1.254892990294199e-06,3.111537387517869e-15
19		1.548816618912481e+00,0.000000000000000e+00
	-1.254892990294198e-02,3.184014403866600e-11
	1.000000000000000e+00,0.000000000000000e+00
	0.000000000000000e+00,0.000000000000000e+00
	5.345865564107010e-08,-1.894111650474298e-15
	5.345875996758957e-08,1.241765733961654e-15
	1.254892990294203e-06,-3.184014403866632e-15
	2.746307373797574e-07,3.362483773270178e-13
	-2.851133171582840e-08,-4.532252074765904e-16
	-1.501012395958132e-06,-3.326111377156746e-13
	-1.254892990294199e-06,3.184014403866601e-15
	-2.746307373735490e-07,-3.362483773270178e-13
	-1.254892990294199e-06,3.184014403866601e-15
20		1.584893192461113e+00,0.000000000000000e+00
	-1.254892990294198e-02,3.258179626797675e-11
	1.000000000000000e+00,0.000000000000000e+00
	0.000000000000000e+00,0.000000000000000e+00
	5.345865564107010e-08,-1.938231178527680e-15
	5.345875996758957e-08,1.270690173617330e-15
	1.254892990294203e-06,-3.258179626797658e-15
	2.746307373797574e-07,3.440806081845122e-13
	-2.851133171582840e-08,-4.637821787357869e-16
	-1.501012395958132e-06,-3.403586463789787e-13
	-1.254892990294199e-06,3.258179626797676e-15
	-2.746307373735490e-07,-3.440806081845121e-13
	-1.254892990294199e-06,3.258179626797676e-15
21		1.621810097358929e+00,0.000000000000000e+00
	-1.254892990294198e-02,3.334072379693983e-11
	1.000000000000000e+00,0.000000000000000e+00
	0.000000000000000e+00,0.000000000000000e+00
	5.345865564107010e-08,-1.983378382407446e-15
	5.345875996758957e-08,1.300288350022626e-15
	1.254892990294203e-06,-3.334072379693997e-15
	2.746307373797574e-07,3.520952751349111e-13
	-2.851133171582840e-08,-4.745850534450294e-16
	-1.501012395958132e-06,-3.482866177017721e-13
	-1.254892990294199e-06,3.334072379693983e-15
	-2.746307373735490e-07,-3.520952751349111e-13
	-1.254892990294199e-06,3.334072379693983e-15
22		1.659586907437560e+00,0.000000000000000e+00
	-1.254892990294198e-02,3.411732901897672e-11
	1.000000000000000e+00,0.000000000000000e+00
	0.000000000000000e+00,0.000000000000000e+00
	5.345865564107010e-08,-2.029577199758674e-15
	5.345875996758957e-08,1.330575956522460e-15
	1.254892990294203e-06,-3.411732901897629e-15
	2.746307373797574e-07,3.602966276607186e-13
	-2.851133171582840e-08,-4.856395594314872e-16
	-1.501012395958132e-06,-3.563992551993895e-13
	-1.254892990294199e-06,3.411732901897672e-15
	-2.746307373735490e-07,-3.602966276607186e-13
	-1.254892990294199e-06,3.411732901897672e-15
23		1.698243652461743e+00,0.000000000000000e+00
	-1.254892990294198e-02,3.491202370045568e-11
	1.000000000000000e+00,0.000000000000000e+00
	0.000000000000000e+00,0.000000000000000e+00
	5.345865564107010e-08,-2.076852125805848e-15
	5.345875996758957e-08,1.361569052006695e-15
	1.254892990294203e-06,-3.491202370045605e-15
	2.746307373797574e-07,3.686890142276015e-13
	-2.851133171582840e-08,-4.969515579405536e-16
	-1.501012395958132e-06,-3.647008602996153e-13
	-1.254892990294199e-06,3.491202370045568e-15
	-2.746307373735490e-07,-3.686890142276014e-13
	-1.254892990294199e-06,3.491202370045568e-15
24		1.737800828749374e+00,0.000000000000000e+00
	-1.254892990294198e-02,3.572522919901590e-11
	1.000000000000000e+00,0.000000000000000e+00
	0.000000000000000e+00,0.000000000000000e+00
	5.345865564107009e-08,-2.125228226340512e-15
	5.345875996758957e-08,1.393284069424798e-15
	1.254892990294203e-06,-3.572522919901598e-15
	2.746307373797574e-07,3.772768845900038e-13
	-2.851133171582840e-08,-5.085270467435708e-16
	-1.501012395958132e-06,-3.731958346233586e-13
	-1.254892990294199e-06,3.572522919901591e-15
	-2.746307373735490e-07,-3.772768845900038e-13
	-1.254892990294199e-06,3.572522919901591e-15
25		1.778279410038922e+00,0.000000000000000e+00
	-1.254892990294198e-02,3.655737668697675e-11
	1.000000000000000e+00,0.000000000000000e+00
	0.000000000000000e+00,0.000000000000000e+00
	5.345865564107009e-08,-2.174731151011504e-15
	5.345875996758957e-08,1.425737824498808e-15
	1.254892990294203e-06,-3.655737668697685e-15
	2.746307373797574e-07,3.860647921504657e-13
	-2.851133171582840e-08,-5.203721633179233e-16
	-1.501012395958132e-06,-3.818886823184501e-13
	-1.254892990294199e-06,3.655737668697675e-15
	-2.746307373735490e-07,-3.860647921504658e-13
	-1.254892990294199e-06,3.655737668697675e-15
26		1.819700858609982e+00,0.000000000000000e+00
	-1.254892990294198e-02,3.740890737995112e-11
	1.000000000000000e+00,0.000000000000000e+00
	0.000000000000000e+00,0.000000000000000e+00
	5.345865564107009e-08,-2.225387146924730e-15
	5.345875996758957e-08,1.458947524639237e-15
	1.254892990294203e-06,-3.740890737995074e-15
	2.746307373797574e-07,3.950573963738974e-13
	-2.851133171582840e-08,-5.324931881012070e-16
	-1.501012395958132e-06,-3.907840124478011e-13
	-1.254892990294199e-06,3.740890737995112e-15
	-2.746307373735490e-07,-3.950573963738975e-13
	-1.254892990294199e-06,3.740890737995112e-15
27		1.862087136662866e+00,0.000000000000000e+00
	-1.254892990294198e-02,3.828027277078376e-11
	1.000000000000000e+00,0.000000000000000e+00
	0.000000000000000e+00,0.000000000000000e+00
	5.345865564107009e-08,-2.277223072559734e-15
	5.345875996758957e-08,1.492930778068686e-15
	1.254892990294203e-06,-3.828027277078371e-15
	2.746307373797574e-07,4.042594652580894e-13
	-2.851133171582840e-08,-5.448965478212032e-16
	-1.501012395958132e-06,-3.998865414331898e-13
	-1.254892990294199e-06,3.828027277078376e-15
	-2.746307373735490e-07,-4.042594652580894e-13
	-1.254892990294199e-06,3.828027277078376e-15
28		1.905460717963246e+00,0.000000000000000e+00
	-1.254892990294198e-02,3.917193486893879e-11
	1.000000000000000e+00,0.000000000000000e+00
	0.000000000000000e+00,0.000000000000000e+00
	5.345865564107009e-08,-2.330266412010423e-15
	5.345875996758957e-08,1.527705603157940e-15
	1.254892990294203e-06,-3.917193486893879e-15
	2.746307373797574e-07,4.136758778617679e-13
	-2.851133171582840e-08,-5.575888189034120e-16
	-1.501012395958132e-06,-4.092010955559706e-13
	-1.254892990294199e-06,3.917193486893879e-15
	-2.746307373735490e-07,-4.136758778617678e-13
	-1.254892990294199e-06,3.917193486893879e-15
29		1.949844599758044e+00,0.000000000000000e+00
	-1.254892990294198e-02,4.008436644546319e-11
	1.000000000000000e+00,0.000000000000000e+00
	0.000000000000000e+00,0.000000000000000e+00
	5.345865564107009e-08,-2.384545289557485e-15
	5.345875996758957e-08,1.563290437979562e-15
	1.254892990294203e-06,-4.008436644546317e-15
	2.746307373797574e-07,4.233116268915363e-13
	-2.851133171582840e-08,-5.705767309579634e-16
	-1.501012395958132e-06,-4.187326135160320e-13
	-1.254892990294199e-06,4.008436644546319e-15
	-2.746307373735490e-07,-4.233116268915362e-13
	-1.254892990294199e-06,4.008436644546319e-15
30		1.995262314968878e+00,0.000000000000000e+00
	-1.254892990294198e-02,4.101805128365628e-11
	1.000000000000000e+00,0.000000000000000e+00
	0.000000000000000e+00,0.000000000000000e+00
	5.345865564107009e-08,-2.440088484580253e-15
	5.345875996758957e-08,1.599704150083998e-15
	1.254892990294203e-06,-4.101805128365617e-15
	2.746307373797574e-07,4.331718213490743e-13
	-2.851133171582840e-08,-5.838671703477462e-16
	-1.501012395958132e-06,-4.284861490503609e-13
	-1.254892990294199e-06,4.101805128365628e-15
	-2.746307373735490e-07,-4.331718213490742e-13
	-1.254892990294199e-06,4.101805128365628e-15
31		2.041737944669527e+00,0.000000000000000e+00
	-1.254892990294198e-02,4.197348443557805e-11
	1.000000000000000e+00,0.000000000000000e+00
	0.000000000000000e+00,0.000000000000000e+00
	5.345865564107009e-08,-2.496925446815940e-15
	5.345875996758957e-08,1.636966046503393e-15
	1.254892990294203e-06,-4.197348443557827e-15
	2.746307373797574e-07,4.432616892399984e-13
	-2.851133171582840e-08,-5.974671838396411e-16
	-1.501012395958132e-06,-4.384668736126010e-13
	-1.254892990294199e-06,4.197348443557805e-15
	-2.746307373735490e-07,-4.432616892399983e-13
	-1.254892990294199e-06,4.197348443557805e-15
32		2.089296130854037e+00,0.000000000000000e+00
	-1.254892990294198e-02,4.295117248453232e-11
	1.000000000000000e+00,0.000000000000000e+00
	0.000000000000000e+00,0.000000000000000e+00
	5.345865564107009e-08,-2.555086311974241e-15
