Title: * GA CMOS Amp | W=2.0393022601732393e-06 L=9.49703649240716e-07 Vbias=1.5
Date: Sat Sep  6 22:16:45 2025
Plotname: AC Analysis
Flags: complex forward log
No. Variables: 13
No. Points:          901
Offset:    0.0000000000000000e+00
Command: Linear Technology Corporation LTspice
Variables:
	0	frequency	frequency
	1	V(out)	voltage
	2	V(g)	voltage
	3	V(vdd)	voltage
	4	V(m1#dbody)	voltage
	5	V(m1#sbody)	voltage
	6	Id(M1)	device_current
	7	Ig(M1)	device_current
	8	Ib(M1)	device_current
	9	Is(M1)	device_current
	10	I(Rload)	device_current
	11	I(Vg)	device_current
	12	I(Vdd)	device_current
Values:
0		1.000000000000000e+00,0.000000000000000e+00
	-3.433612331468324e-01,1.348186825023795e-09
	1.000000000000000e+00,0.000000000000000e+00
	0.000000000000000e+00,0.000000000000000e+00
	7.269246167354526e-05,1.194417390047133e-13
	7.269246424874976e-05,1.327940788768123e-13
	3.433612331468324e-05,-1.348186825023795e-13
	4.302531926866174e-05,4.282783043707878e-13
	-3.876931412361653e-05,-6.993558823719739e-14
	-3.859212845972845e-05,-2.235240336312110e-13
	-3.433612331468324e-05,1.348186825023795e-13
	-4.302531926869690e-05,-4.282783043707879e-13
	-3.433612331468324e-05,1.348186825023795e-13
1		1.023292992280754e+00,0.000000000000000e+00
	-3.433612331468324e-01,1.379590130332088e-09
	1.000000000000000e+00,0.000000000000000e+00
	0.000000000000000e+00,0.000000000000000e+00
	7.269246167354526e-05,1.222238945093500e-13
	7.269246424874976e-05,1.358872503310198e-13
	3.433612331468324e-05,-1.379590130332089e-13
	4.302531926866174e-05,4.382541876085111e-13
	-3.876931412361653e-05,-7.156459735415643e-14
	-3.859212845972845e-05,-2.287305772211458e-13
	-3.433612331468324e-05,1.379590130332088e-13
	-4.302531926869690e-05,-4.382541876085110e-13
	-3.433612331468324e-05,1.379590130332088e-13
2		1.047128548050899e+00,0.000000000000000e+00
	-3.433612331468324e-01,1.411724912588518e-09
	1.000000000000000e+00,0.000000000000000e+00
	0.000000000000000e+00,0.000000000000000e+00
	7.269246167354526e-05,1.250708547406800e-13
	7.269246424874976e-05,1.390524710040331e-13
	3.433612331468324e-05,-1.411724912588518e-13
	4.302531926866174e-05,4.484624390174843e-13
	-3.876931412361653e-05,-7.323155096790206e-14
	-3.859212845972845e-05,-2.340583967907304e-13
	-3.433612331468324e-05,1.411724912588518e-13
	-4.302531926869690e-05,-4.484624390174842e-13
	-3.433612331468324e-05,1.411724912588518e-13
3		1.071519305237606e+00,0.000000000000000e+00
	-3.433612331468324e-01,1.444608210079991e-09
	1.000000000000000e+00,0.000000000000000e+00
	0.000000000000000e+00,0.000000000000000e+00
	7.269246167354526e-05,1.279841291947019e-13
	7.269246424874976e-05,1.422914191377498e-13
	3.433612331468324e-05,-1.444608210079991e-13
	4.302531926866174e-05,4.589084711477266e-13
	-3.876931412361653e-05,-7.493733291930505e-14
	-3.859212845972845e-05,-2.395103172204225e-13
	-3.433612331468324e-05,1.444608210079991e-13
	-4.302531926869690e-05,-4.589084711477265e-13
	-3.433612331468324e-05,1.444608210079991e-13
4		1.096478196143185e+00,0.000000000000000e+00
	-3.433612331468324e-01,1.478257457966098e-09
	1.000000000000000e+00,0.000000000000000e+00
	0.000000000000000e+00,0.000000000000000e+00
	7.269246167354526e-05,1.309652625280931e-13
	7.269246424874976e-05,1.456058120653429e-13
	3.433612331468324e-05,-1.478257457966098e-13
	4.302531926866174e-05,4.695978226237432e-13
	-3.876931412361653e-05,-7.668284763653470e-14
	-3.859212845972845e-05,-2.450892291905987e-13
	-3.433612331468324e-05,1.478257457966098e-13
	-4.302531926869690e-05,-4.695978226237433e-13
	-3.433612331468324e-05,1.478257457966098e-13
5		1.122018454301963e+00,0.000000000000000e+00
	-3.433612331468324e-01,1.512690497523469e-09
	1.000000000000000e+00,0.000000000000000e+00
	0.000000000000000e+00,0.000000000000000e+00
	7.269246167354526e-05,1.340158353772069e-13
	7.269246424874976e-05,1.489974071218139e-13
	3.433612331468324e-05,-1.512690497523470e-13
	4.302531926866174e-05,4.805361610811771e-13
	-3.876931412361653e-05,-7.846902061459876e-14
	-3.859212845972845e-05,-2.507980907142314e-13
	-3.433612331468324e-05,1.512690497523469e-13
	-4.302531926869690e-05,-4.805361610811771e-13
	-3.433612331468324e-05,1.512690497523469e-13
6		1.148153621496882e+00,0.000000000000000e+00
	-3.433612331468324e-01,1.547925585605453e-09
	1.000000000000000e+00,0.000000000000000e+00
	0.000000000000000e+00,0.000000000000000e+00
	7.269246167354526e-05,1.371374651961471e-13
	7.269246424874976e-05,1.524680025757547e-13
	3.433612331468324e-05,-1.547925585605454e-13
	4.302531926866174e-05,4.917292861718641e-13
	-3.876931412361653e-05,-8.029679890605294e-14
	-3.859212845972845e-05,-2.566399287052659e-13
	-3.433612331468324e-05,1.547925585605453e-13
	-4.302531926869690e-05,-4.917292861718642e-13
	-3.433612331468324e-05,1.547925585605453e-13
7		1.174897554939529e+00,0.000000000000000e+00
	-3.433612331468324e-01,1.583981404322143e-09
	1.000000000000000e+00,0.000000000000000e+00
	0.000000000000000e+00,0.000000000000000e+00
	7.269246167354526e-05,1.403318071143631e-13
	7.269246424874976e-05,1.560194385828137e-13
	3.433612331468324e-05,-1.583981404322143e-13
	4.302531926866174e-05,5.031831326388861e-13
	-3.876931412361653e-05,-8.216715162314090e-14
	-3.859212845972845e-05,-2.626178405835309e-13
	-3.433612331468324e-05,1.583981404322143e-13
	-4.302531926869690e-05,-5.031831326388861e-13
	-3.433612331468324e-05,1.583981404322143e-13
8		1.202264434617413e+00,0.000000000000000e+00
	-3.433612331468324e-01,1.620877070945877e-09
	1.000000000000000e+00,0.000000000000000e+00
	0.000000000000000e+00,0.000000000000000e+00
	7.269246167354526e-05,1.436005548142222e-13
	7.269246424874976e-05,1.596535981613708e-13
	3.433612331468324e-05,-1.620877070945877e-13
	4.302531926866174e-05,5.149037734632494e-13
	-3.876931412361653e-05,-8.408107045163029e-14
	-3.859212845972845e-05,-2.687349959170314e-13
	-3.433612331468324e-05,1.620877070945877e-13
	-4.302531926869690e-05,-5.149037734632493e-13
	-3.433612331468324e-05,1.620877070945877e-13
9		1.230268770812381e+00,0.000000000000000e+00
	-3.433612331468324e-01,1.658632148047471e-09
	1.000000000000000e+00,0.000000000000000e+00
	0.000000000000000e+00,0.000000000000000e+00
	7.269246167354526e-05,1.469454414290219e-13
	7.269246424874976e-05,1.633724081909383e-13
	3.433612331468324e-05,-1.658632148047471e-13
	4.302531926866174e-05,5.268974230838600e-13
	-3.876931412361653e-05,-8.603957017661765e-14
	-3.859212845972845e-05,-2.749946381024953e-13
	-3.433612331468324e-05,1.658632148047471e-13
	-4.302531926869690e-05,-5.268974230838600e-13
	-3.433612331468324e-05,1.658632148047471e-13
10		1.258925411794167e+00,0.000000000000000e+00
	-3.433612331468324e-01,1.697266653868551e-09
	1.000000000000000e+00,0.000000000000000e+00
	0.000000000000000e+00,0.000000000000000e+00
	7.269246167354526e-05,1.503682404619201e-13
	7.269246424874976e-05,1.671778404338180e-13
	3.433612331468324e-05,-1.697266653868551e-13
	4.302531926866174e-05,5.391704406925016e-13
	-3.876931412361653e-05,-8.804368922058100e-14
	-3.859212845972845e-05,-2.814000860850654e-13
	-3.433612331468324e-05,1.697266653868551e-13
	-4.302531926869690e-05,-5.391704406925016e-13
	-3.433612331468324e-05,1.697266653868551e-13
11		1.288249551693134e+00,0.000000000000000e+00
	-3.433612331468324e-01,1.736801072935493e-09
	1.000000000000000e+00,0.000000000000000e+00
	0.000000000000000e+00,0.000000000000000e+00
	7.269246167354526e-05,1.538707667262702e-13
	7.269246424874976e-05,1.710719125805560e-13
	3.433612331468324e-05,-1.736801072935493e-13
	4.302531926866174e-05,5.517293336055628e-13
	-3.876931412361653e-05,-9.009449019396509e-14
	-3.859212845972845e-05,-2.879547361180484e-13
	-3.433612331468324e-05,1.736801072935493e-13
	-4.302531926869690e-05,-5.517293336055629e-13
	-3.433612331468324e-05,1.736801072935493e-13
12		1.318256738556407e+00,0.000000000000000e+00
	-3.433612331468324e-01,1.777256366920585e-09
	1.000000000000000e+00,0.000000000000000e+00
	0.000000000000000e+00,0.000000000000000e+00
	7.269246167354526e-05,1.574548773078590e-13
	7.269246424874976e-05,1.750566893197488e-13
	3.433612331468324e-05,-1.777256366920585e-13
	4.302531926866174e-05,5.645807607143029e-13
	-3.876931412361653e-05,-9.219306045859164e-14
	-3.859212845972845e-05,-2.946620635636527e-13
	-3.433612331468324e-05,1.777256366920585e-13
	-4.302531926869690e-05,-5.645807607143028e-13
	-3.433612331468324e-05,1.777256366920585e-13
13		1.348962882591653e+00,0.000000000000000e+00
	-3.433612331468324e-01,1.818653985756187e-09
	1.000000000000000e+00,0.000000000000000e+00
	0.000000000000000e+00,0.000000000000000e+00
	7.269246167354526e-05,1.611224725495580e-13
	7.269246424874976e-05,1.791342834327681e-13
	3.433612331468324e-05,-1.818653985756187e-13
	4.302531926866174e-05,5.777315360154834e-13
	-3.876931412361653e-05,-9.434051270419268e-14
	-3.859212845972845e-05,-3.015256247356720e-13
	-3.433612331468324e-05,1.818653985756187e-13
	-4.302531926869690e-05,-5.777315360154834e-13
	-3.433612331468324e-05,1.818653985756187e-13
14		1.380384264602885e+00,0.000000000000000e+00
	-3.433612331468324e-01,1.861015879007769e-09
	1.000000000000000e+00,0.000000000000000e+00
	0.000000000000000e+00,0.000000000000000e+00
	7.269246167354526e-05,1.648754970589109e-13
	7.269246424874976e-05,1.833068569139860e-13
	3.433612331468324e-05,-1.861015879007769e-13
	4.302531926866174e-05,5.911886322242403e-13
	-3.876931412361653e-05,-9.653798553837384e-14
	-3.859212845972845e-05,-3.085490587850896e-13
	-3.433612331468324e-05,1.861015879007769e-13
	-4.302531926869690e-05,-5.911886322242403e-13
	-3.433612331468324e-05,1.861015879007769e-13
15		1.412537544622754e+00,0.000000000000000e+00
	-3.433612331468324e-01,1.904364507511858e-09
	1.000000000000000e+00,0.000000000000000e+00
	0.000000000000000e+00,0.000000000000000e+00
	7.269246167354526e-05,1.687159407391896e-13
	7.269246424874976e-05,1.875766221170928e-13
	3.433612331468324e-05,-1.904364507511858e-13
	4.302531926866174e-05,6.049591844711092e-13
	-3.876931412361653e-05,-9.878664409031875e-14
	-3.859212845972845e-05,-3.157360896296046e-13
	-3.433612331468324e-05,1.904364507511858e-13
	-4.302531926869690e-05,-6.049591844711091e-13
	-3.433612331468324e-05,1.904364507511858e-13
16		1.445439770745927e+00,0.000000000000000e+00
	-3.433612331468324e-01,1.948722855285073e-09
	1.000000000000000e+00,0.000000000000000e+00
	0.000000000000000e+00,0.000000000000000e+00
	7.269246167354526e-05,1.726458398444677e-13
	7.269246424874976e-05,1.919458429281162e-13
	3.433612331468324e-05,-1.948722855285073e-13
	4.302531926866174e-05,6.190504940851658e-13
	-3.876931412361653e-05,-1.010876806285561e-13
	-3.859212845972845e-05,-3.230905279281024e-13
	-3.433612331468324e-05,1.948722855285073e-13
	-4.302531926869690e-05,-6.190504940851658e-13
	-3.433612331468324e-05,1.948722855285073e-13
17		1.479108388168207e+00,0.000000000000000e+00
	-3.433612331468324e-01,1.994114441710557e-09
	1.000000000000000e+00,0.000000000000000e+00
	0.000000000000000e+00,0.000000000000000e+00
	7.269246167354526e-05,1.766672780592692e-13
	7.269246424874976e-05,1.964168359657636e-13
	3.433612331468324e-05,-1.994114441710557e-13
	4.302531926866174e-05,6.334700324652886e-13
	-3.876931412361653e-05,-1.034423151931164e-13
	-3.859212845972845e-05,-3.306162731011165e-13
	-3.433612331468324e-05,1.994114441710557e-13
	-4.302531926869690e-05,-6.334700324652887e-13
	-3.433612331468324e-05,1.994114441710557e-13
18		1.513561248436208e+00,0.000000000000000e+00
	-3.433612331468324e-01,2.040563334008261e-09
	1.000000000000000e+00,0.000000000000000e+00
	0.000000000000000e+00,0.000000000000000e+00
	7.269246167354526e-05,1.807823876033656e-13
	7.269246424874976e-05,2.009919718097243e-13
	3.433612331468324e-05,-2.040563334008262e-13
	4.302531926866174e-05,6.482254450415918e-13
	-3.876931412361653e-05,-1.058517962424130e-13
	-3.859212845972845e-05,-3.383173153983525e-13
	-3.433612331468324e-05,2.040563334008261e-13
	-4.302531926869690e-05,-6.482254450415917e-13
	-3.433612331468324e-05,2.040563334008261e-13
19		1.548816618912481e+00,0.000000000000000e+00
	-3.433612331468324e-01,2.088094159995706e-09
	1.000000000000000e+00,0.000000000000000e+00
	0.000000000000000e+00,0.000000000000000e+00
	7.269246167354526e-05,1.849933503623070e-13
	7.269246424874976e-05,2.056736762575817e-13
	3.433612331468324e-05,-2.088094159995706e-13
	4.302531926866174e-05,6.633245553291340e-13
	-3.876931412361653e-05,-1.083174013151915e-13
	-3.859212845972845e-05,-3.461977380143718e-13
	-3.433612331468324e-05,2.088094159995706e-13
	-4.302531926869690e-05,-6.633245553291339e-13
	-3.433612331468324e-05,2.088094159995706e-13
20		1.584893192461113e+00,0.000000000000000e+00
	-3.433612331468324e-01,2.136732121145974e-09
	1.000000000000000e+00,0.000000000000000e+00
	0.000000000000000e+00,0.000000000000000e+00
	7.269246167354526e-05,1.893023990442871e-13
	7.269246424874976e-05,2.104644316110039e-13
	3.433612331468324e-05,-2.136732121145974e-13
	4.302531926866174e-05,6.787753690760500e-13
	-3.876931412361653e-05,-1.108404377078976e-13
	-3.859212845972845e-05,-3.542617192535551e-13
	-3.433612331468324e-05,2.136732121145974e-13
	-4.302531926869690e-05,-6.787753690760499e-13
	-3.433612331468324e-05,2.136732121145974e-13
21		1.621810097358929e+00,0.000000000000000e+00
	-3.433612331468324e-01,2.186503005949866e-09
	1.000000000000000e+00,0.000000000000000e+00
	0.000000000000000e+00,0.000000000000000e+00
	7.269246167354526e-05,1.937118183639539e-13
	7.269246424874976e-05,2.153667779918923e-13
	3.433612331468324e-05,-2.186503005949866e-13
	4.302531926866174e-05,6.945860785083045e-13
	-3.876931412361653e-05,-1.134222431678231e-13
	-3.859212845972845e-05,-3.625135347454948e-13
	-3.433612331468324e-05,2.186503005949866e-13
	-4.302531926869690e-05,-6.945860785083044e-13
	-3.433612331468324e-05,2.186503005949866e-13
22		1.659586907437560e+00,0.000000000000000e+00
	-3.433612331468324e-01,2.237433203589302e-09
	1.000000000000000e+00,0.000000000000000e+00
	0.000000000000000e+00,0.000000000000000e+00
	7.269246167354526e-05,1.982239462537963e-13
	7.269246424874976e-05,2.203833146891883e-13
	3.433612331468324e-05,-2.237433203589302e-13
	4.302531926866174e-05,7.107650666733177e-13
	-3.876931412361653e-05,-1.160641866023970e-13
	-3.859212845972845e-05,-3.709575597119905e-13
	-3.433612331468324e-05,2.237433203589302e-13
	-4.302531926869690e-05,-7.107650666733177e-13
	-3.433612331468324e-05,2.237433203589302e-13
23		1.698243652461743e+00,0.000000000000000e+00
	-3.433612331468324e-01,2.289549717929211e-09
	1.000000000000000e+00,0.000000000000000e+00
	0.000000000000000e+00,0.000000000000000e+00
	7.269246167354526e-05,2.028411751037467e-13
	7.269246424874976e-05,2.255167015370506e-13
	3.433612331468324e-05,-2.289549717929210e-13
	4.302531926866174e-05,7.273209118847690e-13
	-3.876931412361653e-05,-1.187676688049986e-13
	-3.859212845972845e-05,-3.795982712868493e-13
	-3.433612331468324e-05,2.289549717929211e-13
	-4.302531926869690e-05,-7.273209118847690e-13
	-3.433612331468324e-05,2.289549717929211e-13
24		1.737800828749374e+00,0.000000000000000e+00
	-3.433612331468324e-01,2.342880181835338e-09
	1.000000000000000e+00,0.000000000000000e+00
	0.000000000000000e+00,0.000000000000000e+00
	7.269246167354526e-05,2.075659530296572e-13
	7.269246424874976e-05,2.307696603251342e-13
	3.433612331468324e-05,-2.342880181835339e-13
	4.302531926866174e-05,7.442623922709319e-13
	-3.876931412361653e-05,-1.215341231976766e-13
	-3.859212845972845e-05,-3.884402508897214e-13
	-3.433612331468324e-05,2.342880181835339e-13
	-4.302531926869690e-05,-7.442623922709318e-13
	-3.433612331468324e-05,2.342880181835339e-13
25		1.778279410038922e+00,0.000000000000000e+00
	-3.433612331468324e-01,2.397452871825561e-09
	1.000000000000000e+00,0.000000000000000e+00
	0.000000000000000e+00,0.000000000000000e+00
	7.269246167354526e-05,2.124007851713245e-13
	7.269246424874976e-05,2.361449762417198e-13
	3.433612331468324e-05,-2.397452871825561e-13
	4.302531926866174e-05,7.615984904289544e-13
	-3.876931412361653e-05,-1.243650165911683e-13
	-3.859212845972845e-05,-3.974881866552300e-13
	-3.433612331468324e-05,2.397452871825561e-13
	-4.302531926869690e-05,-7.615984904289543e-13
	-3.433612331468324e-05,2.397452871825561e-13
26		1.819700858609982e+00,0.000000000000000e+00
	-3.433612331468324e-01,2.453296723062465e-09
	1.000000000000000e+00,0.000000000000000e+00
	0.000000000000000e+00,0.000000000000000e+00
	7.269246167354526e-05,2.173482350207463e-13
	7.269246424874976e-05,2.416454993504570e-13
	3.433612331468324e-05,-2.453296723062465e-13
	4.302531926866174e-05,7.793383981875498e-13
	-3.876931412361653e-05,-1.272618499626222e-13
	-3.859212845972845e-05,-4.067468759186811e-13
	-3.433612331468324e-05,2.453296723062465e-13
	-4.302531926869690e-05,-7.793383981875499e-13
	-3.433612331468324e-05,2.453296723062465e-13
27		1.862087136662866e+00,0.000000000000000e+00
	-3.433612331468324e-01,2.510441344695158e-09
	1.000000000000000e+00,0.000000000000000e+00
	0.000000000000000e+00,0.000000000000000e+00
	7.269246167354526e-05,2.224109257813200e-13
	7.269246424874976e-05,2.472741461015062e-13
	3.433612331468324e-05,-2.510441344695158e-13
	4.302531926866174e-05,7.974915214806277e-13
	-3.876931412361653e-05,-1.302261592514361e-13
	-3.859212845972845e-05,-4.162212277596758e-13
	-3.433612331468324e-05,2.510441344695158e-13
	-4.302531926869690e-05,-7.974915214806276e-13
	-3.433612331468324e-05,2.510441344695158e-13
28		1.905460717963246e+00,0.000000000000000e+00
	-3.433612331468324e-01,2.568917035558428e-09
	1.000000000000000e+00,0.000000000000000e+00
	0.000000000000000e+00,0.000000000000000e+00
	7.269246167354526e-05,2.275915417586997e-13
	7.269246424874976e-05,2.530339008778786e-13
	3.433612331468324e-05,-2.568917035558429e-13
	4.302531926866174e-05,8.160674853344427e-13
	-3.876931412361653e-05,-1.332595161736320e-13
	-3.859212845972845e-05,-4.259162656049679e-13
	-3.433612331468324e-05,2.568917035558429e-13
	-4.302531926869690e-05,-8.160674853344427e-13
	-3.433612331468324e-05,2.568917035558429e-13
29		1.949844599758044e+00,0.000000000000000e+00
	-3.433612331468324e-01,2.628754800237589e-09
	1.000000000000000e+00,0.000000000000000e+00
	0.000000000000000e+00,0.000000000000000e+00
	7.269246167354526e-05,2.328928297840500e-13
	7.269246424874976e-05,2.589278175777962e-13
	3.433612331468324e-05,-2.628754800237589e-13
	4.302531926866174e-05,8.350761389709125e-13
	-3.876931412361653e-05,-1.363635290552015e-13
	-3.859212845972845e-05,-4.358371298919521e-13
	-3.433612331468324e-05,2.628754800237589e-13
	-4.302531926869690e-05,-8.350761389709127e-13
	-3.433612331468324e-05,2.628754800237589e-13
30		1.995262314968878e+00,0.000000000000000e+00
	-3.433612331468324e-01,2.689986365507518e-09
	1.000000000000000e+00,0.000000000000000e+00
	0.000000000000000e+00,0.000000000000000e+00
	7.269246167354526e-05,2.383176006704529e-13
	7.269246424874976e-05,2.649590212339083e-13
	3.433612331468324e-05,-2.689986365507518e-13
	4.302531926866174e-05,8.545275610298038e-13
	-3.876931412361653e-05,-1.395398436848607e-13
	-3.859212845972845e-05,-4.459890807941913e-13
	-3.433612331468324e-05,2.689986365507518e-13
	-4.302531926869690e-05,-8.545275610298039e-13
	-3.433612331468324e-05,2.689986365507518e-13
31		2.041737944669527e+00,0.000000000000000e+00
	-3.433612331468324e-01,2.752644197154618e-09
	1.000000000000000e+00,0.000000000000000e+00
	0.000000000000000e+00,0.000000000000000e+00
	7.269246167354526e-05,2.438687307032375e-13
	7.269246424874976e-05,2.711307096702258e-13
	3.433612331468324e-05,-2.752644197154618e-13
	4.302531926866174e-05,8.744320649125624e-13
	-3.876931412361653e-05,-1.427901441866697e-13
	-3.859212845972845e-05,-4.563775010104310e-13
	-3.433612331468324e-05,2.752644197154618e-13
	-4.302531926869690e-05,-8.744320649125626e-13
	-3.433612331468324e-05,2.752644197154618e-13
32		2.089296130854037e+00,0.000000000000000e+00
	-3.433612331468324e-01,2.816761517190604e-09
	1.000000000000000e+00,0.000000000000000e+00
	0.000000000000000e+00,0.000000000000000e+00
	7.269246167354526e-05,2.495491631650253e-13
