Title: * GA CMOS Amp | W=5.094975270362203e-06 L=1e-06 Vbias=1.4505355220994989
Date: Sat Sep  6 22:09:51 2025
Plotname: AC Analysis
Flags: complex forward log
No. Variables: 13
No. Points:          901
Offset:    0.0000000000000000e+00
Command: Linear Technology Corporation LTspice
Variables:
	0	frequency	frequency
	1	V(out)	voltage
	2	V(g)	voltage
	3	V(vdd)	voltage
	4	V(m1#dbody)	voltage
	5	V(m1#sbody)	voltage
	6	Id(M1)	device_current
	7	Ig(M1)	device_current
	8	Ib(M1)	device_current
	9	Is(M1)	device_current
	10	I(Rload)	device_current
	11	I(Vg)	device_current
	12	I(Vdd)	device_current
Values:
0		1.000000000000000e+00,0.000000000000000e+00
	7.740520519105323e-04,1.562315275540088e-09
	1.000000000000000e+00,0.000000000000000e+00
	0.000000000000000e+00,0.000000000000000e+00
	1.350536249427408e-04,1.210688020718699e-13
	1.350536249369135e-04,1.209738186755814e-13
	-7.740520519105315e-08,-1.562315275540090e-13
	8.355496755300497e-05,1.263544522448100e-12
	-7.202860002117773e-05,-6.453607851938772e-14
	-1.144896232663618e-05,-1.042776916374703e-12
	7.740520519105323e-08,1.562315275540089e-13
	-8.355496755285685e-05,-1.263544522448100e-12
	7.740520519105323e-08,1.562315275540089e-13
1		1.023292992280754e+00,0.000000000000000e+00
	7.740520519105324e-04,1.598706273193348e-09
	1.000000000000000e+00,0.000000000000000e+00
	0.000000000000000e+00,0.000000000000000e+00
	1.350536249427408e-04,1.238888567439701e-13
	1.350536249369135e-04,1.237916609001650e-13
	-7.740520519105318e-08,-1.598706273193348e-13
	8.355496755300497e-05,1.292976255255873e-12
	-7.202860002117773e-05,-6.603931689816995e-14
	-1.144896232663618e-05,-1.067066311038368e-12
	7.740520519105324e-08,1.598706273193348e-13
	-8.355496755285685e-05,-1.292976255255872e-12
	7.740520519105324e-08,1.598706273193348e-13
2		1.047128548050899e+00,0.000000000000000e+00
	7.740520519105325e-04,1.635944926074034e-09
	1.000000000000000e+00,0.000000000000000e+00
	0.000000000000000e+00,0.000000000000000e+00
	1.350536249427408e-04,1.267745989277788e-13
	1.350536249369135e-04,1.266751391019343e-13
	-7.740520519105318e-08,-1.635944926074033e-13
	8.355496755300497e-05,1.323093541188746e-12
	-7.202860002117773e-05,-6.757757019690530e-14
	-1.144896232663618e-05,-1.091921478384438e-12
	7.740520519105326e-08,1.635944926074034e-13
	-8.355496755285685e-05,-1.323093541188746e-12
	7.740520519105326e-08,1.635944926074034e-13
3		1.071519305237606e+00,0.000000000000000e+00
	7.740520519105326e-04,1.674050978608815e-09
	1.000000000000000e+00,0.000000000000000e+00
	0.000000000000000e+00,0.000000000000000e+00
	1.350536249427408e-04,1.297275586819993e-13
	1.350536249369135e-04,1.296257821391991e-13
	-7.740520519105320e-08,-1.674050978608814e-13
	8.355496755300497e-05,1.353912348830371e-12
	-7.202860002117773e-05,-6.915165401785393e-14
	-1.144896232663618e-05,-1.117355596951636e-12
	7.740520519105327e-08,1.674050978608815e-13
	-8.355496755285685e-05,-1.353912348830371e-12
	7.740520519105327e-08,1.674050978608815e-13
4		1.096478196143185e+00,0.000000000000000e+00
	7.740520519105327e-04,1.713044635131139e-09
	1.000000000000000e+00,0.000000000000000e+00
	0.000000000000000e+00,0.000000000000000e+00
	1.350536249427408e-04,1.327493017049801e-13
	1.350536249369135e-04,1.326451544819541e-13
	-7.740520519105318e-08,-1.713044635131138e-13
	8.355496755300497e-05,1.385449018720494e-12
	-7.202860002117773e-05,-7.076240296109315e-14
	-1.144896232663618e-05,-1.143382152246287e-12
	7.740520519105328e-08,1.713044635131139e-13
	-8.355496755285685e-05,-1.385449018720495e-12
	7.740520519105328e-08,1.713044635131139e-13
5		1.122018454301963e+00,0.000000000000000e+00
	7.740520519105328e-04,1.752946570593836e-09
	1.000000000000000e+00,0.000000000000000e+00
	0.000000000000000e+00,0.000000000000000e+00
	1.350536249427408e-04,1.358414301648698e-13
	1.350536249369135e-04,1.357348570413818e-13
	-7.740520519105320e-08,-1.752946570593835e-13
	8.355496755300497e-05,1.417720272018930e-12
	-7.202860002117773e-05,-7.241067106703354e-14
	-1.144896232663618e-05,-1.170014943892513e-12
	7.740520519105328e-08,1.752946570593836e-13
	-8.355496755285685e-05,-1.417720272018929e-12
	7.740520519105328e-08,1.752946570593836e-13
6		1.148153621496882e+00,0.000000000000000e+00
	7.740520519105330e-04,1.793777941531253e-09
	1.000000000000000e+00,0.000000000000000e+00
	0.000000000000000e+00,0.000000000000000e+00
	1.350536249427408e-04,1.390055835491067e-13
	1.350536249369135e-04,1.388965280186759e-13
	-7.740520519105323e-08,-1.793777941531253e-13
	8.355496755300497e-05,1.450743219371335e-12
	-7.202860002117773e-05,-7.409733226924215e-14
	-1.144896232663618e-05,-1.197268092948968e-12
	7.740520519105330e-08,1.793777941531253e-13
	-8.355496755285685e-05,-1.450743219371335e-12
	7.740520519105330e-08,1.793777941531253e-13
7		1.174897554939529e+00,0.000000000000000e+00
	7.740520519105331e-04,1.835560397276727e-09
	1.000000000000000e+00,0.000000000000000e+00
	0.000000000000000e+00,0.000000000000000e+00
	1.350536249427408e-04,1.422434395336977e-13
	1.350536249369135e-04,1.421318437736385e-13
	-7.740520519105326e-08,-1.835560397276727e-13
	8.355496755300497e-05,1.484535369981508e-12
	-7.202860002117773e-05,-7.582328085781409e-14
	-1.144896232663618e-05,-1.225156049396021e-12
	7.740520519105331e-08,1.835560397276727e-13
	-8.355496755285685e-05,-1.484535369981508e-12
	7.740520519105331e-08,1.835560397276727e-13
8		1.202264434617413e+00,0.000000000000000e+00
	7.740520519105333e-04,1.878316091441352e-09
	1.000000000000000e+00,0.000000000000000e+00
	0.000000000000000e+00,0.000000000000000e+00
	1.350536249427408e-04,1.455567148727441e-13
	1.350536249369135e-04,1.454425197135072e-13
	-7.740520519105326e-08,-1.878316091441352e-13
	8.355496755300497e-05,1.519114640894994e-12
	-7.202860002117773e-05,-7.758943195353664e-14
	-1.144896232663618e-05,-1.253693599797322e-12
	7.740520519105334e-08,1.878316091441352e-13
	-8.355496755285685e-05,-1.519114640894993e-12
	7.740520519105334e-08,1.878316091441352e-13
9		1.230268770812381e+00,0.000000000000000e+00
	7.740520519105334e-04,1.922067693660111e-09
	1.000000000000000e+00,0.000000000000000e+00
	0.000000000000000e+00,0.000000000000000e+00
	1.350536249427408e-04,1.489471663086868e-13
	1.350536249369135e-04,1.488303112024874e-13
	-7.740520519105328e-08,-1.922067693660111e-13
	8.355496755300497e-05,1.554499366498941e-12
	-7.202860002117773e-05,-7.939672199309843e-14
	-1.144896232663618e-05,-1.282895875139832e-12
	7.740520519105334e-08,1.922067693660111e-13
	-8.355496755285685e-05,-1.554499366498941e-12
	7.740520519105334e-08,1.922067693660111e-13
10		1.258925411794167e+00,0.000000000000000e+00
	7.740520519105335e-04,1.966838401611623e-09
	1.000000000000000e+00,0.000000000000000e+00
	0.000000000000000e+00,0.000000000000000e+00
	1.350536249427408e-04,1.524165915037553e-13
	1.350536249369135e-04,1.522970144924692e-13
	-7.740520519105331e-08,-1.966838401611623e-13
	8.355496755300497e-05,1.590708308243239e-12
	-7.202860002117773e-05,-8.124610922560087e-14
	-1.144896232663618e-05,-1.312778358856475e-12
	7.740520519105335e-08,1.966838401611624e-13
	-8.355496755285685e-05,-1.590708308243238e-12
	7.740520519105335e-08,1.966838401611624e-13
11		1.288249551693134e+00,0.000000000000000e+00
	7.740520519105337e-04,2.012651953317854e-09
	1.000000000000000e+00,0.000000000000000e+00
	0.000000000000000e+00,0.000000000000000e+00
	1.350536249427408e-04,1.559668299931111e-13
	1.350536249369135e-04,1.558444676754241e-13
	-7.740520519105328e-08,-2.012651953317853e-13
	8.355496755300497e-05,1.627760664588080e-12
	-7.202860002117773e-05,-8.313857422063410e-14
	-1.144896232663618e-05,-1.343356895035660e-12
	7.740520519105338e-08,2.012651953317854e-13
	-8.355496755285685e-05,-1.627760664588080e-12
	7.740520519105338e-08,2.012651953317854e-13
12		1.318256738556407e+00,0.000000000000000e+00
	7.740520519105338e-04,2.059532639730331e-09
	1.000000000000000e+00,0.000000000000000e+00
	0.000000000000000e+00,0.000000000000000e+00
	1.350536249427408e-04,1.595997641601944e-13
	1.350536249369135e-04,1.594745516579860e-13
	-7.740520519105331e-08,-2.059532639730332e-13
	8.355496755300497e-05,1.665676081183245e-12
	-7.202860002117773e-05,-8.507512038818824e-14
	-1.144896232663618e-05,-1.374647696822024e-12
	7.740520519105339e-08,2.059532639730331e-13
	-8.355496755285685e-05,-1.665676081183245e-12
	7.740520519105339e-08,2.059532639730331e-13
13		1.348962882591653e+00,0.000000000000000e+00
	7.740520519105340e-04,2.107505317609531e-09
	1.000000000000000e+00,0.000000000000000e+00
	0.000000000000000e+00,0.000000000000000e+00
	1.350536249427408e-04,1.633173202347879e-13
	1.350536249369135e-04,1.631891911587322e-13
	-7.740520519105334e-08,-2.107505317609531e-13
	8.355496755300497e-05,1.704474661284483e-12
	-7.202860002117773e-05,-8.705677451067452e-14
	-1.144896232663618e-05,-1.406667355012855e-12
	7.740520519105340e-08,2.107505317609531e-13
	-8.355496755285685e-05,-1.704474661284483e-12
	7.740520519105340e-08,2.107505317609531e-13
14		1.380384264602885e+00,0.000000000000000e+00
	7.740520519105343e-04,2.156595422704258e-09
	1.000000000000000e+00,0.000000000000000e+00
	0.000000000000000e+00,0.000000000000000e+00
	1.350536249427408e-04,1.671214693143304e-13
	1.350536249369135e-04,1.669903557286951e-13
	-7.740520519105336e-08,-2.156595422704259e-13
	8.355496755300497e-05,1.744176976412524e-12
	-7.202860002117773e-05,-8.908458728733904e-14
	-1.144896232663618e-05,-1.439432846854759e-12
	7.740520519105343e-08,2.156595422704258e-13
	-8.355496755285685e-05,-1.744176976412523e-12
	7.740520519105343e-08,2.156595422704258e-13
15		1.412537544622754e+00,0.000000000000000e+00
	7.740520519105345e-04,2.206828983238018e-09
	1.000000000000000e+00,0.000000000000000e+00
	0.000000000000000e+00,0.000000000000000e+00
	1.350536249427408e-04,1.710142284090174e-13
	1.350536249369135e-04,1.708800607956440e-13
	-7.740520519105336e-08,-2.206828983238018e-13
	8.355496755300497e-05,1.784804077260370e-12
	-7.202860002117773e-05,-9.115963389135720e-14
	-1.144896232663618e-05,-1.472961545045211e-12
	7.740520519105346e-08,2.206828983238019e-13
	-8.355496755285685e-05,-1.784804077260369e-12
	7.740520519105346e-08,2.206828983238019e-13
16		1.445439770745927e+00,0.000000000000000e+00
	7.740520519105346e-04,2.258232633709526e-09
	1.000000000000000e+00,0.000000000000000e+00
	0.000000000000000e+00,0.000000000000000e+00
	1.350536249427408e-04,1.749976615112476e-13
	1.350536249369135e-04,1.748603687326917e-13
	-7.740520519105339e-08,-2.258232633709525e-13
	8.355496755300497e-05,1.826377504854654e-12
	-7.202860002117773e-05,-9.328301453990493e-14
	-1.144896232663618e-05,-1.507271226943796e-12
	7.740520519105346e-08,2.258232633709526e-13
	-8.355496755285685e-05,-1.826377504854653e-12
	7.740520519105346e-08,2.258232633709526e-13
17		1.479108388168207e+00,0.000000000000000e+00
	7.740520519105348e-04,2.310833629014668e-09
	1.000000000000000e+00,0.000000000000000e+00
	0.000000000000000e+00,0.000000000000000e+00
	1.350536249427408e-04,1.790738806899791e-13
	1.350536249369135e-04,1.789333899517920e-13
	-7.740520519105342e-08,-2.310833629014667e-13
	8.355496755300497e-05,1.868919301976976e-12
	-7.202860002117773e-05,-9.545585507750837e-14
	-1.144896232663618e-05,-1.542380083998001e-12
	7.740520519105348e-08,2.310833629014669e-13
	-8.355496755285685e-05,-1.868919301976975e-12
	7.740520519105348e-08,2.310833629014669e-13
18		1.513561248436208e+00,0.000000000000000e+00
	7.740520519105350e-04,2.364659858897414e-09
	1.000000000000000e+00,0.000000000000000e+00
	0.000000000000000e+00,0.000000000000000e+00
	1.350536249427408e-04,1.832450472105755e-13
	1.350536249369135e-04,1.831012840227083e-13
	-7.740520519105344e-08,-2.364659858897414e-13
	8.355496755300497e-05,1.912452024851278e-12
	-7.202860002117773e-05,-9.767930757298157e-14
	-1.144896232663618e-05,-1.578306731388555e-12
	7.740520519105351e-08,2.364659858897414e-13
	-8.355496755285685e-05,-1.912452024851278e-12
	7.740520519105351e-08,2.364659858897414e-13
19		1.548816618912481e+00,0.000000000000000e+00
	7.740520519105353e-04,2.419739862737321e-09
	1.000000000000000e+00,0.000000000000000e+00
	0.000000000000000e+00,0.000000000000000e+00
	1.350536249427408e-04,1.875133726807379e-13
	1.350536249369135e-04,1.873662608180455e-13
	-7.740520519105344e-08,-2.419739862737320e-13
	8.355496755300497e-05,1.956998755103451e-12
	-7.202860002117773e-05,-9.995455093026846e-14
	-1.144896232663618e-05,-1.615070217899451e-12
	7.740520519105354e-08,2.419739862737321e-13
	-8.355496755285685e-05,-1.956998755103451e-12
	7.740520519105354e-08,2.419739862737321e-13
20		1.584893192461113e+00,0.000000000000000e+00
	7.740520519105356e-04,2.476102844681495e-09
	1.000000000000000e+00,0.000000000000000e+00
	0.000000000000000e+00,0.000000000000000e+00
	1.350536249427408e-04,1.918811202231284e-13
	1.350536249369135e-04,1.917305816849539e-13
	-7.740520519105347e-08,-2.476102844681493e-13
	8.355496755300497e-05,2.002583111999522e-12
	-7.202860002117773e-05,-1.022827915135134e-13
	-1.144896232663618e-05,-1.652690036017859e-12
	7.740520519105356e-08,2.476102844681495e-13
	-8.355496755285685e-05,-2.002583111999521e-12
	7.740520519105356e-08,2.476102844681495e-13
21		1.621810097358929e+00,0.000000000000000e+00
	7.740520519105358e-04,2.533778689129014e-09
	1.000000000000000e+00,0.000000000000000e+00
	0.000000000000000e+00,0.000000000000000e+00
	1.350536249427408e-04,1.963506056753083e-13
	1.350536249369135e-04,1.961965606441261e-13
	-7.740520519105350e-08,-2.533778689129013e-13
	8.355496755300497e-05,2.049229264968895e-12
	-7.202860002117773e-05,-1.046652637866917e-13
	-1.144896232663618e-05,-1.691186132269302e-12
	7.740520519105357e-08,2.533778689129014e-13
	-8.355496755285685e-05,-2.049229264968895e-12
	7.740520519105357e-08,2.533778689129014e-13
22		1.659586907437560e+00,0.000000000000000e+00
	7.740520519105361e-04,2.592797976576034e-09
	1.000000000000000e+00,0.000000000000000e+00
	0.000000000000000e+00,0.000000000000000e+00
	1.350536249427408e-04,2.009241988176246e-13
	1.350536249369135e-04,2.007665656167202e-13
	-7.740520519105352e-08,-2.592797976576037e-13
	8.355496755300497e-05,2.096961946419311e-12
	-7.202860002117773e-05,-1.071032309681382e-13
	-1.144896232663618e-05,-1.730578917793569e-12
	7.740520519105361e-08,2.592797976576034e-13
	-8.355496755285685e-05,-2.096961946419311e-12
	7.740520519105361e-08,2.592797976576034e-13
23		1.698243652461743e+00,0.000000000000000e+00
	7.740520519105363e-04,2.653191999829975e-09
	1.000000000000000e+00,0.000000000000000e+00
	0.000000000000000e+00,0.000000000000000e+00
	1.350536249427408e-04,2.056043246297003e-13
	1.350536249369135e-04,2.054430196798640e-13
	-7.740520519105357e-08,-2.653191999829977e-13
	8.355496755300497e-05,2.145806464850291e-12
	-7.202860002117773e-05,-1.095979857003229e-13
	-1.144896232663618e-05,-1.770889279166970e-12
	7.740520519105364e-08,2.653191999829975e-13
	-8.355496755285685e-05,-2.145806464850290e-12
	7.740520519105364e-08,2.653191999829975e-13
24		1.737800828749374e+00,0.000000000000000e+00
	7.740520519105366e-04,2.714992780601373e-09
	1.000000000000000e+00,0.000000000000000e+00
	0.000000000000000e+00,0.000000000000000e+00
	1.350536249427408e-04,2.103934645761895e-13
	1.350536249369135e-04,2.102284023514018e-13
	-7.740520519105357e-08,-2.714992780601373e-13
	8.355496755300497e-05,2.195788718272041e-12
	-7.202860002117773e-05,-1.121508507352267e-13
	-1.144896232663619e-05,-1.812138589476677e-12
	7.740520519105367e-08,2.714992780601373e-13
	-8.355496755285685e-05,-2.195788718272041e-12
	7.740520519105367e-08,2.714992780601373e-13
25		1.778279410038922e+00,0.000000000000000e+00
	7.740520519105370e-04,2.778233086482224e-09
	1.000000000000000e+00,0.000000000000000e+00
	0.000000000000000e+00,0.000000000000000e+00
	1.350536249427408e-04,2.152941579224838e-13
	1.350536249369135e-04,2.151252509045683e-13
	-7.740520519105360e-08,-2.778233086482225e-13
	8.355496755300497e-05,2.246935207936919e-12
	-7.202860002117773e-05,-1.147631796356823e-13
	-1.144896232663619e-05,-1.854348719653014e-12
	7.740520519105369e-08,2.778233086482224e-13
	-8.355496755285685e-05,-2.246935207936919e-12
	7.740520519105369e-08,2.778233086482224e-13
26		1.819700858609982e+00,0.000000000000000e+00
	7.740520519105373e-04,2.842946448319790e-09
	1.000000000000000e+00,0.000000000000000e+00
	0.000000000000000e+00,0.000000000000000e+00
	1.350536249427408e-04,2.203090030810637e-13
	1.350536249369135e-04,2.201361617132837e-13
	-7.740520519105365e-08,-2.842946448319790e-13
	8.355496755300497e-05,2.299273052390747e-12
	-7.202860002117773e-05,-1.174363574930511e-13
	-1.144896232663619e-05,-1.897542050065717e-12
	7.740520519105373e-08,2.842946448319790e-13
	-8.355496755285685e-05,-2.299273052390747e-12
	7.740520519105373e-08,2.842946448319790e-13
27		1.862087136662866e+00,0.000000000000000e+00
	7.740520519105376e-04,2.909167177995100e-09
	1.000000000000000e+00,0.000000000000000e+00
	0.000000000000000e+00,0.000000000000000e+00
	1.350536249427408e-04,2.254406589892115e-13
	1.350536249369135e-04,2.252637916287860e-13
	-7.740520519105368e-08,-2.909167177995100e-13
	8.355496755300497e-05,2.352830001851431e-12
	-7.202860002117773e-05,-1.201718016616166e-13
	-1.144896232663619e-05,-1.941741482390304e-12
	7.740520519105376e-08,2.909167177995101e-13
	-8.355496755285685e-05,-2.352830001851431e-12
	7.740520519105376e-08,2.909167177995101e-13
28		1.905460717963246e+00,0.000000000000000e+00
	7.740520519105379e-04,2.976930386615563e-09
	1.000000000000000e+00,0.000000000000000e+00
	0.000000000000000e+00,0.000000000000000e+00
	1.350536249427408e-04,2.306918465188153e-13
	1.350536249369135e-04,2.305108593883288e-13
	-7.740520519105373e-08,-2.976930386615564e-13
	8.355496755300497e-05,2.407634452922483e-12
	-7.202860002117773e-05,-1.229709625100849e-13
	-1.144896232663619e-05,-1.986970451750842e-12
	7.740520519105380e-08,2.976930386615563e-13
	-8.355496755285685e-05,-2.407634452922483e-12
	7.740520519105380e-08,2.976930386615563e-13
29		1.949844599758044e+00,0.000000000000000e+00
	7.740520519105383e-04,3.046272003131343e-09
	1.000000000000000e+00,0.000000000000000e+00
	0.000000000000000e+00,0.000000000000000e+00
	1.350536249427408e-04,2.360653499190110e-13
	1.350536249369135e-04,2.358801470566911e-13
	-7.740520519105379e-08,-3.046272003131343e-13
	8.355496755300497e-05,2.463715463649285e-12
	-7.202860002117773e-05,-1.258353241905893e-13
	-1.144896232663619e-05,-2.033252939145561e-12
	7.740520519105383e-08,3.046272003131342e-13
	-8.355496755285685e-05,-2.463715463649284e-12
	7.740520519105383e-08,3.046272003131342e-13
30		1.995262314968878e+00,0.000000000000000e+00
	7.740520519105387e-04,3.117228793385358e-09
	1.000000000000000e+00,0.000000000000000e+00
	0.000000000000000e+00,0.000000000000000e+00
	1.350536249427408e-04,2.415640182924280e-13
	1.350536249369135e-04,2.413745015012658e-13
	-7.740520519105379e-08,-3.117228793385359e-13
	8.355496755300497e-05,2.521102768926042e-12
	-7.202860002117773e-05,-1.287664054256068e-13
	-1.144896232663619e-05,-2.080613484161899e-12
	7.740520519105388e-08,3.117228793385358e-13
	-8.355496755285685e-05,-2.521102768926041e-12
	7.740520519105388e-08,3.117228793385358e-13
31		2.041737944669527e+00,0.000000000000000e+00
	7.740520519105391e-04,3.189838379607027e-09
	1.000000000000000e+00,0.000000000000000e+00
	0.000000000000000e+00,0.000000000000000e+00
	1.350536249427408e-04,2.471907671058214e-13
	1.350536249369135e-04,2.469968359015055e-13
	-7.740520519105384e-08,-3.189838379607028e-13
	8.355496755300497e-05,2.579826796261624e-12
	-7.202860002117773e-05,-1.317657603132059e-13
	-1.144896232663619e-05,-2.129077197987715e-12
	7.740520519105392e-08,3.189838379607027e-13
	-8.355496755285685e-05,-2.579826796261623e-12
	7.740520519105392e-08,3.189838379607027e-13
32		2.089296130854037e+00,0.000000000000000e+00
	7.740520519105396e-04,3.264139260360066e-09
	1.000000000000000e+00,0.000000000000000e+00
	0.000000000000000e+00,0.000000000000000e+00
	1.350536249427408e-04,2.529485797358910e-13
	1.350536249369135e-04,2.527501312935301e-13
	-7.740520519105387e-08,-3.264139260360066e-13
