LTspice 24.0.9 for Windows
Circuit: * GA CMOS Amp | W=5e-05 L=1.2681413273066652e-07 Vbias=1.0468082268899068
Start Time: Sat Sep  6 22:07:31 2025
solver = Normal
Maximum thread count: 2
tnom = 27
temp = 27
method = modified trap
AsciiRawFile = 1
Direct Newton iteration for .op point succeeded.
Semiconductor Device Operating Points:
                        --- BSIM4 MOSFETS ---
Name:      m1
Model:      n
Id:      1.79e-04
Vgs:     1.05e+00
Vds:     5.46e-03
Vbs:     0.00e+00
Vth:     3.36e-01
Vdsat:   5.24e-01
Gm:      4.39e-05
Gds:     3.28e-02
Gmb      1.08e-04
Cbd:     2.50e-14
Cbs:     4.00e-14


.measure op idd find i(vdd)
  Error: FIND can not be evaluated over an interval.

gain_db: MAX(db(v(out)/v(g)))=(36.1057dB,154.707°) FROM 1 TO 1e+09
gain_lin: MAX(mag(v(out)/v(g)))=(-30.8321dB,0°) FROM 1 TO 1e+09

Measurement "fc" FAIL'ed

Total elapsed time: 1.012 seconds.

