LTspice 24.0.9 for Windows
Circuit: * GA CMOS Amp | W=7.0990305500921455e-06 L=5.922048614196644e-07 Vbias=0.5769684730026553
Start Time: Sat Sep  6 22:37:53 2025
solver = Normal
Maximum thread count: 2
tnom = 27
temp = 27
method = modified trap
AsciiRawFile = 1
Direct Newton iteration for .op point succeeded.
Semiconductor Device Operating Points:
                        --- BSIM4 MOSFETS ---
Name:      m1
Model:      n
Id:      1.35e-04
Vgs:     5.77e-01
Vds:     4.52e-01
Vbs:     0.00e+00
Vth:     2.46e-01
Vdsat:   2.61e-01
Gm:      5.12e-04
Gds:     2.61e-05
Gmb      2.27e-04
Cbd:     3.14e-15
Cbs:     5.68e-15


.measure op idd find i(vdd)
  Error: FIND can not be evaluated over an interval.

gain_db: MAX(db(v(out)/v(g)))=(29.507dB,65.9657°) FROM 1 TO 1e+09
gain_lin: MAX(mag(v(out)/v(g)))=(12.3806dB,0°) FROM 1 TO 1e+09

Measurement "fc" FAIL'ed

Total elapsed time: 0.487 seconds.

