LTspice 24.0.9 for Windows
Circuit: * GA CMOS Amp | W=2.4440002573757037e-05 L=1e-06 Vbias=1.0613338047343408
Start Time: Sat Sep  6 22:07:22 2025
solver = Normal
Maximum thread count: 2
tnom = 27
temp = 27
method = modified trap
AsciiRawFile = 1
Direct Newton iteration for .op point succeeded.
Semiconductor Device Operating Points:
                        --- BSIM4 MOSFETS ---
Name:      m1
Model:      n
Id:      1.73e-04
Vgs:     1.06e+00
Vds:     7.48e-02
Vbs:     0.00e+00
Vth:     2.36e-01
Vdsat:   5.88e-01
Gm:      8.50e-06
Gds:     2.16e-03
Gmb      1.13e-04
Cbd:     1.19e-14
Cbs:     1.96e-14


.measure op idd find i(vdd)
  Error: FIND can not be evaluated over an interval.

gain_db: MAX(db(v(out)/v(g)))=(36.5145dB,155.945°) FROM 1 TO 1e+09
gain_lin: MAX(mag(v(out)/v(g)))=(-2.5751dB,0°) FROM 1 TO 1e+09

Measurement "fc" FAIL'ed

Total elapsed time: 1.044 seconds.

