Title: * GA CMOS Amp | W=7.716515971363912e-06 L=5.299470717658046e-07 Vbias=1.5
Date: Sat Sep  6 22:08:11 2025
Plotname: AC Analysis
Flags: complex forward log
No. Variables: 13
No. Points:          901
Offset:    0.0000000000000000e+00
Command: Linear Technology Corporation LTspice
Variables:
	0	frequency	frequency
	1	V(out)	voltage
	2	V(g)	voltage
	3	V(vdd)	voltage
	4	V(m1#dbody)	voltage
	5	V(m1#sbody)	voltage
	6	Id(M1)	device_current
	7	Ig(M1)	device_current
	8	Ib(M1)	device_current
	9	Is(M1)	device_current
	10	I(Rload)	device_current
	11	I(Vg)	device_current
	12	I(Vdd)	device_current
Values:
0		1.000000000000000e+00,0.000000000000000e+00
	1.984490181009781e-02,4.147699433045653e-10
	1.000000000000000e+00,0.000000000000000e+00
	0.000000000000000e+00,0.000000000000000e+00
	1.384356017703203e-04,4.135182699529855e-14
	1.384356016211145e-04,3.787317051524131e-14
	-1.984490181009789e-06,-4.147699433045655e-14
	8.589404771809835e-05,1.078848470126265e-12
	-7.383232093034467e-05,-2.044704350416632e-14
	-1.007723660674390e-05,-1.016924432291642e-12
	1.984490181009781e-06,4.147699433045653e-14
	-8.589404771808251e-05,-1.078848470126264e-12
	1.984490181009781e-06,4.147699433045653e-14
1		1.023292992280754e+00,0.000000000000000e+00
	1.984490181009781e-02,4.244311763922474e-10
	1.000000000000000e+00,0.000000000000000e+00
	0.000000000000000e+00,0.000000000000000e+00
	1.384356017703203e-04,4.231503478229510e-14
	1.384356016211145e-04,3.875534998370050e-14
	-1.984490181009789e-06,-4.244311763922473e-14
	8.589404771809835e-05,1.103978079213019e-12
	-7.383232093034467e-05,-2.092331633067311e-14
	-1.007723660674390e-05,-1.040611645243121e-12
	1.984490181009781e-06,4.244311763922474e-14
	-8.589404771808251e-05,-1.103978079213019e-12
	1.984490181009781e-06,4.244311763922474e-14
2		1.047128548050899e+00,0.000000000000000e+00
	1.984490181009781e-02,4.343174485076634e-10
	1.000000000000000e+00,0.000000000000000e+00
	0.000000000000000e+00,0.000000000000000e+00
	1.384356017703203e-04,4.330067856083895e-14
	1.384356016211145e-04,3.965807805170877e-14
	-1.984490181009789e-06,-4.343174485076640e-14
	8.589404771809835e-05,1.129693032090250e-12
	-7.383232093034467e-05,-2.141068297645126e-14
	-1.007723660674390e-05,-1.064850604263032e-12
	1.984490181009781e-06,4.343174485076634e-14
	-8.589404771808251e-05,-1.129693032090249e-12
	1.984490181009781e-06,4.343174485076634e-14
3		1.071519305237606e+00,0.000000000000000e+00
	1.984490181009781e-02,4.444340014831490e-10
	1.000000000000000e+00,0.000000000000000e+00
	0.000000000000000e+00,0.000000000000000e+00
	1.384356017703203e-04,4.430928093230797e-14
	1.384356016211145e-04,4.058183335763675e-14
	-1.984490181009789e-06,-4.444340014831504e-14
	8.589404771809835e-05,1.156006963166349e-12
	-7.383232093034467e-05,-2.190940184974740e-14
	-1.007723660674390e-05,-1.089654161168287e-12
	1.984490181009781e-06,4.444340014831490e-14
	-8.589404771808251e-05,-1.156006963166349e-12
	1.984490181009781e-06,4.444340014831490e-14
4		1.096478196143185e+00,0.000000000000000e+00
	1.984490181009781e-02,4.547861992490006e-10
	1.000000000000000e+00,0.000000000000000e+00
	0.000000000000000e+00,0.000000000000000e+00
	1.384356017703203e-04,4.534137667102999e-14
	1.384356016211145e-04,4.152710568877503e-14
	-1.984490181009789e-06,-4.547861992490023e-14
	8.589404771809835e-05,1.182933824435881e-12
	-7.383232093034467e-05,-2.241973737790951e-14
	-1.007723660674390e-05,-1.115035467133071e-12
	1.984490181009781e-06,4.547861992490006e-14
	-8.589404771808251e-05,-1.182933824435881e-12
	1.984490181009781e-06,4.547861992490006e-14
5		1.122018454301963e+00,0.000000000000000e+00
	1.984490181009781e-02,4.653795306775012e-10
	1.000000000000000e+00,0.000000000000000e+00
	0.000000000000000e+00,0.000000000000000e+00
	1.384356017703203e-04,4.639751300782706e-14
	1.384356016211145e-04,4.249439624102573e-14
	-1.984490181009789e-06,-4.653795306775031e-14
	8.589404771809835e-05,1.210487892877109e-12
	-7.383232093034467e-05,-2.294196014758969e-14
	-1.007723660674390e-05,-1.141007979661769e-12
	1.984490181009781e-06,4.653795306775013e-14
	-8.589404771808251e-05,-1.210487892877109e-12
	1.984490181009781e-06,4.653795306775013e-14
6		1.148153621496882e+00,0.000000000000000e+00
	1.984490181009781e-02,4.762196124931933e-10
	1.000000000000000e+00,0.000000000000000e+00
	0.000000000000000e+00,0.000000000000000e+00
	1.384356017703203e-04,4.747824992016457e-14
	1.384356016211145e-04,4.348421788464326e-14
	-1.984490181009789e-06,-4.762196124931935e-14
	8.589404771809835e-05,1.238683778021842e-12
	-7.383232093034467e-05,-2.347634704821287e-14
	-1.007723660674390e-05,-1.167585469724310e-12
	1.984490181009781e-06,4.762196124931933e-14
	-8.589404771808251e-05,-1.238683778021842e-12
	1.984490181009781e-06,4.762196124931933e-14
7		1.174897554939529e+00,0.000000000000000e+00
	1.984490181009781e-02,4.873121922509407e-10
	1.000000000000000e+00,0.000000000000000e+00
	0.000000000000000e+00,0.000000000000000e+00
	1.384356017703203e-04,4.858416042905868e-14
	1.384356016211145e-04,4.449709543616489e-14
	-1.984490181009789e-06,-4.873121922509413e-14
	8.589404771809835e-05,1.267536429701600e-12
	-7.383232093034467e-05,-2.402318141878719e-14
	-1.007723660674390e-05,-1.194782029057718e-12
	1.984490181009781e-06,4.873121922509407e-14
	-8.589404771808251e-05,-1.267536429701600e-12
	1.984490181009781e-06,4.873121922509407e-14
8		1.202264434617413e+00,0.000000000000000e+00
	1.984490181009781e-02,4.986631513833595e-10
	1.000000000000000e+00,0.000000000000000e+00
	0.000000000000000e+00,0.000000000000000e+00
	1.384356017703203e-04,4.971583090289966e-14
	1.384356016211145e-04,4.553356593667546e-14
	-1.984490181009789e-06,-4.986631513833594e-14
	8.589404771809835e-05,1.297061145974214e-12
	-7.383232093034467e-05,-2.458275319813416e-14
	-1.007723660674390e-05,-1.222612077637744e-12
	1.984490181009781e-06,4.986631513833595e-14
	-8.589404771808251e-05,-1.297061145974214e-12
	1.984490181009781e-06,4.986631513833595e-14
9		1.230268770812381e+00,0.000000000000000e+00
	1.984490181009781e-02,5.102785083192286e-10
	1.000000000000000e+00,0.000000000000000e+00
	0.000000000000000e+00,0.000000000000000e+00
	1.384356017703203e-04,5.087386136835216e-14
	1.384356016211145e-04,4.659417893655363e-14
	-1.984490181009789e-06,-5.102785083192297e-14
	8.589404771809835e-05,1.327273581235057e-12
	-7.383232093034467e-05,-2.515535907861798e-14
	-1.007723660674390e-05,-1.251090371324516e-12
	1.984490181009781e-06,5.102785083192286e-14
	-8.589404771808251e-05,-1.327273581235057e-12
	1.984490181009781e-06,5.102785083192286e-14
10		1.258925411794167e+00,0.000000000000000e+00
	1.984490181009781e-02,5.221644216745430e-10
	1.000000000000000e+00,0.000000000000000e+00
	0.000000000000000e+00,0.000000000000000e+00
	1.384356017703203e-04,5.205886582849736e-14
	1.384356016211145e-04,4.767949678685086e-14
	-1.984490181009789e-06,-5.221644216745457e-14
	8.589404771809835e-05,1.358189754517214e-12
	-7.383232093034467e-05,-2.574130266345583e-14
	-1.007723660674390e-05,-1.280232009686304e-12
	1.984490181009781e-06,5.221644216745430e-14
	-8.589404771808251e-05,-1.358189754517214e-12
	1.984490181009781e-06,5.221644216745430e-14
11		1.288249551693134e+00,0.000000000000000e+00
	1.984490181009781e-02,5.343271935178927e-10
	1.000000000000000e+00,0.000000000000000e+00
	0.000000000000000e+00,0.000000000000000e+00
	1.384356017703203e-04,5.327147258838538e-14
	1.384356016211145e-04,4.879009493745722e-14
	-1.984490181009789e-06,-5.343271935178951e-14
	8.589404771809835e-05,1.389826057984983e-12
	-7.383232093034467e-05,-2.634089462769227e-14
	-1.007723660674390e-05,-1.310052444005502e-12
	1.984490181009781e-06,5.343271935178927e-14
	-8.589404771808251e-05,-1.389826057984983e-12
	1.984490181009781e-06,5.343271935178927e-14
12		1.318256738556407e+00,0.000000000000000e+00
	1.984490181009781e-02,5.467732727119020e-10
	1.000000000000000e+00,0.000000000000000e+00
	0.000000000000000e+00,0.000000000000000e+00
	1.384356017703203e-04,5.451232458817104e-14
	1.384356016211145e-04,4.992656224221267e-14
	-1.984490181009789e-06,-5.467732727119037e-14
	8.589404771809835e-05,1.422199265625219e-12
	-7.383232093034467e-05,-2.695445288292326e-14
	-1.007723660674390e-05,-1.340567485471105e-12
	1.984490181009781e-06,5.467732727119020e-14
	-8.589404771808251e-05,-1.422199265625218e-12
	1.984490181009781e-06,5.467732727119020e-14
13		1.348962882591653e+00,0.000000000000000e+00
	1.984490181009781e-02,5.595092583325030e-10
	1.000000000000000e+00,0.000000000000000e+00
	0.000000000000000e+00,0.000000000000000e+00
	1.384356017703203e-04,5.578207974400926e-14
	1.384356016211145e-04,5.108950127112513e-14
	-1.984490181009789e-06,-5.595092583325038e-14
	8.589404771809835e-05,1.455326542141121e-12
	-7.383232093034467e-05,-2.758230274585714e-14
	-1.007723660674390e-05,-1.371793313562013e-12
	1.984490181009781e-06,5.595092583325031e-14
	-8.589404771808251e-05,-1.455326542141120e-12
	1.984490181009781e-06,5.595092583325031e-14
14		1.380384264602885e+00,0.000000000000000e+00
	1.984490181009781e-02,5.725419031678524e-10
	1.000000000000000e+00,0.000000000000000e+00
	0.000000000000000e+00,0.000000000000000e+00
	1.384356017703203e-04,5.708141129689088e-14
	1.384356016211145e-04,5.227952862986103e-14
	-1.984490181009789e-06,-5.725419031678554e-14
	8.589404771809835e-05,1.489225452053191e-12
	-7.383232093034467e-05,-2.822477711080182e-14
	-1.007723660674390e-05,-1.403746484625603e-12
	1.984490181009781e-06,5.725419031678525e-14
	-8.589404771808251e-05,-1.489225452053190e-12
	1.984490181009781e-06,5.725419031678525e-14
15		1.412537544622754e+00,0.000000000000000e+00
	1.984490181009781e-02,5.858781172987495e-10
	1.000000000000000e+00,0.000000000000000e+00
	0.000000000000000e+00,0.000000000000000e+00
	1.384356017703203e-04,5.841100816960392e-14
	1.384356016211145e-04,5.349727528667784e-14
	-1.984490181009789e-06,-5.858781172987506e-14
	8.589404771809835e-05,1.523913969012168e-12
	-7.383232093034467e-05,-2.888221662616973e-14
	-1.007723660674390e-05,-1.436443940656124e-12
	1.984490181009781e-06,5.858781172987495e-14
	-8.589404771808251e-05,-1.523913969012168e-12
	1.984490181009781e-06,5.858781172987495e-14
16		1.445439770745927e+00,0.000000000000000e+00
	1.984490181009781e-02,5.995249717624519e-10
	1.000000000000000e+00,0.000000000000000e+00
	0.000000000000000e+00,0.000000000000000e+00
	1.384356017703203e-04,5.977157533200955e-14
	1.384356016211145e-04,5.474338690697179e-14
	-1.984490181009789e-06,-5.995249717624529e-14
	8.589404771809835e-05,1.559410485328902e-12
	-7.383232093034467e-05,-2.955496987509416e-14
	-1.007723660674390e-05,-1.469903018277562e-12
	1.984490181009781e-06,5.995249717624519e-14
	-8.589404771808251e-05,-1.559410485328902e-12
	1.984490181009781e-06,5.995249717624519e-14
17		1.479108388168207e+00,0.000000000000000e+00
	1.984490181009781e-02,6.134897023018339e-10
	1.000000000000000e+00,0.000000000000000e+00
	0.000000000000000e+00,0.000000000000000e+00
	1.384356017703203e-04,6.116383417482656e-14
	1.384356016211145e-04,5.601852419561822e-14
	-1.984490181009789e-06,-6.134897023018361e-14
	8.589404771809835e-05,1.595733821726195e-12
	-7.383232093034467e-05,-3.024339356025265e-14
	-1.007723660674390e-05,-1.504141457935758e-12
	1.984490181009781e-06,6.134897023018340e-14
	-8.589404771808251e-05,-1.595733821726194e-12
	1.984490181009781e-06,6.134897023018340e-14
18		1.513561248436208e+00,0.000000000000000e+00
	1.984490181009781e-02,6.277797132018728e-10
	1.000000000000000e+00,0.000000000000000e+00
	0.000000000000000e+00,0.000000000000000e+00
	1.384356017703203e-04,6.258852289212213e-14
	1.384356016211145e-04,5.732336324728600e-14
	-1.984490181009789e-06,-6.277797132018739e-14
	8.589404771809835e-05,1.632903237317801e-12
	-7.383232093034467e-05,-3.094785269299543e-14
	-1.007723660674390e-05,-1.539177413304619e-12
	1.984490181009781e-06,6.277797132018729e-14
	-8.589404771808251e-05,-1.632903237317801e-12
	1.984490181009781e-06,6.277797132018729e-14
19		1.548816618912481e+00,0.000000000000000e+00
	1.984490181009781e-02,6.424025812154981e-10
	1.000000000000000e+00,0.000000000000000e+00
	0.000000000000000e+00,0.000000000000000e+00
	1.384356017703203e-04,6.404639687271213e-14
	1.384356016211145e-04,5.865859590491189e-14
	-1.984490181009789e-06,-6.424025812154994e-14
	8.589404771809835e-05,1.670938439819863e-12
	-7.383232093034467e-05,-3.166872078687928e-14
	-1.007723660674390e-05,-1.575029460911434e-12
	1.984490181009781e-06,6.424025812154981e-14
	-8.589404771808251e-05,-1.670938439819863e-12
	1.984490181009781e-06,6.424025812154981e-14
20		1.584893192461113e+00,0.000000000000000e+00
	1.984490181009781e-02,6.573660595808871e-10
	1.000000000000000e+00,0.000000000000000e+00
	0.000000000000000e+00,0.000000000000000e+00
	1.384356017703203e-04,6.553822910067833e-14
	1.384356016211145e-04,6.002493012652488e-14
	-1.984490181009789e-06,-6.573660595808879e-14
	8.589404771809835e-05,1.709859596000203e-12
	-7.383232093034467e-05,-3.240638005570942e-14
	-1.007723660674390e-05,-1.611716609986404e-12
	1.984490181009781e-06,6.573660595808871e-14
	-8.589404771808251e-05,-1.709859596000203e-12
	1.984490181009781e-06,6.573660595808871e-14
21		1.621810097358929e+00,0.000000000000000e+00
	1.984490181009781e-02,6.726780821323345e-10
	1.000000000000000e+00,0.000000000000000e+00
	0.000000000000000e+00,0.000000000000000e+00
	1.384356017703203e-04,6.706481056521472e-14
	1.384356016211145e-04,6.142309036061483e-14
	-1.984490181009789e-06,-6.726780821323364e-14
	8.589404771809835e-05,1.749687342371009e-12
	-7.383232093034467e-05,-3.316122161619424e-14
	-1.007723660674390e-05,-1.649258312541581e-12
	1.984490181009781e-06,6.726780821323346e-14
	-8.589404771808251e-05,-1.749687342371008e-12
	1.984490181009781e-06,6.726780821323346e-14
22		1.659586907437560e+00,0.000000000000000e+00
	1.984490181009781e-02,6.883467675068756e-10
	1.000000000000000e+00,0.000000000000000e+00
	0.000000000000000e+00,0.000000000000000e+00
	1.384356017703203e-04,6.862695068002050e-14
	1.384356016211145e-04,6.285381793024470e-14
	-1.984490181009789e-06,-6.883467675068767e-14
	8.589404771809835e-05,1.790442796130590e-12
	-7.383232093034467e-05,-3.393364569532064e-14
	-1.007723660674390e-05,-1.687674473684582e-12
	1.984490181009781e-06,6.883467675068756e-14
	-8.589404771808251e-05,-1.790442796130590e-12
	1.984490181009781e-06,6.883467675068756e-14
23		1.698243652461743e+00,0.000000000000000e+00
	1.984490181009781e-02,7.043804234488952e-10
	1.000000000000000e+00,0.000000000000000e+00
	0.000000000000000e+00,0.000000000000000e+00
	1.384356017703203e-04,7.022547771246190e-14
	1.384356016211145e-04,6.431787142610980e-14
	-1.984490181009789e-06,-7.043804234488967e-14
	8.589404771809835e-05,1.832147566359992e-12
	-7.383232093034467e-05,-3.472406184255958e-14
	-1.007723660674390e-05,-1.726985462172542e-12
	1.984490181009781e-06,7.043804234488953e-14
	-8.589404771808251e-05,-1.832147566359991e-12
	1.984490181009781e-06,7.043804234488953e-14
24		1.737800828749374e+00,0.000000000000000e+00
	1.984490181009781e-02,7.207875512150045e-10
	1.000000000000000e+00,0.000000000000000e+00
	0.000000000000000e+00,0.000000000000000e+00
	1.384356017703203e-04,7.186123922273054e-14
	1.384356016211145e-04,6.581602710875271e-14
	-1.984490181009789e-06,-7.207875512150059e-14
	8.589404771809835e-05,1.874823765480417e-12
	-7.383232093034467e-05,-3.553288914701474e-14
	-1.007723660674390e-05,-1.767212121211902e-12
	1.984490181009781e-06,7.207875512150046e-14
	-8.589404771808251e-05,-1.874823765480417e-12
	1.984490181009781e-06,7.207875512150046e-14
25		1.778279410038922e+00,0.000000000000000e+00
	1.984490181009781e-02,7.375768500815195e-10
	1.000000000000000e+00,0.000000000000000e+00
	0.000000000000000e+00,0.000000000000000e+00
	1.384356017703203e-04,7.353510251323106e-14
	1.384356016211145e-04,6.734907932014681e-14
	-1.984490181009789e-06,-7.375768500815189e-14
	8.589404771809835e-05,1.918494020977527e-12
	-7.383232093034467e-05,-3.636055645962906e-14
	-1.007723660674390e-05,-1.808375779509746e-12
	1.984490181009781e-06,7.375768500815195e-14
	-8.589404771808251e-05,-1.918494020977527e-12
	1.984490181009781e-06,7.375768500815195e-14
26		1.819700858609982e+00,0.000000000000000e+00
	1.984490181009781e-02,7.547572219569311e-10
	1.000000000000000e+00,0.000000000000000e+00
	0.000000000000000e+00,0.000000000000000e+00
	1.384356017703203e-04,7.524795508843618e-14
	1.384356016211145e-04,6.891784090486686e-14
	-1.984490181009789e-06,-7.547572219569319e-14
	8.589404771809835e-05,1.963181487398829e-12
	-7.383232093034467e-05,-3.720750262056711e-14
	-1.007723660674390e-05,-1.850498262582569e-12
	1.984490181009781e-06,7.547572219569311e-14
	-8.589404771808251e-05,-1.963181487398828e-12
	1.984490181009781e-06,7.547572219569311e-14
27		1.862087136662866e+00,0.000000000000000e+00
	1.984490181009781e-02,7.723377761018172e-10
	1.000000000000000e+00,0.000000000000000e+00
	0.000000000000000e+00,0.000000000000000e+00
	1.384356017703203e-04,7.700070512545367e-14
	1.384356016211145e-04,7.052314364107018e-14
	-1.984490181009789e-06,-7.723377761018177e-14
	8.589404771809835e-05,2.008909858630529e-12
	-7.383232093034467e-05,-3.807417669189412e-14
	-1.007723660674390e-05,-1.893601904328453e-12
	1.984490181009781e-06,7.723377761018172e-14
	-8.589404771808251e-05,-2.008909858630530e-12
	1.984490181009781e-06,7.723377761018172e-14
28		1.905460717963246e+00,0.000000000000000e+00
	1.984490181009781e-02,7.903278339586916e-10
	1.000000000000000e+00,0.000000000000000e+00
	0.000000000000000e+00,0.000000000000000e+00
	1.384356017703203e-04,7.879428195555347e-14
	1.384356016211145e-04,7.216583868151612e-14
	-1.984490181009789e-06,-7.903278339586959e-14
	8.589404771809835e-05,2.055703380460341e-12
	-7.383232093034467e-05,-3.896103819567448e-14
	-1.007723660674390e-05,-1.937709558868797e-12
	1.984490181009781e-06,7.903278339586916e-14
	-8.589404771808251e-05,-2.055703380460341e-12
	1.984490181009781e-06,7.903278339586916e-14
29		1.949844599758044e+00,0.000000000000000e+00
	1.984490181009781e-02,8.087369340943567e-10
	1.000000000000000e+00,0.000000000000000e+00
	0.000000000000000e+00,0.000000000000000e+00
	1.384356017703203e-04,8.062963655691176e-14
	1.384356016211145e-04,7.384679700485884e-14
	-1.984490181009789e-06,-8.087369340943580e-14
	8.589404771809835e-05,2.103586863432924e-12
	-7.383232093034467e-05,-3.986855735761650e-14
	-1.007723660674390e-05,-1.982844612665872e-12
	1.984490181009781e-06,8.087369340943567e-14
	-8.589404771808251e-05,-2.103586863432924e-12
	1.984490181009781e-06,8.087369340943567e-14
30		1.995262314968878e+00,0.000000000000000e+00
	1.984490181009781e-02,8.275748372573771e-10
	1.000000000000000e+00,0.000000000000000e+00
	0.000000000000000e+00,0.000000000000000e+00
	1.384356017703203e-04,8.250774205883192e-14
	1.384356016211145e-04,7.556690987745142e-14
	-1.984490181009789e-06,-8.275748372573774e-14
	8.589404771809835e-05,2.152585696004763e-12
	-7.383232093034467e-05,-4.079721535639226e-14
	-1.007723660674390e-05,-2.029030996922633e-12
	1.984490181009781e-06,8.275748372573772e-14
	-8.589404771808251e-05,-2.152585696004762e-12
	1.984490181009781e-06,8.275748372573772e-14
31		2.041737944669527e+00,0.000000000000000e+00
	1.984490181009781e-02,8.468515315533594e-10
	1.000000000000000e+00,0.000000000000000e+00
	0.000000000000000e+00,0.000000000000000e+00
	1.384356017703203e-04,8.442959425771072e-14
	1.384356016211145e-04,7.732708932590733e-14
	-1.984490181009789e-06,-8.468515315533592e-14
	8.589404771809835e-05,2.202725858005463e-12
	-7.383232093034467e-05,-4.174750457876496e-14
	-1.007723660674390e-05,-2.076293200271362e-12
	1.984490181009781e-06,8.468515315533594e-14
	-8.589404771808251e-05,-2.202725858005463e-12
	1.984490181009781e-06,8.468515315533594e-14
32		2.089296130854037e+00,0.000000000000000e+00
	1.984490181009781e-02,8.665772377407767e-10
	1.000000000000000e+00,0.000000000000000e+00
	0.000000000000000e+00,0.000000000000000e+00
	1.384356017703203e-04,8.639621214502277e-14
	1.384356016211145e-04,7.912826862066886e-14
	-1.984490181009789e-06,-8.665772377407780e-14
