Title: * GA CMOS Amp | W=3.241743366758479e-05 L=8.235979971602149e-07 Vbias=0.6904664735775223
Date: Mon Sep  8 18:46:58 2025
Plotname: AC Analysis
Flags: complex forward log
No. Variables: 11
No. Points:          901
Offset:    0.0000000000000000e+00
Command: Linear Technology Corporation LTspice
Variables:
	0	frequency	frequency
	1	V(out)	voltage
	2	V(g)	voltage
	3	V(vdd)	voltage
	4	Id(M1)	device_current
	5	Ig(M1)	device_current
	6	Ib(M1)	device_current
	7	Is(M1)	device_current
	8	I(Rload)	device_current
	9	I(Vg)	device_current
	10	I(Vdd)	device_current
Values:
0		1.000000000000000e+00,0.000000000000000e+00
	-2.687301911879386e-01,5.162233941969672e-10
	1.000000000000000e+00,0.000000000000000e+00
	0.000000000000000e+00,0.000000000000000e+00
	2.687301911879386e-05,-5.162233941969672e-14
	2.102936586691266e-23,2.447595367249469e-13
	2.687301912300630e-13,-6.135278946285146e-15
	-2.687301938752405e-05,-1.870019183589650e-13
	-2.687301911879386e-05,5.162233941969672e-14
	-2.102936586691266e-23,-2.447595367249469e-13
	-2.687301911879386e-05,5.162233941969672e-14
1		1.023292992280754e+00,0.000000000000000e+00
	-2.687301911879386e-01,5.282477817331419e-10
	1.000000000000000e+00,0.000000000000000e+00
	0.000000000000000e+00,0.000000000000000e+00
	2.687301911879386e-05,-5.282477817331419e-14
	2.202044934665140e-23,2.504607187245220e-13
	2.687301912300630e-13,-6.278187951421179e-15
	-2.687301938752405e-05,-1.913577525997866e-13
	-2.687301911879386e-05,5.282477817331419e-14
	-2.202044934665140e-23,-2.504607187245220e-13
	-2.687301911879386e-05,5.282477817331419e-14
2		1.047128548050899e+00,0.000000000000000e+00
	-2.687301911879386e-01,5.405522532353774e-10
	1.000000000000000e+00,0.000000000000000e+00
	0.000000000000000e+00,0.000000000000000e+00
	2.687301911879386e-05,-5.405522532353774e-14
	2.305824115178746e-23,2.562946983124044e-13
	2.687301912300630e-13,-6.424425734910769e-15
	-2.687301938752405e-05,-1.958150472539559e-13
	-2.687301911879386e-05,5.405522532353774e-14
	-2.305824115178746e-23,-2.562946983124044e-13
	-2.687301911879386e-05,5.405522532353774e-14
3		1.071519305237606e+00,0.000000000000000e+00
	-2.687301911879386e-01,5.531433326973332e-10
	1.000000000000000e+00,0.000000000000000e+00
	0.000000000000000e+00,0.000000000000000e+00
	2.687301911879386e-05,-5.531433326973332e-14
	2.414494257787870e-23,2.622645687417934e-13
	2.687301912300630e-13,-6.574069833962321e-15
	-2.687301938752405e-05,-2.003761656380977e-13
	-2.687301911879386e-05,5.531433326973332e-14
	-2.414494257787870e-23,-2.622645687417934e-13
	-2.687301911879386e-05,5.531433326973332e-14
4		1.096478196143185e+00,0.000000000000000e+00
	-2.687301911879386e-01,5.660276960760027e-10
	1.000000000000000e+00,0.000000000000000e+00
	0.000000000000000e+00,0.000000000000000e+00
	2.687301911879386e-05,-5.660276960760027e-14
	2.528285866434645e-23,2.683734953170112e-13
	2.687301912300630e-13,-6.727199591857939e-15
	-2.687301938752405e-05,-2.050435261175530e-13
	-2.687301911879386e-05,5.660276960760027e-14
	-2.528285866434645e-23,-2.683734953170112e-13
	-2.687301911879386e-05,5.660276960760027e-14
5		1.122018454301963e+00,0.000000000000000e+00
	-2.687301911879386e-01,5.792121748313942e-10
	1.000000000000000e+00,0.000000000000000e+00
	0.000000000000000e+00,0.000000000000000e+00
	2.687301911879386e-05,-5.792121748313942e-14
	2.647440308377322e-23,2.746247170717894e-13
	2.687301912300630e-13,-6.883896200022167e-15
	-2.687301938752405e-05,-2.098196033886278e-13
	-2.687301911879386e-05,5.792121748313942e-14
	-2.647440308377322e-23,-2.746247170717894e-13
	-2.687301911879386e-05,5.792121748313942e-14
6		1.148153621496882e+00,0.000000000000000e+00
	-2.687301911879386e-01,5.927037595486606e-10
	1.000000000000000e+00,0.000000000000000e+00
	0.000000000000000e+00,0.000000000000000e+00
	2.687301911879386e-05,-5.927037595486607e-14
	2.772210326162570e-23,2.810215484866469e-13
	2.687301912300630e-13,-7.044242741070822e-15
	-2.687301938752405e-05,-2.147069297907100e-13
	-2.687301911879386e-05,5.927037595486607e-14
	-2.772210326162570e-23,-2.810215484866469e-13
	-2.687301911879386e-05,5.927037595486607e-14
7		1.174897554939529e+00,0.000000000000000e+00
	-2.687301911879386e-01,6.065096036446015e-10
	1.000000000000000e+00,0.000000000000000e+00
	0.000000000000000e+00,0.000000000000000e+00
	2.687301911879386e-05,-6.065096036446015e-14
	2.902860573726322e-23,2.875673812462719e-13
	2.687301912300630e-13,-7.208324232862324e-15
	-2.687301938752405e-05,-2.197080966489494e-13
	-2.687301911879386e-05,6.065096036446015e-14
	-2.902860573726322e-23,-2.875673812462719e-13
	-2.687301911879386e-05,6.065096036446015e-14
8		1.202264434617413e+00,0.000000000000000e+00
	-2.687301911879386e-01,6.206370271604985e-10
	1.000000000000000e+00,0.000000000000000e+00
	0.000000000000000e+00,0.000000000000000e+00
	2.687301911879386e-05,-6.206370271604986e-14
	3.039668177760245e-23,2.942656860378380e-13
	2.687301912300630e-13,-7.376227673575542e-15
	-2.687301938752405e-05,-2.248257556482126e-13
	-2.687301911879386e-05,6.206370271604986e-14
	-3.039668177760245e-23,-2.942656860378380e-13
	-2.687301911879386e-05,6.206370271604986e-14
9		1.230268770812381e+00,0.000000000000000e+00
	-2.687301911879386e-01,6.350935206432981e-10
	1.000000000000000e+00,0.000000000000000e+00
	0.000000000000000e+00,0.000000000000000e+00
	2.687301911879386e-05,-6.350935206432982e-14
	3.182923325534609e-23,3.011200143912082e-13
	2.687301912300630e-13,-7.548042087837241e-15
	-2.687301938752405e-05,-2.300626202390412e-13
	-2.687301911879386e-05,6.350935206432982e-14
	-3.182923325534609e-23,-3.011200143912082e-13
	-2.687301911879386e-05,6.350935206432982e-14
10		1.258925411794167e+00,0.000000000000000e+00
	-2.687301911879386e-01,6.498867491171996e-10
	1.000000000000000e+00,0.000000000000000e+00
	0.000000000000000e+00,0.000000000000000e+00
	2.687301911879386e-05,-6.498867491171995e-14
	3.332929880424397e-23,3.081340005620032e-13
	2.687301912300630e-13,-7.723858573924067e-15
	-2.687301938752405e-05,-2.354214670763592e-13
	-2.687301911879386e-05,6.498867491171997e-14
	-3.332929880424397e-23,-3.081340005620032e-13
	-2.687301911879386e-05,6.498867491171997e-14
11		1.288249551693134e+00,0.000000000000000e+00
	-2.687301911879386e-01,6.650245561477509e-10
	1.000000000000000e+00,0.000000000000000e+00
	0.000000000000000e+00,0.000000000000000e+00
	2.687301911879386e-05,-6.650245561477509e-14
	3.490006026444258e-23,3.153113634585319e-13
	2.687301912300630e-13,-7.903770352064115e-15
	-2.687301938752405e-05,-2.409051374916927e-13
	-2.687301911879386e-05,6.650245561477509e-14
	-3.490006026444258e-23,-3.153113634585319e-13
	-2.687301911879386e-05,6.650245561477509e-14
12		1.318256738556407e+00,0.000000000000000e+00
	-2.687301911879386e-01,6.805149680006123e-10
	1.000000000000000e+00,0.000000000000000e+00
	0.000000000000000e+00,0.000000000000000e+00
	2.687301911879386e-05,-6.805149680006123e-14
	3.654484943159464e-23,3.226559086136055e-13
	2.687301912300630e-13,-8.087872813863591e-15
	-2.687301938752405e-05,-2.465165389996806e-13
	-2.687301911879386e-05,6.805149680006123e-14
	-3.654484943159464e-23,-3.226559086136055e-13
	-2.687301911879386e-05,6.805149680006123e-14
13		1.348962882591653e+00,0.000000000000000e+00
	-2.687301911879386e-01,6.963661978971884e-10
	1.000000000000000e+00,0.000000000000000e+00
	0.000000000000000e+00,0.000000000000000e+00
	2.687301911879386e-05,-6.963661978971884e-14
	3.826715512404444e-23,3.301715302022819e-13
	2.687301912300630e-13,-8.276263572884662e-15
	-2.687301938752405e-05,-2.522586468396784e-13
	-2.687301911879386e-05,6.963661978971884e-14
	-3.826715512404444e-23,-3.301715302022819e-13
	-2.687301911879386e-05,6.963661978971884e-14
14		1.380384264602885e+00,0.000000000000000e+00
	-2.687301911879386e-01,7.125866503693857e-10
	1.000000000000000e+00,0.000000000000000e+00
	0.000000000000000e+00,0.000000000000000e+00
	2.687301911879386e-05,-7.125866503693858e-14
	4.007063058307920e-23,3.378622131066085e-13
	2.687301912300630e-13,-8.469042516401346e-15
	-2.687301938752405e-05,-2.581345055532686e-13
	-2.687301911879386e-05,7.125866503693857e-14
	-4.007063058307920e-23,-3.378622131066085e-13
	-2.687301911879386e-05,7.125866503693857e-14
15		1.412537544622754e+00,0.000000000000000e+00
	-2.687301911879386e-01,7.291849257158082e-10
	1.000000000000000e+00,0.000000000000000e+00
	0.000000000000000e+00,0.000000000000000e+00
	2.687301911879386e-05,-7.291849257158081e-14
	4.195910122194368e-23,3.457320350284592e-13
	2.687301912300630e-13,-8.666311858361271e-15
	-2.687301938752405e-05,-2.641472305985171e-13
	-2.687301911879386e-05,7.291849257158082e-14
	-4.195910122194368e-23,-3.457320350284592e-13
	-2.687301911879386e-05,7.291849257158082e-14
16		1.445439770745927e+00,0.000000000000000e+00
	-2.687301911879386e-01,7.461698245617486e-10
	1.000000000000000e+00,0.000000000000000e+00
	0.000000000000000e+00,0.000000000000000e+00
	2.687301911879386e-05,-7.461698245617486e-14
	4.393657274005461e-23,3.537851686515864e-13
	2.687301912300630e-13,-8.868176193580664e-15
	-2.687301938752405e-05,-2.703000100018309e-13
	-2.687301911879386e-05,7.461698245617486e-14
	-4.393657274005461e-23,-3.537851686515864e-13
	-2.687301911879386e-05,7.461698245617486e-14
17		1.479108388168207e+00,0.000000000000000e+00
	-2.687301911879386e-01,7.635503525253969e-10
	1.000000000000000e+00,0.000000000000000e+00
	0.000000000000000e+00,0.000000000000000e+00
	2.687301911879386e-05,-7.635503525253970e-14
	4.600723961962609e-23,3.620258838540331e-13
	2.687301912300630e-13,-9.074742553202099e-15
	-2.687301938752405e-05,-2.765961060482913e-13
	-2.687301911879386e-05,7.635503525253969e-14
	-4.600723961962609e-23,-3.620258838540331e-13
	-2.687301911879386e-05,7.635503525253969e-14
18		1.513561248436208e+00,0.000000000000000e+00
	-2.687301911879386e-01,7.813357249927384e-10
	1.000000000000000e+00,0.000000000000000e+00
	0.000000000000000e+00,0.000000000000000e+00
	2.687301911879386e-05,-7.813357249927382e-14
	4.817549402272892e-23,3.704585499720783e-13
	2.687301912300630e-13,-9.286120461443627e-15
	-2.687301938752405e-05,-2.830388570113609e-13
	-2.687301911879386e-05,7.813357249927385e-14
	-4.817549402272892e-23,-3.704585499720783e-13
	-2.687301911879386e-05,7.813357249927385e-14
19		1.548816618912481e+00,0.000000000000000e+00
	-2.687301911879386e-01,7.995353720036715e-10
	1.000000000000000e+00,0.000000000000000e+00
	0.000000000000000e+00,0.000000000000000e+00
	2.687301911879386e-05,-7.995353720036715e-14
	5.044593510765491e-23,3.790876381169173e-13
	2.687301912300630e-13,-9.502421993670221e-15
	-2.687301938752405e-05,-2.896316789228799e-13
	-2.687301911879386e-05,7.995353720036715e-14
	-5.044593510765491e-23,-3.790876381169173e-13
	-2.687301911879386e-05,7.995353720036715e-14
20		1.584893192461113e+00,0.000000000000000e+00
	-2.687301911879386e-01,8.181589432519429e-10
	1.000000000000000e+00,0.000000000000000e+00
	0.000000000000000e+00,0.000000000000000e+00
	2.687301911879386e-05,-8.181589432519430e-14
	5.282337878434858e-23,3.879177235453039e-13
	2.687301912300630e-13,-9.723761835817182e-15
	-2.687301938752405e-05,-2.963780673842924e-13
	-2.687301911879386e-05,8.181589432519430e-14
	-5.282337878434858e-23,-3.879177235453039e-13
	-2.687301911879386e-05,8.181589432519430e-14
21		1.621810097358929e+00,0.000000000000000e+00
	-2.687301911879386e-01,8.372163132015402e-10
	1.000000000000000e+00,0.000000000000000e+00
	0.000000000000000e+00,0.000000000000000e+00
	2.687301911879386e-05,-8.372163132015403e-14
	5.531286792959760e-23,3.969534880854124e-13
	2.687301912300630e-13,-9.950257345198775e-15
	-2.687301938752405e-05,-3.032815994200596e-13
	-2.687301911879386e-05,8.372163132015403e-14
	-5.531286792959760e-23,-3.969534880854124e-13
	-2.687301911879386e-05,8.372163132015403e-14
22		1.659586907437560e+00,0.000000000000000e+00
	-2.687301911879386e-01,8.567175863222652e-10
	1.000000000000000e+00,0.000000000000000e+00
	0.000000000000000e+00,0.000000000000000e+00
	2.687301911879386e-05,-8.567175863222652e-14
	5.791968308365070e-23,4.061997226192043e-13
	2.687301912300630e-13,-1.018202861273206e-14
	-2.687301938752405e-05,-3.103459353742458e-13
	-2.687301911879386e-05,8.567175863222652e-14
	-5.791968308365070e-23,-4.061997226192043e-13
	-2.687301911879386e-05,8.567175863222652e-14
23		1.698243652461743e+00,0.000000000000000e+00
	-2.687301911879386e-01,8.766731024472562e-10
	1.000000000000000e+00,0.000000000000000e+00
	0.000000000000000e+00,0.000000000000000e+00
	2.687301911879386e-05,-8.766731024472562e-14
	6.064935365095143e-23,4.156613296226180e-13
	2.687301912300630e-13,-1.041919852661085e-14
	-2.687301938752405e-05,-3.175748208512815e-13
	-2.687301911879386e-05,8.766731024472563e-14
	-6.064935365095143e-23,-4.156613296226180e-13
	-2.687301911879386e-05,8.766731024472563e-14
24		1.737800828749374e+00,0.000000000000000e+00
	-2.687301911879386e-01,8.970934422553047e-10
	1.000000000000000e+00,0.000000000000000e+00
	0.000000000000000e+00,0.000000000000000e+00
	2.687301911879386e-05,-8.970934422553047e-14
	6.350766962874626e-23,4.253433257649256e-13
	2.687301912300630e-13,-1.066189283746287e-14
	-2.687301938752405e-05,-3.249720887019322e-13
	-2.687301911879386e-05,8.970934422553047e-14
	-6.350766962874626e-23,-4.253433257649256e-13
	-2.687301911879386e-05,8.970934422553047e-14
25		1.778279410038922e+00,0.000000000000000e+00
	-2.687301911879386e-01,9.179894328808727e-10
	1.000000000000000e+00,0.000000000000000e+00
	0.000000000000000e+00,0.000000000000000e+00
	2.687301911879386e-05,-9.179894328808726e-14
	6.650069388844530e-23,4.352508445686382e-13
	2.687301912300630e-13,-1.091024022502407e-14
	-2.687301938752405e-05,-3.325416610555269e-13
	-2.687301911879386e-05,9.179894328808727e-14
	-6.650069388844530e-23,-4.352508445686382e-13
	-2.687301911879386e-05,9.179894328808727e-14
26		1.819700858609982e+00,0.000000000000000e+00
	-2.687301911879386e-01,9.393721536547806e-10
	1.000000000000000e+00,0.000000000000000e+00
	0.000000000000000e+00,0.000000000000000e+00
	2.687301911879386e-05,-9.393721536547805e-14
	6.963477503578503e-23,4.453891391313672e-13
	2.687301912300630e-13,-1.116437236636671e-14
	-2.687301938752405e-05,-3.402875513995224e-13
	-2.687301911879386e-05,9.393721536547806e-14
	-6.963477503578503e-23,-4.453891391313672e-13
	-2.687301911879386e-05,9.393721536547806e-14
27		1.862087136662866e+00,0.000000000000000e+00
	-2.687301911879386e-01,9.612529419786167e-10
	1.000000000000000e+00,0.000000000000000e+00
	0.000000000000000e+00,0.000000000000000e+00
	2.687301911879386e-05,-9.612529419786168e-14
	7.291656087707259e-23,4.557635849110859e-13
	2.687301912300630e-13,-1.142442400571597e-14
	-2.687301938752405e-05,-3.482138667075082e-13
	-2.687301911879386e-05,9.612529419786167e-14
	-7.291656087707259e-23,-4.557635849110859e-13
	-2.687301911879386e-05,9.612529419786167e-14
28		1.905460717963246e+00,0.000000000000000e+00
	-2.687301911879386e-01,9.836433993359768e-10
	1.000000000000000e+00,0.000000000000000e+00
	0.000000000000000e+00,0.000000000000000e+00
	2.687301911879386e-05,-9.836433993359768e-14
	7.635301252007404e-23,4.663796825762686e-13
	2.687301912300630e-13,-1.169053302589321e-14
	-2.687301938752405e-05,-3.563248096167777e-13
	-2.687301911879386e-05,9.836433993359769e-14
	-7.635301252007404e-23,-4.663796825762686e-13
	-2.687301911879386e-05,9.836433993359769e-14
29		1.949844599758044e+00,0.000000000000000e+00
	-2.687301911879386e-01,1.006555397443725e-09
	1.000000000000000e+00,0.000000000000000e+00
	0.000000000000000e+00,0.000000000000000e+00
	2.687301911879386e-05,-1.006555397443725e-13
	7.995141913945730e-23,4.772430609224182e-13
	2.687301912300630e-13,-1.196284052142316e-14
	-2.687301938752405e-05,-3.646246806566226e-13
	-2.687301911879386e-05,1.006555397443725e-13
	-7.995141913945730e-23,-4.772430609224182e-13
	-2.687301911879386e-05,1.006555397443725e-13
30		1.995262314968878e+00,0.000000000000000e+00
	-2.687301911879386e-01,1.030001084546532e-09
	1.000000000000000e+00,0.000000000000000e+00
	0.000000000000000e+00,0.000000000000000e+00
	2.687301911879386e-05,-1.030001084546532e-13
	8.371941343810880e-23,4.883594798565275e-13
	2.687301912300630e-13,-1.224149087334464e-14
	-2.687301938752405e-05,-3.731178805285296e-13
	-2.687301911879386e-05,1.030001084546533e-13
	-8.371941343810880e-23,-4.883594798565275e-13
	-2.687301911879386e-05,1.030001084546533e-13
31		2.041737944669527e+00,0.000000000000000e+00
	-2.687301911879386e-01,1.053992891858043e-09
	1.000000000000000e+00,0.000000000000000e+00
	0.000000000000000e+00,0.000000000000000e+00
	2.687301911879386e-05,-1.053992891858043e-13
	8.766498783711979e-23,4.997348334510586e-13
	2.687301912300630e-13,-1.252663182576242e-14
	-2.687301938752405e-05,-3.818089124394919e-13
	-2.687301911879386e-05,1.053992891858043e-13
	-8.766498783711979e-23,-4.997348334510586e-13
	-2.687301911879386e-05,1.053992891858043e-13
32		2.089296130854037e+00,0.000000000000000e+00
	-2.687301911879386e-01,1.078543540152062e-09
	1.000000000000000e+00,0.000000000000000e+00
	0.000000000000000e+00,0.000000000000000e+00
	2.687301911879386e-05,-1.078543540152062e-13
	9.179651142878305e-23,5.113751530690582e-13
	2.687301912300630e-13,-1.281841456418374e-14
	-2.687301938752405e-05,-3.907023844896682e-13
	-2.687301911879386e-05,1.078543540152062e-13
	-9.179651142878305e-23,-5.113751530690582e-13
	-2.687301911879386e-05,1.078543540152062e-13
33		2.137962089502230e+00,0.000000000000000e+00
	-2.687301911879386e-01,1.103666046507282e-09
	1.000000000000000e+00,0.000000000000000e+00
	0.000000000000000e+00,0.000000000000000e+00
	2.687301911879386e-05,-1.103666046507281e-13
	9.612274772855939e-23,5.232866105620651e-13
	2.687301912300630e-13,-1.311699379567874e-14
	-2.687301938752405e-05,-3.998030121156582e-13
	-2.687301911879386e-05,1.103666046507282e-13
	-9.612274772855939e-23,-5.232866105620651e-13
	-2.687301911879386e-05,1.103666046507282e-13
34		2.187761623949550e+00,0.000000000000000e+00
	-2.687301911879386e-01,1.129373731209106e-09
	1.000000000000000e+00,0.000000000000000e+00
	0.000000000000000e+00,0.000000000000000e+00
	2.687301911879386e-05,-1.129373731209106e-13
	1.006528732636693e-22,5.354755215425093e-13
	2.687301912300630e-13,-1.342252783090825e-14
	-2.687301938752405e-05,-4.091156205906905e-13
	-2.687301911879386e-05,1.129373731209106e-13
	-1.006528732636693e-22,-5.354755215425093e-13
	-2.687301911879386e-05,1.129373731209106e-13
35		2.238721138568337e+00,0.000000000000000e+00
	-2.687301911879386e-01,1.155680224812246e-09
	1.000000000000000e+00,0.000000000000000e+00
	0.000000000000000e+00,0.000000000000000e+00
	2.687301911879386e-05,-1.155680224812246e-13
	1.053964970377372e-22,5.479483487323317e-13
	2.687301912300630e-13,-1.373517866806171e-14
	-2.687301938752405e-05,-4.186451475830454e-13
	-2.687301911879386e-05,1.155680224812246e-13
	-1.053964970377372e-22,-5.479483487323317e-13
	-2.687301911879386e-05,1.155680224812246e-13
36		2.290867652767770e+00,0.000000000000000e+00
	-2.687301911879386e-01,1.182599475367818e-09
	1.000000000000000e+00,0.000000000000000e+00
	0.000000000000000e+00,0.000000000000000e+00
	2.687301911879386e-05,-1.182599475367818e-13
	1.103636809127767e-22,5.607117053896059e-13
	2.687301912300630e-13,-1.405511207875166e-14
	-2.687301938752405e-05,-4.283966457740724e-13
	-2.687301911879386e-05,1.182599475367818e-13
	-1.103636809127767e-22,-5.607117053896059e-13
	-2.687301911879386e-05,1.182599475367818e-13
37		2.344228815319919e+00,0.000000000000000e+00
	-2.687301911879386e-01,1.210145755818784e-09
	1.000000000000000e+00,0.000000000000000e+00
	0.000000000000000e+00,0.000000000000000e+00
	2.687301911879386e-05,-1.210145755818784e-13
	1.155649609517486e-22,5.737723588149744e-13
	2.687301912300630e-13,-1.438249769590712e-14
	-2.687301938752405e-05,-4.383752855371889e-13
	-2.687301911879386e-05,1.210145755818784e-13
	-1.155649609517486e-22,-5.737723588149744e-13
	-2.687301911879386e-05,1.210145755818784e-13
38		2.398832919019488e+00,0.000000000000000e+00
	-2.687301911879386e-01,1.238333671567659e-09
	1.000000000000000e+00,0.000000000000000e+00
