Title: * GA CMOS Amp | W=4.788573707968051e-05 L=6.017078987635203e-07 Vbias=0.7805993245051371
Date: Sat Sep  6 22:35:05 2025
Plotname: AC Analysis
Flags: complex forward log
No. Variables: 13
No. Points:          901
Offset:    0.0000000000000000e+00
Command: Linear Technology Corporation LTspice
Variables:
	0	frequency	frequency
	1	V(out)	voltage
	2	V(g)	voltage
	3	V(vdd)	voltage
	4	V(m1#dbody)	voltage
	5	V(m1#sbody)	voltage
	6	Id(M1)	device_current
	7	Ig(M1)	device_current
	8	Ib(M1)	device_current
	9	Is(M1)	device_current
	10	I(Rload)	device_current
	11	I(Vg)	device_current
	12	I(Vdd)	device_current
Values:
0		1.000000000000000e+00,0.000000000000000e+00
	-1.203343624497190e-02,5.144674177352872e-10
	1.000000000000000e+00,0.000000000000000e+00
	0.000000000000000e+00,0.000000000000000e+00
	2.442743983519363e-07,3.665974868244773e-14
	2.442745022026052e-07,5.012922149409714e-14
	1.203343624497206e-06,-5.144674177352956e-14
	4.405878087480957e-06,7.377760593076187e-12
	-1.302797276832700e-07,-2.583779635222256e-14
	-5.478941984294892e-06,-7.300476054950435e-12
	-1.203343624497190e-06,5.144674177352872e-14
	-4.405878087476722e-06,-7.377760593076187e-12
	-1.203343624497190e-06,5.144674177352872e-14
1		1.023292992280754e+00,0.000000000000000e+00
	-1.203343624497190e-02,5.264509033252948e-10
	1.000000000000000e+00,0.000000000000000e+00
	0.000000000000000e+00,0.000000000000000e+00
	2.442743983519361e-07,3.751366392552233e-14
	2.442745022026051e-07,5.129688106339932e-14
	1.203343624497206e-06,-5.264509033253034e-14
	4.405878087480957e-06,7.549610713619966e-12
	-1.302797276832700e-07,-2.643963594320656e-14
	-5.478941984294892e-06,-7.470525987344228e-12
	-1.203343624497190e-06,5.264509033252948e-14
	-4.405878087476722e-06,-7.549610713619964e-12
	-1.203343624497190e-06,5.264509033252948e-14
2		1.047128548050899e+00,0.000000000000000e+00
	-1.203343624497190e-02,5.387135201526467e-10
	1.000000000000000e+00,0.000000000000000e+00
	0.000000000000000e+00,0.000000000000000e+00
	2.442743983519360e-07,3.838746940976233e-14
	2.442745022026050e-07,5.249173891803584e-14
	1.203343624497206e-06,-5.387135201526605e-14
	4.405878087480957e-06,7.725463737695012e-12
	-1.302797276832699e-07,-2.705549417913762e-14
	-5.478941984294892e-06,-7.644536891500607e-12
	-1.203343624497190e-06,5.387135201526468e-14
	-4.405878087476722e-06,-7.725463737695010e-12
	-1.203343624497190e-06,5.387135201526468e-14
3		1.071519305237606e+00,0.000000000000000e+00
	-1.203343624497190e-02,5.512617700191002e-10
	1.000000000000000e+00,0.000000000000000e+00
	0.000000000000000e+00,0.000000000000000e+00
	2.442743983519358e-07,3.928162843840163e-14
	2.442745022026048e-07,5.371442858745703e-14
	1.203343624497206e-06,-5.512617700191219e-14
	4.405878087480956e-06,7.905412904902386e-12
	-1.302797276832698e-07,-2.768569759620427e-14
	-5.478941984294892e-06,-7.822601030304270e-12
	-1.203343624497190e-06,5.512617700191002e-14
	-4.405878087476722e-06,-7.905412904902384e-12
	-1.203343624497190e-06,5.512617700191002e-14
4		1.096478196143185e+00,0.000000000000000e+00
	-1.203343624497190e-02,5.641023061728299e-10
	1.000000000000000e+00,0.000000000000000e+00
	0.000000000000000e+00,0.000000000000000e+00
	2.442743983519356e-07,4.019661510639275e-14
	2.442745022026046e-07,5.496559835790975e-14
	1.203343624497206e-06,-5.641023061728326e-14
	4.405878087480956e-06,8.089553626672447e-12
	-1.302797276832697e-07,-2.833058033659994e-14
	-5.478941984294892e-06,-8.004812815718565e-12
	-1.203343624497190e-06,5.641023061728299e-14
	-4.405878087476722e-06,-8.089553626672449e-12
	-1.203343624497190e-06,5.641023061728299e-14
5		1.122018454301963e+00,0.000000000000000e+00
	-1.203343624497190e-02,5.772419368360693e-10
	1.000000000000000e+00,0.000000000000000e+00
	0.000000000000000e+00,0.000000000000000e+00
	2.442743983519354e-07,4.113291455177842e-14
	2.442745022026045e-07,5.624591161616761e-14
	1.203343624497206e-06,-5.772419368360753e-14
	4.405878087480956e-06,8.277983536853280e-12
	-1.302797276832696e-07,-2.899048432568966e-14
	-5.478941984294892e-06,-8.191268858843983e-12
	-1.203343624497190e-06,5.772419368360693e-14
	-4.405878087476722e-06,-8.277983536853278e-12
	-1.203343624497190e-06,5.772419368360693e-14
6		1.148153621496882e+00,0.000000000000000e+00
	-1.203343624497190e-02,5.906876288149194e-10
	1.000000000000000e+00,0.000000000000000e+00
	0.000000000000000e+00,0.000000000000000e+00
	2.442743983519352e-07,4.209102321291789e-14
	2.442745022026043e-07,5.755604720126695e-14
	1.203343624497206e-06,-5.906876288149279e-14
	4.405878087480956e-06,8.470802543477412e-12
	-1.302797276832695e-07,-2.966575945330326e-14
	-5.478941984294892e-06,-8.382068021142616e-12
	-1.203343624497190e-06,5.906876288149193e-14
	-4.405878087476722e-06,-8.470802543477412e-12
	-1.203343624497190e-06,5.906876288149193e-14
7		1.174897554939529e+00,0.000000000000000e+00
	-1.203343624497190e-02,6.044465111932423e-10
	1.000000000000000e+00,0.000000000000000e+00
	0.000000000000000e+00,0.000000000000000e+00
	2.442743983519350e-07,4.307144909170541e-14
	2.442745022026042e-07,5.889669976443678e-14
	1.203343624497206e-06,-6.044465111932395e-14
	4.405878087480956e-06,8.668112881734423e-12
	-1.302797276832695e-07,-3.035676375925175e-14
	-5.478941984294892e-06,-8.577311466855845e-12
	-1.203343624497190e-06,6.044465111932423e-14
	-4.405878087476722e-06,-8.668112881734421e-12
	-1.203343624497190e-06,6.044465111932423e-14
8		1.202264434617413e+00,0.000000000000000e+00
	-1.203343624497190e-02,6.185258791125952e-10
	1.000000000000000e+00,0.000000000000000e+00
	0.000000000000000e+00,0.000000000000000e+00
	2.442743983519348e-07,4.407471202291938e-14
	2.442745022026040e-07,6.026858013741166e-14
	1.203343624497206e-06,-6.185258791126029e-14
	4.405878087480956e-06,8.870019168177369e-12
	-1.302797276832694e-07,-3.106386362316467e-14
	-5.478941984294892e-06,-8.777102716642944e-12
	-1.203343624497190e-06,6.185258791125953e-14
	-4.405878087476722e-06,-8.870019168177367e-12
	-1.203343624497190e-06,6.185258791125953e-14
9		1.230268770812381e+00,0.000000000000000e+00
	-1.203343624497190e-02,6.329331976402116e-10
	1.000000000000000e+00,0.000000000000000e+00
	0.000000000000000e+00,0.000000000000000e+00
	2.442743983519346e-07,4.510134394984575e-14
	2.442745022026038e-07,6.167241570932444e-14
	1.203343624497206e-06,-6.329331976402238e-14
	4.405878087480956e-06,9.076628456191867e-12
	-1.302797276832693e-07,-3.178743395874946e-14
	-5.478941984294892e-06,-8.981547702469095e-12
	-1.203343624497190e-06,6.329331976402117e-14
	-4.405878087476722e-06,-9.076628456191865e-12
	-1.203343624497190e-06,6.329331976402117e-14
10		1.258925411794167e+00,0.000000000000000e+00
	-1.203343624497190e-02,6.476761057270782e-10
	1.000000000000000e+00,0.000000000000000e+00
	0.000000000000000e+00,0.000000000000000e+00
	2.442743983519343e-07,4.615188920632116e-14
	2.442745022026036e-07,6.310895081237721e-14
	1.203343624497206e-06,-6.476761057270691e-14
	4.405878087480956e-06,9.288050292757215e-12
	-1.302797276832691e-07,-3.252785841257560e-14
	-5.478941984294892e-06,-9.190754823771932e-12
	-1.203343624497190e-06,6.476761057270783e-14
	-4.405878087476722e-06,-9.288050292757215e-12
	-1.203343624497190e-06,6.476761057270783e-14
11		1.288249551693134e+00,0.000000000000000e+00
	-1.203343624497190e-02,6.627624202582079e-10
	1.000000000000000e+00,0.000000000000000e+00
	0.000000000000000e+00,0.000000000000000e+00
	2.442743983519341e-07,4.722690480534618e-14
	2.442745022026034e-07,6.457894711649637e-14
	1.203343624497206e-06,-6.627624202582163e-14
	4.405878087480956e-06,9.504396776529666e-12
	-1.302797276832690e-07,-3.328552956748917e-14
	-5.478941984294892e-06,-9.404835004936356e-12
	-1.203343624497190e-06,6.627624202582078e-14
	-4.405878087476722e-06,-9.504396776529664e-12
	-1.203343624497190e-06,6.627624202582078e-14
12		1.318256738556407e+00,0.000000000000000e+00
	-1.203343624497190e-02,6.782001401972561e-10
	1.000000000000000e+00,0.000000000000000e+00
	0.000000000000000e+00,0.000000000000000e+00
	2.442743983519338e-07,4.832696073442106e-14
	2.442745022026032e-07,6.608318403318021e-14
	1.203343624497206e-06,-6.782001401972709e-14
	4.405878087480955e-06,9.725782617278595e-12
	-1.302797276832689e-07,-3.406084915076553e-14
	-5.478941984294892e-06,-9.623901754108102e-12
	-1.203343624497190e-06,6.782001401972562e-14
	-4.405878087476722e-06,-9.725782617278596e-12
	-1.203343624497190e-06,6.782001401972562e-14
13		1.348962882591653e+00,0.000000000000000e+00
	-1.203343624497190e-02,6.939974508276773e-10
	1.000000000000000e+00,0.000000000000000e+00
	0.000000000000000e+00,0.000000000000000e+00
	2.442743983519335e-07,4.945264025776021e-14
	2.442745022026030e-07,6.762245912875270e-14
	1.203343624497206e-06,-6.939974508276784e-14
	4.405878087480955e-06,9.952325196707157e-12
	-1.302797276832688e-07,-3.485422824711023e-14
	-5.478941984294892e-06,-9.848071223377279e-12
	-1.203343624497190e-06,6.939974508276774e-14
	-4.405878087476722e-06,-9.952325196707159e-12
	-1.203343624497190e-06,6.939974508276774e-14
14		1.380384264602885e+00,0.000000000000000e+00
	-1.203343624497190e-02,7.101627280926694e-10
	1.000000000000000e+00,0.000000000000000e+00
	0.000000000000000e+00,0.000000000000000e+00
	2.442743983519333e-07,5.060454022554713e-14
	2.442745022026027e-07,6.919758854724434e-14
	1.203343624497206e-06,-7.101627280926678e-14
	4.405878087480955e-06,1.018414463068961e-11
	-1.302797276832687e-07,-3.566608751662181e-14
	-5.478941984294892e-06,-1.007746227036372e-11
	-1.203343624497190e-06,7.101627280926694e-14
	-4.405878087476722e-06,-1.018414463068961e-11
	-1.203343624497190e-06,7.101627280926694e-14
15		1.412537544622754e+00,0.000000000000000e+00
	-1.203343624497190e-02,7.267045430362112e-10
	1.000000000000000e+00,0.000000000000000e+00
	0.000000000000000e+00,0.000000000000000e+00
	2.442743983519329e-07,5.178327139039192e-14
	2.442745022026025e-07,7.080940744312211e-14
	1.203343624497206e-06,-7.267045430362180e-14
	4.405878087480955e-06,1.042136383295835e-11
	-1.302797276832685e-07,-3.649685741783118e-14
	-5.478941984294892e-06,-1.031219652123690e-11
	-1.203343624497190e-06,7.267045430362112e-14
	-4.405878087476722e-06,-1.042136383295835e-11
	-1.203343624497190e-06,7.267045430362112e-14
16		1.445439770745927e+00,0.000000000000000e+00
	-1.203343624497190e-02,7.436316663475426e-10
	1.000000000000000e+00,0.000000000000000e+00
	0.000000000000000e+00,0.000000000000000e+00
	2.442743983519326e-07,5.298945873116050e-14
	2.442745022026022e-07,7.245877042409952e-14
	1.203343624497206e-06,-7.436316663475348e-14
	4.405878087480955e-06,1.066410858027438e-11
	-1.302797276832684e-07,-3.734697843593651e-14
	-5.478941984294892e-06,-1.055239843520369e-11
	-1.203343624497190e-06,7.436316663475426e-14
	-4.405878087476722e-06,-1.066410858027438e-11
	-1.203343624497190e-06,7.436316663475426e-14
17		1.479108388168207e+00,0.000000000000000e+00
	-1.203343624497190e-02,7.609530730115001e-10
	1.000000000000000e+00,0.000000000000000e+00
	0.000000000000000e+00,0.000000000000000e+00
	2.442743983519323e-07,5.422374178434675e-14
	2.442745022026019e-07,7.414655200426099e-14
	1.203343624497206e-06,-7.609530730115104e-14
	4.405878087480955e-06,1.091250757911583e-11
	-1.302797276832682e-07,-3.821690131635426e-14
	-5.478941984294892e-06,-1.079819537049833e-11
	-1.203343624497190e-06,7.609530730115002e-14
	-4.405878087476722e-06,-1.091250757911583e-11
	-1.203343624497190e-06,7.609530730115002e-14
18		1.513561248436208e+00,0.000000000000000e+00
	-1.203343624497190e-02,7.786779470671732e-10
	1.000000000000000e+00,0.000000000000000e+00
	0.000000000000000e+00,0.000000000000000e+00
	2.442743983519319e-07,5.548677498316315e-14
	2.442745022026016e-07,7.587364706774078e-14
	1.203343624497206e-06,-7.786779470671767e-14
	4.405878087480954e-06,1.116669253391985e-11
	-1.302797276832681e-07,-3.910708730371045e-14
	-5.478941984294892e-06,-1.104971765190942e-11
	-1.203343624497190e-06,7.786779470671733e-14
	-4.405878087476722e-06,-1.116669253391985e-11
	-1.203343624497190e-06,7.786779470671733e-14
19		1.548816618912481e+00,0.000000000000000e+00
	-1.203343624497190e-02,7.968156864774023e-10
	1.000000000000000e+00,0.000000000000000e+00
	0.000000000000000e+00,0.000000000000000e+00
	2.442743983519316e-07,5.677922800452994e-14
	2.442745022026014e-07,7.764097134320235e-14
	1.203343624497206e-06,-7.968156864774002e-14
	4.405878087480954e-06,1.142679821691400e-11
	-1.302797276832679e-07,-4.001800838639856e-14
	-5.478941984294892e-06,-1.130709863987986e-11
	-1.203343624497190e-06,7.968156864774024e-14
	-4.405878087476722e-06,-1.142679821691399e-11
	-1.203343624497190e-06,7.968156864774024e-14
20		1.584893192461113e+00,0.000000000000000e+00
	-1.203343624497190e-02,8.153759081117042e-10
	1.000000000000000e+00,0.000000000000000e+00
	0.000000000000000e+00,0.000000000000000e+00
	2.442743983519313e-07,5.810178612414662e-14
	2.442745022026010e-07,7.944946188936982e-14
	1.203343624497206e-06,-8.153759081116996e-14
	4.405878087480954e-06,1.169296253957431e-11
	-1.302797276832677e-07,-4.095014754683410e-14
	-5.478941984294892e-06,-1.157047480121631e-11
	-1.203343624497190e-06,8.153759081117043e-14
	-4.405878087476722e-06,-1.169296253957431e-11
	-1.203343624497190e-06,8.153759081117043e-14
21		1.621810097358929e+00,0.000000000000000e+00
	-1.203343624497190e-02,8.343684528452630e-10
	1.000000000000000e+00,0.000000000000000e+00
	0.000000000000000e+00,0.000000000000000e+00
	2.442743983519308e-07,5.945515057983437e-14
	2.442745022026007e-07,8.130007759186894e-14
	1.203343624497206e-06,-8.343684528452736e-14
	4.405878087480954e-06,1.196532662574776e-11
	-1.302797276832676e-07,-4.190399901753823e-14
	-5.478941984294892e-06,-1.183998578144570e-11
	-1.203343624497190e-06,8.343684528452630e-14
	-4.405878087476722e-06,-1.196532662574776e-11
	-1.203343624497190e-06,8.343684528452630e-14
22		1.659586907437560e+00,0.000000000000000e+00
	-1.203343624497190e-02,8.538033907766925e-10
	1.000000000000000e+00,0.000000000000000e+00
	0.000000000000000e+00,0.000000000000000e+00
	2.442743983519304e-07,6.084003894334149e-14
	2.442745022026004e-07,8.319379967164103e-14
	1.203343624497206e-06,-8.538033907766928e-14
	4.405878087480954e-06,1.224403488647800e-11
	-1.302797276832674e-07,-4.288006854318646e-14
	-5.478941984294892e-06,-1.211577447885715e-11
	-1.203343624497190e-06,8.538033907766926e-14
	-4.405878087476722e-06,-1.224403488647801e-11
	-1.203343624497190e-06,8.538033907766926e-14
23		1.698243652461743e+00,0.000000000000000e+00
	-1.203343624497190e-02,8.736910265673356e-10
	1.000000000000000e+00,0.000000000000000e+00
	0.000000000000000e+00,0.000000000000000e+00
	2.442743983519301e-07,6.225718550080962e-14
	2.442745022026001e-07,8.513163220519925e-14
	1.203343624497219e-06,-8.736910265673423e-14
	4.405878087480953e-06,1.252923509657402e-11
	-1.302797276832672e-07,-4.387887364876115e-14
	-5.478941984294906e-06,-1.239798712026853e-11
	-1.203343624497190e-06,8.736910265673357e-14
	-4.405878087476722e-06,-1.252923509657402e-11
	-1.203343624497190e-06,8.736910265673357e-14
24		1.737800828749374e+00,0.000000000000000e+00
	-1.203343624497190e-02,8.940419049049326e-10
	1.000000000000000e+00,0.000000000000000e+00
	0.000000000000000e+00,0.000000000000000e+00
	2.442743983519296e-07,6.370734164210146e-14
	2.442745022025997e-07,8.711460265700296e-14
	1.203343624497219e-06,-8.940419049049500e-14
	4.405878087480953e-06,1.282107847296227e-11
	-1.302797276832670e-07,-4.490094391394993e-14
	-5.478941984294906e-06,-1.268677333855783e-11
	-1.203343624497190e-06,8.940419049049327e-14
	-4.405878087476722e-06,-1.282107847296227e-11
	-1.203343624497190e-06,8.940419049049327e-14
25		1.778279410038922e+00,0.000000000000000e+00
	-1.203343624497190e-02,9.148668160945539e-10
	1.000000000000000e+00,0.000000000000000e+00
	0.000000000000000e+00,0.000000000000000e+00
	2.442743983519291e-07,6.519127625919822e-14
	2.442745022025993e-07,8.914376242423341e-14
	1.203343624497206e-06,-9.148668160945759e-14
	4.405878087480967e-06,1.311971975486393e-11
	-1.302797276832668e-07,-4.594682125393610e-14
	-5.478941984294906e-06,-1.298228625200053e-11
	-1.203343624497190e-06,9.148668160945539e-14
	-4.405878087476722e-06,-1.311971975486392e-11
	-1.203343624497190e-06,9.148668160945539e-14
26		1.819700858609982e+00,0.000000000000000e+00
	-1.203343624497190e-02,9.361768017797624e-10
	1.000000000000000e+00,0.000000000000000e+00
	0.000000000000000e+00,0.000000000000000e+00
	2.442743983519286e-07,6.670977615387627e-14
	2.442745022025989e-07,9.122018739425851e-14
	1.203343624497206e-06,-9.361768017797537e-14
	4.405878087480967e-06,1.342531728583963e-11
	-1.302797276832666e-07,-4.701706020672925e-14
	-5.478941984294906e-06,-1.328468254545492e-11
	-1.203343624497190e-06,9.361768017797624e-14
	-4.405878087476722e-06,-1.342531728583963e-11
	-1.203343624497190e-06,9.361768017797624e-14
27		1.862087136662866e+00,0.000000000000000e+00
	-1.203343624497190e-02,9.579831607970394e-10
	1.000000000000000e+00,0.000000000000000e+00
	0.000000000000000e+00,0.000000000000000e+00
	2.442743983519281e-07,6.826364645487932e-14
	2.442745022025985e-07,9.334497851508188e-14
	1.203343624497206e-06,-9.579831607970477e-14
	4.405878087480966e-06,1.373803309774537e-11
	-1.302797276832663e-07,-4.811222822718833e-14
	-5.478941984294906e-06,-1.359412255343847e-11
	-1.203343624497190e-06,9.579831607970395e-14
	-4.405878087476722e-06,-1.373803309774536e-11
	-1.203343624497190e-06,9.579831607970395e-14
28		1.905460717963246e+00,0.000000000000000e+00
	-1.203343624497190e-02,9.802974551665772e-10
	1.000000000000000e+00,0.000000000000000e+00
	0.000000000000000e+00,0.000000000000000e+00
	2.442743983519276e-07,6.985371104480896e-14
	2.442745022025980e-07,9.551926237908083e-14
	1.203343624497206e-06,-9.802974551665926e-14
	4.405878087480966e-06,1.405803299664389e-11
	-1.302797276832661e-07,-4.923290598789411e-14
	-5.478941984294906e-06,-1.391077034513934e-11
	-1.203343624497190e-06,9.802974551665772e-14
	-4.405878087476722e-06,-1.405803299664389e-11
	-1.203343624497190e-06,9.802974551665772e-14
29		1.949844599758044e+00,0.000000000000000e+00
	-1.203343624497190e-02,1.003131516222615e-09
	1.000000000000000e+00,0.000000000000000e+00
	0.000000000000000e+00,0.000000000000000e+00
	2.442743983519270e-07,7.148081299695772e-14
	2.442745022025976e-07,9.774419182034012e-14
	1.203343624497206e-06,-1.003131516222617e-13
	4.405878087480966e-06,1.438548665071731e-11
	-1.302797276832658e-07,-5.037968768702923e-14
	-5.478941984294906e-06,-1.423479381140802e-11
	-1.203343624497190e-06,1.003131516222615e-13
	-4.405878087476722e-06,-1.438548665071731e-11
	-1.203343624497190e-06,1.003131516222615e-13
30		1.995262314968878e+00,0.000000000000000e+00
	-1.203343624497190e-02,1.026497450886570e-09
	1.000000000000000e+00,0.000000000000000e+00
	0.000000000000000e+00,0.000000000000000e+00
	2.442743983519264e-07,7.314581502231788e-14
	2.442745022025970e-07,1.000209465258998e-13
	1.203343624497206e-06,-1.026497450886576e-13
	4.405878087480966e-06,1.472056768022736e-11
	-1.302797276832656e-07,-5.155318136342999e-14
	-5.478941984294906e-06,-1.456636475377527e-11
	-1.203343624497190e-06,1.026497450886570e-13
	-4.405878087476722e-06,-1.472056768022735e-11
	-1.203343624497190e-06,1.026497450886570e-13
31		2.041737944669527e+00,0.000000000000000e+00
	-1.203343624497190e-02,1.050407648086285e-09
	1.000000000000000e+00,0.000000000000000e+00
	0.000000000000000e+00,0.000000000000000e+00
	2.442743983519258e-07,7.484959992700214e-14
	2.442745022025965e-07,1.023507336612413e-13
	1.203343624497206e-06,-1.050407648086285e-13
	4.405878087480965e-06,1.506345374957121e-11
	-1.302797276832653e-07,-5.275400921897665e-14
	-5.478941984294906e-06,-1.490565897554360e-11
	-1.203343624497190e-06,1.050407648086285e-13
	-4.405878087476722e-06,-1.506345374957121e-11
	-1.203343624497190e-06,1.050407648086285e-13
32		2.089296130854037e+00,0.000000000000000e+00
	-1.203343624497190e-02,1.074874785324803e-09
	1.000000000000000e+00,0.000000000000000e+00
	0.000000000000000e+00,0.000000000000000e+00
	2.442743983519251e-07,7.659307108031943e-14
