LTspice 24.0.9 for Windows
Circuit: * GA CMOS Amp | W=5.120340923682238e-06 L=8.780646051670982e-07 Vbias=0.5
Start Time: Mon Sep  8 18:46:17 2025
solver = Normal
Maximum thread count: 2
tnom = 27
temp = 27
method = modified trap
AsciiRawFile = 1
Instance "m1": Length shorter than recommended for a level 3 MOSFET.
Direct Newton iteration for .op point succeeded.
Semiconductor Device Operating Points:
                        --- MOSFET Transistors ---
Name:          m1
Model:        n_1u
Id:          3.84e-09
Vgs:         5.00e-01
Vds:         1.80e+00
Vbs:         0.00e+00
Vth:         8.31e-01
Vdsat:       4.72e-02
Gm:          6.94e-08
Gds:         2.65e-10
Gmb:         2.07e-08
Cbd:         0.00e+00
Cbs:         0.00e+00
Cgsov:       1.02e-15
Cgdov:       1.02e-15
Cgbov:       6.78e-17
Cgs:         2.17e-16
Cgd:         0.00e+00
Cgb:         2.83e-15



gain_db: MAX(db(v(out)/v(g)))=(36.7529dB,156.636°) FROM 1 TO 1e+09
gain_lin: MAX(mag(v(out)/v(g)))=(-23.8473dB,0°) FROM 1 TO 1e+09

Measurement "fc" FAIL'ed

Total elapsed time: 0.712 seconds.

