Title: * GA CMOS Amp | W=1e-06 L=6.450979658893421e-07 Vbias=0.7493246450814538
Date: Mon Sep  8 18:47:30 2025
Plotname: AC Analysis
Flags: complex forward log
No. Variables: 11
No. Points:          901
Offset:    0.0000000000000000e+00
Command: Linear Technology Corporation LTspice
Variables:
	0	frequency	frequency
	1	V(out)	voltage
	2	V(g)	voltage
	3	V(vdd)	voltage
	4	Id(M1)	device_current
	5	Ig(M1)	device_current
	6	Ib(M1)	device_current
	7	Is(M1)	device_current
	8	I(Rload)	device_current
	9	I(Vg)	device_current
	10	I(Vdd)	device_current
Values:
0		1.000000000000000e+00,0.000000000000000e+00
	-1.859371749024625e-03,1.258956226916120e-11
	1.000000000000000e+00,0.000000000000000e+00
	0.000000000000000e+00,0.000000000000000e+00
	1.859371749024625e-07,-1.258956226916120e-15
	1.582051053468322e-26,6.140790489504625e-15
	1.859371759233786e-15,-4.061211896580682e-16
	-1.859371767618343e-07,-4.475713072930437e-15
	-1.859371749024625e-07,1.258956226916120e-15
	-1.582051053468322e-26,-6.140790489504627e-15
	-1.859371749024625e-07,1.258956226916120e-15
1		1.023292992280754e+00,0.000000000000000e+00
	-1.859371749024625e-03,1.288281084591484e-11
	1.000000000000000e+00,0.000000000000000e+00
	0.000000000000000e+00,0.000000000000000e+00
	1.859371749024625e-07,-1.288281084591484e-15
	1.656610822560680e-26,6.283827874974385e-15
	1.859371759233786e-15,-4.155809673938242e-16
	-1.859371767618343e-07,-4.579965822989077e-15
	-1.859371749024625e-07,1.288281084591484e-15
	-1.656610822560680e-26,-6.283827874974387e-15
	-1.859371749024625e-07,1.288281084591484e-15
2		1.047128548050899e+00,0.000000000000000e+00
	-1.859371749024625e-03,1.318289005950315e-11
	1.000000000000000e+00,0.000000000000000e+00
	0.000000000000000e+00,0.000000000000000e+00
	1.859371749024625e-07,-1.318289005950315e-15
	1.734684485313371e-26,6.430197029159750e-15
	1.859371759233786e-15,-4.252610916593572e-16
	-1.859371767618343e-07,-4.686646931550078e-15
	-1.859371749024625e-07,1.318289005950315e-15
	-1.734684485313371e-26,-6.430197029159752e-15
	-1.859371749024625e-07,1.318289005950315e-15
3		1.071519305237606e+00,0.000000000000000e+00
	-1.859371749024625e-03,1.348995901589719e-11
	1.000000000000000e+00,0.000000000000000e+00
	0.000000000000000e+00,0.000000000000000e+00
	1.859371749024625e-07,-1.348995901589719e-15
	1.816437646432612e-26,6.579975558923696e-15
	1.859371759233786e-15,-4.351666949846840e-16
	-1.859371767618343e-07,-4.795812962349294e-15
	-1.859371749024625e-07,1.348995901589719e-15
	-1.816437646432612e-26,-6.579975558923698e-15
	-1.859371749024625e-07,1.348995901589719e-15
4		1.096478196143185e+00,0.000000000000000e+00
	-1.859371749024625e-03,1.380418052712217e-11
	1.000000000000000e+00,0.000000000000000e+00
	0.000000000000000e+00,0.000000000000000e+00
	1.859371749024625e-07,-1.380418052712217e-15
	1.902043715333974e-26,6.733242878825256e-15
	1.859371759233786e-15,-4.453030294518036e-16
	-1.859371767618343e-07,-4.907521796661236e-15
	-1.859371749024625e-07,1.380418052712217e-15
	-1.902043715333974e-26,-6.733242878825258e-15
	-1.859371749024625e-07,1.380418052712217e-15
5		1.122018454301963e+00,0.000000000000000e+00
	-1.859371749024625e-03,1.412572119758256e-11
	1.000000000000000e+00,0.000000000000000e+00
	0.000000000000000e+00,0.000000000000000e+00
	1.859371749024625e-07,-1.412572119758257e-15
	1.991684273967003e-26,6.890080253226176e-15
	1.859371759233786e-15,-4.556754694794206e-16
	-1.859371767618343e-07,-5.021832663988499e-15
	-1.859371749024625e-07,1.412572119758256e-15
	-1.991684273967003e-26,-6.890080253226178e-15
	-1.859371749024625e-07,1.412572119758256e-15
6		1.148153621496882e+00,0.000000000000000e+00
	-1.859371749024625e-03,1.445475151239794e-11
	1.000000000000000e+00,0.000000000000000e+00
	0.000000000000000e+00,0.000000000000000e+00
	1.859371749024625e-07,-1.445475151239794e-15
	2.085549461974878e-26,7.050570839378350e-15
	1.859371759233786e-15,-4.662895146725332e-16
	-1.859371767618343e-07,-5.138806173466022e-15
	-1.859371749024625e-07,1.445475151239794e-15
	-2.085549461974878e-26,-7.050570839378351e-15
	-1.859371749024625e-07,1.445475151239794e-15
7		1.174897554939529e+00,0.000000000000000e+00
	-1.859371749024625e-03,1.479144592779644e-11
	1.000000000000000e+00,0.000000000000000e+00
	0.000000000000000e+00,0.000000000000000e+00
	1.859371749024625e-07,-1.479144592779644e-15
	2.183838380006088e-26,7.214799731514899e-15
	1.859371759233786e-15,-4.771507927383974e-16
	-1.859371767618343e-07,-5.258504345996857e-15
	-1.859371749024625e-07,1.479144592779644e-15
	-2.183838380006088e-26,-7.214799731514901e-15
	-1.859371749024625e-07,1.479144592779644e-15
8		1.202264434617413e+00,0.000000000000000e+00
	-1.859371749024625e-03,1.513598296361380e-11
	1.000000000000000e+00,0.000000000000000e+00
	0.000000000000000e+00,0.000000000000000e+00
	1.859371749024625e-07,-1.513598296361380e-15
	2.286759512033603e-26,7.382854005968263e-15
	1.859371759233786e-15,-4.882650624704079e-16
	-1.859371767618343e-07,-5.380990647136475e-15
	-1.859371749024625e-07,1.513598296361380e-15
	-2.286759512033603e-26,-7.382854005968264e-15
	-1.859371749024625e-07,1.513598296361380e-15
9		1.230268770812381e+00,0.000000000000000e+00
	-1.859371749024625e-03,1.548854529794688e-11
	1.000000000000000e+00,0.000000000000000e+00
	0.000000000000000e+00,0.000000000000000e+00
	1.859371749024625e-07,-1.548854529794688e-15
	2.394531167577331e-26,7.554822767339216e-15
	1.859371759233786e-15,-4.996382168014929e-16
	-1.859371767618343e-07,-5.506330020743035e-15
	-1.859371749024625e-07,1.548854529794688e-15
	-2.394531167577331e-26,-7.554822767339217e-15
	-1.859371749024625e-07,1.548854529794688e-15
10		1.258925411794167e+00,0.000000000000000e+00
	-1.859371749024625e-03,1.584931986401207e-11
	1.000000000000000e+00,0.000000000000000e+00
	0.000000000000000e+00,0.000000000000000e+00
	1.859371749024625e-07,-1.584931986401207e-15
	2.507381944767876e-26,7.730797195741315e-15
	1.859371759233786e-15,-5.112762859286210e-16
	-1.859371767618343e-07,-5.634588923411487e-15
	-1.859371749024625e-07,1.584931986401207e-15
	-2.507381944767876e-26,-7.730797195741316e-15
	-1.859371749024625e-07,1.584931986401207e-15
11		1.288249551693134e+00,0.000000000000000e+00
	-1.859371749024625e-03,1.621849794925971e-11
	1.000000000000000e+00,0.000000000000000e+00
	0.000000000000000e+00,0.000000000000000e+00
	1.859371749024625e-07,-1.621849794925971e-15
	2.625551215233828e-26,7.910870595145794e-15
	1.859371759233786e-15,-5.231854405100895e-16
	-1.859371767618343e-07,-5.765835359709734e-15
	-1.859371749024625e-07,1.621849794925971e-15
	-2.625551215233828e-26,-7.910870595145795e-15
	-1.859371749024625e-07,1.621849794925971e-15
12		1.318256738556407e+00,0.000000000000000e+00
	-1.859371749024625e-03,1.659627529679724e-11
	1.000000000000000e+00,0.000000000000000e+00
	0.000000000000000e+00,0.000000000000000e+00
	1.859371749024625e-07,-1.659627529679724e-15
	2.749289631841072e-26,8.095138442852568e-15
	1.859371759233786e-15,-5.353719949372926e-16
	-1.859371767618343e-07,-5.900138918235552e-15
	-1.859371749024625e-07,1.659627529679724e-15
	-2.749289631841072e-26,-8.095138442852569e-15
	-1.859371749024625e-07,1.659627529679724e-15
13		1.348962882591653e+00,0.000000000000000e+00
	-1.859371749024625e-03,1.698285220917481e-11
	1.000000000000000e+00,0.000000000000000e+00
	0.000000000000000e+00,0.000000000000000e+00
	1.859371749024625e-07,-1.698285220917481e-15
	2.878859660361135e-26,8.283698440113570e-15
	1.859371759233786e-15,-5.478424106826998e-16
	-1.859371767618343e-07,-6.037570808513389e-15
	-1.859371749024625e-07,1.698285220917481e-15
	-2.878859660361135e-26,-8.283698440113573e-15
	-1.859371749024625e-07,1.698285220917481e-15
14		1.380384264602885e+00,0.000000000000000e+00
	-1.859371749024625e-03,1.737843365458830e-11
	1.000000000000000e+00,0.000000000000000e+00
	0.000000000000000e+00,0.000000000000000e+00
	1.859371749024625e-07,-1.737843365458830e-15
	3.014536136196260e-26,8.476650563935230e-15
	1.859371759233786e-15,-5.606032997258009e-16
	-1.859371767618343e-07,-6.178203898750599e-15
	-1.859371749024625e-07,1.737843365458830e-15
	-3.014536136196260e-26,-8.476650563935232e-15
	-1.859371749024625e-07,1.737843365458830e-15
15		1.412537544622754e+00,0.000000000000000e+00
	-1.859371749024625e-03,1.778322937555623e-11
	1.000000000000000e+00,0.000000000000000e+00
	0.000000000000000e+00,0.000000000000000e+00
	1.859371749024625e-07,-1.778322937555623e-15
	3.156606847342159e-26,8.674097120087625e-15
	1.859371759233786e-15,-5.736614280588812e-16
	-1.859371767618343e-07,-6.322112754473121e-15
	-1.859371749024625e-07,1.778322937555623e-15
	-3.156606847342159e-26,-8.674097120087627e-15
	-1.859371749024625e-07,1.778322937555623e-15
16		1.445439770745927e+00,0.000000000000000e+00
	-1.859371749024625e-03,1.819745400012793e-11
	1.000000000000000e+00,0.000000000000000e+00
	0.000000000000000e+00,0.000000000000000e+00
	1.859371749024625e-07,-1.819745400012793e-15
	3.305373144824921e-26,8.876142797348335e-15
	1.859371759233786e-15,-5.870237192744222e-16
	-1.859371767618343e-07,-6.469373678061119e-15
	-1.859371749024625e-07,1.819745400012793e-15
	-3.305373144824921e-26,-8.876142797348337e-15
	-1.859371749024625e-07,1.819745400012793e-15
17		1.479108388168207e+00,0.000000000000000e+00
	-1.859371749024625e-03,1.862132715568229e-11
	1.000000000000000e+00,0.000000000000000e+00
	0.000000000000000e+00,0.000000000000000e+00
	1.859371749024625e-07,-1.862132715568229e-15
	3.461150581906954e-26,9.082894723009839e-15
	1.859371759233786e-15,-6.006972582360989e-16
	-1.859371767618343e-07,-6.620064749205511e-15
	-1.859371749024625e-07,1.862132715568229e-15
	-3.461150581906954e-26,-9.082894723009842e-15
	-1.859371749024625e-07,1.862132715568229e-15
18		1.513561248436208e+00,0.000000000000000e+00
	-1.859371749024625e-03,1.905507358537700e-11
	1.000000000000000e+00,0.000000000000000e+00
	0.000000000000000e+00,0.000000000000000e+00
	1.859371749024625e-07,-1.905507358537700e-15
	3.624269583417756e-26,9.294462519679811e-15
	1.859371759233786e-15,-6.146892948352636e-16
	-1.859371767618343e-07,-6.774265866306848e-15
	-1.859371749024625e-07,1.905507358537700e-15
	-3.624269583417756e-26,-9.294462519679813e-15
	-1.859371749024625e-07,1.905507358537700e-15
19		1.548816618912481e+00,0.000000000000000e+00
	-1.859371749024625e-03,1.949892326731038e-11
	1.000000000000000e+00,0.000000000000000e+00
	0.000000000000000e+00,0.000000000000000e+00
	1.859371749024625e-07,-1.949892326731038e-15
	3.795076146629272e-26,9.510958363404471e-15
	1.859371759233786e-15,-6.290072478349236e-16
	-1.859371767618343e-07,-6.932058788838509e-15
	-1.859371749024625e-07,1.949892326731038e-15
	-3.795076146629272e-26,-9.510958363404474e-15
	-1.859371749024625e-07,1.949892326731038e-15
20		1.584893192461113e+00,0.000000000000000e+00
	-1.859371749024625e-03,1.995311153645886e-11
	1.000000000000000e+00,0.000000000000000e+00
	0.000000000000000e+00,0.000000000000000e+00
	1.859371749024625e-07,-1.995311153645886e-15
	3.973932575162514e-26,9.732497043145826e-15
	1.859371759233786e-15,-6.436587088032812e-16
	-1.859371767618343e-07,-7.093527180696658e-15
	-1.859371749024625e-07,1.995311153645887e-15
	-3.973932575162514e-26,-9.732497043145827e-15
	-1.859371749024625e-07,1.995311153645887e-15
21		1.621810097358929e+00,0.000000000000000e+00
	-1.859371749024625e-03,2.041787920945462e-11
	1.000000000000000e+00,0.000000000000000e+00
	0.000000000000000e+00,0.000000000000000e+00
	1.859371749024625e-07,-2.041787920945462e-15
	4.161218247482093e-26,9.959196021644283e-15
	1.859371759233786e-15,-6.586514461388768e-16
	-1.859371767618343e-07,-7.258756654559944e-15
	-1.859371749024625e-07,2.041787920945462e-15
	-4.161218247482093e-26,-9.959196021644285e-15
	-1.859371749024625e-07,2.041787920945462e-15
22		1.659586907437560e+00,0.000000000000000e+00
	-1.859371749024625e-03,2.089347271226982e-11
	1.000000000000000e+00,0.000000000000000e+00
	0.000000000000000e+00,0.000000000000000e+00
	1.859371749024625e-07,-2.089347271226982e-15
	4.357330421608834e-26,1.019117549769896e-14
	1.859371759233786e-15,-6.739934091894958e-16
	-1.859371767618343e-07,-7.427834817282483e-15
	-1.859371749024625e-07,2.089347271226982e-15
	-4.357330421608834e-26,-1.019117549769896e-14
	-1.859371749024625e-07,2.089347271226982e-15
23		1.698243652461743e+00,0.000000000000000e+00
	-1.859371749024625e-03,2.138014421087487e-11
	1.000000000000000e+00,0.000000000000000e+00
	0.000000000000000e+00,0.000000000000000e+00
	1.859371749024625e-07,-2.138014421087487e-15
	4.562685077757271e-26,1.042855846989867e-14
	1.859371759233786e-15,-6.896927324670275e-16
	-1.859371767618343e-07,-7.600851316344160e-15
	-1.859371749024625e-07,2.138014421087487e-15
	-4.562685077757271e-26,-1.042855846989868e-14
	-1.859371749024625e-07,2.138014421087487e-15
24		1.737800828749374e+00,0.000000000000000e+00
	-1.859371749024625e-03,2.187815174494019e-11
	1.000000000000000e+00,0.000000000000000e+00
	0.000000000000000e+00,0.000000000000000e+00
	1.859371749024625e-07,-2.187815174494019e-15
	4.777717800685477e-26,1.067147080183742e-14
	1.859371759233786e-15,-7.057577399604732e-16
	-1.859371767618343e-07,-7.777897887382923e-15
	-1.859371749024625e-07,2.187815174494019e-15
	-4.777717800685477e-26,-1.067147080183742e-14
	-1.859371749024625e-07,2.187815174494019e-15
25		1.778279410038922e+00,0.000000000000000e+00
	-1.859371749024625e-03,2.238775936465224e-11
	1.000000000000000e+00,0.000000000000000e+00
	0.000000000000000e+00,0.000000000000000e+00
	1.859371749024625e-07,-2.238775936465225e-15
	5.002884703628721e-26,1.092004128884891e-14
	1.859371759233786e-15,-7.221969495494554e-16
	-1.859371767618343e-07,-7.959068402834226e-15
	-1.859371749024625e-07,2.238775936465225e-15
	-5.002884703628721e-26,-1.092004128884891e-14
	-1.859371749024625e-07,2.238775936465225e-15
26		1.819700858609982e+00,0.000000000000000e+00
	-1.859371749024625e-03,2.290923727071647e-11
	1.000000000000000e+00,0.000000000000000e+00
	0.000000000000000e+00,0.000000000000000e+00
	1.859371749024625e-07,-2.290923727071647e-15
	5.238663395776795e-26,1.117440172629558e-14
	1.859371759233786e-15,-7.390190775204939e-16
	-1.859371767618343e-07,-8.144458921703439e-15
	-1.859371749024625e-07,2.290923727071647e-15
	-5.238663395776795e-26,-1.117440172629558e-14
	-1.859371749024625e-07,2.290923727071647e-15
27		1.862087136662866e+00,0.000000000000000e+00
	-1.859371749024625e-03,2.344286195762123e-11
	1.000000000000000e+00,0.000000000000000e+00
	0.000000000000000e+00,0.000000000000000e+00
	1.859371749024625e-07,-2.344286195762123e-15
	5.485553995347152e-26,1.143468697944823e-14
	1.859371759233786e-15,-7.562330431885090e-16
	-1.859371767618343e-07,-8.334167740497596e-15
	-1.859371749024625e-07,2.344286195762123e-15
	-5.485553995347152e-26,-1.143468697944823e-14
	-1.859371749024625e-07,2.344286195762123e-15
28		1.905460717963246e+00,0.000000000000000e+00
	-1.859371749024625e-03,2.398891636023888e-11
	1.000000000000000e+00,0.000000000000000e+00
	0.000000000000000e+00,0.000000000000000e+00
	1.859371749024625e-07,-2.398891636023889e-15
	5.744080190402671e-26,1.170103505499335e-14
	1.859371759233786e-15,-7.738479736259484e-16
	-1.859371767618343e-07,-8.528295445343517e-15
	-1.859371749024625e-07,2.398891636023888e-15
	-5.744080190402671e-26,-1.170103505499336e-14
	-1.859371749024625e-07,2.398891636023888e-15
29		1.949844599758044e+00,0.000000000000000e+00
	-1.859371749024625e-03,2.454769000384159e-11
	1.000000000000000e+00,0.000000000000000e+00
	0.000000000000000e+00,0.000000000000000e+00
	1.859371749024625e-07,-2.454769000384159e-15
	6.014790349664286e-26,1.197358717420615e-14
	1.859371759233786e-15,-7.918732085020965e-16
	-1.859371767618343e-07,-8.726944965319894e-15
	-1.859371749024625e-07,2.454769000384159e-15
	-6.014790349664286e-26,-1.197358717420615e-14
	-1.859371749024625e-07,2.454769000384159e-15
30		1.995262314968878e+00,0.000000000000000e+00
	-1.859371749024625e-03,2.511947915761141e-11
	1.000000000000000e+00,0.000000000000000e+00
	0.000000000000000e+00,0.000000000000000e+00
	1.859371749024625e-07,-2.511947915761141e-15
	6.298258685674524e-26,1.225248784782787e-14
	1.859371759233786e-15,-8.103183050350728e-16
	-1.859371767618343e-07,-8.930221627031656e-15
	-1.859371749024625e-07,2.511947915761141e-15
	-6.298258685674524e-26,-1.225248784782787e-14
	-1.859371749024625e-07,2.511947915761141e-15
31		2.041737944669527e+00,0.000000000000000e+00
	-1.859371749024625e-03,2.570458699172621e-11
	1.000000000000000e+00,0.000000000000000e+00
	0.000000000000000e+00,0.000000000000000e+00
	1.859371749024625e-07,-2.570458699172622e-15
	6.595086472779328e-26,1.253788495268736e-14
	1.859371759233786e-15,-8.291930430592075e-16
	-1.859371767618343e-07,-9.138233210455527e-15
	-1.859371749024625e-07,2.570458699172621e-15
	-6.595086472779328e-26,-1.253788495268736e-14
	-1.859371749024625e-07,2.570458699172621e-15
32		2.089296130854037e+00,0.000000000000000e+00
	-1.859371749024625e-03,2.630332373810447e-11
	1.000000000000000e+00,0.000000000000000e+00
	0.000000000000000e+00,0.000000000000000e+00
	1.859371749024625e-07,-2.630332373810447e-15
	6.905903322511548e-26,1.282992981010729e-14
	1.859371759233786e-15,-8.485074302104406e-16
	-1.859371767618343e-07,-9.351090006086398e-15
	-1.859371749024625e-07,2.630332373810447e-15
	-6.905903322511548e-26,-1.282992981010729e-14
	-1.859371749024625e-07,2.630332373810447e-15
33		2.137962089502230e+00,0.000000000000000e+00
	-1.859371749024625e-03,2.691600685489431e-11
	1.000000000000000e+00,0.000000000000000e+00
	0.000000000000000e+00,0.000000000000000e+00
	1.859371749024625e-07,-2.691600685489431e-15
	7.231368519081401e-26,1.312877726613673e-14
	1.859371759233786e-15,-8.682717072324944e-16
	-1.859371767618343e-07,-9.568904873414806e-15
	-1.859371749024625e-07,2.691600685489431e-15
	-7.231368519081401e-26,-1.312877726613673e-14
	-1.859371749024625e-07,2.691600685489431e-15
34		2.187761623949550e+00,0.000000000000000e+00
	-1.859371749024625e-03,2.754296119479409e-11
	1.000000000000000e+00,0.000000000000000e+00
	0.000000000000000e+00,0.000000000000000e+00
	1.859371749024625e-07,-2.754296119479409e-15
	7.572172417806689e-26,1.343458577365259e-14
	1.859371759233786e-15,-8.884963534066588e-16
	-1.859371767618343e-07,-9.791793300766526e-15
	-1.859371749024625e-07,2.754296119479409e-15
	-7.572172417806689e-26,-1.343458577365260e-14
	-1.859371749024625e-07,2.754296119479409e-15
35		2.238721138568337e+00,0.000000000000000e+00
	-1.859371749024625e-03,2.818451917729353e-11
	1.000000000000000e+00,0.000000000000000e+00
	0.000000000000000e+00,0.000000000000000e+00
	1.859371749024625e-07,-2.818451917729354e-15
	7.929037909448986e-26,1.374751747637341e-14
	1.859371759233786e-15,-9.091920921080400e-16
	-1.859371767618343e-07,-1.001987346653602e-14
	-1.859371749024625e-07,2.818451917729354e-15
	-7.929037909448986e-26,-1.374751747637342e-14
	-1.859371749024625e-07,2.818451917729354e-15
36		2.290867652767770e+00,0.000000000000000e+00
	-1.859371749024625e-03,2.884102096492700e-11
	1.000000000000000e+00,0.000000000000000e+00
	0.000000000000000e+00,0.000000000000000e+00
	1.859371749024625e-07,-2.884102096492700e-15
	8.302721953561858e-26,1.406773829483011e-14
	1.859371759233786e-15,-9.303698964912333e-16
	-1.859371767618343e-07,-1.025326630184618e-14
	-1.859371749024625e-07,2.884102096492700e-15
	-8.302721953561858e-26,-1.406773829483011e-14
	-1.859371749024625e-07,2.884102096492700e-15
37		2.344228815319919e+00,0.000000000000000e+00
	-1.859371749024625e-03,2.951281464363212e-11
	1.000000000000000e+00,0.000000000000000e+00
	0.000000000000000e+00,0.000000000000000e+00
	1.859371749024625e-07,-2.951281464363211e-15
	8.694017184103556e-26,1.439541801433926e-14
	1.859371759233786e-15,-9.520409953084531e-16
	-1.859371767618343e-07,-1.049209555466759e-14
	-1.859371749024625e-07,2.951281464363212e-15
	-8.694017184103556e-26,-1.439541801433926e-14
	-1.859371749024625e-07,2.951281464363212e-15
38		2.398832919019488e+00,0.000000000000000e+00
	-1.859371749024625e-03,3.020025640730956e-11
	1.000000000000000e+00,0.000000000000000e+00
	0.000000000000000e+00,0.000000000000000e+00
