LTspice 24.0.9 for Windows
Circuit: * GA CMOS Amp | W=3.8040962723624e-05 L=1.5806509095589316e-07 Vbias=1.0363239389366927
Start Time: Sat Sep  6 22:06:00 2025
solver = Normal
Maximum thread count: 2
tnom = 27
temp = 27
method = modified trap
AsciiRawFile = 1
Direct Newton iteration for .op point succeeded.
Semiconductor Device Operating Points:
                        --- BSIM4 MOSFETS ---
Name:      m1
Model:      n
Id:      1.79e-04
Vgs:     1.04e+00
Vds:     8.65e-03
Vbs:     0.00e+00
Vth:     3.14e-01
Vdsat:   5.29e-01
Gm:      3.69e-05
Gds:     2.06e-02
Gmb      1.12e-04
Cbd:     1.90e-14
Cbs:     3.04e-14


.measure op idd find i(vdd)
  Error: FIND can not be evaluated over an interval.

gain_db: MAX(db(v(out)/v(g)))=(35.7965dB,153.722°) FROM 1 TO 1e+09
gain_lin: MAX(mag(v(out)/v(g)))=(-27.5413dB,0°) FROM 1 TO 1e+09

Measurement "fc" FAIL'ed

Total elapsed time: 4.787 seconds.

