Title: * GA CMOS Amp | W=3.4308337751563545e-05 L=6.051302079604332e-07 Vbias=1.4185046971727238
Date: Sat Sep  6 22:39:26 2025
Plotname: AC Analysis
Flags: complex forward log
No. Variables: 13
No. Points:          901
Offset:    0.0000000000000000e+00
Command: Linear Technology Corporation LTspice
Variables:
	0	frequency	frequency
	1	V(out)	voltage
	2	V(g)	voltage
	3	V(vdd)	voltage
	4	V(m1#dbody)	voltage
	5	V(m1#sbody)	voltage
	6	Id(M1)	device_current
	7	Ig(M1)	device_current
	8	Ib(M1)	device_current
	9	Is(M1)	device_current
	10	I(Rload)	device_current
	11	I(Vg)	device_current
	12	I(Vdd)	device_current
Values:
0		1.000000000000000e+00,0.000000000000000e+00
	9.532125277129063e-03,5.110815216398794e-10
	1.000000000000000e+00,0.000000000000000e+00
	0.000000000000000e+00,0.000000000000000e+00
	3.981295946026845e-04,7.210621819794571e-14
	3.981295945236933e-04,6.428905660299765e-14
	-9.532125277129195e-07,-5.110815216398881e-14
	2.600775149916993e-04,5.490925818600868e-12
	-2.123357839118567e-04,-3.501461960695823e-14
	-4.678851855212975e-05,-5.404803046829920e-12
	9.532125277129064e-07,5.110815216398794e-14
	-2.600775149916856e-04,-5.490925818600867e-12
	9.532125277129064e-07,5.110815216398794e-14
1		1.023292992280754e+00,0.000000000000000e+00
	9.532125277129063e-03,5.229861395782732e-10
	1.000000000000000e+00,0.000000000000000e+00
	0.000000000000000e+00,0.000000000000000e+00
	3.981295946026845e-04,7.378578778182484e-14
	3.981295945236933e-04,6.578654110218823e-14
	-9.532125277129195e-07,-5.229861395782797e-14
	2.600775149916993e-04,5.618825911307732e-12
	-2.123357839118567e-04,-3.583021487117666e-14
	-4.678851855212975e-05,-5.530697082478727e-12
	9.532125277129064e-07,5.229861395782732e-14
	-2.600775149916856e-04,-5.618825911307731e-12
	9.532125277129064e-07,5.229861395782732e-14
2		1.047128548050899e+00,0.000000000000000e+00
	9.532125277129063e-03,5.351680516904112e-10
	1.000000000000000e+00,0.000000000000000e+00
	0.000000000000000e+00,0.000000000000000e+00
	3.981295946026845e-04,7.550447956705623e-14
	3.981295945236933e-04,6.731890649625902e-14
	-9.532125277129195e-07,-5.351680516904128e-14
	2.600775149916993e-04,5.749705179886722e-12
	-2.123357839118567e-04,-3.666480778958872e-14
	-4.678851855212975e-05,-5.659523566928092e-12
	9.532125277129064e-07,5.351680516904113e-14
	-2.600775149916856e-04,-5.749705179886723e-12
	9.532125277129064e-07,5.351680516904113e-14
3		1.071519305237606e+00,0.000000000000000e+00
	9.532125277129063e-03,5.476337169873421e-10
	1.000000000000000e+00,0.000000000000000e+00
	0.000000000000000e+00,0.000000000000000e+00
	3.981295946026845e-04,7.726320482677403e-14
	3.981295945236933e-04,6.888696526562520e-14
	-9.532125277129195e-07,-5.476337169873469e-14
	2.600775149916993e-04,5.883633018258435e-12
	-2.123357839118567e-04,-3.751884087440695e-14
	-4.678851855212975e-05,-5.791350805685294e-12
	9.532125277129064e-07,5.476337169873421e-14
	-2.600775149916856e-04,-5.883633018258435e-12
	9.532125277129064e-07,5.476337169873421e-14
4		1.096478196143185e+00,0.000000000000000e+00
	9.532125277129063e-03,5.603897449298089e-10
	1.000000000000000e+00,0.000000000000000e+00
	0.000000000000000e+00,0.000000000000000e+00
	3.981295946026845e-04,7.906289606039040e-14
	3.981295945236933e-04,7.049154881580197e-14
	-9.532125277129195e-07,-5.603897449298155e-14
	2.600775149916993e-04,6.020680436735519e-12
	-2.123357839118567e-04,-3.839276694527735e-14
	-4.678851855212975e-05,-5.926248695297260e-12
	9.532125277129064e-07,5.603897449298090e-14
	-2.600775149916856e-04,-6.020680436735517e-12
	9.532125277129064e-07,5.603897449298090e-14
5		1.122018454301963e+00,0.000000000000000e+00
	9.532125277129063e-03,5.734428989326728e-10
	1.000000000000000e+00,0.000000000000000e+00
	0.000000000000000e+00,0.000000000000000e+00
	3.981295946026845e-04,8.090450748801913e-14
	3.981295945236933e-04,7.213350791822685e-14
	-9.532125277129195e-07,-5.734428989326766e-14
	2.600775149916993e-04,6.160920099673286e-12
	-2.123357839118567e-04,-3.928704936937049e-14
	-4.678851855212975e-05,-6.064288760410648e-12
	9.532125277129064e-07,5.734428989326728e-14
	-2.600775149916856e-04,-6.160920099673286e-12
	9.532125277129064e-07,5.734428989326728e-14
6		1.148153621496882e+00,0.000000000000000e+00
	9.532125277129063e-03,5.868000999509648e-10
	1.000000000000000e+00,0.000000000000000e+00
	0.000000000000000e+00,0.000000000000000e+00
	3.981295946026845e-04,8.278901555641578e-14
	3.981295945236933e-04,7.381371316134982e-14
	-9.532125277129195e-07,-5.868000999509709e-14
	2.600775149916993e-04,6.304426363997320e-12
	-2.123357839118567e-04,-4.020216230706484e-14
	-4.678851855212975e-05,-6.205544191695159e-12
	9.532125277129064e-07,5.868000999509649e-14
	-2.600775149916856e-04,-6.304426363997320e-12
	9.532125277129064e-07,5.868000999509649e-14
7		1.174897554939529e+00,0.000000000000000e+00
	9.532125277129063e-03,6.004684301494683e-10
	1.000000000000000e+00,0.000000000000000e+00
	0.000000000000000e+00,0.000000000000000e+00
	3.981295946026845e-04,8.471741945670259e-14
	3.981295945236933e-04,7.553305541223093e-14
	-9.532125277129195e-07,-6.004684301494817e-14
	2.600775149916993e-04,6.451275318628492e-12
	-2.123357839118567e-04,-4.113859096335292e-14
	-4.678851855212975e-05,-6.350089884650192e-12
	9.532125277129064e-07,6.004684301494683e-14
	-2.600775149916856e-04,-6.451275318628492e-12
	9.532125277129064e-07,6.004684301494683e-14
8		1.202264434617413e+00,0.000000000000000e+00
	9.532125277129063e-03,6.144551366577766e-10
	1.000000000000000e+00,0.000000000000000e+00
	0.000000000000000e+00,0.000000000000000e+00
	3.981295946026845e-04,8.669074165415300e-14
	3.981295945236933e-04,7.729244628888983e-14
	-9.532125277129195e-07,-6.144551366577753e-14
	2.600775149916993e-04,6.601544824826325e-12
	-2.123357839118567e-04,-4.209683184510341e-14
	-4.678851855212975e-05,-6.498002479315445e-12
	9.532125277129064e-07,6.144551366577766e-14
	-2.600775149916856e-04,-6.601544824826326e-12
	9.532125277129064e-07,6.144551366577766e-14
9		1.230268770812381e+00,0.000000000000000e+00
	9.532125277129063e-03,6.287676354128157e-10
	1.000000000000000e+00,0.000000000000000e+00
	0.000000000000000e+00,0.000000000000000e+00
	3.981295946026845e-04,8.871002843031603e-14
	3.981295945236933e-04,7.909281864365753e-14
	-9.532125277129195e-07,-6.287676354128264e-14
	2.600775149916993e-04,6.755314557472057e-12
	-2.123357839118567e-04,-4.307739302431561e-14
	-4.678851855212975e-05,-6.649360400906459e-12
	9.532125277129064e-07,6.287676354128157e-14
	-2.600775149916856e-04,-6.755314557472056e-12
	9.532125277129064e-07,6.287676354128157e-14
10		1.258925411794167e+00,0.000000000000000e+00
	9.532125277129063e-03,6.434135150908744e-10
	1.000000000000000e+00,0.000000000000000e+00
	0.000000000000000e+00,0.000000000000000e+00
	3.981295946026845e-04,9.077635043776885e-14
	3.981295945236933e-04,8.093512705778732e-14
	-9.532125277129195e-07,-6.434135150908852e-14
	2.600775149916993e-04,6.912666047313319e-12
	-2.123357839118567e-04,-4.408079440750601e-14
	-4.678851855212975e-05,-6.804243901396724e-12
	9.532125277129064e-07,6.434135150908744e-14
	-2.600775149916856e-04,-6.912666047313321e-12
	9.532125277129064e-07,6.434135150908744e-14
11		1.288249551693134e+00,0.000000000000000e+00
	9.532125277129063e-03,6.584005411312193e-10
	1.000000000000000e+00,0.000000000000000e+00
	0.000000000000000e+00,0.000000000000000e+00
	3.981295946026845e-04,9.289080326779087e-14
	3.981295945236933e-04,8.282034834758625e-14
	-9.532125277129195e-07,-6.584005411312215e-14
	2.600775149916993e-04,7.073682724192821e-12
	-2.123357839118567e-04,-4.510756801136957e-14
	-4.678851855212975e-05,-6.962735102068329e-12
	9.532125277129064e-07,6.584005411312192e-14
	-2.600775149916856e-04,-7.073682724192821e-12
	9.532125277129064e-07,6.584005411312192e-14
12		1.318256738556407e+00,0.000000000000000e+00
	9.532125277129063e-03,6.737366598534330e-10
	1.000000000000000e+00,0.000000000000000e+00
	0.000000000000000e+00,0.000000000000000e+00
	3.981295946026845e-04,9.505450803126054e-14
	3.981295945236933e-04,8.474948208233592e-14
	-9.532125277129195e-07,-6.737366598534373e-14
	2.600775149916993e-04,7.238449961283947e-12
	-2.123357839118567e-04,-4.615825824486198e-14
	-4.678851855212975e-05,-7.124918037053742e-12
	9.532125277129064e-07,6.737366598534331e-14
	-2.600775149916856e-04,-7.238449961283948e-12
	9.532125277129064e-07,6.737366598534331e-14
13		1.348962882591653e+00,0.000000000000000e+00
	9.532125277129063e-03,6.894300026706602e-10
	1.000000000000000e+00,0.000000000000000e+00
	0.000000000000000e+00,0.000000000000000e+00
	3.981295946026845e-04,9.726861195308359e-14
	3.981295945236933e-04,8.672355111427768e-14
	-9.532125277129195e-07,-6.894300026706627e-14
	2.600775149916993e-04,7.407055120356760e-12
	-2.123357839118567e-04,-4.723342219785259e-14
	-4.678851855212975e-05,-7.290878697891841e-12
	9.532125277129064e-07,6.894300026706603e-14
	-2.600775149916856e-04,-7.407055120356761e-12
	9.532125277129064e-07,6.894300026706603e-14
14		1.380384264602885e+00,0.000000000000000e+00
	9.532125277129063e-03,7.054888904009881e-10
	1.000000000000000e+00,0.000000000000000e+00
	0.000000000000000e+00,0.000000000000000e+00
	3.981295946026845e-04,9.953428898046643e-14
	3.981295945236933e-04,8.874360212094214e-14
	-9.532125277129263e-07,-7.054888904009893e-14
	2.600775149916994e-04,7.579587598098350e-12
	-2.123357839118567e-04,-4.833362993650078e-14
	-4.678851855212975e-05,-7.460705079121751e-12
	9.532125277129064e-07,7.054888904009881e-14
	-2.600775149916856e-04,-7.579587598098351e-12
	9.532125277129064e-07,7.054888904009881e-14
15		1.412537544622754e+00,0.000000000000000e+00
	9.532125277129063e-03,7.219218376792561e-10
	1.000000000000000e+00,0.000000000000000e+00
	0.000000000000000e+00,0.000000000000000e+00
	3.981295946026845e-04,1.018527404053588e-13
	3.981295945236933e-04,9.081070616011158e-14
	-9.532125277129263e-07,-7.219218376792705e-14
	2.600775149916994e-04,7.756138873512158e-12
	-2.123357839118567e-04,-4.945946480551253e-14
	-4.678851855212975e-05,-7.634487224938718e-12
	9.532125277129064e-07,7.219218376792562e-14
	-2.600775149916856e-04,-7.756138873512155e-12
	9.532125277129064e-07,7.219218376792562e-14
16		1.445439770745927e+00,0.000000000000000e+00
	9.532125277129063e-03,7.387375574716266e-10
	1.000000000000000e+00,0.000000000000000e+00
	0.000000000000000e+00,0.000000000000000e+00
	3.981295946026845e-04,1.042251955013944e-13
	3.981295945236933e-04,9.292595923770885e-14
	-9.532125277129263e-07,-7.387375574716417e-14
	2.600775149916994e-04,7.936802556421330e-12
	-2.123357839118567e-04,-5.061152373743754e-14
	-4.678851855212975e-05,-7.812317276936728e-12
	9.532125277129064e-07,7.387375574716266e-14
	-2.600775149916856e-04,-7.936802556421327e-12
	9.532125277129064e-07,7.387375574716266e-14
17		1.479108388168207e+00,0.000000000000000e+00
	9.532125277129063e-03,7.559449656953163e-10
	1.000000000000000e+00,0.000000000000000e+00
	0.000000000000000e+00,0.000000000000000e+00
	3.981295946026845e-04,1.066529121756685e-13
	3.981295945236933e-04,9.509048288891447e-14
	-9.532125277129263e-07,-7.559449656953282e-14
	2.600775149916994e-04,8.121674437101920e-12
	-2.123357839118567e-04,-5.179041756917088e-14
	-4.678851855212975e-05,-7.994289522963216e-12
	9.532125277129064e-07,7.559449656953163e-14
	-2.600775149916856e-04,-8.121674437101922e-12
	9.532125277129064e-07,7.559449656953163e-14
18		1.513561248436208e+00,0.000000000000000e+00
	9.532125277129063e-03,7.735531859459323e-10
	1.000000000000000e+00,0.000000000000000e+00
	0.000000000000000e+00,0.000000000000000e+00
	3.981295946026845e-04,1.091371776356963e-13
	3.981295945236933e-04,9.730542477281914e-14
	-9.532125277129263e-07,-7.735531859459497e-14
	2.600775149916994e-04,8.310852537072134e-12
	-2.123357839118567e-04,-5.299677136582661e-14
	-4.678851855212975e-05,-8.180500447111712e-12
	9.532125277129064e-07,7.735531859459324e-14
	-2.600775149916856e-04,-8.310852537072132e-12
	9.532125277129064e-07,7.735531859459324e-14
19		1.548816618912481e+00,0.000000000000000e+00
	9.532125277129063e-03,7.915715543349237e-10
	1.000000000000000e+00,0.000000000000000e+00
	0.000000000000000e+00,0.000000000000000e+00
	3.981295946026845e-04,1.116793090719079e-13
	3.981295945236933e-04,9.957195928092791e-14
	-9.532125277129263e-07,-7.915715543349197e-14
	2.600775149916994e-04,8.504437161064640e-12
	-2.123357839118567e-04,-5.423122475215570e-14
	-4.678851855212975e-05,-8.371048780878992e-12
	9.532125277129064e-07,7.915715543349237e-14
	-2.600775149916856e-04,-8.504437161064640e-12
	9.532125277129064e-07,7.915715543349237e-14
20		1.584893192461113e+00,0.000000000000000e+00
	9.532125277129063e-03,8.100096244397117e-10
	1.000000000000000e+00,0.000000000000000e+00
	0.000000000000000e+00,0.000000000000000e+00
	3.981295946026845e-04,1.142806543560398e-13
	3.981295945236933e-04,1.018912881598381e-13
	-9.532125277129263e-07,-8.100096244397175e-14
	2.600775149916994e-04,8.702530950209477e-12
	-2.123357839118567e-04,-5.549443225168351e-14
	-4.678851855212975e-05,-8.566035555513823e-12
	9.532125277129064e-07,8.100096244397117e-14
	-2.600775149916856e-04,-8.702530950209477e-12
	9.532125277129064e-07,8.100096244397117e-14
21		1.621810097358929e+00,0.000000000000000e+00
	9.532125277129065e-03,8.288771723691224e-10
	1.000000000000000e+00,0.000000000000000e+00
	0.000000000000000e+00,0.000000000000000e+00
	3.981295946026845e-04,1.169425927557945e-13
	3.981295945236933e-04,1.042646411484213e-13
	-9.532125277129195e-07,-8.288771723691335e-14
	2.600775149916994e-04,8.905238936455731e-12
	-2.123357839118567e-04,-5.678706363374681e-14
	-4.678851855212976e-05,-8.765564155585071e-12
	9.532125277129066e-07,8.288771723691224e-14
	-2.600775149916856e-04,-8.905238936455730e-12
	9.532125277129066e-07,8.288771723691224e-14
22		1.659586907437560e+00,0.000000000000000e+00
	9.532125277129065e-03,8.481842019468100e-10
	1.000000000000000e+00,0.000000000000000e+00
	0.000000000000000e+00,0.000000000000000e+00
	3.981295946026845e-04,1.196665356661467e-13
	3.981295945236933e-04,1.066932766298471e-13
	-9.532125277129195e-07,-8.481842019468077e-14
	2.600775149916994e-04,9.112668598260865e-12
	-2.123357839118567e-04,-5.810980426861437e-14
	-4.678851855212976e-05,-8.969740373797571e-12
	9.532125277129066e-07,8.481842019468099e-14
	-2.600775149916856e-04,-9.112668598260865e-12
	9.532125277129066e-07,8.481842019468099e-14
23		1.698243652461743e+00,0.000000000000000e+00
	9.532125277129065e-03,8.679409500154142e-10
	1.000000000000000e+00,0.000000000000000e+00
	0.000000000000000e+00,0.000000000000000e+00
	3.981295946026845e-04,1.224539273576828e-13
	3.981295945236933e-04,1.091784822987945e-13
	-9.532125277129195e-07,-8.679409500154286e-14
	2.600775149916994e-04,9.324929917577225e-12
	-2.123357839118567e-04,-5.946335549087934e-14
	-4.678851855212976e-05,-9.178672467084804e-12
	9.532125277129066e-07,8.679409500154142e-14
	-2.600775149916856e-04,-9.324929917577227e-12
	9.532125277129066e-07,8.679409500154142e-14
24		1.737800828749374e+00,0.000000000000000e+00
	9.532125277129065e-03,8.881578918642736e-10
	1.000000000000000e+00,0.000000000000000e+00
	0.000000000000000e+00,0.000000000000000e+00
	3.981295946026845e-04,1.253062457423733e-13
	3.981295945236933e-04,1.117215758442048e-13
	-9.532125277129195e-07,-8.881578918642822e-14
	2.600775149916994e-04,9.542135438165921e-12
	-2.123357839118567e-04,-6.084843497131612e-14
	-4.678851855212976e-05,-9.392471214008179e-12
	9.532125277129066e-07,8.881578918642736e-14
	-2.600775149916856e-04,-9.542135438165923e-12
	9.532125277129066e-07,8.881578918642736e-14
25		1.778279410038922e+00,0.000000000000000e+00
	9.532125277129065e-03,9.088457467835592e-10
	1.000000000000000e+00,0.000000000000000e+00
	0.000000000000000e+00,0.000000000000000e+00
	3.981295946026845e-04,1.282250031571807e-13
	3.981295945236933e-04,1.143239056479375e-13
	-9.532125277129195e-07,-9.088457467835592e-14
	2.600775149916994e-04,9.764400325269034e-12
	-2.123357839118567e-04,-6.226577709739894e-14
	-4.678851855212976e-05,-9.611249973493279e-12
	9.532125277129066e-07,9.088457467835592e-14
	-2.600775149916856e-04,-9.764400325269032e-12
	9.532125277129066e-07,9.088457467835592e-14
26		1.819700858609982e+00,0.000000000000000e+00
	9.532125277129065e-03,9.300154837477843e-10
	1.000000000000000e+00,0.000000000000000e+00
	0.000000000000000e+00,0.000000000000000e+00
	3.981295946026845e-04,1.312117471659205e-13
	3.981295945236933e-04,1.169868514997006e-13
	-9.532125277129195e-07,-9.300154837478134e-14
	2.600775149916994e-04,9.991842426671718e-12
	-2.123357839118567e-04,-6.371613336268383e-14
	-4.678851855212976e-05,-9.835124744934252e-12
	9.532125277129066e-07,9.300154837477843e-14
	-2.600775149916856e-04,-9.991842426671718e-12
	9.532125277129066e-07,9.300154837477843e-14
27		1.862087136662866e+00,0.000000000000000e+00
	9.532125277129065e-03,9.516783272317036e-10
	1.000000000000000e+00,0.000000000000000e+00
	0.000000000000000e+00,0.000000000000000e+00
	3.981295946026845e-04,1.342680613798006e-13
	3.981295945236933e-04,1.197118253286328e-13
	-9.532125277129195e-07,-9.516783272317116e-14
	2.600775149916994e-04,1.022458233518669e-11
	-2.123357839118567e-04,-6.520027276526031e-14
	-4.678851855212976e-05,-1.006421422969826e-11
	9.532125277129066e-07,9.516783272317036e-14
	-2.600775149916856e-04,-1.022458233518669e-11
	9.532125277129066e-07,9.516783272317036e-14
28		1.905460717963246e+00,0.000000000000000e+00
	9.532125277129065e-03,9.738457631616725e-10
	1.000000000000000e+00,0.000000000000000e+00
	0.000000000000000e+00,0.000000000000000e+00
	3.981295946026845e-04,1.373955662970721e-13
	3.981295945236933e-04,1.225002719519277e-13
	-9.532125277129195e-07,-9.738457631616870e-14
	2.600775149916994e-04,1.046274345259413e-11
	-2.123357839118567e-04,-6.671898221548457e-14
	-4.678851855212976e-05,-1.029863989406248e-11
	9.532125277129066e-07,9.738457631616725e-14
	-2.600775149916856e-04,-1.046274345259413e-11
	9.532125277129066e-07,9.738457631616725e-14
29		1.949844599758044e+00,0.000000000000000e+00
	9.532125277129065e-03,9.965295450056426e-10
	1.000000000000000e+00,0.000000000000000e+00
	0.000000000000000e+00,0.000000000000000e+00
	3.981295946026845e-04,1.405959201622397e-13
	3.981295945236933e-04,1.253536698408942e-13
	-9.532125277129195e-07,-9.965295450056609e-14
	2.600775149916994e-04,1.070645205507092e-11
	-2.123357839118567e-04,-6.827306695320965e-14
	-4.678851855212976e-05,-1.053852603361714e-11
	9.532125277129066e-07,9.965295450056426e-14
	-2.600775149916856e-04,-1.070645205507092e-11
	9.532125277129066e-07,9.965295450056426e-14
30		1.995262314968878e+00,0.000000000000000e+00
	9.532125277129065e-03,1.019741700005002e-09
	1.000000000000000e+00,0.000000000000000e+00
	0.000000000000000e+00,0.000000000000000e+00
	3.981295946026845e-04,1.438708198452842e-13
	3.981295945236933e-04,1.282735319048624e-13
	-9.532125277129195e-07,-1.019741700005024e-13
	2.600775149916994e-04,1.095583736014395e-11
	-2.123357839118567e-04,-6.986335097473416e-14
	-4.678851855212976e-05,-1.078399983916871e-11
	9.532125277129066e-07,1.019741700005002e-13
	-2.600775149916856e-04,-1.095583736014395e-11
	9.532125277129066e-07,1.019741700005002e-13
31		2.041737944669527e+00,0.000000000000000e+00
	9.532125277129065e-03,1.043494535551582e-09
	1.000000000000000e+00,0.000000000000000e+00
	0.000000000000000e+00,0.000000000000000e+00
	3.981295946026845e-04,1.472220017413661e-13
	3.981295945236933e-04,1.312614062933474e-13
	-9.532125277129195e-07,-1.043494535551602e-13
	2.600775149916994e-04,1.121103159520298e-11
	-2.123357839118567e-04,-7.149067746969624e-14
	-4.678851855212976e-05,-1.103519146417812e-11
	9.532125277129066e-07,1.043494535551582e-13
	-2.600775149916856e-04,-1.121103159520298e-11
	9.532125277129066e-07,1.043494535551582e-13
32		2.089296130854037e+00,0.000000000000000e+00
	9.532125277129065e-03,1.067800645713194e-09
	1.000000000000000e+00,0.000000000000000e+00
	0.000000000000000e+00,0.000000000000000e+00
	3.981295946026845e-04,1.506512426914850e-13
	3.981295945236933e-04,1.343188772168992e-13
