LTspice 24.0.9 for Windows
Circuit: * GA CMOS Amp | W=2.2157640849365302e-05 L=5.461503325312483e-07 Vbias=0.8018665321779106
Start Time: Mon Sep  8 18:44:51 2025
solver = Normal
Maximum thread count: 2
tnom = 27
temp = 27
method = modified trap
AsciiRawFile = 1
Instance "m1": Length shorter than recommended for a level 3 MOSFET.
Direct Newton iteration for .op point succeeded.
Semiconductor Device Operating Points:
                        --- MOSFET Transistors ---
Name:          m1
Model:        n_1u
Id:          4.82e-05
Vgs:         8.02e-01
Vds:         1.32e+00
Vbs:         0.00e+00
Vth:         7.37e-01
Vdsat:       9.67e-02
Gm:          7.39e-04
Gds:         1.80e-05
Gmb:         1.16e-04
Cbd:         0.00e+00
Cbs:         0.00e+00
Cgsov:       4.43e-15
Cgdov:       4.43e-15
Cgbov:       3.46e-17
Cgs:         8.83e-15
Cgd:         0.00e+00
Cgb:         0.00e+00



gain_db: MAX(db(v(out)/v(g)))=(29.9932dB,59.7217°) FROM 1 TO 1e+09
gain_lin: MAX(mag(v(out)/v(g)))=(15.9317dB,0°) FROM 1 TO 1e+09

Measurement "fc" FAIL'ed

Total elapsed time: 0.455 seconds.

