Title: * GA CMOS Amp | W=3.8040962723624e-05 L=1.5806509095589316e-07 Vbias=1.0363239389366927
Date: Sat Sep  6 22:06:04 2025
Plotname: AC Analysis
Flags: complex forward log
No. Variables: 13
No. Points:          901
Offset:    0.0000000000000000e+00
Command: Linear Technology Corporation LTspice
Variables:
	0	frequency	frequency
	1	V(out)	voltage
	2	V(g)	voltage
	3	V(vdd)	voltage
	4	V(m1#dbody)	voltage
	5	V(m1#sbody)	voltage
	6	Id(M1)	device_current
	7	Ig(M1)	device_current
	8	Ib(M1)	device_current
	9	Is(M1)	device_current
	10	I(Rload)	device_current
	11	I(Vg)	device_current
	12	I(Vdd)	device_current
Values:
0		1.000000000000000e+00,0.000000000000000e+00
	-1.724907211296096e-03,4.234556994257490e-11
	1.000000000000000e+00,0.000000000000000e+00
	0.000000000000000e+00,0.000000000000000e+00
	1.191500101291454e-06,7.322174828872464e-15
	1.191500117809642e-06,8.863211102795138e-15
	1.724907211296021e-07,-4.234556994257450e-15
	3.107316418861812e-06,1.751331060135948e-12
	-6.354667288780162e-07,-4.624993670469605e-15
	-2.644340411113398e-06,-1.742471509471221e-12
	-1.724907211296096e-07,4.234556994257490e-15
	-3.107316418862055e-06,-1.751331060135948e-12
	-1.724907211296096e-07,4.234556994257490e-15
1		1.023292992280754e+00,0.000000000000000e+00
	-1.724907211296096e-03,4.333192497637142e-11
	1.000000000000000e+00,0.000000000000000e+00
	0.000000000000000e+00,0.000000000000000e+00
	1.191500101291454e-06,7.492730190639723e-15
	1.191500117809642e-06,9.069661810595239e-15
	1.724907211296021e-07,-4.333192497637111e-15
	3.107316418861812e-06,1.792124801000739e-12
	-6.354667288780162e-07,-4.732723612334390e-15
	-2.644340411113398e-06,-1.783058884890768e-12
	-1.724907211296096e-07,4.333192497637142e-15
	-3.107316418862055e-06,-1.792124801000739e-12
	-1.724907211296096e-07,4.333192497637142e-15
2		1.047128548050899e+00,0.000000000000000e+00
	-1.724907211296096e-03,4.434125517035626e-11
	1.000000000000000e+00,0.000000000000000e+00
	0.000000000000000e+00,0.000000000000000e+00
	1.191500101291454e-06,7.667258297132065e-15
	1.191500117809642e-06,9.280921373138481e-15
	1.724907211296021e-07,-4.434125517035513e-15
	3.107316418861812e-06,1.833868750156597e-12
	-6.354667288780162e-07,-4.842962906903437e-15
	-2.644340411113398e-06,-1.824591661732658e-12
	-1.724907211296096e-07,4.434125517035626e-15
	-3.107316418862055e-06,-1.833868750156598e-12
	-1.724907211296096e-07,4.434125517035626e-15
3		1.071519305237606e+00,0.000000000000000e+00
	-1.724907211296096e-03,4.537409568475830e-11
	1.000000000000000e+00,0.000000000000000e+00
	0.000000000000000e+00,0.000000000000000e+00
	1.191500101291454e-06,7.845851685461710e-15
	1.191500117809642e-06,9.497101803041281e-15
	1.724907211296021e-07,-4.537409568475766e-15
	3.107316418861812e-06,1.876585040797911e-12
	-6.354667288780162e-07,-4.955770004509916e-15
	-2.644340411113398e-06,-1.867091861224925e-12
	-1.724907211296096e-07,4.537409568475831e-15
	-3.107316418862055e-06,-1.876585040797911e-12
	-1.724907211296096e-07,4.537409568475831e-15
4		1.096478196143185e+00,0.000000000000000e+00
	-1.724907211296096e-03,4.643099414528956e-11
	1.000000000000000e+00,0.000000000000000e+00
	0.000000000000000e+00,0.000000000000000e+00
	1.191500101291454e-06,8.028605048207110e-15
	1.191500117809642e-06,9.718317722029058e-15
	1.724907211296021e-07,-4.643099414528833e-15
	3.107316418861812e-06,1.920296321667395e-12
	-6.354667288780162e-07,-5.071204716970159e-15
	-2.644340411113398e-06,-1.910582017535896e-12
	-1.724907211296096e-07,4.643099414528956e-15
	-3.107316418862055e-06,-1.920296321667395e-12
	-1.724907211296096e-07,4.643099414528956e-15
5		1.122018454301963e+00,0.000000000000000e+00
	-1.724907211296096e-03,4.751251093350355e-11
	1.000000000000000e+00,0.000000000000000e+00
	0.000000000000000e+00,0.000000000000000e+00
	1.191500101291454e-06,8.215615283620227e-15
	1.191500117809642e-06,9.944686421710202e-15
	1.724907211296021e-07,-4.751251093350077e-15
	3.107316418861812e-06,1.965025769064754e-12
	-6.354667288780162e-07,-5.189328249296671e-15
	-2.644340411113398e-06,-1.955085189722108e-12
	-1.724907211296096e-07,4.751251093350355e-15
	-3.107316418862055e-06,-1.965025769064755e-12
	-1.724907211296096e-07,4.751251093350355e-15
6		1.148153621496882e+00,0.000000000000000e+00
	-1.724907211296096e-03,4.861921948391691e-11
	1.000000000000000e+00,0.000000000000000e+00
	0.000000000000000e+00,0.000000000000000e+00
	1.191500101291454e-06,8.406981547003235e-15
	1.191500117809642e-06,1.017632792576561e-14
	1.724907211296021e-07,-4.861921948391317e-15
	3.107316418861812e-06,2.010797099135063e-12
	-6.354667288780162e-07,-5.310203232149836e-15
	-2.644340411113398e-06,-2.000624973954522e-12
	-1.724907211296096e-07,4.861921948391691e-15
	-3.107316418862055e-06,-2.010797099135063e-12
	-1.724907211296096e-07,4.861921948391691e-15
7		1.174897554939529e+00,0.000000000000000e+00
	-1.724907211296096e-03,4.975170658805207e-11
	1.000000000000000e+00,0.000000000000000e+00
	0.000000000000000e+00,0.000000000000000e+00
	1.191500101291454e-06,8.602805303282023e-15
	1.191500117809642e-06,1.041336505358689e-14
	1.724907211296021e-07,-4.975170658804973e-15
	3.107316418861812e-06,2.057634580443379e-12
	-6.354667288780162e-07,-5.433893755045537e-15
	-2.644340411113398e-06,-2.047225516029528e-12
	-1.724907211296096e-07,4.975170658805208e-15
	-3.107316418862055e-06,-2.057634580443378e-12
	-1.724907211296096e-07,4.975170658805208e-15
8		1.202264434617413e+00,0.000000000000000e+00
	-1.724907211296096e-03,5.091057270556190e-11
	1.000000000000000e+00,0.000000000000000e+00
	0.000000000000000e+00,0.000000000000000e+00
	1.191500101291454e-06,8.803190380804205e-15
	1.191500117809642e-06,1.065592348539677e-14
	1.724907211296021e-07,-5.091057270556028e-15
	3.107316418861812e-06,2.105563046842259e-12
	-6.354667288780162e-07,-5.560465400336252e-15
	-2.644340411113398e-06,-2.094911524171367e-12
	-1.724907211296096e-07,5.091057270556190e-15
	-3.107316418862055e-06,-2.105563046842259e-12
	-1.724907211296096e-07,5.091057270556190e-15
9		1.230268770812381e+00,0.000000000000000e+00
	-1.724907211296096e-03,5.209643228260132e-11
	1.000000000000000e+00,0.000000000000000e+00
	0.000000000000000e+00,0.000000000000000e+00
	1.191500101291454e-06,9.008243026390285e-15
	1.191500117809642e-06,1.090413182888642e-14
	1.724907211296021e-07,-5.209643228260202e-15
	3.107316418861812e-06,2.154607910638997e-12
	-6.354667288780162e-07,-5.689985277983684e-15
	-2.644340411113398e-06,-2.143708282132753e-12
	-1.724907211296096e-07,5.209643228260132e-15
	-3.107316418862055e-06,-2.154607910638997e-12
	-1.724907211296096e-07,5.209643228260132e-15
10		1.258925411794167e+00,0.000000000000000e+00
	-1.724907211296096e-03,5.330991407761480e-11
	1.000000000000000e+00,0.000000000000000e+00
	0.000000000000000e+00,0.000000000000000e+00
	1.191500101291454e-06,9.218071961667146e-15
	1.191500117809642e-06,1.115812168740500e-14
	1.724907211296021e-07,-5.330991407761059e-15
	3.107316418861812e-06,2.204795176069563e-12
	-6.354667288780162e-07,-5.822522061141360e-15
	-2.644340411113398e-06,-2.193641662600660e-12
	-1.724907211296096e-07,5.330991407761480e-15
	-3.107316418862055e-06,-2.204795176069563e-12
	-1.724907211296096e-07,5.330991407761480e-15
11		1.288249551693134e+00,0.000000000000000e+00
	-1.724907211296096e-03,5.455166149471235e-11
	1.000000000000000e+00,0.000000000000000e+00
	0.000000000000000e+00,0.000000000000000e+00
	1.191500101291454e-06,9.432788440713700e-15
	1.191500117809642e-06,1.141802772973744e-14
	1.724907211296021e-07,-5.455166149471076e-15
	3.107316418861812e-06,2.256151453086395e-12
	-6.354667288780162e-07,-5.958146022566049e-15
	-2.644340411113398e-06,-2.244738140914358e-12
	-1.724907211296096e-07,5.455166149471236e-15
	-3.107316418862055e-06,-2.256151453086395e-12
	-1.724907211296096e-07,5.455166149471236e-15
12		1.318256738556407e+00,0.000000000000000e+00
	-1.724907211296096e-03,5.582233292481099e-11
	1.000000000000000e+00,0.000000000000000e+00
	0.000000000000000e+00,0.000000000000000e+00
	1.191500101291454e-06,9.652506309049230e-15
	1.191500117809642e-06,1.168398776150765e-14
	1.724907211296021e-07,-5.582233292480930e-15
	3.107316418861812e-06,2.308703971467349e-12
	-6.354667288780162e-07,-6.096929071877287e-15
	-2.644340411113398e-06,-2.297024809102990e-12
	-1.724907211296096e-07,5.582233292481099e-15
	-3.107316418862055e-06,-2.308703971467348e-12
	-1.724907211296096e-07,5.582233292481099e-15
13		1.348962882591653e+00,0.000000000000000e+00
	-1.724907211296096e-03,5.712260209472228e-11
	1.000000000000000e+00,0.000000000000000e+00
	0.000000000000000e+00,0.000000000000000e+00
	1.191500101291454e-06,9.877342063995846e-15
	1.191500117809642e-06,1.195614279824488e-14
	1.724907211296021e-07,-5.712260209472539e-15
	3.107316418861812e-06,2.362480595253284e-12
	-6.354667288780162e-07,-6.238944793684830e-15
	-2.644340411113398e-06,-2.350529390250127e-12
	-1.724907211296096e-07,5.712260209472229e-15
	-3.107316418862055e-06,-2.362480595253284e-12
	-1.724907211296096e-07,5.712260209472229e-15
14		1.380384264602885e+00,0.000000000000000e+00
	-1.724907211296096e-03,5.845315842437126e-11
	1.000000000000000e+00,0.000000000000000e+00
	0.000000000000000e+00,0.000000000000000e+00
	1.191500101291454e-06,1.010741491644687e-14
	1.191500117809642e-06,1.223463714015199e-14
	1.724907211296021e-07,-5.845315842437068e-15
	3.107316418861812e-06,2.417509837521951e-12
	-6.354667288780162e-07,-6.384268486604182e-15
	-2.644340411113398e-06,-2.405280253192910e-12
	-1.724907211296096e-07,5.845315842437127e-15
	-3.107316418862055e-06,-2.417509837521951e-12
	-1.724907211296096e-07,5.845315842437127e-15
15		1.412537544622754e+00,0.000000000000000e+00
	-1.724907211296096e-03,5.981470739233583e-11
	1.000000000000000e+00,0.000000000000000e+00
	0.000000000000000e+00,0.000000000000000e+00
	1.191500101291454e-06,1.034284685407405e-14
	1.191500117809642e-06,1.251961844861538e-14
	1.724907211296021e-07,-5.981470739233644e-15
	3.107316418861812e-06,2.473820875505997e-12
	-6.354667288780162e-07,-6.532977203180916e-15
	-2.644340411113398e-06,-2.461306427563582e-12
	-1.724907211296096e-07,5.981470739233583e-15
	-3.107316418862055e-06,-2.473820875505996e-12
	-1.724907211296096e-07,5.981470739233583e-15
16		1.445439770745927e+00,0.000000000000000e+00
	-1.724907211296096e-03,6.120797090990107e-11
	1.000000000000000e+00,0.000000000000000e+00
	0.000000000000000e+00,0.000000000000000e+00
	1.191500101291454e-06,1.058376270600701e-14
	1.191500117809642e-06,1.281123782449696e-14
	1.724907211296021e-07,-6.120797090989797e-15
	3.107316418861812e-06,2.531443566063125e-12
	-6.354667288780162e-07,-6.685149790744950e-15
	-2.644340411113398e-06,-2.518637619181390e-12
	-1.724907211296096e-07,6.120797090990107e-15
	-3.107316418862055e-06,-2.531443566063125e-12
	-1.724907211296096e-07,6.120797090990107e-15
17		1.479108388168207e+00,0.000000000000000e+00
	-1.724907211296096e-03,6.263368770382601e-11
	1.000000000000000e+00,0.000000000000000e+00
	0.000000000000000e+00,0.000000000000000e+00
	1.191500101291454e-06,1.083029020901936e-14
	1.191500117809642e-06,1.310964988824987e-14
	1.724907211296021e-07,-6.263368770382794e-15
	3.107316418861812e-06,2.590408461506598e-12
	-6.354667288780162e-07,-6.840866933216453e-15
	-2.644340411113398e-06,-2.577304225802999e-12
	-1.724907211296096e-07,6.263368770382601e-15
	-3.107316418862055e-06,-2.590408461506598e-12
	-1.724907211296096e-07,6.263368770382601e-15
18		1.513561248436208e+00,0.000000000000000e+00
	-1.724907211296096e-03,6.409261370802639e-11
	1.000000000000000e+00,0.000000000000000e+00
	0.000000000000000e+00,0.000000000000000e+00
	1.191500101291454e-06,1.108256007525638e-14
	1.191500117809642e-06,1.341501286190026e-14
	1.724907211296021e-07,-6.409261370802890e-15
	3.107316418861812e-06,2.650746825804472e-12
	-6.354667288780162e-07,-7.000211193885531e-15
	-2.644340411113398e-06,-2.637337353239784e-12
	-1.724907211296096e-07,6.409261370802640e-15
	-3.107316418862055e-06,-2.650746825804472e-12
	-1.724907211296096e-07,6.409261370802640e-15
19		1.548816618912481e+00,0.000000000000000e+00
	-1.724907211296096e-03,6.558552246438080e-11
	1.000000000000000e+00,0.000000000000000e+00
	0.000000000000000e+00,0.000000000000000e+00
	1.191500101291454e-06,1.134070606154032e-14
	1.191500117809642e-06,1.372748865293872e-14
	1.724907211296021e-07,-6.558552246438059e-15
	3.107316418861812e-06,2.712490651156169e-12
	-6.354667288780162e-07,-7.163267059188354e-15
	-2.644340411113398e-06,-2.698768831850542e-12
	-1.724907211296096e-07,6.558552246438080e-15
	-3.107316418862055e-06,-2.712490651156169e-12
	-1.724907211296096e-07,6.558552246438080e-15
20		1.584893192461113e+00,0.000000000000000e+00
	-1.724907211296096e-03,6.711320553287285e-11
	1.000000000000000e+00,0.000000000000000e+00
	0.000000000000000e+00,0.000000000000000e+00
	1.191500101291454e-06,1.160486504029008e-14
	1.191500117809642e-06,1.404724294016577e-14
	1.724907211296021e-07,-6.711320553287292e-15
	3.107316418861812e-06,2.775672674955167e-12
	-6.354667288780162e-07,-7.330120983503012e-15
	-2.644340411113398e-06,-2.761631233418377e-12
	-1.724907211296096e-07,6.711320553287285e-15
	-3.107316418862055e-06,-2.775672674955167e-12
	-1.724907211296096e-07,6.711320553287285e-15
21		1.621810097358929e+00,0.000000000000000e+00
	-1.724907211296096e-03,6.867647291128673e-11
	1.000000000000000e+00,0.000000000000000e+00
	0.000000000000000e+00,0.000000000000000e+00
	1.191500101291454e-06,1.187517707209276e-14
	1.191500117809642e-06,1.437444526153693e-14
	1.724907211296021e-07,-6.867647291128701e-15
	3.107316418861812e-06,2.840326397146798e-12
	-6.354667288780162e-07,-7.500861434988743e-15
	-2.644340411113398e-06,-2.825957888420680e-12
	-1.724907211296096e-07,6.867647291128673e-15
	-3.107316418862055e-06,-2.840326397146798e-12
	-1.724907211296096e-07,6.867647291128673e-15
22		1.659586907437560e+00,0.000000000000000e+00
	-1.724907211296096e-03,7.027615346467875e-11
	1.000000000000000e+00,0.000000000000000e+00
	0.000000000000000e+00,0.000000000000000e+00
	1.191500101291454e-06,1.215178547996559e-14
	1.191500117809642e-06,1.470926910405402e-14
	1.724907211296021e-07,-7.027615346467687e-15
	3.107316418861812e-06,2.906486097990360e-12
	-6.354667288780162e-07,-7.675578942492939e-15
	-2.644340411113398e-06,-2.891782903701400e-12
	-1.724907211296096e-07,7.027615346467875e-15
	-3.107316418862055e-06,-2.906486097990361e-12
	-1.724907211296096e-07,7.027615346467875e-15
23		1.698243652461743e+00,0.000000000000000e+00
	-1.724907211296096e-03,7.191309536485261e-11
	1.000000000000000e+00,0.000000000000000e+00
	0.000000000000000e+00,0.000000000000000e+00
	1.191500101291454e-06,1.243483692534781e-14
	1.191500117809642e-06,1.505189199575029e-14
	1.724907211296021e-07,-7.191309536485145e-15
	3.107316418861812e-06,2.974186856234970e-12
	-6.354667288780162e-07,-7.854366143550747e-15
	-2.644340411113398e-06,-2.959141180554934e-12
	-1.724907211296096e-07,7.191309536485262e-15
	-3.107316418862055e-06,-2.974186856234969e-12
	-1.724907211296096e-07,7.191309536485262e-15
24		1.737800828749374e+00,0.000000000000000e+00
	-1.724907211296096e-03,7.358816654007125e-11
	1.000000000000000e+00,0.000000000000000e+00
	0.000000000000000e+00,0.000000000000000e+00
	1.191500101291454e-06,1.272448148586238e-14
	1.191500117809642e-06,1.540249559981805e-14
	1.724907211296021e-07,-7.358816654006930e-15
	3.107316418861812e-06,3.043464567718770e-12
	-6.354667288780162e-07,-8.037317833502692e-15
	-2.644340411113398e-06,-3.028068433231261e-12
	-1.724907211296096e-07,7.358816654007126e-15
	-3.107316418862055e-06,-3.043464567718770e-12
	-1.724907211296096e-07,7.358816654007126e-15
25		1.778279410038922e+00,0.000000000000000e+00
	-1.724907211296096e-03,7.530225513524397e-11
	1.000000000000000e+00,0.000000000000000e+00
	0.000000000000000e+00,0.000000000000000e+00
	1.191500101291454e-06,1.302087273488916e-14
	1.191500117809642e-06,1.576126581092895e-14
	1.724907211296021e-07,-7.530225513524264e-15
	3.107316418861812e-06,3.114355964401393e-12
	-6.354667288780162e-07,-8.224531015756433e-15
	-2.644340411113398e-06,-3.098601207872112e-12
	-1.724907211296096e-07,7.530225513524398e-15
	-3.107316418862055e-06,-3.114355964401392e-12
	-1.724907211296096e-07,7.530225513524398e-15
26		1.819700858609982e+00,0.000000000000000e+00
	-1.724907211296096e-03,7.705626998283259e-11
	1.000000000000000e+00,0.000000000000000e+00
	0.000000000000000e+00,0.000000000000000e+00
	1.191500101291454e-06,1.332416782299162e-14
	1.191500117809642e-06,1.612839285379784e-14
	1.724907211296021e-07,-7.705626998283045e-15
	3.107316418861812e-06,3.186898633839715e-12
	-6.354667288780162e-07,-8.416104953219275e-15
	-2.644340411113398e-06,-3.170776901888212e-12
	-1.724907211296096e-07,7.705626998283258e-15
	-3.107316418862055e-06,-3.186898633839714e-12
	-1.724907211296096e-07,7.705626998283258e-15
27		1.862087136662866e+00,0.000000000000000e+00
	-1.724907211296096e-03,7.885114108472641e-11
	1.000000000000000e+00,0.000000000000000e+00
	0.000000000000000e+00,0.000000000000000e+00
	1.191500101291454e-06,1.363452756124004e-14
	1.191500117809642e-06,1.650407138404232e-14
	1.724907211296021e-07,-7.885114108472175e-15
	3.107316418861812e-06,3.261131039117289e-12
	-6.354667288780162e-07,-8.612141220928627e-15
	-2.644340411113398e-06,-3.244633783787888e-12
	-1.724907211296096e-07,7.885114108472642e-15
	-3.107316418862055e-06,-3.261131039117288e-12
	-1.724907211296096e-07,7.885114108472642e-15
28		1.905460717963246e+00,0.000000000000000e+00
	-1.724907211296096e-03,8.068782010534160e-11
	1.000000000000000e+00,0.000000000000000e+00
	0.000000000000000e+00,0.000000000000000e+00
	1.191500101291454e-06,1.395211650647573e-14
	1.191500117809642e-06,1.688850059139183e-14
	1.724907211296021e-07,-8.068782010533895e-15
	3.107316418861812e-06,3.337092539237975e-12
	-6.354667288780162e-07,-8.812743759908480e-15
	-2.644340411113398e-06,-3.320211013467533e-12
	-1.724907211296096e-07,8.068782010534160e-15
	-3.107316418862055e-06,-3.337092539237975e-12
	-1.724907211296096e-07,8.068782010534160e-15
29		1.949844599758044e+00,0.000000000000000e+00
	-1.724907211296096e-03,8.256728087620620e-11
	1.000000000000000e+00,0.000000000000000e+00
	0.000000000000000e+00,0.000000000000000e+00
	1.191500101291454e-06,1.427710304856125e-14
	1.191500117809642e-06,1.728188430530063e-14
	1.724907211296021e-07,-8.256728087620601e-15
	3.107316418861812e-06,3.414823409994608e-12
	-6.354667288780162e-07,-9.018018932280292e-15
	-2.644340411113398e-06,-3.397548662974707e-12
	-1.724907211296096e-07,8.256728087620620e-15
	-3.107316418862055e-06,-3.414823409994607e-12
	-1.724907211296096e-07,8.256728087620620e-15
30		1.995262314968878e+00,0.000000000000000e+00
	-1.724907211296096e-03,8.449051991229851e-11
	1.000000000000000e+00,0.000000000000000e+00
	0.000000000000000e+00,0.000000000000000e+00
	1.191500101291454e-06,1.460965949966292e-14
	1.191500117809642e-06,1.768443110302088e-14
	1.724907211296021e-07,-8.449051991229809e-15
	3.107316418861812e-06,3.494364865323750e-12
	-6.354667288780162e-07,-9.228075577657589e-15
	-2.644340411113398e-06,-3.476687737754863e-12
	-1.724907211296096e-07,8.449051991229851e-15
	-3.107316418862055e-06,-3.494364865323750e-12
	-1.724907211296096e-07,8.449051991229851e-15
31		2.041737944669527e+00,0.000000000000000e+00
	-1.724907211296096e-03,8.645855694041259e-11
	1.000000000000000e+00,0.000000000000000e+00
	0.000000000000000e+00,0.000000000000000e+00
	1.191500101291454e-06,1.494996218561301e-14
	1.191500117809642e-06,1.809635442019308e-14
	1.724907211296021e-07,-8.645855694040722e-15
	3.107316418861812e-06,3.575759079157874e-12
	-6.354667288780162e-07,-9.443025070854183e-15
	-2.644340411113398e-06,-3.557670198392979e-12
	-1.724907211296096e-07,8.645855694041260e-15
	-3.107316418862055e-06,-3.575759079157874e-12
	-1.724907211296096e-07,8.645855694041260e-15
32		2.089296130854037e+00,0.000000000000000e+00
	-1.724907211296096e-03,8.847243543983075e-11
	1.000000000000000e+00,0.000000000000000e+00
	0.000000000000000e+00,0.000000000000000e+00
	1.191500101291454e-06,1.529819153940006e-14
