LTspice 24.0.9 for Windows
Circuit: * GA CMOS Amp | W=1e-06 L=7.713285290800166e-07 Vbias=1.292869104769911
Start Time: Sat Sep  6 22:03:56 2025
solver = Normal
Maximum thread count: 2
tnom = 27
temp = 27
method = modified trap
AsciiRawFile = 1
Direct Newton iteration for .op point succeeded.
Semiconductor Device Operating Points:
                        --- BSIM4 MOSFETS ---
Name:      m1
Model:      n
Id:      5.01e-05
Vgs:     1.29e+00
Vds:     1.30e+00
Vbs:     0.00e+00
Vth:     2.40e-01
Vdsat:   7.36e-01
Gm:      3.25e-05
Gds:     4.05e-06
Gmb      3.18e-05
Cbd:     3.80e-16
Cbs:     8.00e-16


.measure op idd find i(vdd)
  Error: FIND can not be evaluated over an interval.

gain_db: MAX(db(v(out)/v(g)))=(29.2866dB,110.484°) FROM 1 TO 1e+09
gain_lin: MAX(mag(v(out)/v(g)))=(-4.14782dB,0°) FROM 1 TO 1e+09

Measurement "fc" FAIL'ed

Total elapsed time: 0.928 seconds.

