Title: * GA CMOS Amp | W=1e-06 L=6.509157063524731e-07 Vbias=1.2320030075588784
Date: Mon Sep  8 18:47:22 2025
Plotname: AC Analysis
Flags: complex forward log
No. Variables: 11
No. Points:          901
Offset:    0.0000000000000000e+00
Command: Linear Technology Corporation LTspice
Variables:
	0	frequency	frequency
	1	V(out)	voltage
	2	V(g)	voltage
	3	V(vdd)	voltage
	4	Id(M1)	device_current
	5	Ig(M1)	device_current
	6	Ib(M1)	device_current
	7	Is(M1)	device_current
	8	I(Rload)	device_current
	9	I(Vg)	device_current
	10	I(Vdd)	device_current
Values:
0		1.000000000000000e+00,0.000000000000000e+00
	-4.474446700223513e-01,1.760729936441334e-11
	1.000000000000000e+00,0.000000000000000e+00
	0.000000000000000e+00,0.000000000000000e+00
	4.474446700223514e-05,-1.760729936441334e-15
	2.212598493311887e-26,6.748113114727076e-15
	4.474446664961065e-13,-4.114294813583689e-16
	-4.474446744967980e-05,-4.575953696927372e-15
	-4.474446700223514e-05,1.760729936441334e-15
	-2.212598493311887e-26,-6.748113114727077e-15
	-4.474446700223514e-05,1.760729936441334e-15
1		1.023292992280754e+00,0.000000000000000e+00
	-4.474446700223513e-01,1.801742605259355e-11
	1.000000000000000e+00,0.000000000000000e+00
	0.000000000000000e+00,0.000000000000000e+00
	4.474446700223514e-05,-1.801742605259355e-15
	2.316875047721284e-26,6.905296861418069e-15
	4.474446664961065e-13,-4.210129050917228e-16
	-4.474446744967980e-05,-4.682541351066991e-15
	-4.474446700223514e-05,1.801742605259354e-15
	-2.316875047721284e-26,-6.905296861418070e-15
	-4.474446700223514e-05,1.801742605259354e-15
2		1.047128548050899e+00,0.000000000000000e+00
	-4.474446700223513e-01,1.843710581855566e-11
	1.000000000000000e+00,0.000000000000000e+00
	0.000000000000000e+00,0.000000000000000e+00
	4.474446700223514e-05,-1.843710581855567e-15
	2.426066004735746e-26,7.066141887907395e-15
	4.474446664961065e-13,-4.308195554401223e-16
	-4.474446744967980e-05,-4.791611750611706e-15
	-4.474446700223514e-05,1.843710581855567e-15
	-2.426066004735746e-26,-7.066141887907396e-15
	-4.474446700223514e-05,1.843710581855567e-15
3		1.071519305237606e+00,0.000000000000000e+00
	-4.474446700223513e-01,1.886656118206672e-11
	1.000000000000000e+00,0.000000000000000e+00
	0.000000000000000e+00,0.000000000000000e+00
	4.474446700223514e-05,-1.886656118206673e-15
	2.540402973014588e-26,7.230733476357135e-15
	4.474446664961065e-13,-4.408546320193877e-16
	-4.474446744967980e-05,-4.903222726131075e-15
	-4.474446700223514e-05,1.886656118206673e-15
	-2.540402973014588e-26,-7.230733476357135e-15
	-4.474446700223514e-05,1.886656118206673e-15
4		1.096478196143185e+00,0.000000000000000e+00
	-4.474446700223513e-01,1.930601984604498e-11
	1.000000000000000e+00,0.000000000000000e+00
	0.000000000000000e+00,0.000000000000000e+00
	4.474446700223514e-05,-1.930601984604498e-15
	2.660128476596953e-26,7.399158895406111e-15
	4.474446664961065e-13,-4.511234555599503e-16
	-4.474446744967980e-05,-5.017433455241663e-15
	-4.474446700223514e-05,1.930601984604498e-15
	-2.660128476596953e-26,-7.399158895406111e-15
	-4.474446700223514e-05,1.930601984604498e-15
5		1.122018454301963e+00,0.000000000000000e+00
	-4.474446700223513e-01,1.975571481729100e-11
	1.000000000000000e+00,0.000000000000000e+00
	0.000000000000000e+00,0.000000000000000e+00
	4.474446700223514e-05,-1.975571481729100e-15
	2.785496469327821e-26,7.571507446440880e-15
	4.474446664961065e-13,-4.616314707279751e-16
	-4.474446744967980e-05,-5.134304493983805e-15
	-4.474446700223514e-05,1.975571481729099e-15
	-2.785496469327821e-26,-7.571507446440882e-15
	-4.474446700223514e-05,1.975571481729099e-15
6		1.148153621496882e+00,0.000000000000000e+00
	-4.474446700223513e-01,2.021588453003093e-11
	1.000000000000000e+00,0.000000000000000e+00
	0.000000000000000e+00,0.000000000000000e+00
	4.474446700223514e-05,-2.021588453003093e-15
	2.916772873528147e-26,7.747870510944499e-15
	4.474446664961065e-13,-4.723842490121947e-16
	-4.474446744967980e-05,-5.253897808929210e-15
	-4.474446700223514e-05,2.021588453003093e-15
	-2.916772873528147e-26,-7.747870510944500e-15
	-4.474446700223514e-05,2.021588453003093e-15
7		1.174897554939529e+00,0.000000000000000e+00
	-4.474446700223513e-01,2.068677297233756e-11
	1.000000000000000e+00,0.000000000000000e+00
	0.000000000000000e+00,0.000000000000000e+00
	4.474446700223514e-05,-2.068677297233756e-15
	3.054236144051778e-26,7.928341598948211e-15
	4.474446664961065e-13,-4.833874916779858e-16
	-4.474446744967980e-05,-5.376276810036469e-15
	-4.474446700223514e-05,2.068677297233756e-15
	-3.054236144051778e-26,-7.928341598948213e-15
	-4.474446700223514e-05,2.068677297233756e-15
8		1.202264434617413e+00,0.000000000000000e+00
	-4.474446700223513e-01,2.116862981549593e-11
	1.000000000000000e+00,0.000000000000000e+00
	0.000000000000000e+00,0.000000000000000e+00
	4.474446700223514e-05,-2.116862981549593e-15
	3.198177858925517e-26,8.113016398611694e-15
	4.474446664961065e-13,-4.946470327902535e-16
	-4.474446744967980e-05,-5.501506384271847e-15
	-4.474446700223514e-05,2.116862981549593e-15
	-3.198177858925517e-26,-8.113016398611696e-15
	-4.474446700223514e-05,2.116862981549593e-15
9		1.230268770812381e+00,0.000000000000000e+00
	-4.474446700223513e-01,2.166171054638242e-11
	1.000000000000000e+00,0.000000000000000e+00
	0.000000000000000e+00,0.000000000000000e+00
	4.474446700223514e-05,-2.166171054638242e-15
	3.348903337825211e-26,8.301992826958188e-15
	4.474446664961065e-13,-5.061688423067357e-16
	-4.474446744967980e-05,-5.629652930013210e-15
	-4.474446700223514e-05,2.166171054638242e-15
	-3.348903337825211e-26,-8.301992826958190e-15
	-4.474446700223514e-05,2.166171054638242e-15
10		1.258925411794167e+00,0.000000000000000e+00
	-4.474446700223513e-01,2.216627660292724e-11
	1.000000000000000e+00,0.000000000000000e+00
	0.000000000000000e+00,0.000000000000000e+00
	4.474446700223514e-05,-2.216627660292724e-15
	3.506732289699724e-26,8.495371081791401e-15
	4.474446664961065e-13,-5.179590292433440e-16
	-4.474446744967980e-05,-5.760784392255333e-15
	-4.474446700223514e-05,2.216627660292724e-15
	-3.506732289699724e-26,-8.495371081791403e-15
	-4.474446700223514e-05,2.216627660292724e-15
11		1.288249551693134e+00,0.000000000000000e+00
	-4.474446700223513e-01,2.268259551273229e-11
	1.000000000000000e+00,0.000000000000000e+00
	0.000000000000000e+00,0.000000000000000e+00
	4.474446700223514e-05,-2.268259551273229e-15
	3.671999490916480e-26,8.693253694821710e-15
	4.474446664961065e-13,-5.300238449132553e-16
	-4.474446744967980e-05,-5.894970298635226e-15
	-4.474446700223514e-05,2.268259551273229e-15
	-3.671999490916480e-26,-8.693253694821712e-15
	-4.474446700223514e-05,2.268259551273229e-15
12		1.318256738556407e+00,0.000000000000000e+00
	-4.474446700223513e-01,2.321094103491782e-11
	1.000000000000000e+00,0.000000000000000e+00
	0.000000000000000e+00,0.000000000000000e+00
	4.474446700223514e-05,-2.321094103491783e-15
	3.845055495367015e-26,8.895745586029830e-15
	4.474446664961065e-13,-5.423696862414358e-16
	-4.474446744967980e-05,-6.032281796296611e-15
	-4.474446700223514e-05,2.321094103491782e-15
	-3.845055495367015e-26,-8.895745586029831e-15
	-4.474446700223514e-05,2.321094103491782e-15
13		1.348962882591653e+00,0.000000000000000e+00
	-4.474446700223513e-01,2.375159330527321e-11
	1.000000000000000e+00,0.000000000000000e+00
	0.000000000000000e+00,0.000000000000000e+00
	4.474446700223514e-05,-2.375159330527321e-15
	4.026267378038796e-26,9.102954119296776e-15
	4.474446664961065e-13,-5.550030991563740e-16
	-4.474446744967980e-05,-6.172791689613081e-15
	-4.474446700223514e-05,2.375159330527321e-15
	-4.026267378038796e-26,-9.102954119296778e-15
	-4.474446700223514e-05,2.375159330527321e-15
14		1.380384264602885e+00,0.000000000000000e+00
	-4.474446700223513e-01,2.430483898478855e-11
	1.000000000000000e+00,0.000000000000000e+00
	0.000000000000000e+00,0.000000000000000e+00
	4.474446700223514e-05,-2.430483898478855e-15
	4.216019513630466e-26,9.314989159329616e-15
	4.474446664961065e-13,-5.679307820608179e-16
	-4.474446744967980e-05,-6.316574478789943e-15
	-4.474446700223514e-05,2.430483898478855e-15
	-4.216019513630466e-26,-9.314989159329618e-15
	-4.474446700223514e-05,2.430483898478855e-15
15		1.412537544622754e+00,0.000000000000000e+00
	-4.474446700223513e-01,2.487097141164620e-11
	1.000000000000000e+00,0.000000000000000e+00
	0.000000000000000e+00,0.000000000000000e+00
	4.474446700223514e-05,-2.487097141164620e-15
	4.414714391862130e-26,9.531963129913189e-15
	4.474446664961065e-13,-5.811595893833630e-16
	-4.474446744967980e-05,-6.463706399365205e-15
	-4.474446700223514e-05,2.487097141164620e-15
	-4.414714391862130e-26,-9.531963129913190e-15
	-4.474446700223514e-05,2.487097141164620e-15
16		1.445439770745927e+00,0.000000000000000e+00
	-4.474446700223513e-01,2.545029075675252e-11
	1.000000000000000e+00,0.000000000000000e+00
	0.000000000000000e+00,0.000000000000000e+00
	4.474446700223514e-05,-2.545029075675253e-15
	4.622773471209999e-26,9.753991073518688e-15
	4.474446664961065e-13,-5.946965352127556e-16
	-4.474446744967980e-05,-6.614265462630679e-15
	-4.474446700223514e-05,2.545029075675252e-15
	-4.622773471209999e-26,-9.753991073518689e-15
	-4.474446700223514e-05,2.545029075675252e-15
17		1.479108388168207e+00,0.000000000000000e+00
	-4.474446700223513e-01,2.604310418289251e-11
	1.000000000000000e+00,0.000000000000000e+00
	0.000000000000000e+00,0.000000000000000e+00
	4.474446700223514e-05,-2.604310418289250e-15
	4.840638072876343e-26,9.981190712300701e-15
	4.474446664961065e-13,-6.085487970168568e-16
	-4.474446744967980e-05,-6.768331496994594e-15
	-4.474446700223514e-05,2.604310418289251e-15
	-4.840638072876343e-26,-9.981190712300702e-15
	-4.474446700223514e-05,2.604310418289251e-15
18		1.513561248436208e+00,0.000000000000000e+00
	-4.474446700223513e-01,2.664972600759150e-11
	1.000000000000000e+00,0.000000000000000e+00
	0.000000000000000e+00,0.000000000000000e+00
	4.474446700223514e-05,-2.664972600759150e-15
	5.068770316890911e-26,1.021368251051506e-14
	4.474446664961065e-13,-6.227237194482333e-16
	-4.474446744967980e-05,-6.925986190307674e-15
	-4.474446700223514e-05,2.664972600759150e-15
	-5.068770316890911e-26,-1.021368251051506e-14
	-4.474446700223514e-05,2.664972600759150e-15
19		1.548816618912481e+00,0.000000000000000e+00
	-4.474446700223513e-01,2.727047786977054e-11
	1.000000000000000e+00,0.000000000000000e+00
	0.000000000000000e+00,0.000000000000000e+00
	4.474446700223514e-05,-2.727047786977054e-15
	5.307654102329476e-26,1.045158973839056e-14
	4.474446664961065e-13,-6.372288182383822e-16
	-4.474446744967980e-05,-7.087313133175120e-15
	-4.474446700223514e-05,2.727047786977054e-15
	-5.307654102329476e-26,-1.045158973839056e-14
	-4.474446700223514e-05,2.727047786977054e-15
20		1.584893192461113e+00,0.000000000000000e+00
	-4.474446700223513e-01,2.790568890028358e-11
	1.000000000000000e+00,0.000000000000000e+00
	0.000000000000000e+00,0.000000000000000e+00
	4.474446700223514e-05,-2.790568890028358e-15
	5.557796133728665e-26,1.069503853748850e-14
	4.474446664961065e-13,-6.520717841826853e-16
	-4.474446744967980e-05,-7.252397863277455e-15
	-4.474446700223514e-05,2.790568890028358e-15
	-5.557796133728665e-26,-1.069503853748850e-14
	-4.474446700223514e-05,2.790568890028358e-15
21		1.621810097358929e+00,0.000000000000000e+00
	-4.474446700223513e-01,2.855569589642701e-11
	1.000000000000000e+00,0.000000000000000e+00
	0.000000000000000e+00,0.000000000000000e+00
	4.474446700223514e-05,-2.855569589642701e-15
	5.819726995874199e-26,1.094415798758458e-14
	4.474446664961065e-13,-6.672604872181503e-16
	-4.474446744967980e-05,-7.421327910723733e-15
	-4.474446700223514e-05,2.855569589642701e-15
	-5.819726995874199e-26,-1.094415798758459e-14
	-4.474446700223514e-05,2.855569589642701e-15
22		1.659586907437560e+00,0.000000000000000e+00
	-4.474446700223513e-01,2.922084350051404e-11
	1.000000000000000e+00,0.000000000000000e+00
	0.000000000000000e+00,0.000000000000000e+00
	4.474446700223514e-05,-2.922084350051405e-15
	6.094002279242372e-26,1.119908017510875e-14
	4.474446664961065e-13,-6.828029805961748e-16
	-4.474446744967980e-05,-7.594192844461168e-15
	-4.474446700223514e-05,2.922084350051404e-15
	-6.094002279242372e-26,-1.119908017510875e-14
	-4.474446700223514e-05,2.922084350051404e-15
23		1.698243652461743e+00,0.000000000000000e+00
	-4.474446700223513e-01,2.990148438260864e-11
	1.000000000000000e+00,0.000000000000000e+00
	0.000000000000000e+00,0.000000000000000e+00
	4.474446700223514e-05,-2.990148438260865e-15
	6.381203758481939e-26,1.145994026317910e-14
	4.474446664961065e-13,-6.987075051524765e-16
	-4.474446744967980e-05,-7.771084319765760e-15
	-4.474446700223514e-05,2.990148438260864e-15
	-6.381203758481939e-26,-1.145994026317910e-14
	-4.474446700223514e-05,2.990148438260864e-15
24		1.737800828749374e+00,0.000000000000000e+00
	-4.474446700223513e-01,3.059797942751583e-11
	1.000000000000000e+00,0.000000000000000e+00
	0.000000000000000e+00,0.000000000000000e+00
	4.474446700223514e-05,-3.059797942751584e-15
	6.681940626436134e-26,1.172687656326723e-14
	4.474446664961065e-13,-7.149824936764965e-16
	-4.474446744967980e-05,-7.952096126839153e-15
	-4.474446700223514e-05,3.059797942751584e-15
	-6.681940626436134e-26,-1.172687656326724e-14
	-4.474446700223514e-05,3.059797942751584e-15
25		1.778279410038922e+00,0.000000000000000e+00
	-4.474446700223513e-01,3.131069792612764e-11
	1.000000000000000e+00,0.000000000000000e+00
	0.000000000000000e+00,0.000000000000000e+00
	4.474446700223514e-05,-3.131069792612764e-15
	6.996850786322389e-26,1.200003060853277e-14
	4.474446664961065e-13,-7.316365753825782e-16
	-4.474446744967980e-05,-8.137324240537431e-15
	-4.474446700223514e-05,3.131069792612764e-15
	-6.996850786322389e-26,-1.200003060853278e-14
	-4.474446700223514e-05,3.131069792612764e-15
26		1.819700858609982e+00,0.000000000000000e+00
	-4.474446700223513e-01,3.204001777122594e-11
	1.000000000000000e+00,0.000000000000000e+00
	0.000000000000000e+00,0.000000000000000e+00
	4.474446700223514e-05,-3.204001777122595e-15
	7.326602204810554e-26,1.227954722886614e-14
	4.474446664961065e-13,-7.486785804852820e-16
	-4.474446744967980e-05,-8.326866871258263e-15
	-4.474446700223514e-05,3.204001777122594e-15
	-7.326602204810554e-26,-1.227954722886614e-14
	-4.474446700223514e-05,3.204001777122594e-15
27		1.862087136662866e+00,0.000000000000000e+00
	-4.474446700223513e-01,3.278632565784634e-11
	1.000000000000000e+00,0.000000000000000e+00
	0.000000000000000e+00,0.000000000000000e+00
	4.474446700223514e-05,-3.278632565784635e-15
	7.671894328869797e-26,1.256557462767927e-14
	4.474446664961065e-13,-7.661175448812910e-16
	-4.474446744967980e-05,-8.520824517013348e-15
	-4.474446700223514e-05,3.278632565784634e-15
	-7.671894328869797e-26,-1.256557462767928e-14
	-4.474446700223514e-05,3.278632565784634e-15
28		1.905460717963246e+00,0.000000000000000e+00
	-4.474446700223513e-01,3.355001728830884e-11
	1.000000000000000e+00,0.000000000000000e+00
	0.000000000000000e+00,0.000000000000000e+00
	4.474446700223514e-05,-3.355001728830884e-15
	8.033459569389357e-26,1.285826446048505e-14
	4.474446664961065e-13,-7.839627149403622e-16
	-4.474446744967980e-05,-8.719300016713801e-15
	-4.474446700223514e-05,3.355001728830884e-15
	-8.033459569389357e-26,-1.285826446048505e-14
	-4.474446700223514e-05,3.355001728830884e-15
29		1.949844599758044e+00,0.000000000000000e+00
	-4.474446700223513e-01,3.433149758202459e-11
	1.000000000000000e+00,0.000000000000000e+00
	0.000000000000000e+00,0.000000000000000e+00
	4.474446700223514e-05,-3.433149758202460e-15
	8.412064854720284e-26,1.315777191530702e-14
	4.474446664961065e-13,-8.022235524078674e-16
	-4.474446744967980e-05,-8.922398604696695e-15
	-4.474446700223514e-05,3.433149758202459e-15
	-8.412064854720284e-26,-1.315777191530703e-14
	-4.474446700223514e-05,3.433149758202459e-15
30		1.995262314968878e+00,0.000000000000000e+00
	-4.474446700223513e-01,3.513118089018942e-11
	1.000000000000000e+00,0.000000000000000e+00
	0.000000000000000e+00,0.000000000000000e+00
	4.474446700223514e-05,-3.513118089018942e-15
	8.808513257433252e-26,1.346425579496219e-14
	4.474446664961065e-13,-8.209097394215427e-16
	-4.474446744967980e-05,-9.130227966521705e-15
	-4.474446700223514e-05,3.513118089018942e-15
	-8.808513257433252e-26,-1.346425579496219e-14
	-4.474446700223514e-05,3.513118089018942e-15
31		2.041737944669527e+00,0.000000000000000e+00
	-4.474446700223513e-01,3.594949121547836e-11
	1.000000000000000e+00,0.000000000000000e+00
	0.000000000000000e+00,0.000000000000000e+00
	4.474446700223514e-05,-3.594949121547837e-15
	9.223645697743175e-26,1.377787860126034e-14
	4.474446664961065e-13,-8.400311836450858e-16
	-4.474446744967980e-05,-9.342898296067419e-15
	-4.474446700223514e-05,3.594949121547837e-15
	-9.223645697743175e-26,-1.377787860126034e-14
	-4.474446700223514e-05,3.594949121547837e-15
32		2.089296130854037e+00,0.000000000000000e+00
	-4.474446700223513e-01,3.678686243685755e-11
	1.000000000000000e+00,0.000000000000000e+00
	0.000000000000000e+00,0.000000000000000e+00
	4.474446700223514e-05,-3.678686243685756e-15
	9.658342727213740e-26,1.409880662116467e-14
	4.474446664961065e-13,-8.595980235213200e-16
	-4.474446744967980e-05,-9.560522353957590e-15
	-4.474446700223514e-05,3.678686243685755e-15
	-9.658342727213740e-26,-1.409880662116467e-14
	-4.474446700223514e-05,3.678686243685755e-15
33		2.137962089502230e+00,0.000000000000000e+00
	-4.474446700223513e-01,3.764373853963243e-11
	1.000000000000000e+00,0.000000000000000e+00
	0.000000000000000e+00,0.000000000000000e+00
	4.474446700223514e-05,-3.764373853963244e-15
	1.011352639652529e-25,1.442721001495930e-14
	4.474446664961065e-13,-8.796206336477557e-16
	-4.474446744967980e-05,-9.783215527348301e-15
	-4.474446700223514e-05,3.764373853963243e-15
	-1.011352639652529e-25,-1.442721001495930e-14
	-4.474446700223514e-05,3.764373853963243e-15
34		2.187761623949550e+00,0.000000000000000e+00
	-4.474446700223513e-01,3.852057385085481e-11
	1.000000000000000e+00,0.000000000000000e+00
	0.000000000000000e+00,0.000000000000000e+00
	4.474446700223514e-05,-3.852057385085481e-15
	1.059016221126797e-25,1.476326290647056e-14
	4.474446664961065e-13,-9.001096302773039e-16
	-4.474446744967980e-05,-1.001109589110778e-14
	-4.474446700223514e-05,3.852057385085481e-15
	-1.059016221126797e-25,-1.476326290647057e-14
	-4.474446700223514e-05,3.852057385085481e-15
35		2.238721138568337e+00,0.000000000000000e+00
	-4.474446700223513e-01,3.941783328021299e-11
	1.000000000000000e+00,0.000000000000000e+00
	0.000000000000000e+00,0.000000000000000e+00
	4.474446700223514e-05,-3.941783328021300e-15
	1.108926117990853e-25,1.510714347538973e-14
	4.474446664961065e-13,-9.210758769471883e-16
	-4.474446744967980e-05,-1.024428427042124e-14
	-4.474446700223514e-05,3.941783328021300e-15
	-1.108926117990853e-25,-1.510714347538973e-14
	-4.474446700223514e-05,3.941783328021300e-15
36		2.290867652767770e+00,0.000000000000000e+00
	-4.474446700223513e-01,4.033599256653305e-11
	1.000000000000000e+00,0.000000000000000e+00
	0.000000000000000e+00,0.000000000000000e+00
	4.474446700223514e-05,-4.033599256653306e-15
	1.161188195827483e-25,1.545903405174623e-14
	4.474446664961065e-13,-9.425304902389064e-16
	-4.474446744967980e-05,-1.048290430485401e-14
	-4.474446700223514e-05,4.033599256653305e-15
	-1.161188195827483e-25,-1.545903405174623e-14
	-4.474446700223514e-05,4.033599256653305e-15
37		2.344228815319919e+00,0.000000000000000e+00
	-4.474446700223513e-01,4.127553853002185e-11
	1.000000000000000e+00,0.000000000000000e+00
	0.000000000000000e+00,0.000000000000000e+00
	4.474446700223514e-05,-4.127553853002186e-15
	1.215913309510675e-25,1.581912121258146e-14
	4.474446664961065e-13,-9.644848456724165e-16
	-4.474446744967980e-05,-1.072708251390686e-14
	-4.474446700223514e-05,4.127553853002185e-15
	-1.215913309510675e-25,-1.581912121258147e-14
	-4.474446700223514e-05,4.127553853002185e-15
38		2.398832919019488e+00,0.000000000000000e+00
	-4.474446700223513e-01,4.223696933038562e-11
	1.000000000000000e+00,0.000000000000000e+00
	0.000000000000000e+00,0.000000000000000e+00
