Title: * GA CMOS Amp | W=2.6404909169444896e-06 L=9.521680833386582e-07 Vbias=1.467937092088978
Date: Sat Sep  6 22:14:55 2025
Plotname: AC Analysis
Flags: complex forward log
No. Variables: 13
No. Points:          901
Offset:    0.0000000000000000e+00
Command: Linear Technology Corporation LTspice
Variables:
	0	frequency	frequency
	1	V(out)	voltage
	2	V(g)	voltage
	3	V(vdd)	voltage
	4	V(m1#dbody)	voltage
	5	V(m1#sbody)	voltage
	6	Id(M1)	device_current
	7	Ig(M1)	device_current
	8	Ib(M1)	device_current
	9	Is(M1)	device_current
	10	I(Rload)	device_current
	11	I(Vg)	device_current
	12	I(Vdd)	device_current
Values:
0		1.000000000000000e+00,0.000000000000000e+00
	-2.254469385378277e-01,1.391780268715218e-09
	1.000000000000000e+00,0.000000000000000e+00
	0.000000000000000e+00,0.000000000000000e+00
	7.503570229059830e-05,1.463706134003303e-13
	7.503570398144402e-05,1.581290962969457e-13
	2.254469385378277e-05,-1.391780268715218e-13
	4.534913100311156e-05,5.637996691600657e-13
	-4.001904204095568e-05,-8.355460698365833e-14
	-2.787478281593865e-05,-3.410670353048856e-13
	-2.254469385378277e-05,1.391780268715218e-13
	-4.534913100329163e-05,-5.637996691600659e-13
	-2.254469385378277e-05,1.391780268715218e-13
1		1.023292992280754e+00,0.000000000000000e+00
	-2.254469385378277e-01,1.424198995770907e-09
	1.000000000000000e+00,0.000000000000000e+00
	0.000000000000000e+00,0.000000000000000e+00
	7.503570229059830e-05,1.497800229683934e-13
	7.503570398144402e-05,1.618123961163531e-13
	2.254469385378277e-05,-1.424198995770908e-13
	4.534913100311156e-05,5.769322505017030e-13
	-4.001904204095568e-05,-8.550084379915015e-14
	-2.787478281593865e-05,-3.490115071254620e-13
	-2.254469385378277e-05,1.424198995770907e-13
	-4.534913100329163e-05,-5.769322505017029e-13
	-2.254469385378277e-05,1.424198995770907e-13
2		1.047128548050899e+00,0.000000000000000e+00
	-2.254469385378277e-01,1.457372851985657e-09
	1.000000000000000e+00,0.000000000000000e+00
	0.000000000000000e+00,0.000000000000000e+00
	7.503570229059830e-05,1.532688478872074e-13
	7.503570398144402e-05,1.655814910100216e-13
	2.254469385378277e-05,-1.457372851985657e-13
	4.534913100311156e-05,5.903707289591572e-13
	-4.001904204095568e-05,-8.749241429376170e-14
	-2.787478281593865e-05,-3.571410294668297e-13
	-2.254469385378277e-05,1.457372851985657e-13
	-4.534913100329163e-05,-5.903707289591572e-13
	-2.254469385378277e-05,1.457372851985657e-13
3		1.071519305237606e+00,0.000000000000000e+00
	-2.254469385378277e-01,1.491319426577139e-09
	1.000000000000000e+00,0.000000000000000e+00
	0.000000000000000e+00,0.000000000000000e+00
	7.503570229059830e-05,1.568389379779242e-13
	7.503570398144402e-05,1.694383794019538e-13
	2.254469385378277e-05,-1.491319426577139e-13
	4.534913100311156e-05,6.041222297915859e-13
	-4.001904204095568e-05,-8.953037442453080e-14
	-2.787478281593865e-05,-3.654599127093411e-13
	-2.254469385378277e-05,1.491319426577139e-13
	-4.534913100329163e-05,-6.041222297915859e-13
	-2.254469385378277e-05,1.491319426577139e-13
4		1.096478196143185e+00,0.000000000000000e+00
	-2.254469385378277e-01,1.526056718468539e-09
	1.000000000000000e+00,0.000000000000000e+00
	0.000000000000000e+00,0.000000000000000e+00
	7.503570229059830e-05,1.604921861495656e-13
	7.503570398144402e-05,1.733851062654269e-13
	2.254469385378277e-05,-1.526056718468539e-13
	4.534913100311156e-05,6.181940442267531e-13
	-4.001904204095568e-05,-9.161580474489442e-14
	-2.787478281593865e-05,-3.739725676350048e-13
	-2.254469385378277e-05,1.526056718468539e-13
	-4.534913100329163e-05,-6.181940442267531e-13
	-2.254469385378277e-05,1.526056718468539e-13
5		1.122018454301963e+00,0.000000000000000e+00
	-2.254469385378277e-01,1.561603145831820e-09
	1.000000000000000e+00,0.000000000000000e+00
	0.000000000000000e+00,0.000000000000000e+00
	7.503570229059830e-05,1.642305294026688e-13
	7.503570398144402e-05,1.774237642072653e-13
	2.254469385378277e-05,-1.561603145831820e-13
	4.534913100311156e-05,6.325936333269352e-13
	-4.001904204095568e-05,-9.374981097761234e-14
	-2.787478281593865e-05,-3.826835077661409e-13
	-2.254469385378277e-05,1.561603145831820e-13
	-4.534913100329163e-05,-6.325936333269353e-13
	-2.254469385378277e-05,1.561603145831820e-13
6		1.148153621496882e+00,0.000000000000000e+00
	-2.254469385378277e-01,1.597977555853282e-09
	1.000000000000000e+00,0.000000000000000e+00
	0.000000000000000e+00,0.000000000000000e+00
	7.503570229059830e-05,1.680559498563093e-13
	7.503570398144402e-05,1.815564945773674e-13
	2.254469385378277e-05,-1.597977555853282e-13
	4.534913100311156e-05,6.473286319448738e-13
	-4.001904204095568e-05,-9.593352460103602e-14
	-2.787478281593865e-05,-3.915973517585095e-13
	-2.254469385378277e-05,1.597977555853282e-13
	-4.534913100329163e-05,-6.473286319448737e-13
	-2.254469385378277e-05,1.597977555853282e-13
7		1.174897554939529e+00,0.000000000000000e+00
	-2.254469385378277e-01,1.635199234726590e-09
	1.000000000000000e+00,0.000000000000000e+00
	0.000000000000000e+00,0.000000000000000e+00
	7.503570229059830e-05,1.719704757990471e-13
	7.503570398144402e-05,1.857854886040788e-13
	2.254469385378277e-05,-1.635199234726591e-13
	4.534913100311156e-05,6.624068527718767e-13
	-4.001904204095568e-05,-9.816810344903348e-14
	-2.787478281593865e-05,-4.007188258501842e-13
	-2.254469385378277e-05,1.635199234726591e-13
	-4.534913100329163e-05,-6.624068527718769e-13
	-2.254469385378277e-05,1.635199234726591e-13
8		1.202264434617413e+00,0.000000000000000e+00
	-2.254469385378277e-01,1.673287917878572e-09
	1.000000000000000e+00,0.000000000000000e+00
	0.000000000000000e+00,0.000000000000000e+00
	7.503570229059830e-05,1.759761827643519e-13
	7.503570398144402e-05,1.901129885560098e-13
	2.254469385378277e-05,-1.673287917878572e-13
	4.534913100311156e-05,6.778362904802107e-13
	-4.001904204095568e-05,-1.004547323248881e-13
	-2.787478281593865e-05,-4.100527663674654e-13
	-2.254469385378277e-05,1.673287917878572e-13
	-4.534913100329163e-05,-6.778362904802106e-13
	-2.254469385378277e-05,1.673287917878572e-13
9		1.230268770812381e+00,0.000000000000000e+00
	-2.254469385378277e-01,1.712263800433197e-09
	1.000000000000000e+00,0.000000000000000e+00
	0.000000000000000e+00,0.000000000000000e+00
	7.503570229059830e-05,1.800751946310786e-13
	7.503570398144402e-05,1.945412889309160e-13
	2.254469385378277e-05,-1.712263800433196e-13
	4.534913100311156e-05,6.936251259619812e-13
	-4.001904204095568e-05,-1.027946236294969e-13
	-2.787478281593865e-05,-4.196041222891647e-13
	-2.254469385378277e-05,1.712263800433197e-13
	-4.534913100329163e-05,-6.936251259619811e-13
	-2.254469385378277e-05,1.712263800433197e-13
10		1.258925411794167e+00,0.000000000000000e+00
	-2.254469385378277e-01,1.752147547919302e-09
	1.000000000000000e+00,0.000000000000000e+00
	0.000000000000000e+00,0.000000000000000e+00
	7.503570229059830e-05,1.842696847495756e-13
	7.503570398144402e-05,1.990727376722718e-13
	2.254469385378277e-05,-1.752147547919302e-13
	4.534913100311156e-05,7.097817306667509e-13
	-4.001904204095568e-05,-1.051890180042018e-13
	-2.787478281593865e-05,-4.293779578706188e-13
	-2.254469385378277e-05,1.752147547919302e-13
	-4.534913100329163e-05,-7.097817306667509e-13
	-2.254469385378277e-05,1.752147547919302e-13
11		1.288249551693134e+00,0.000000000000000e+00
	-2.254469385378277e-01,1.792960307227729e-09
	1.000000000000000e+00,0.000000000000000e+00
	0.000000000000000e+00,0.000000000000000e+00
	7.503570229059830e-05,1.885618770940244e-13
	7.503570398144402e-05,2.037097374141806e-13
	2.254469385378277e-05,-1.792960307227729e-13
	4.534913100311156e-05,7.263146710401918e-13
	-4.001904204095568e-05,-1.076391849885938e-13
	-2.787478281593865e-05,-4.393794553288251e-13
	-2.254469385378277e-05,1.792960307227729e-13
	-4.534913100329163e-05,-7.263146710401920e-13
	-2.254469385378277e-05,1.792960307227729e-13
12		1.318256738556407e+00,0.000000000000000e+00
	-2.254469385378277e-01,1.834723717823683e-09
	1.000000000000000e+00,0.000000000000000e+00
	0.000000000000000e+00,0.000000000000000e+00
	7.503570229059830e-05,1.929540474416201e-13
	7.503570398144402e-05,2.084547467552836e-13
	2.254469385378277e-05,-1.834723717823683e-13
	4.534913100311156e-05,7.432327130661295e-13
	-4.001904204095568e-05,-1.101464236936398e-13
	-2.787478281593865e-05,-4.496139175901213e-13
	-2.254469385378277e-05,1.834723717823683e-13
	-4.534913100329163e-05,-7.432327130661295e-13
	-2.254469385378277e-05,1.834723717823683e-13
13		1.348962882591653e+00,0.000000000000000e+00
	-2.254469385378277e-01,1.877459923220266e-09
	1.000000000000000e+00,0.000000000000000e+00
	0.000000000000000e+00,0.000000000000000e+00
	7.503570229059830e-05,1.974485245792180e-13
	7.503570398144402e-05,2.133102815623410e-13
	2.254469385378277e-05,-1.877459923220267e-13
	4.534913100311156e-05,7.605448269143828e-13
	-4.001904204095568e-05,-1.127120634904884e-13
	-2.787478281593865e-05,-4.600867711018677e-13
	-2.254469385378277e-05,1.877459923220266e-13
	-4.534913100329163e-05,-7.605448269143829e-13
	-2.254469385378277e-05,1.877459923220266e-13
14		1.380384264602885e+00,0.000000000000000e+00
	-2.254469385378277e-01,1.921191582719261e-09
	1.000000000000000e+00,0.000000000000000e+00
	0.000000000000000e+00,0.000000000000000e+00
	7.503570229059830e-05,2.020476915380880e-13
	7.503570398144402e-05,2.182789163041781e-13
	2.254469385378277e-05,-1.921191582719262e-13
	4.534913100311156e-05,7.782601916968671e-13
	-4.001904204095568e-05,-1.153374647153202e-13
	-2.787478281593865e-05,-4.708035687096206e-13
	-2.254469385378277e-05,1.921191582719261e-13
	-4.534913100329163e-05,-7.782601916968673e-13
	-2.254469385378277e-05,1.921191582719261e-13
15		1.412537544622754e+00,0.000000000000000e+00
	-2.254469385378277e-01,1.965941883425391e-09
	1.000000000000000e+00,0.000000000000000e+00
	0.000000000000000e+00,0.000000000000000e+00
	7.503570229059830e-05,2.067539868574289e-13
	7.503570398144402e-05,2.233632854167027e-13
	2.254469385378277e-05,-1.965941883425391e-13
	4.534913100311156e-05,7.963882003344804e-13
	-4.001904204095568e-05,-1.180240193906160e-13
	-2.787478281593865e-05,-4.817699926013253e-13
	-2.254469385378277e-05,1.965941883425391e-13
	-4.534913100329163e-05,-7.963882003344804e-13
	-2.254469385378277e-05,1.965941883425391e-13
16		1.445439770745927e+00,0.000000000000000e+00
	-2.254469385378277e-01,2.011734552540429e-09
	1.000000000000000e+00,0.000000000000000e+00
	0.000000000000000e+00,0.000000000000000e+00
	7.503570229059830e-05,2.115699058773141e-13
	7.503570398144402e-05,2.285660846997178e-13
	2.254469385378277e-05,-2.011734552540429e-13
	4.534913100311156e-05,8.149384645373549e-13
	-4.001904204095568e-05,-1.207731519632251e-13
	-2.787478281593865e-05,-4.929918573200869e-13
	-2.254469385378277e-05,2.011734552540430e-13
	-4.534913100329163e-05,-8.149384645373550e-13
	-2.254469385378277e-05,2.011734552540430e-13
17		1.479108388168207e+00,0.000000000000000e+00
	-2.254469385378277e-01,2.058593869943680e-09
	1.000000000000000e+00,0.000000000000000e+00
	0.000000000000000e+00,0.000000000000000e+00
	7.503570229059830e-05,2.164980020617542e-13
	7.503570398144402e-05,2.338900727462705e-13
	2.254469385378277e-05,-2.058593869943680e-13
	4.534913100311156e-05,8.339208199011131e-13
	-4.001904204095568e-05,-1.235863200596269e-13
	-2.787478281593865e-05,-5.044751128471183e-13
	-2.254469385378277e-05,2.058593869943680e-13
	-4.534913100329163e-05,-8.339208199011131e-13
	-2.254469385378277e-05,2.058593869943680e-13
18		1.513561248436208e+00,0.000000000000000e+00
	-2.254469385378277e-01,2.106544681065486e-09
	1.000000000000000e+00,0.000000000000000e+00
	0.000000000000000e+00,0.000000000000000e+00
	7.503570229059830e-05,2.215408883525775e-13
	7.503570398144402e-05,2.393380724052944e-13
	2.254469385378277e-05,-2.106544681065486e-13
	4.534913100311156e-05,8.533453311218299e-13
	-4.001904204095568e-05,-1.264650152587826e-13
	-2.787478281593865e-05,-5.162258477564988e-13
	-2.254469385378277e-05,2.106544681065486e-13
	-4.534913100329163e-05,-8.533453311218300e-13
	-2.254469385378277e-05,2.106544681065486e-13
19		1.548816618912481e+00,0.000000000000000e+00
	-2.254469385378277e-01,2.155612410060607e-09
	1.000000000000000e+00,0.000000000000000e+00
	0.000000000000000e+00,0.000000000000000e+00
	7.503570229059830e-05,2.267012385548454e-13
	7.503570398144402e-05,2.449129722783215e-13
	2.254469385378277e-05,-2.155612410060608e-13
	4.534913100311156e-05,8.732222973324682e-13
	-4.001904204095568e-05,-1.294107638829908e-13
	-2.787478281593865e-05,-5.282502924434167e-13
	-2.254469385378277e-05,2.155612410060608e-13
	-4.534913100329163e-05,-8.732222973324683e-13
	-2.254469385378277e-05,2.155612410060608e-13
20		1.584893192461113e+00,0.000000000000000e+00
	-2.254469385378277e-01,2.205823073288447e-09
	1.000000000000000e+00,0.000000000000000e+00
	0.000000000000000e+00,0.000000000000000e+00
	7.503570229059830e-05,2.319817887545407e-13
	7.503570398144402e-05,2.506177282510569e-13
	2.254469385378277e-05,-2.205823073288447e-13
	4.534913100311156e-05,8.935622575636158e-13
	-4.001904204095568e-05,-1.324251278071638e-13
	-2.787478281593865e-05,-5.405548224276072e-13
	-2.254469385378277e-05,2.205823073288448e-13
	-4.534913100329163e-05,-8.935622575636160e-13
	-2.254469385378277e-05,2.205823073288448e-13
21		1.621810097358929e+00,0.000000000000000e+00
	-2.254469385378277e-01,2.257203293107265e-09
	1.000000000000000e+00,0.000000000000000e+00
	0.000000000000000e+00,0.000000000000000e+00
	7.503570229059830e-05,2.373853387692758e-13
	7.503570398144402e-05,2.564553650606290e-13
	2.254469385378277e-05,-2.257203293107264e-13
	4.534913100311156e-05,9.143759963314183e-13
	-4.001904204095568e-05,-1.355097052869540e-13
	-2.787478281593865e-05,-5.531459617337379e-13
	-2.254469385378277e-05,2.257203293107265e-13
	-4.534913100329163e-05,-9.143759963314183e-13
	-2.254469385378277e-05,2.257203293107265e-13
22		1.659586907437560e+00,0.000000000000000e+00
	-2.254469385378277e-01,2.309780311989705e-09
	1.000000000000000e+00,0.000000000000000e+00
	0.000000000000000e+00,0.000000000000000e+00
	7.503570229059830e-05,2.429147536327929e-13
	7.503570398144402e-05,2.624289778993442e-13
	2.254469385378277e-05,-2.309780311989705e-13
	4.534913100311156e-05,9.356745493556729e-13
	-4.001904204095568e-05,-1.386661318061703e-13
	-2.787478281593865e-05,-5.660303863505322e-13
	-2.254469385378277e-05,2.309780311989705e-13
	-4.534913100329163e-05,-9.356745493556729e-13
	-2.254469385378277e-05,2.309780311989705e-13
23		1.698243652461743e+00,0.000000000000000e+00
	-2.254469385378277e-01,2.363582006967119e-09
	1.000000000000000e+00,0.000000000000000e+00
	0.000000000000000e+00,0.000000000000000e+00
	7.503570229059830e-05,2.485729651140427e-13
	7.503570398144402e-05,2.685417340557998e-13
	2.254469385378277e-05,-2.363582006967119e-13
	4.534913100311156e-05,9.574692094111128e-13
	-4.001904204095568e-05,-1.418960809439334e-13
	-2.787478281593865e-05,-5.792149277704674e-13
	-2.254469385378277e-05,2.363582006967119e-13
	-4.534913100329163e-05,-9.574692094111128e-13
	-2.254469385378277e-05,2.363582006967119e-13
24		1.737800828749374e+00,0.000000000000000e+00
	-2.254469385378277e-01,2.418636904410332e-09
	1.000000000000000e+00,0.000000000000000e+00
	0.000000000000000e+00,0.000000000000000e+00
	7.503570229059830e-05,2.543629732716483e-13
	7.503570398144402e-05,2.747968745942219e-13
	2.254469385378277e-05,-2.418636904410333e-13
	4.534913100311156e-05,9.797715323149854e-13
	-4.001904204095568e-05,-1.452012652620298e-13
	-2.787478281593865e-05,-5.927065766119224e-13
	-2.254469385378277e-05,2.418636904410332e-13
	-4.534913100329163e-05,-9.797715323149856e-13
	-2.254469385378277e-05,2.418636904410332e-13
25		1.778279410038922e+00,0.000000000000000e+00
	-2.254469385378277e-01,2.474974195154710e-09
	1.000000000000000e+00,0.000000000000000e+00
	0.000000000000000e+00,0.000000000000000e+00
	7.503570229059830e-05,2.602878480445744e-13
	7.503570398144402e-05,2.811977160729204e-13
	2.254469385378277e-05,-2.474974195154710e-13
	4.534913100311156e-05,1.002593343054101e-12
	-4.001904204095568e-05,-1.485834372129339e-13
	-2.787478281593865e-05,-6.065124863256961e-13
	-2.254469385378277e-05,2.474974195154710e-13
	-4.534913100329163e-05,-1.002593343054101e-12
	-2.254469385378277e-05,2.474974195154710e-13
26		1.819700858609982e+00,0.000000000000000e+00
	-2.254469385378277e-01,2.532623749977514e-09
	1.000000000000000e+00,0.000000000000000e+00
	0.000000000000000e+00,0.000000000000000e+00
	7.503570229059830e-05,2.663507308798507e-13
	7.503570398144402e-05,2.877476523027726e-13
	2.254469385378277e-05,-2.532623749977514e-13
	4.534913100311156e-05,1.025946742054596e-12
	-4.001904204095568e-05,-1.520443900689826e-13
	-2.787478281593865e-05,-6.206399769878615e-13
	-2.254469385378277e-05,2.532623749977514e-13
	-4.534913100329163e-05,-1.025946742054596e-12
	-2.254469385378277e-05,2.532623749977514e-13
27		1.862087136662866e+00,0.000000000000000e+00
	-2.254469385378277e-01,2.591616135435795e-09
	1.000000000000000e+00,0.000000000000000e+00
	0.000000000000000e+00,0.000000000000000e+00
	7.503570229059830e-05,2.725548363982083e-13
	7.503570398144402e-05,2.944501561466662e-13
	2.254469385378277e-05,-2.591616135435795e-13
	4.534913100311156e-05,1.049844111597738e-12
	-4.001904204095568e-05,-1.555859588731914e-13
	-2.787478281593865e-05,-6.350965391809671e-13
	-2.254469385378277e-05,2.591616135435795e-13
	-4.534913100329163e-05,-1.049844111597738e-12
	-2.254469385378277e-05,2.591616135435795e-13
28		1.905460717963246e+00,0.000000000000000e+00
	-2.254469385378277e-01,2.651982630073178e-09
	1.000000000000000e+00,0.000000000000000e+00
	0.000000000000000e+00,0.000000000000000e+00
	7.503570229059830e-05,2.789034540985140e-13
	7.503570398144402e-05,3.013087813608573e-13
	2.254469385378277e-05,-2.651982630073178e-13
	4.534913100311156e-05,1.074298122385179e-12
	-4.001904204095568e-05,-1.592100214122184e-13
	-2.787478281593865e-05,-6.498898379656430e-13
	-2.254469385378277e-05,2.651982630073178e-13
	-4.534913100329163e-05,-1.074298122385179e-12
	-2.254469385378277e-05,2.651982630073178e-13
29		1.949844599758044e+00,0.000000000000000e+00
	-2.254469385378277e-01,2.713755241004167e-09
	1.000000000000000e+00,0.000000000000000e+00
	0.000000000000000e+00,0.000000000000000e+00
	7.503570229059830e-05,2.853999501019064e-13
	7.503570398144402e-05,3.083271644792192e-13
	2.254469385378277e-05,-2.713755241004167e-13
	4.534913100311156e-05,1.099321740257126e-12
	-4.001904204095568e-05,-1.629184992119919e-13
	-2.787478281593865e-05,-6.650277169447173e-13
	-2.254469385378277e-05,2.713755241004167e-13
	-4.534913100329163e-05,-1.099321740257126e-12
	-2.254469385378277e-05,2.713755241004167e-13
30		1.995262314968878e+00,0.000000000000000e+00
	-2.254469385378277e-01,2.776966720884733e-09
	1.000000000000000e+00,0.000000000000000e+00
	0.000000000000000e+00,0.000000000000000e+00
	7.503570229059830e-05,2.920477689365577e-13
	7.503570398144402e-05,3.155090267413805e-13
	2.254469385378277e-05,-2.776966720884733e-13
	4.534913100311156e-05,1.124928233067000e-12
	-4.001904204095568e-05,-1.667133585565289e-13
	-2.787478281593865e-05,-6.805182024219980e-13
	-2.254469385378277e-05,2.776966720884732e-13
	-4.534913100329163e-05,-1.124928233067000e-12
	-2.254469385378277e-05,2.776966720884732e-13
31		2.041737944669527e+00,0.000000000000000e+00
	-2.254469385378277e-01,2.841650585278211e-09
	1.000000000000000e+00,0.000000000000000e+00
	0.000000000000000e+00,0.000000000000000e+00
	7.503570229059830e-05,2.988504353640083e-13
	7.503570398144402e-05,3.228581760657756e-13
	2.254469385378277e-05,-2.841650585278212e-13
	4.534913100311156e-05,1.151131177716232e-12
	-4.001904204095568e-05,-1.705966115304847e-13
	-2.787478281593865e-05,-6.963695076579263e-13
	-2.254469385378277e-05,2.841650585278211e-13
	-4.534913100329163e-05,-1.151131177716232e-12
	-2.254469385378277e-05,2.841650585278211e-13
32		2.089296130854037e+00,0.000000000000000e+00
	-2.254469385378277e-01,2.907841130425698e-09
	1.000000000000000e+00,0.000000000000000e+00
	0.000000000000000e+00,0.000000000000000e+00
	7.503570229059830e-05,3.058115562480422e-13
