LTspice 24.0.9 for Windows
Circuit: * GA CMOS Amp | W=4.197562651105274e-05 L=4.230947888053579e-07 Vbias=0.6690611873320931
Start Time: Sat Sep  6 22:35:56 2025
solver = Normal
Maximum thread count: 2
tnom = 27
temp = 27
method = modified trap
AsciiRawFile = 1
Direct Newton iteration for .op point succeeded.
Semiconductor Device Operating Points:
                        --- BSIM4 MOSFETS ---
Name:      m1
Model:      n
Id:      1.78e-04
Vgs:     6.69e-01
Vds:     2.19e-02
Vbs:     0.00e+00
Vth:     2.56e-01
Vdsat:   3.17e-01
Gm:      1.81e-04
Gds:     7.84e-03
Gmb      1.86e-04
Cbd:     2.08e-14
Cbs:     3.36e-14


.measure op idd find i(vdd)
  Error: FIND can not be evaluated over an interval.

gain_db: MAX(db(v(out)/v(g)))=(32.6116dB,140.296°) FROM 1 TO 1e+09
gain_lin: MAX(mag(v(out)/v(g)))=(-11.6458dB,0°) FROM 1 TO 1e+09

Measurement "fc" FAIL'ed

Total elapsed time: 4.780 seconds.

