LTspice 24.0.9 for Windows
Circuit: * GA CMOS Amp | W=3.116032623062628e-05 L=9.755366554411863e-07 Vbias=0.8305569172887791
Start Time: Sat Sep  6 22:01:13 2025
solver = Normal
Maximum thread count: 2
tnom = 27
temp = 27
method = modified trap
AsciiRawFile = 1
Direct Newton iteration for .op point succeeded.
Semiconductor Device Operating Points:
                        --- BSIM4 MOSFETS ---
Name:      m1
Model:      n
Id:      1.74e-04
Vgs:     8.31e-01
Vds:     5.92e-02
Vbs:     0.00e+00
Vth:     2.36e-01
Vdsat:   4.36e-01
Gm:      6.85e-05
Gds:     2.73e-03
Gmb      1.46e-04
Cbd:     1.53e-14
Cbs:     2.49e-14


.measure op idd find i(vdd)
  Error: FIND can not be evaluated over an interval.

gain_db: MAX(db(v(out)/v(g)))=(32.5864dB,140.157°) FROM 1 TO 1e+09
gain_lin: MAX(mag(v(out)/v(g)))=(-2.48744dB,0°) FROM 1 TO 1e+09

Measurement "fc" FAIL'ed

Total elapsed time: 0.579 seconds.

