LTspice 24.0.9 for Windows
Circuit: * GA CMOS Amp | W=2.8534789766759692e-05 L=6.949864943104594e-07 Vbias=1.2189986113285713
Start Time: Sat Sep  6 22:06:46 2025
solver = Normal
Maximum thread count: 2
tnom = 27
temp = 27
method = modified trap
AsciiRawFile = 1
Direct Newton iteration for .op point succeeded.
Semiconductor Device Operating Points:
                        --- BSIM4 MOSFETS ---
Name:      m1
Model:      n
Id:      1.75e-04
Vgs:     1.22e+00
Vds:     4.52e-02
Vbs:     0.00e+00
Vth:     2.42e-01
Vdsat:   6.87e-01
Gm:     -1.34e-05
Gds:     3.80e-03
Gmb      9.99e-05
Cbd:     1.41e-14
Cbs:     2.28e-14


.measure op idd find i(vdd)
  Error: FIND can not be evaluated over an interval.

gain_db: MAX(db(v(out)/v(g)))=(32.9413dB,180°) FROM 1 TO 1e+09
gain_lin: MAX(mag(v(out)/v(g)))=(-5.81289dB,0°) FROM 1 TO 1e+09

Measurement "fc" FAIL'ed

Total elapsed time: 1.294 seconds.

