LTspice 24.0.9 for Windows
Circuit: * GA CMOS Amp | W=2.176621664078718e-05 L=6.817033609467396e-07 Vbias=1.3666186932818516
Start Time: Mon Sep  8 18:46:47 2025
solver = Normal
Maximum thread count: 2
tnom = 27
temp = 27
method = modified trap
AsciiRawFile = 1
Instance "m1": Length shorter than recommended for a level 3 MOSFET.
Direct Newton iteration for .op point succeeded.
Semiconductor Device Operating Points:
                        --- MOSFET Transistors ---
Name:          m1
Model:        n_1u
Id:          1.74e-04
Vgs:         1.37e+00
Vds:         5.98e-02
Vbs:         0.00e+00
Vth:         7.74e-01
Vdsat:       3.87e-01
Gm:          2.68e-04
Gds:         2.55e-03
Gmb:         5.69e-05
Cbd:         0.00e+00
Cbs:         0.00e+00
Cgsov:       4.35e-15
Cgdov:       4.35e-15
Cgbov:       4.82e-17
Cgs:         9.53e-15
Cgd:         8.53e-15
Cgb:         0.00e+00



gain_db: MAX(db(v(out)/v(g)))=(30.5704dB,126.093°) FROM 1 TO 1e+09
gain_lin: MAX(mag(v(out)/v(g)))=(-19.4929dB,0°) FROM 1 TO 1e+09

Measurement "fc" FAIL'ed

Total elapsed time: 0.418 seconds.

