Title: * GA CMOS Amp | W=2.3277433421123974e-05 L=9.71943027474546e-07 Vbias=1.4175404518344894
Date: Mon Sep  8 18:43:11 2025
Plotname: AC Analysis
Flags: complex forward log
No. Variables: 11
No. Points:          901
Offset:    0.0000000000000000e+00
Command: Linear Technology Corporation LTspice
Variables:
	0	frequency	frequency
	1	V(out)	voltage
	2	V(g)	voltage
	3	V(vdd)	voltage
	4	Id(M1)	device_current
	5	Ig(M1)	device_current
	6	Ib(M1)	device_current
	7	Is(M1)	device_current
	8	I(Rload)	device_current
	9	I(Vg)	device_current
	10	I(Vdd)	device_current
Values:
0		1.000000000000000e+00,0.000000000000000e+00
	-1.486547507400895e-01,8.705835369692124e-11
	1.000000000000000e+00,0.000000000000000e+00
	0.000000000000000e+00,0.000000000000000e+00
	1.486547507400891e-05,-8.705835369692122e-15
	1.084472524923490e-23,2.723746502400870e-13
	1.505968743806263e-13,7.177519345251980e-16
	-1.486547522460579e-05,-2.643865668049201e-13
	-1.486547507400895e-05,8.705835369692125e-15
	-1.084472524923490e-23,-2.723746502400870e-13
	-1.486547507400895e-05,8.705835369692125e-15
1		1.023292992280754e+00,0.000000000000000e+00
	-1.486547507400895e-01,8.908620325755880e-11
	1.000000000000000e+00,0.000000000000000e+00
	0.000000000000000e+00,0.000000000000000e+00
	1.486547507400891e-05,-8.908620325755888e-15
	1.135582140424227e-23,2.787190708656025e-13
	1.505968743806263e-13,7.344705247955898e-16
	-1.486547522460579e-05,-2.705449210646422e-13
	-1.486547507400895e-05,8.908620325755880e-15
	-1.135582140424227e-23,-2.787190708656025e-13
	-1.486547507400895e-05,8.908620325755880e-15
2		1.047128548050899e+00,0.000000000000000e+00
	-1.486547507400895e-01,9.116128750235880e-11
	1.000000000000000e+00,0.000000000000000e+00
	0.000000000000000e+00,0.000000000000000e+00
	1.486547507400891e-05,-9.116128750235883e-15
	1.189100477894954e-23,2.852112720317739e-13
	1.505968743806263e-13,7.515785410600837e-16
	-1.486547522460579e-05,-2.768467218225981e-13
	-1.486547507400895e-05,9.116128750235882e-15
	-1.189100477894954e-23,-2.852112720317739e-13
	-1.486547507400895e-05,9.116128750235882e-15
3		1.071519305237606e+00,0.000000000000000e+00
	-1.486547507400895e-01,9.328470666845485e-11
	1.000000000000000e+00,0.000000000000000e+00
	0.000000000000000e+00,0.000000000000000e+00
	1.486547507400891e-05,-9.328470666845461e-15
	1.245141056904773e-23,2.918546959895940e-13
	1.505968743806263e-13,7.690850542153809e-16
	-1.486547522460579e-05,-2.832953103769639e-13
	-1.486547507400895e-05,9.328470666845486e-15
	-1.245141056904773e-23,-2.918546959895940e-13
	-1.486547507400895e-05,9.328470666845486e-15
4		1.096478196143185e+00,0.000000000000000e+00
	-1.486547507400895e-01,9.545758662079555e-11
	1.000000000000000e+00,0.000000000000000e+00
	0.000000000000000e+00,0.000000000000000e+00
	1.486547507400891e-05,-9.545758662079561e-15
	1.303822747035257e-23,2.986528651703814e-13
	1.505968743806263e-13,7.869993464464353e-16
	-1.486547522460579e-05,-2.898941058547483e-13
	-1.486547507400895e-05,9.545758662079555e-15
	-1.303822747035257e-23,-2.986528651703814e-13
	-1.486547507400895e-05,9.545758662079555e-15
5		1.122018454301963e+00,0.000000000000000e+00
	-1.486547507400895e-01,9.768107944909318e-11
	1.000000000000000e+00,0.000000000000000e+00
	0.000000000000000e+00,0.000000000000000e+00
	1.486547507400891e-05,-9.768107944909317e-15
	1.365270020018764e-23,3.056093840534203e-13
	1.505968743806263e-13,8.053309161482129e-16
	-1.486547522460579e-05,-2.966466070246592e-13
	-1.486547507400895e-05,9.768107944909319e-15
	-1.365270020018764e-23,-3.056093840534203e-13
	-1.486547507400895e-05,9.768107944909319e-15
6		1.148153621496882e+00,0.000000000000000e+00
	-1.486547507400895e-01,9.995636407867663e-11
	1.000000000000000e+00,0.000000000000000e+00
	0.000000000000000e+00,0.000000000000000e+00
	1.486547507400891e-05,-9.995636407867655e-15
	1.429613213759671e-23,3.127279410771026e-13
	1.505968743806263e-13,8.240894829614269e-16
	-1.486547522460579e-05,-3.035563941521964e-13
	-1.486547507400895e-05,9.995636407867663e-15
	-1.429613213759671e-23,-3.127279410771026e-13
	-1.486547507400895e-05,9.995636407867663e-15
7		1.174897554939529e+00,0.000000000000000e+00
	-1.486547507400895e-01,1.022846468955735e-10
	1.000000000000000e+00,0.000000000000000e+00
	0.000000000000000e+00,0.000000000000000e+00
	1.486547507400891e-05,-1.022846468955735e-14
	1.496988808798544e-23,3.200123105945877e-13
	1.505968743806263e-13,8.432849929266894e-16
	-1.486547522460579e-05,-3.106271308979570e-13
	-1.486547507400895e-05,1.022846468955735e-14
	-1.496988808798544e-23,-3.200123105945877e-13
	-1.486547507400895e-05,1.022846468955735e-14
8		1.202264434617413e+00,0.000000000000000e+00
	-1.486547507400895e-01,1.046671623861517e-10
	1.000000000000000e+00,0.000000000000000e+00
	0.000000000000000e+00,0.000000000000000e+00
	1.486547507400891e-05,-1.046671623861517e-14
	1.567539717805665e-23,3.274663548750137e-13
	1.505968743806263e-13,8.629276237574601e-16
	-1.486547522460579e-05,-3.178625662601560e-13
	-1.486547507400895e-05,1.046671623861517e-14
	-1.567539717805665e-23,-3.274663548750137e-13
	-1.486547507400895e-05,1.046671623861517e-14
9		1.230268770812381e+00,0.000000000000000e+00
	-1.486547507400895e-01,1.071051737916608e-10
	1.000000000000000e+00,0.000000000000000e+00
	0.000000000000000e+00,0.000000000000000e+00
	1.486547507400891e-05,-1.071051737916607e-14
	1.641415588717964e-23,3.350940261513241e-13
	1.505968743806263e-13,8.830277902365108e-16
	-1.486547522460579e-05,-3.252665365623945e-13
	-1.486547507400895e-05,1.071051737916608e-14
	-1.641415588717964e-23,-3.350940261513241e-13
	-1.486547507400895e-05,1.071051737916608e-14
10		1.258925411794167e+00,0.000000000000000e+00
	-1.486547507400895e-01,1.095999737780188e-10
	1.000000000000000e+00,0.000000000000000e+00
	0.000000000000000e+00,0.000000000000000e+00
	1.486547507400891e-05,-1.095999737780188e-14
	1.718773122162354e-23,3.428993687157937e-13
	1.505968743806263e-13,9.035961497381540e-16
	-1.486547522460579e-05,-3.328429674877300e-13
	-1.486547507400895e-05,1.095999737780188e-14
	-1.718773122162354e-23,-3.428993687157937e-13
	-1.486547507400895e-05,1.095999737780188e-14
11		1.288249551693134e+00,0.000000000000000e+00
	-1.486547507400895e-01,1.121528851212011e-10
	1.000000000000000e+00,0.000000000000000e+00
	0.000000000000000e+00,0.000000000000000e+00
	1.486547507400891e-05,-1.121528851212009e-14
	1.799776403838777e-23,3.508865210643662e-13
	1.505968743806263e-13,9.246436078789354e-16
	-1.486547522460579e-05,-3.405958761601251e-13
	-1.486547507400895e-05,1.121528851212011e-14
	-1.799776403838777e-23,-3.508865210643662e-13
	-1.486547507400895e-05,1.121528851212011e-14
12		1.318256738556407e+00,0.000000000000000e+00
	-1.486547507400895e-01,1.147652614085935e-10
	1.000000000000000e+00,0.000000000000000e+00
	0.000000000000000e+00,0.000000000000000e+00
	1.486547507400891e-05,-1.147652614085933e-14
	1.884597252567968e-23,3.590597180909391e-13
	1.505968743806263e-13,9.461813242997444e-16
	-1.486547522460579e-05,-3.485293732743795e-13
	-1.486547507400895e-05,1.147652614085935e-14
	-1.884597252567968e-23,-3.590597180909391e-13
	-1.486547507400895e-05,1.147652614085935e-14
13		1.348962882591653e+00,0.000000000000000e+00
	-1.486547507400895e-01,1.174384877566826e-10
	1.000000000000000e+00,0.000000000000000e+00
	0.000000000000000e+00,0.000000000000000e+00
	1.486547507400891e-05,-1.174384877566830e-14
	1.973415584742210e-23,3.674232933327611e-13
	1.505968743806263e-13,9.682207185828521e-16
	-1.486547522460579e-05,-3.566476652756757e-13
	-1.486547507400895e-05,1.174384877566826e-14
	-1.973415584742210e-23,-3.674232933327611e-13
	-1.486547507400895e-05,1.174384877566826e-14
14		1.380384264602885e+00,0.000000000000000e+00
	-1.486547507400895e-01,1.201739815454624e-10
	1.000000000000000e+00,0.000000000000000e+00
	0.000000000000000e+00,0.000000000000000e+00
	1.486547507400891e-05,-1.201739815454624e-14
	2.066419795952128e-23,3.759816812681305e-13
	1.505968743806263e-13,9.907734763068028e-16
	-1.486547522460579e-05,-3.649550565898910e-13
	-1.486547507400895e-05,1.201739815454625e-14
	-2.066419795952128e-23,-3.759816812681305e-13
	-1.486547507400895e-05,1.201739815454625e-14
15		1.412537544622754e+00,0.000000000000000e+00
	-1.486547507400895e-01,1.229731931699484e-10
	1.000000000000000e+00,0.000000000000000e+00
	0.000000000000000e+00,0.000000000000000e+00
	1.486547507400891e-05,-1.229731931699485e-14
	2.163807160598988e-23,3.847394196676140e-13
	1.505968743806263e-13,1.013851555242368e-15
	-1.486547522460579e-05,-3.734559519058615e-13
	-1.486547507400895e-05,1.229731931699484e-14
	-2.163807160598988e-23,-3.847394196676140e-13
	-1.486547507400895e-05,1.229731931699484e-14
16		1.445439770745927e+00,0.000000000000000e+00
	-1.486547507400895e-01,1.258376068091957e-10
	1.000000000000000e+00,0.000000000000000e+00
	0.000000000000000e+00,0.000000000000000e+00
	1.486547507400891e-05,-1.258376068091955e-14
	2.265784250340157e-23,3.937011520000334e-13
	1.505968743806263e-13,1.037467191692515e-15
	-1.486547522460579e-05,-3.821548585108064e-13
	-1.486547507400895e-05,1.258376068091957e-14
	-2.265784250340157e-23,-3.937011520000334e-13
	-1.486547507400895e-05,1.258376068091957e-14
17		1.479108388168207e+00,0.000000000000000e+00
	-1.486547507400895e-01,1.287687412132308e-10
	1.000000000000000e+00,0.000000000000000e+00
	0.000000000000000e+00,0.000000000000000e+00
	1.486547507400891e-05,-1.287687412132308e-14
	2.372567372255284e-23,4.028716298944941e-13
	1.505968743806263e-13,1.061632906980198e-15
	-1.486547522460579e-05,-3.910563886801512e-13
	-1.486547507400895e-05,1.287687412132308e-14
	-2.372567372255284e-23,-4.028716298944941e-13
	-1.486547507400895e-05,1.287687412132308e-14
18		1.513561248436208e+00,0.000000000000000e+00
	-1.486547507400895e-01,1.317681505083130e-10
	1.000000000000000e+00,0.000000000000000e+00
	0.000000000000000e+00,0.000000000000000e+00
	1.486547507400891e-05,-1.317681505083132e-14
	2.484383027662614e-23,4.122557156597615e-13
	1.505968743806263e-13,1.086361514087415e-15
	-1.486547522460579e-05,-4.001652621230176e-13
	-1.486547507400895e-05,1.317681505083130e-14
	-2.484383027662614e-23,-4.122557156597615e-13
	-1.486547507400895e-05,1.317681505083130e-14
19		1.548816618912481e+00,0.000000000000000e+00
	-1.486547507400895e-01,1.348374250209524e-10
	1.000000000000000e+00,0.000000000000000e+00
	0.000000000000000e+00,0.000000000000000e+00
	1.486547507400891e-05,-1.348374250209525e-14
	2.601468392558650e-23,4.218583848623210e-13
	1.505968743806263e-13,1.111666124449205e-15
	-1.486547522460579e-05,-4.094863084846750e-13
	-1.486547507400895e-05,1.348374250209524e-14
	-2.601468392558650e-23,-4.218583848623210e-13
	-1.486547507400895e-05,1.348374250209524e-14
20		1.584893192461113e+00,0.000000000000000e+00
	-1.486547507400895e-01,1.379781921211222e-10
	1.000000000000000e+00,0.000000000000000e+00
	0.000000000000000e+00,0.000000000000000e+00
	1.486547507400891e-05,-1.379781921211220e-14
	2.724071820700247e-23,4.316847289644905e-13
	1.505968743806263e-13,1.137560154904734e-15
	-1.486547522460579e-05,-4.190244699072831e-13
	-1.486547507400895e-05,1.379781921211222e-14
	-2.724071820700247e-23,-4.316847289644905e-13
	-1.486547507400895e-05,1.379781921211222e-14
21		1.621810097358929e+00,0.000000000000000e+00
	-1.486547507400895e-01,1.411921170851119e-10
	1.000000000000000e+00,0.000000000000000e+00
	0.000000000000000e+00,0.000000000000000e+00
	1.486547507400891e-05,-1.411921170851118e-14
	2.852453370396220e-23,4.417399580239798e-13
	1.505968743806263e-13,1.164057334811816e-15
	-1.486547522460579e-05,-4.287848036502804e-13
	-1.486547507400895e-05,1.411921170851119e-14
	-2.852453370396220e-23,-4.417399580239798e-13
	-1.486547507400895e-05,1.411921170851119e-14
22		1.659586907437560e+00,0.000000000000000e+00
	-1.486547507400895e-01,1.444809039784788e-10
	1.000000000000000e+00,0.000000000000000e+00
	0.000000000000000e+00,0.000000000000000e+00
	1.486547507400891e-05,-1.444809039784786e-14
	2.986885356125889e-23,4.520294034563330e-13
	1.505968743806263e-13,1.191171713325962e-15
	-1.486547522460579e-05,-4.387724847718111e-13
	-1.486547507400895e-05,1.444809039784788e-14
	-2.986885356125889e-23,-4.520294034563330e-13
	-1.486547507400895e-05,1.444809039784788e-14
23		1.698243652461743e+00,0.000000000000000e+00
	-1.486547507400895e-01,1.478462965595659e-10
	1.000000000000000e+00,0.000000000000000e+00
	0.000000000000000e+00,0.000000000000000e+00
	1.486547507400891e-05,-1.478462965595658e-14
	3.127652926154595e-23,4.625585208617153e-13
	1.505968743806263e-13,1.218917666849448e-15
	-1.486547522460579e-05,-4.489928088726082e-13
	-1.486547507400895e-05,1.478462965595659e-14
	-3.127652926154595e-23,-4.625585208617153e-13
	-1.486547507400895e-05,1.478462965595659e-14
24		1.737800828749374e+00,0.000000000000000e+00
	-1.486547507400895e-01,1.512900792040659e-10
	1.000000000000000e+00,0.000000000000000e+00
	0.000000000000000e+00,0.000000000000000e+00
	1.486547507400891e-05,-1.512900792040662e-14
	3.275054667371408e-23,4.733328929175442e-13
	1.505968743806263e-13,1.247309906654366e-15
	-1.486547522460579e-05,-4.594511949037920e-13
	-1.486547507400895e-05,1.512900792040659e-14
	-3.275054667371408e-23,-4.733328929175442e-13
	-1.486547507400895e-05,1.512900792040659e-14
25		1.778279410038922e+00,0.000000000000000e+00
	-1.486547507400895e-01,1.548140778511209e-10
	1.000000000000000e+00,0.000000000000000e+00
	0.000000000000000e+00,0.000000000000000e+00
	1.486547507400891e-05,-1.548140778511207e-14
	3.429403238631944e-23,4.843582323384996e-13
	1.505968743806263e-13,1.276363486681665e-15
	-1.486547522460579e-05,-4.701531880400692e-13
	-1.486547507400895e-05,1.548140778511209e-14
	-3.429403238631944e-23,-4.843582323384996e-13
	-1.486547507400895e-05,1.548140778511209e-14
26		1.819700858609982e+00,0.000000000000000e+00
	-1.486547507400895e-01,1.584201609714591e-10
	1.000000000000000e+00,0.000000000000000e+00
	0.000000000000000e+00,0.000000000000000e+00
	1.486547507400891e-05,-1.584201609714586e-14
	3.591026033949720e-23,4.956403849054799e-13
	1.505968743806263e-13,1.306093811524474e-15
	-1.486547522460579e-05,-4.811044626198585e-13
	-1.486547507400895e-05,1.584201609714591e-14
	-3.591026033949720e-23,-4.956403849054799e-13
	-1.486547507400895e-05,1.584201609714591e-14
27		1.862087136662866e+00,0.000000000000000e+00
	-1.486547507400895e-01,1.621102405580831e-10
	1.000000000000000e+00,0.000000000000000e+00
	0.000000000000000e+00,0.000000000000000e+00
	1.486547507400891e-05,-1.621102405580834e-14
	3.760265876942749e-23,5.071853325651132e-13
	1.505968743806263e-13,1.336516644594294e-15
	-1.486547522460579e-05,-4.923108251538991e-13
	-1.486547507400895e-05,1.621102405580831e-14
	-3.760265876942749e-23,-5.071853325651132e-13
	-1.486547507400895e-05,1.621102405580831e-14
28		1.905460717963246e+00,0.000000000000000e+00
	-1.486547507400895e-01,1.658862731400337e-10
	1.000000000000000e+00,0.000000000000000e+00
	0.000000000000000e+00,0.000000000000000e+00
	1.486547507400891e-05,-1.658862731400333e-14
	3.937481748008404e-23,5.189991966014641e-13
	1.505968743806263e-13,1.367648116479786e-15
	-1.486547522460579e-05,-5.037782174039405e-13
	-1.486547507400895e-05,1.658862731400338e-14
	-3.937481748008404e-23,-5.189991966014641e-13
	-1.486547507400895e-05,1.658862731400338e-14
29		1.949844599758044e+00,0.000000000000000e+00
	-1.486547507400895e-01,1.697502608197676e-10
	1.000000000000000e+00,0.000000000000000e+00
	0.000000000000000e+00,0.000000000000000e+00
	1.486547507400891e-05,-1.697502608197678e-14
	4.123049545768958e-23,5.310882408816197e-13
	1.505968743806263e-13,1.399504733499896e-15
	-1.486547522460579e-05,-5.155127195331428e-13
	-1.486547507400895e-05,1.697502608197676e-14
	-4.123049545768958e-23,-5.310882408816197e-13
	-1.486547507400895e-05,1.697502608197676e-14
30		1.995262314968878e+00,0.000000000000000e+00
	-1.486547507400895e-01,1.737042523346985e-10
	1.000000000000000e+00,0.000000000000000e+00
	0.000000000000000e+00,0.000000000000000e+00
	1.486547507400891e-05,-1.737042523346986e-14
	4.317362884402969e-23,5.434588751768744e-13
	1.505968743806263e-13,1.432103386454078e-15
	-1.486547522460579e-05,-5.275205533298586e-13
	-1.486547507400895e-05,1.737042523346985e-14
	-4.317362884402969e-23,-5.434588751768744e-13
	-1.486547507400895e-05,1.737042523346985e-14
31		2.041737944669527e+00,0.000000000000000e+00
	-1.486547507400895e-01,1.777503441434647e-10
	1.000000000000000e+00,0.000000000000000e+00
	0.000000000000000e+00,0.000000000000000e+00
	1.486547507400891e-05,-1.777503441434643e-14
	4.520833928553723e-23,5.561176585612766e-13
	1.505968743806263e-13,1.465461359579861e-15
	-1.486547522460579e-05,-5.398080855065101e-13
	-1.486547507400895e-05,1.777503441434647e-14
	-4.520833928553723e-23,-5.561176585612766e-13
	-1.486547507400895e-05,1.777503441434647e-14
32		2.089296130854037e+00,0.000000000000000e+00
	-1.486547507400895e-01,1.818906815374999e-10
	1.000000000000000e+00,0.000000000000000e+00
	0.000000000000000e+00,0.000000000000000e+00
	1.486547507400891e-05,-1.818906815374996e-14
	4.733894267585705e-23,5.690713028893356e-13
	1.505968743806263e-13,1.499596339716464e-15
	-1.486547522460579e-05,-5.523818310753021e-13
	-1.486547507400895e-05,1.818906815374999e-14
	-4.733894267585705e-23,-5.690713028893356e-13
	-1.486547507400895e-05,1.818906815374999e-14
33		2.137962089502230e+00,0.000000000000000e+00
	-1.486547507400895e-01,1.861274597784939e-10
	1.000000000000000e+00,0.000000000000000e+00
	0.000000000000000e+00,0.000000000000000e+00
	1.486547507400891e-05,-1.861274597784935e-14
	4.956995831043495e-23,5.823266763547355e-13
	1.505968743806263e-13,1.534526425681714e-15
	-1.486547522460579e-05,-5.652484568025679e-13
	-1.486547507400895e-05,1.861274597784939e-14
	-4.956995831043495e-23,-5.823266763547355e-13
	-1.486547507400895e-05,1.861274597784939e-14
34		2.187761623949550e+00,0.000000000000000e+00
	-1.486547507400895e-01,1.904629252623508e-10
	1.000000000000000e+00,0.000000000000000e+00
	0.000000000000000e+00,0.000000000000000e+00
	1.486547507400891e-05,-1.904629252623509e-14
	5.190611847254937e-23,5.958908071319435e-13
	1.505968743806263e-13,1.570270137869790e-15
	-1.486547522460579e-05,-5.784147847435782e-13
	-1.486547507400895e-05,1.904629252623508e-14
	-5.190611847254937e-23,-5.958908071319435e-13
	-1.486547507400895e-05,1.904629252623508e-14
35		2.238721138568337e+00,0.000000000000000e+00
	-1.486547507400895e-01,1.948993767102565e-10
	1.000000000000000e+00,0.000000000000000e+00
	0.000000000000000e+00,0.000000000000000e+00
	1.486547507400891e-05,-1.948993767102567e-14
	5.435237847111859e-23,6.097708871026403e-13
	1.505968743806263e-13,1.606846428069759e-15
	-1.486547522460579e-05,-5.918877958596844e-13
	-1.486547507400895e-05,1.948993767102566e-14
	-5.435237847111859e-23,-6.097708871026403e-13
	-1.486547507400895e-05,1.948993767102566e-14
36		2.290867652767770e+00,0.000000000000000e+00
	-1.486547507400895e-01,1.994391663874924e-10
	1.000000000000000e+00,0.000000000000000e+00
	0.000000000000000e+00,0.000000000000000e+00
	1.486547507400891e-05,-1.994391663874917e-14
	5.691392715157538e-23,6.239742756689506e-13
	1.505968743806263e-13,1.644274689515278e-15
	-1.486547522460579e-05,-6.056746337197167e-13
	-1.486547507400895e-05,1.994391663874924e-14
	-5.691392715157538e-23,-6.239742756689506e-13
	-1.486547507400895e-05,1.994391663874924e-14
37		2.344228815319919e+00,0.000000000000000e+00
	-1.486547507400895e-01,2.040847013506362e-10
	1.000000000000000e+00,0.000000000000000e+00
	0.000000000000000e+00,0.000000000000000e+00
	1.486547507400891e-05,-2.040847013506364e-14
	5.959619790210378e-23,6.385085036554965e-13
	1.505968743806263e-13,1.682574767165592e-15
	-1.486547522460579e-05,-6.197826082875985e-13
	-1.486547507400895e-05,2.040847013506362e-14
	-5.959619790210378e-23,-6.385085036554965e-13
	-1.486547507400895e-05,2.040847013506362e-14
38		2.398832919019488e+00,0.000000000000000e+00
	-1.486547507400895e-01,2.088384447238166e-10
	1.000000000000000e+00,0.000000000000000e+00
	0.000000000000000e+00,0.000000000000000e+00
