Title: * GA CMOS Amp | W=2.4259875572679773e-06 L=1e-06 Vbias=1.4845072957184264
Date: Sat Sep  6 22:15:54 2025
Plotname: AC Analysis
Flags: complex forward log
No. Variables: 13
No. Points:          901
Offset:    0.0000000000000000e+00
Command: Linear Technology Corporation LTspice
Variables:
	0	frequency	frequency
	1	V(out)	voltage
	2	V(g)	voltage
	3	V(vdd)	voltage
	4	V(m1#dbody)	voltage
	5	V(m1#sbody)	voltage
	6	Id(M1)	device_current
	7	Ig(M1)	device_current
	8	Ib(M1)	device_current
	9	Is(M1)	device_current
	10	I(Rload)	device_current
	11	I(Vg)	device_current
	12	I(Vdd)	device_current
Values:
0		1.000000000000000e+00,0.000000000000000e+00
	-3.051551910640771e-01,1.547441104853321e-09
	1.000000000000000e+00,0.000000000000000e+00
	0.000000000000000e+00,0.000000000000000e+00
	8.210191548412407e-05,1.464482595057016e-13
	8.210191777278166e-05,1.608035601998441e-13
	3.051551910640771e-05,-1.547441104853321e-13
	4.905307271840141e-05,5.374509700454628e-13
	-4.378768935932932e-05,-8.480788233767962e-14
	-3.578090246547979e-05,-2.978989772224511e-13
	-3.051551910640771e-05,1.547441104853321e-13
	-4.905307271885206e-05,-5.374509700454628e-13
	-3.051551910640771e-05,1.547441104853321e-13
1		1.023292992280754e+00,0.000000000000000e+00
	-3.051551910640771e-01,1.583485638563591e-09
	1.000000000000000e+00,0.000000000000000e+00
	0.000000000000000e+00,0.000000000000000e+00
	8.210191548412407e-05,1.498594776838978e-13
	8.210191777278166e-05,1.645491562862968e-13
	3.051551910640771e-05,-1.583485638563591e-13
	4.905307271840141e-05,5.499698113420155e-13
	-4.378768935932932e-05,-8.678331168631832e-14
	-3.578090246547979e-05,-3.048379357993382e-13
	-3.051551910640771e-05,1.583485638563591e-13
	-4.905307271885206e-05,-5.499698113420156e-13
	-3.051551910640771e-05,1.583485638563591e-13
2		1.047128548050899e+00,0.000000000000000e+00
	-3.051551910640771e-01,1.620369757319337e-09
	1.000000000000000e+00,0.000000000000000e+00
	0.000000000000000e+00,0.000000000000000e+00
	8.210191548412407e-05,1.533501533407867e-13
	8.210191777278166e-05,1.683819985134781e-13
	3.051551910640771e-05,-1.620369757319337e-13
	4.905307271840141e-05,5.627802539122528e-13
	-4.378768935932932e-05,-8.880475469552598e-14
	-3.578090246547979e-05,-3.119385234847931e-13
	-3.051551910640771e-05,1.620369757319338e-13
	-4.905307271885206e-05,-5.627802539122529e-13
	-3.051551910640771e-05,1.620369757319338e-13
3		1.071519305237606e+00,0.000000000000000e+00
	-3.051551910640771e-01,1.658113017568544e-09
	1.000000000000000e+00,0.000000000000000e+00
	0.000000000000000e+00,0.000000000000000e+00
	8.210191548412407e-05,1.569221372788061e-13
	8.210191777278166e-05,1.723041191050705e-13
	3.051551910640771e-05,-1.658113017568544e-13
	4.905307271840141e-05,5.758890900223917e-13
	-4.378768935932932e-05,-9.087328316114312e-14
	-3.578090246547979e-05,-3.192045051043942e-13
	-3.051551910640771e-05,1.658113017568544e-13
	-4.905307271885206e-05,-5.758890900223918e-13
	-3.051551910640771e-05,1.658113017568544e-13
4		1.096478196143185e+00,0.000000000000000e+00
	-3.051551910640771e-01,1.696735431287386e-09
	1.000000000000000e+00,0.000000000000000e+00
	0.000000000000000e+00,0.000000000000000e+00
	8.210191548412407e-05,1.605773234111207e-13
	8.210191777278166e-05,1.763175976213270e-13
	3.051551910640771e-05,-1.696735431287386e-13
	4.905307271840141e-05,5.893032701508538e-13
	-4.378768935932932e-05,-9.298999384434240e-14
	-3.578090246547979e-05,-3.266397331777728e-13
	-3.051551910640771e-05,1.696735431287386e-13
	-4.905307271885206e-05,-5.893032701508538e-13
	-3.051551910640771e-05,1.696735431287386e-13
5		1.122018454301963e+00,0.000000000000000e+00
	-3.051551910640771e-01,1.736257476590845e-09
	1.000000000000000e+00,0.000000000000000e+00
	0.000000000000000e+00,0.000000000000000e+00
	8.210191548412407e-05,1.643176497658001e-13
	8.210191777278166e-05,1.804245620616817e-13
	3.051551910640771e-05,-1.736257476590845e-13
	4.905307271840141e-05,6.030299066735009e-13
	-4.378768935932932e-05,-9.515600905314606e-14
	-3.578090246547979e-05,-3.342481499612703e-13
	-3.051551910640771e-05,1.736257476590845e-13
	-4.905307271885206e-05,-6.030299066735009e-13
	-3.051551910640771e-05,1.736257476590845e-13
6		1.148153621496882e+00,0.000000000000000e+00
	-3.051551910640771e-01,1.776700108590478e-09
	1.000000000000000e+00,0.000000000000000e+00
	0.000000000000000e+00,0.000000000000000e+00
	8.210191548412407e-05,1.681450995133866e-13
	8.210191777278166e-05,1.846271899930429e-13
	3.051551910640771e-05,-1.776700108590477e-13
	4.905307271840141e-05,6.170762776347106e-13
	-4.378768935932932e-05,-9.737247723748836e-14
	-3.578090246547979e-05,-3.420337895381745e-13
	-3.051551910640771e-05,1.776700108590478e-13
	-4.905307271885206e-05,-6.170762776347106e-13
	-3.051551910640771e-05,1.776700108590478e-13
7		1.174897554939529e+00,0.000000000000000e+00
	-3.051551910640771e-01,1.818084770505090e-09
	1.000000000000000e+00,0.000000000000000e+00
	0.000000000000000e+00,0.000000000000000e+00
	8.210191548412407e-05,1.720617020183985e-13
	8.210191777278166e-05,1.889277097043682e-13
	3.051551910640771e-05,-1.818084770505090e-13
	4.905307271840141e-05,6.314498306062923e-13
	-4.378768935932932e-05,-9.964057359813906e-14
	-3.578090246547979e-05,-3.500007799576442e-13
	-3.051551910640771e-05,1.818084770505091e-13
	-4.905307271885206e-05,-6.314498306062923e-13
	-3.051551910640771e-05,1.818084770505091e-13
8		1.202264434617413e+00,0.000000000000000e+00
	-3.051551910640771e-01,1.860433405030222e-09
	1.000000000000000e+00,0.000000000000000e+00
	0.000000000000000e+00,0.000000000000000e+00
	8.210191548412407e-05,1.760695339153265e-13
	8.210191777278166e-05,1.933284013881326e-13
	3.051551910640771e-05,-1.860433405030222e-13
	4.905307271840141e-05,6.461581866362882e-13
	-4.378768935932932e-05,-1.019615007098104e-13
	-3.578090246547979e-05,-3.581533454234556e-13
	-3.051551910640771e-05,1.860433405030222e-13
	-4.905307271885206e-05,-6.461581866362881e-13
	-3.051551910640771e-05,1.860433405030222e-13
9		1.230268770812381e+00,0.000000000000000e+00
	-3.051551910640771e-01,1.903768465972448e-09
	1.000000000000000e+00,0.000000000000000e+00
	0.000000000000000e+00,0.000000000000000e+00
	8.210191548412407e-05,1.801707202096921e-13
	8.210191777278166e-05,1.978315983493169e-13
	3.051551910640771e-05,-1.903768465972448e-13
	4.905307271840141e-05,6.612091442897534e-13
	-4.378768935932932e-05,-1.043364891587781e-13
	-3.578090246547979e-05,-3.664958085337304e-13
	-3.051551910640771e-05,1.903768465972448e-13
	-4.905307271885206e-05,-6.612091442897534e-13
	-3.051551910640771e-05,1.903768465972448e-13
10		1.258925411794167e+00,0.000000000000000e+00
	-3.051551910640771e-01,1.948112930154688e-09
	1.000000000000000e+00,0.000000000000000e+00
	0.000000000000000e+00,0.000000000000000e+00
	8.210191548412407e-05,1.843674354047544e-13
	8.210191777278166e-05,2.024396882425568e-13
	3.051551910640771e-05,-1.948112930154687e-13
	4.905307271840141e-05,6.766106837836586e-13
	-4.378768935932932e-05,-1.067667981953546e-13
	-3.578090246547979e-05,-3.750325925728353e-13
	-3.051551910640771e-05,1.948112930154688e-13
	-4.905307271885206e-05,-6.766106837836587e-13
	-3.051551910640771e-05,1.948112930154688e-13
11		1.288249551693134e+00,0.000000000000000e+00
	-3.051551910640771e-01,1.993490309598818e-09
	1.000000000000000e+00,0.000000000000000e+00
	0.000000000000000e+00,0.000000000000000e+00
	8.210191548412407e-05,1.886619046544599e-13
	8.210191777278166e-05,2.071551143381090e-13
	3.051551910640771e-05,-1.993490309598818e-13
	4.905307271840141e-05,6.923709712181073e-13
	-4.378768935932932e-05,-1.092537164015598e-13
	-3.578090246547979e-05,-3.837682238566657e-13
	-3.051551910640771e-05,1.993490309598818e-13
	-4.905307271885206e-05,-6.923709712181073e-13
	-3.051551910640771e-05,1.993490309598818e-13
12		1.318256738556407e+00,0.000000000000000e+00
	-3.051551910640771e-01,2.039924663992062e-09
	1.000000000000000e+00,0.000000000000000e+00
	0.000000000000000e+00,0.000000000000000e+00
	8.210191548412407e-05,1.930564049432485e-13
	8.210191777278166e-05,2.119803768173052e-13
	3.051551910640771e-05,-2.039924663992062e-13
	4.905307271840141e-05,7.084983629061088e-13
	-4.378768935932932e-05,-1.117985623743450e-13
	-3.578090246547979e-05,-3.927073341325576e-13
	-3.051551910640771e-05,2.039924663992062e-13
	-4.905307271885206e-05,-7.084983629061090e-13
	-3.051551910640771e-05,2.039924663992062e-13
13		1.348962882591653e+00,0.000000000000000e+00
	-3.051551910640771e-01,2.087440613443748e-09
	1.000000000000000e+00,0.000000000000000e+00
	0.000000000000000e+00,0.000000000000000e+00
	8.210191548412407e-05,1.975532662933418e-13
	8.210191777278166e-05,2.169180340981821e-13
	3.051551910640771e-05,-2.087440613443749e-13
	4.905307271840141e-05,7.250014098042078e-13
	-4.378768935932932e-05,-1.144026854247301e-13
	-3.578090246547979e-05,-4.018546630351029e-13
	-3.051551910640771e-05,2.087440613443748e-13
	-4.905307271885206e-05,-7.250014098042079e-13
	-3.051551910640771e-05,2.087440613443748e-13
14		1.380384264602885e+00,0.000000000000000e+00
	-3.051551910640771e-01,2.136063351539227e-09
	1.000000000000000e+00,0.000000000000000e+00
	0.000000000000000e+00,0.000000000000000e+00
	8.210191548412407e-05,2.021548730001503e-13
	8.210191777278166e-05,2.219707041919874e-13
	3.051551910640771e-05,-2.136063351539227e-13
	4.905307271840141e-05,7.418888620463132e-13
	-4.378768935932932e-05,-1.170674662932258e-13
	-3.578090246547979e-05,-4.112150605991646e-13
	-3.051551910640771e-05,2.136063351539227e-13
	-4.905307271885206e-05,-7.418888620463132e-13
	-3.051551910640771e-05,2.136063351539227e-13
15		1.412537544622754e+00,0.000000000000000e+00
	-3.051551910640771e-01,2.185818658697831e-09
	1.000000000000000e+00,0.000000000000000e+00
	0.000000000000000e+00,0.000000000000000e+00
	8.210191548412407e-05,2.068636648964597e-13
	8.210191777278166e-05,2.271410660912850e-13
	3.051551910640771e-05,-2.185818658697831e-13
	4.905307271840141e-05,7.591696735831353e-13
	-4.378768935932932e-05,-1.197943178819214e-13
	-3.578090246547979e-05,-4.207934898314308e-13
	-3.051551910640771e-05,2.185818658697831e-13
	-4.905307271885206e-05,-7.591696735831355e-13
	-3.051551910640771e-05,2.185818658697831e-13
16		1.445439770745927e+00,0.000000000000000e+00
	-3.051551910640771e-01,2.236732915842008e-09
	1.000000000000000e+00,0.000000000000000e+00
	0.000000000000000e+00,0.000000000000000e+00
	8.210191548412407e-05,2.116821386460613e-13
	8.210191777278166e-05,2.324318611903915e-13
	3.051551910640771e-05,-2.236732915842008e-13
	4.905307271840141e-05,7.768530069296898e-13
	-4.378768935932932e-05,-1.225846860036232e-13
	-3.578090246547979e-05,-4.305950293418658e-13
	-3.051551910640771e-05,2.236732915842008e-13
	-4.905307271885206e-05,-7.768530069296899e-13
	-3.051551910640771e-05,2.236732915842008e-13
17		1.479108388168207e+00,0.000000000000000e+00
	-3.051551910640771e-01,2.288833118384824e-09
	1.000000000000000e+00,0.000000000000000e+00
	0.000000000000000e+00,0.000000000000000e+00
	8.210191548412407e-05,2.166128490675176e-13
	8.210191777278166e-05,2.378458947389006e-13
	3.051551910640771e-05,-2.288833118384825e-13
	4.905307271840141e-05,7.949482380233836e-13
	-4.378768935932932e-05,-1.254400501484442e-13
	-3.578090246547979e-05,-4.406248760364569e-13
	-3.051551910640771e-05,2.288833118384824e-13
	-4.905307271885206e-05,-7.949482380233836e-13
	-3.051551910640771e-05,2.288833118384824e-13
18		1.513561248436208e+00,0.000000000000000e+00
	-3.051551910640771e-01,2.342146890543297e-09
	1.000000000000000e+00,0.000000000000000e+00
	0.000000000000000e+00,0.000000000000000e+00
	8.210191548412407e-05,2.216584104887595e-13
	8.210191777278166e-05,2.433860373290628e-13
	3.051551910640771e-05,-2.342146890543297e-13
	4.905307271840141e-05,8.134649611952615e-13
	-4.378768935932932e-05,-1.283619242682494e-13
	-3.578090246547979e-05,-4.508883478726824e-13
	-3.051551910640771e-05,2.342146890543297e-13
	-4.905307271885206e-05,-8.134649611952613e-13
	-3.051551910640771e-05,2.342146890543297e-13
19		1.548816618912481e+00,0.000000000000000e+00
	-3.051551910640771e-01,2.396702499985114e-09
	1.000000000000000e+00,0.000000000000000e+00
	0.000000000000000e+00,0.000000000000000e+00
	8.210191548412407e-05,2.268214981332383e-13
	8.210191777278166e-05,2.490552264178121e-13
	3.051551910640771e-05,-2.396702499985114e-13
	4.905307271840141e-05,8.324129942570466e-13
	-4.378768935932932e-05,-1.313518575793724e-13
	-3.578090246547979e-05,-4.613908866791627e-13
	-3.051551910640771e-05,2.396702499985114e-13
	-4.905307271885206e-05,-8.324129942570467e-13
	-3.051551910640771e-05,2.396702499985114e-13
20		1.584893192461113e+00,0.000000000000000e+00
	-3.051551910640771e-01,2.452528872816532e-09
	1.000000000000000e+00,0.000000000000000e+00
	0.000000000000000e+00,0.000000000000000e+00
	8.210191548412407e-05,2.321048495383650e-13
	8.210191777278166e-05,2.548564678842436e-13
	3.051551910640771e-05,-2.452528872816530e-13
	4.905307271840141e-05,8.518023837066754e-13
	-4.378768935932932e-05,-1.344114353840315e-13
	-3.578090246547979e-05,-4.721380610409909e-13
	-3.051551910640771e-05,2.452528872816532e-13
	-4.905307271885206e-05,-8.518023837066755e-13
	-3.051551910640771e-05,2.452528872816532e-13
21		1.621810097358929e+00,0.000000000000000e+00
	-3.051551910640771e-01,2.509655608919373e-09
	1.000000000000000e+00,0.000000000000000e+00
	0.000000000000000e+00,0.000000000000000e+00
	8.210191548412407e-05,2.375112660069877e-13
	8.210191777278166e-05,2.607928376233715e-13
	3.051551910640771e-05,-2.509655608919374e-13
	4.905307271840141e-05,8.716434100550829e-13
	-4.378768935932932e-05,-1.375422799108768e-13
	-3.578090246547979e-05,-4.831355692522687e-13
	-3.051551910640771e-05,2.509655608919373e-13
	-4.905307271885206e-05,-8.716434100550829e-13
	-3.051551910640771e-05,2.509655608919373e-13
22		1.659586907437560e+00,0.000000000000000e+00
	-3.051551910640771e-01,2.568112997645283e-09
	1.000000000000000e+00,0.000000000000000e+00
	0.000000000000000e+00,0.000000000000000e+00
	8.210191548412407e-05,2.430436140926806e-13
	8.210191777278166e-05,2.668674831770087e-13
	3.051551910640771e-05,-2.568112997645284e-13
	4.905307271840141e-05,8.919465932770663e-13
	-4.378768935932932e-05,-1.407460511751182e-13
	-3.578090246547979e-05,-4.943892423374196e-13
	-3.051551910640771e-05,2.568112997645283e-13
	-4.905307271885206e-05,-8.919465932770664e-13
	-3.051551910640771e-05,2.568112997645283e-13
23		1.698243652461743e+00,0.000000000000000e+00
	-3.051551910640771e-01,2.627932033875540e-09
	1.000000000000000e+00,0.000000000000000e+00
	0.000000000000000e+00,0.000000000000000e+00
	8.210191548412407e-05,2.487048271196280e-13
	8.210191777278166e-05,2.730836254026350e-13
	3.051551910640771e-05,-2.627932033875540e-13
	4.905307271840141e-05,9.127226983891137e-13
	-4.378768935932932e-05,-1.440244478586868e-13
	-3.578090246547979e-05,-5.059050471428730e-13
	-3.051551910640771e-05,2.627932033875540e-13
	-4.905307271885206e-05,-9.127226983891139e-13
	-3.051551910640771e-05,2.627932033875540e-13
24		1.737800828749374e+00,0.000000000000000e+00
	-3.051551910640771e-01,2.689144434454948e-09
	1.000000000000000e+00,0.000000000000000e+00
	0.000000000000000e+00,0.000000000000000e+00
	8.210191548412407e-05,2.544979067379118e-13
	8.210191777278166e-05,2.794445601811390e-13
	3.051551910640771e-05,-2.689144434454948e-13
	4.905307271840141e-05,9.339827411571604e-13
	-4.378768935932932e-05,-1.473792082108991e-13
	-3.578090246547979e-05,-5.176890895007664e-13
	-3.051551910640771e-05,2.689144434454948e-13
	-4.905307271885206e-05,-9.339827411571606e-13
	-3.051551910640771e-05,2.689144434454948e-13
25		1.778279410038922e+00,0.000000000000000e+00
	-3.051551910640771e-01,2.751782655008541e-09
	1.000000000000000e+00,0.000000000000000e+00
	0.000000000000000e+00,0.000000000000000e+00
	8.210191548412407e-05,2.604259245150260e-13
	8.210191777278166e-05,2.859536601643369e-13
	3.051551910640771e-05,-2.751782655008540e-13
	4.905307271840141e-05,9.557379939372918e-13
	-4.378768935932932e-05,-1.508121109700992e-13
	-3.578090246547979e-05,-5.297476174663386e-13
	-3.051551910640771e-05,2.751782655008541e-13
	-4.905307271885206e-05,-9.557379939372918e-13
	-3.051551910640771e-05,2.751782655008541e-13
26		1.819700858609982e+00,0.000000000000000e+00
	-3.051551910640771e-01,2.815879907149967e-09
	1.000000000000000e+00,0.000000000000000e+00
	0.000000000000000e+00,0.000000000000000e+00
	8.210191548412407e-05,2.664920235644627e-13
	8.210191777278166e-05,2.926143765631982e-13
	3.051551910640771e-05,-2.815879907149967e-13
	4.905307271840141e-05,9.779999916524964e-13
	-4.378768935932932e-05,-1.543249763067700e-13
	-3.578090246547979e-05,-5.420870246307298e-13
	-3.051551910640771e-05,2.815879907149968e-13
	-4.905307271885206e-05,-9.779999916524966e-13
	-3.051551910640771e-05,2.815879907149968e-13
27		1.862087136662866e+00,0.000000000000000e+00
	-3.051551910640771e-01,2.881470176090742e-09
	1.000000000000000e+00,0.000000000000000e+00
	0.000000000000000e+00,0.000000000000000e+00
	8.210191548412407e-05,2.726994202122323e-13
	8.210191777278166e-05,2.994302409777224e-13
	3.051551910640771e-05,-2.881470176090742e-13
	4.905307271840141e-05,1.000780537908636e-12
	-4.378768935932932e-05,-1.579196667886111e-13
	-3.578090246547979e-05,-5.547138535109503e-13
	-3.051551910640771e-05,2.881470176090743e-13
	-4.905307271885206e-05,-1.000780537908636e-12
	-3.051551910640771e-05,2.881470176090743e-13
28		1.905460717963246e+00,0.000000000000000e+00
	-3.051551910640771e-01,2.948588238659647e-09
	1.000000000000000e+00,0.000000000000000e+00
	0.000000000000000e+00,0.000000000000000e+00
	8.210191548412407e-05,2.790514057022019e-13
	8.210191777278166e-05,3.064048672694409e-13
	3.051551910640771e-05,-2.948588238659647e-13
	4.905307271840141e-05,1.024091711252870e-12
	-4.378768935932932e-05,-1.615980883680974e-13
	-3.578090246547979e-05,-5.676347990188081e-13
	-3.051551910640771e-05,2.948588238659647e-13
	-4.905307271885206e-05,-1.024091711252870e-12
	-3.051551910640771e-05,2.948588238659647e-13
29		1.949844599758044e+00,0.000000000000000e+00
	-3.051551910640771e-01,3.017269681741869e-09
	1.000000000000000e+00,0.000000000000000e+00
	0.000000000000000e+00,0.000000000000000e+00
	8.210191548412407e-05,2.855513479411569e-13
	8.210191777278166e-05,3.135419534775335e-13
	3.051551910640771e-05,-3.017269681741868e-13
	4.905307271840141e-05,1.047945871577868e-12
	-4.378768935932932e-05,-1.653621913930402e-13
	-3.578090246547979e-05,-5.808567120106408e-13
	-3.051551910640771e-05,3.017269681741869e-13
	-4.905307271885206e-05,-1.047945871577868e-12
	-3.051551910640771e-05,3.017269681741869e-13
30		1.995262314968878e+00,0.000000000000000e+00
	-3.051551910640771e-01,3.087550921147635e-09
	1.000000000000000e+00,0.000000000000000e+00
	0.000000000000000e+00,0.000000000000000e+00
	8.210191548412407e-05,2.922026932845093e-13
	8.210191777278166e-05,3.208452837795782e-13
	3.051551910640771e-05,-3.087550921147635e-13
	4.905307271840141e-05,1.072355666675179e-12
	-4.378768935932932e-05,-1.692139716406869e-13
	-3.578090246547979e-05,-5.943866029197288e-13
	-3.051551910640771e-05,3.087550921147635e-13
	-4.905307271885206e-05,-1.072355666675179e-12
	-3.051551910640771e-05,3.087550921147635e-13
31		2.041737944669527e+00,0.000000000000000e+00
	-3.051551910640771e-01,3.159469220920362e-09
	1.000000000000000e+00,0.000000000000000e+00
	0.000000000000000e+00,0.000000000000000e+00
	8.210191548412407e-05,2.990089683636007e-13
	8.210191777278166e-05,3.283187304979722e-13
	3.051551910640771e-05,-3.159469220920362e-13
	4.905307271840141e-05,1.097334038941267e-12
	-4.378768935932932e-05,-1.731554713759091e-13
	-3.578090246547979e-05,-6.082316454733216e-13
	-3.051551910640771e-05,3.159469220920362e-13
	-4.905307271885206e-05,-1.097334038941267e-12
	-3.051551910640771e-05,3.159469220920362e-13
32		2.089296130854037e+00,0.000000000000000e+00
	-3.051551910640771e-01,3.233062713094540e-09
	1.000000000000000e+00,0.000000000000000e+00
	0.000000000000000e+00,0.000000000000000e+00
	8.210191548412407e-05,3.059737819555704e-13
