LTspice 24.0.9 for Windows
Circuit: * GA CMOS Amp | W=7.716515971363912e-06 L=5.299470717658046e-07 Vbias=1.5
Start Time: Sat Sep  6 22:08:10 2025
solver = Normal
Maximum thread count: 2
tnom = 27
temp = 27
method = modified trap
AsciiRawFile = 1
Direct Newton iteration for .op point succeeded.
Semiconductor Device Operating Points:
                        --- BSIM4 MOSFETS ---
Name:      m1
Model:      n
Id:      1.67e-04
Vgs:     1.50e+00
Vds:     1.33e-01
Vbs:     0.00e+00
Vth:     2.49e-01
Vdsat:   8.65e-01
Gm:     -1.92e-05
Gds:     1.16e-03
Gmb      7.80e-05
Cbd:     3.70e-15
Cbs:     6.17e-15


.measure op idd find i(vdd)
  Error: FIND can not be evaluated over an interval.

gain_db: MAX(db(v(out)/v(g)))=(30.6416dB,180°) FROM 1 TO 1e+09
gain_lin: MAX(mag(v(out)/v(g)))=(-8.4971dB,0°) FROM 1 TO 1e+09

Measurement "fc" FAIL'ed

Total elapsed time: 0.613 seconds.

