LTspice 24.0.9 for Windows
Circuit: * GA CMOS Amp | W=1e-06 L=6.856860219915656e-07 Vbias=1.0368701241408302
Start Time: Mon Sep  8 18:44:55 2025
solver = Normal
Maximum thread count: 2
tnom = 27
temp = 27
method = modified trap
AsciiRawFile = 1
Instance "m1": Length shorter than recommended for a level 3 MOSFET.
Instance "m1": Width narrower than recommended for a level 3 MOSFET.
Direct Newton iteration for .op point succeeded.
Semiconductor Device Operating Points:
                        --- MOSFET Transistors ---
Name:          m1
Model:        n_1u
Id:          1.48e-06
Vgs:         1.04e+00
Vds:         1.79e+00
Vbs:         0.00e+00
Vth:         9.67e-01
Vdsat:       8.68e-02
Gm:          2.18e-05
Gds:         2.78e-07
Gmb:         1.03e-05
Cbd:         0.00e+00
Cbs:         0.00e+00
Cgsov:       2.00e-16
Cgdov:       2.00e-16
Cgbov:       4.86e-17
Cgs:         5.59e-16
Cgd:         0.00e+00
Cgb:         0.00e+00



gain_db: MAX(db(v(out)/v(g)))=(29.6416dB,115.939°) FROM 1 TO 1e+09
gain_lin: MAX(mag(v(out)/v(g)))=(-13.2592dB,0°) FROM 1 TO 1e+09

Measurement "fc" FAIL'ed

Total elapsed time: 0.532 seconds.

