LTspice 24.0.9 for Windows
Circuit: * GA CMOS Amp | W=4.412704972839254e-05 L=9.999999999999997e-07 Vbias=0.9615014129747226
Start Time: Mon Sep  8 18:45:37 2025
solver = Normal
Maximum thread count: 2
tnom = 27
temp = 27
method = modified trap
AsciiRawFile = 1
Instance "m1": Length shorter than recommended for a level 3 MOSFET.
Direct Newton iteration for .op point succeeded.
Semiconductor Device Operating Points:
                        --- MOSFET Transistors ---
Name:          m1
Model:        n_1u
Id:          1.16e-04
Vgs:         9.62e-01
Vds:         6.45e-01
Vbs:         0.00e+00
Vth:         8.06e-01
Vdsat:       1.73e-01
Gm:          1.01e-03
Gds:         1.69e-05
Gmb:         2.35e-04
Cbd:         0.00e+00
Cbs:         0.00e+00
Cgsov:       8.83e-15
Cgdov:       8.83e-15
Cgbov:       8.00e-17
Cgs:         4.06e-14
Cgd:         0.00e+00
Cgb:         0.00e+00



gain_db: MAX(db(v(out)/v(g)))=(30.3927dB,55.5642°) FROM 1 TO 1e+09
gain_lin: MAX(mag(v(out)/v(g)))=(18.7092dB,0°) FROM 1 TO 1e+09

Measurement "fc" FAIL'ed

Total elapsed time: 0.596 seconds.

