Title: * GA CMOS Amp | W=4.70369027507229e-06 L=6.534360565690284e-07 Vbias=0.8622124228088265
Date: Sat Sep  6 22:08:08 2025
Plotname: AC Analysis
Flags: complex forward log
No. Variables: 13
No. Points:          901
Offset:    0.0000000000000000e+00
Command: Linear Technology Corporation LTspice
Variables:
	0	frequency	frequency
	1	V(out)	voltage
	2	V(g)	voltage
	3	V(vdd)	voltage
	4	V(m1#dbody)	voltage
	5	V(m1#sbody)	voltage
	6	Id(M1)	device_current
	7	Ig(M1)	device_current
	8	Ib(M1)	device_current
	9	Is(M1)	device_current
	10	I(Rload)	device_current
	11	I(Vg)	device_current
	12	I(Vdd)	device_current
Values:
0		1.000000000000000e+00,0.000000000000000e+00
	-5.229144043661933e-01,1.001909525965003e-09
	1.000000000000000e+00,0.000000000000000e+00
	0.000000000000000e+00,0.000000000000000e+00
	1.174916827648675e-07,1.022135269171652e-13
	1.174956046275123e-07,1.549825540428127e-13
	5.229144043661935e-05,-1.001909525965002e-13
	6.658899571061211e-07,7.174519196641749e-13
	-6.266406105785430e-08,-7.913943540560803e-14
	-5.289466633266762e-05,-5.381215316620666e-13
	-5.229144043661933e-05,1.001909525965003e-13
	-6.658899569522703e-07,-7.174519196641750e-13
	-5.229144043661933e-05,1.001909525965003e-13
1		1.023292992280754e+00,0.000000000000000e+00
	-5.229144043661933e-01,1.025246996819320e-09
	1.000000000000000e+00,0.000000000000000e+00
	0.000000000000000e+00,0.000000000000000e+00
	1.174916827648675e-07,1.045943858106353e-13
	1.174956046275123e-07,1.585925614777835e-13
	5.229144043661935e-05,-1.025246996819319e-13
	6.658899571061211e-07,7.341635216907248e-13
	-6.266406105785429e-08,-8.098282966361409e-14
	-5.289466633266762e-05,-5.506559923451787e-13
	-5.229144043661933e-05,1.025246996819320e-13
	-6.658899569522703e-07,-7.341635216907248e-13
	-5.229144043661933e-05,1.025246996819320e-13
2		1.047128548050899e+00,0.000000000000000e+00
	-5.229144043661933e-01,1.049128067202098e-09
	1.000000000000000e+00,0.000000000000000e+00
	0.000000000000000e+00,0.000000000000000e+00
	1.174916827648675e-07,1.070307020319326e-13
	1.174956046275123e-07,1.622866567880705e-13
	5.229144043661935e-05,-1.049128067202098e-13
	6.658899571061211e-07,7.512643869342780e-13
	-6.266406105785429e-08,-8.286916208984226e-14
	-5.289466633266762e-05,-5.634824181242260e-13
	-5.229144043661933e-05,1.049128067202098e-13
	-6.658899569522703e-07,-7.512643869342780e-13
	-5.229144043661933e-05,1.049128067202098e-13
3		1.071519305237606e+00,0.000000000000000e+00
	-5.229144043661933e-01,1.073565399172959e-09
	1.000000000000000e+00,0.000000000000000e+00
	0.000000000000000e+00,0.000000000000000e+00
	1.174916827648675e-07,1.095237673481661e-13
	1.174956046275123e-07,1.660667986319044e-13
	5.229144043661935e-05,-1.073565399172958e-13
	6.658899571061211e-07,7.687635824999435e-13
	-6.266406105785429e-08,-8.479943284271349e-14
	-5.289466633266762e-05,-5.766076097399341e-13
	-5.229144043661933e-05,1.073565399172959e-13
	-6.658899569522703e-07,-7.687635824999434e-13
	-5.229144043661933e-05,1.073565399172959e-13
4		1.096478196143185e+00,0.000000000000000e+00
	-5.229144043661933e-01,1.098571949728779e-09
	1.000000000000000e+00,0.000000000000000e+00
	0.000000000000000e+00,0.000000000000000e+00
	1.174916827648675e-07,1.120749036155660e-13
	1.174956046275123e-07,1.699349912905269e-13
	5.229144043661935e-05,-1.098571949728778e-13
	6.658899571061211e-07,7.866703866928393e-13
	-6.266406105785429e-08,-8.677466537733115e-14
	-5.289466633266762e-05,-5.900385263426304e-13
	-5.229144043661933e-05,1.098571949728779e-13
	-6.658899569522703e-07,-7.866703866928395e-13
	-5.229144043661933e-05,1.098571949728779e-13
5		1.122018454301963e+00,0.000000000000000e+00
	-5.229144043661933e-01,1.124160977673665e-09
	1.000000000000000e+00,0.000000000000000e+00
	0.000000000000000e+00,0.000000000000000e+00
	1.174916827648675e-07,1.146854634803497e-13
	1.174956046275123e-07,1.738932857308872e-13
	5.229144043661935e-05,-1.124160977673663e-13
	6.658899571061211e-07,8.049942939375737e-13
	-6.266406105785428e-08,-8.879590698813035e-14
	-5.289466633266762e-05,-6.037822891820770e-13
	-5.229144043661933e-05,1.124160977673665e-13
	-6.658899569522703e-07,-8.049942939375739e-13
	-5.229144043661933e-05,1.124160977673665e-13
6		1.148153621496882e+00,0.000000000000000e+00
	-5.229144043661933e-01,1.150346050648942e-09
	1.000000000000000e+00,0.000000000000000e+00
	0.000000000000000e+00,0.000000000000000e+00
	1.174916827648675e-07,1.173568310959122e-13
	1.174956046275123e-07,1.779437806930917e-13
	5.229144043661935e-05,-1.150346050648942e-13
	6.658899571061211e-07,8.237450198123128e-13
	-6.266406105785428e-08,-9.086422936416746e-14
	-5.289466633266762e-05,-6.178461853832511e-13
	-5.229144043661933e-05,1.150346050648943e-13
	-6.658899569522703e-07,-8.237450198123128e-13
	-5.229144043661933e-05,1.150346050648943e-13
7		1.174897554939529e+00,0.000000000000000e+00
	-5.229144043661933e-01,1.177141052326904e-09
	1.000000000000000e+00,0.000000000000000e+00
	0.000000000000000e+00,0.000000000000000e+00
	1.174916827648675e-07,1.200904228567230e-13
	1.174956046275123e-07,1.820886238031841e-13
	5.229144043661935e-05,-1.177141052326904e-13
	6.658899571061211e-07,8.429325062001105e-13
	-6.266406105785428e-08,-9.298072915734365e-14
	-5.289466633266762e-05,-6.322376718100765e-13
	-5.229144043661933e-05,1.177141052326904e-13
	-6.658899569522703e-07,-8.429325062001105e-13
	-5.229144043661933e-05,1.177141052326904e-13
8		1.202264434617413e+00,0.000000000000000e+00
	-5.229144043661933e-01,1.204560189772114e-09
	1.000000000000000e+00,0.000000000000000e+00
	0.000000000000000e+00,0.000000000000000e+00
	1.174916827648674e-07,1.228876881493172e-13
	1.174956046275123e-07,1.863300127118448e-13
	5.229144043661935e-05,-1.204560189772113e-13
	6.658899571061211e-07,8.625669265602265e-13
	-6.266406105785428e-08,-9.514652856386457e-14
	-5.289466633266762e-05,-6.469643790191506e-13
	-5.229144043661933e-05,1.204560189772114e-13
	-6.658899569522703e-07,-8.625669265602267e-13
	-5.229144043661933e-05,1.204560189772114e-13
9		1.230268770812381e+00,0.000000000000000e+00
	-5.229144043661933e-01,1.232618000974179e-09
	1.000000000000000e+00,0.000000000000000e+00
	0.000000000000000e+00,0.000000000000000e+00
	1.174916827648674e-07,1.257501101207790e-13
	1.174956046275123e-07,1.906701962596146e-13
	5.229144043661935e-05,-1.232618000974178e-13
	6.658899571061211e-07,8.826586913222276e-13
	-6.266406105785428e-08,-9.736277591924319e-14
	-5.289466633266762e-05,-6.620341153055665e-13
	-5.229144043661933e-05,1.232618000974179e-13
	-6.658899569522703e-07,-8.826586913222277e-13
	-5.229144043661933e-05,1.232618000974179e-13
10		1.258925411794167e+00,0.000000000000000e+00
	-5.229144043661933e-01,1.261329362555989e-09
	1.000000000000000e+00,0.000000000000000e+00
	0.000000000000000e+00,0.000000000000000e+00
	1.174916827648674e-07,1.286792064651262e-13
	1.174956046275123e-07,1.951114756692597e-13
	5.229144043661935e-05,-1.261329362555988e-13
	6.658899571061211e-07,9.032184534057368e-13
	-6.266406105785428e-08,-9.963064630716292e-14
	-5.289466633266762e-05,-6.774548708429750e-13
	-5.229144043661933e-05,1.261329362555990e-13
	-6.658899569522703e-07,-9.032184534057369e-13
	-5.229144043661933e-05,1.261329362555990e-13
11		1.288249551693134e+00,0.000000000000000e+00
	-5.229144043661933e-01,1.290709497661495e-09
	1.000000000000000e+00,0.000000000000000e+00
	0.000000000000000e+00,0.000000000000000e+00
	1.174916827648674e-07,1.316765302280120e-13
	1.174956046275122e-07,1.996562057659103e-13
	5.229144043661935e-05,-1.290709497661495e-13
	6.658899571061211e-07,9.242571138687516e-13
	-6.266406105785426e-08,-1.019513421825222e-13
	-5.289466633266762e-05,-6.932348219200799e-13
	-5.229144043661933e-05,1.290709497661495e-13
	-6.658899569522703e-07,-9.242571138687514e-13
	-5.229144043661933e-05,1.290709497661495e-13
12		1.318256738556407e+00,0.000000000000000e+00
	-5.229144043661933e-01,1.320773984027220e-09
	1.000000000000000e+00,0.000000000000000e+00
	0.000000000000000e+00,0.000000000000000e+00
	1.174916827648674e-07,1.347436706301696e-13
	1.174956046275122e-07,2.043067962256203e-13
	5.229144043661935e-05,-1.320773984027219e-13
	6.658899571061211e-07,9.457858276875282e-13
	-6.266406105785426e-08,-1.043260940089922e-13
	-5.289466633266762e-05,-7.093823352758140e-13
	-5.229144043661933e-05,1.320773984027220e-13
	-6.658899569522703e-07,-9.457858276875284e-13
	-5.229144043661933e-05,1.320773984027220e-13
13		1.348962882591653e+00,0.000000000000000e+00
	-5.229144043661933e-01,1.351538762241787e-09
	1.000000000000000e+00,0.000000000000000e+00
	0.000000000000000e+00,0.000000000000000e+00
	1.174916827648674e-07,1.378822539100386e-13
	1.174956046275122e-07,2.090657128530093e-13
	5.229144043661935e-05,-1.351538762241786e-13
	6.658899571061211e-07,9.678160096711006e-13
	-6.266406105785426e-08,-1.067561609114249e-13
	-5.289466633266762e-05,-7.259059725354971e-13
	-5.229144043661933e-05,1.351538762241787e-13
	-6.658899569522703e-07,-9.678160096711008e-13
	-5.229144043661933e-05,1.351538762241787e-13
14		1.380384264602885e+00,0.000000000000000e+00
	-5.229144043661933e-01,1.383020144197825e-09
	1.000000000000000e+00,0.000000000000000e+00
	0.000000000000000e+00,0.000000000000000e+00
	1.174916827648674e-07,1.410939441860181e-13
	1.174956046275122e-07,2.139354788886648e-13
	5.229144043661935e-05,-1.383020144197824e-13
	6.658899571061211e-07,9.903593405135600e-13
	-6.266406105785426e-08,-1.092428313434577e-13
	-5.289466633266762e-05,-7.428144947503198e-13
	-5.229144043661933e-05,1.383020144197825e-13
	-6.658899569522703e-07,-9.903593405135602e-13
	-5.229144043661933e-05,1.383020144197825e-13
15		1.412537544622754e+00,0.000000000000000e+00
	-5.229144043661933e-01,1.415234821740752e-09
	1.000000000000000e+00,0.000000000000000e+00
	0.000000000000000e+00,0.000000000000000e+00
	1.174916827648674e-07,1.443804443388042e-13
	1.174956046275122e-07,2.189186763469979e-13
	5.229144043661935e-05,-1.415234821740752e-13
	6.658899571061211e-07,1.013427772987315e-12
	-6.266406105785425e-08,-1.117874237706686e-13
	-5.289466633266762e-05,-7.601168670425712e-13
	-5.229144043661933e-05,1.415234821740752e-13
	-6.658899569522703e-07,-1.013427772987315e-12
	-5.229144043661933e-05,1.415234821740752e-13
16		1.445439770745927e+00,0.000000000000000e+00
	-5.229144043661933e-01,1.448199875519014e-09
	1.000000000000000e+00,0.000000000000000e+00
	0.000000000000000e+00,0.000000000000000e+00
	1.174916827648673e-07,1.477434969142798e-13
	1.174956046275122e-07,2.240179473852615e-13
	5.229144043661935e-05,-1.448199875519014e-13
	6.658899571061211e-07,1.037033538280610e-12
	-6.266406105785425e-08,-1.143912873696442e-13
	-5.289466633266762e-05,-7.778222633590645e-13
	-5.229144043661933e-05,1.448199875519014e-13
	-6.658899569522703e-07,-1.037033538280610e-12
	-5.229144043661933e-05,1.448199875519014e-13
17		1.479108388168207e+00,0.000000000000000e+00
	-5.229144043661933e-01,1.481932784040467e-09
	1.000000000000000e+00,0.000000000000000e+00
	0.000000000000000e+00,0.000000000000000e+00
	1.174916827648673e-07,1.511848850474357e-13
	1.174956046275122e-07,2.292359957044567e-13
	5.229144043661935e-05,-1.481932784040466e-13
	6.658899571061211e-07,1.061189152482663e-12
	-6.266406105785424e-08,-1.170558027433308e-13
	-5.289466633266762e-05,-7.959400713352859e-13
	-5.229144043661933e-05,1.481932784040467e-13
	-6.658899569522703e-07,-1.061189152482664e-12
	-5.229144043661933e-05,1.481932784040467e-13
18		1.513561248436208e+00,0.000000000000000e+00
	-5.229144043661933e-01,1.516451432939718e-09
	1.000000000000000e+00,0.000000000000000e+00
	0.000000000000000e+00,0.000000000000000e+00
	1.174916827648673e-07,1.547064334078123e-13
	1.174956046275122e-07,2.345755879828716e-13
	5.229144043661935e-05,-1.516451432939717e-13
	6.658899571061211e-07,1.085907423219862e-12
	-6.266406105785424e-08,-1.197823826530487e-13
	-5.289466633266762e-05,-8.144798972728418e-13
	-5.229144043661933e-05,1.516451432939718e-13
	-6.658899569522703e-07,-1.085907423219862e-12
	-5.229144043661933e-05,1.516451432939718e-13
19		1.548816618912481e+00,0.000000000000000e+00
	-5.229144043661933e-01,1.551774124461322e-09
	1.000000000000000e+00,0.000000000000000e+00
	0.000000000000000e+00,0.000000000000000e+00
	1.174916827648673e-07,1.583100091669635e-13
	1.174956046275122e-07,2.400395553430099e-13
	5.229144043661935e-05,-1.551774124461320e-13
	6.658899571061211e-07,1.111201456446536e-12
	-6.266406105785424e-08,-1.225724727675565e-13
	-5.289466633266762e-05,-8.334515712328476e-13
	-5.229144043661933e-05,1.551774124461322e-13
	-6.658899569522703e-07,-1.111201456446536e-12
	-5.229144043661933e-05,1.551774124461322e-13
20		1.584893192461113e+00,0.000000000000000e+00
	-5.229144043661933e-01,1.587919587163873e-09
	1.000000000000000e+00,0.000000000000000e+00
	0.000000000000000e+00,0.000000000000000e+00
	1.174916827648673e-07,1.619975229884557e-13
	1.174956046275122e-07,2.456307948526903e-13
	5.229144043661935e-05,-1.587919587163872e-13
	6.658899571061211e-07,1.137084663393908e-12
	-6.266406105785424e-08,-1.254275524295641e-13
	-5.289466633266762e-05,-8.528651522479566e-13
	-5.229144043661933e-05,1.587919587163873e-13
	-6.658899569522703e-07,-1.137084663393908e-12
	-5.229144043661933e-05,1.587919587163873e-13
21		1.621810097358929e+00,0.000000000000000e+00
	-5.229144043661933e-01,1.624906985850139e-09
	1.000000000000000e+00,0.000000000000000e+00
	0.000000000000000e+00,0.000000000000000e+00
	1.174916827648672e-07,1.657709300409271e-13
	1.174956046275122e-07,2.513522710611095e-13
	5.229144043661935e-05,-1.624906985850139e-13
	6.658899571061211e-07,1.163570767680906e-12
	-6.266406105785424e-08,-1.283491354400998e-13
	-5.289466633266762e-05,-8.727309336557924e-13
	-5.229144043661933e-05,1.624906985850140e-13
	-6.658899569522703e-07,-1.163570767680906e-12
	-5.229144043661933e-05,1.624906985850140e-13
22		1.659586907437560e+00,0.000000000000000e+00
	-5.229144043661933e-01,1.662755931728490e-09
	1.000000000000000e+00,0.000000000000000e+00
	0.000000000000000e+00,0.000000000000000e+00
	1.174916827648672e-07,1.696322310347438e-13
	1.174956046275122e-07,2.572070175706860e-13
	5.229144043661935e-05,-1.662755931728491e-13
	6.658899571061211e-07,1.190673812590609e-12
	-6.266406105785422e-08,-1.313387708611475e-13
	-5.289466633266762e-05,-8.930594485566122e-13
	-5.229144043661933e-05,1.662755931728490e-13
	-6.658899569522703e-07,-1.190673812590609e-12
	-5.229144043661933e-05,1.662755931728490e-13
23		1.698243652461743e+00,0.000000000000000e+00
	-5.229144043661933e-01,1.701486492811020e-09
	1.000000000000000e+00,0.000000000000000e+00
	0.000000000000000e+00,0.000000000000000e+00
	1.174916827648672e-07,1.735834732828032e-13
	1.174956046275122e-07,2.631981386455157e-13
	5.229144043661935e-05,-1.701486492811019e-13
	6.658899571061211e-07,1.218408168516178e-12
	-6.266406105785422e-08,-1.343980438369799e-13
	-5.289466633266762e-05,-9.138614753980958e-13
	-5.229144043661933e-05,1.701486492811020e-13
	-6.658899569522703e-07,-1.218408168516178e-12
	-5.229144043661933e-05,1.701486492811020e-13
24		1.737800828749374e+00,0.000000000000000e+00
	-5.229144043661933e-01,1.741119204553874e-09
	1.000000000000000e+00,0.000000000000000e+00
	0.000000000000000e+00,0.000000000000000e+00
	1.174916827648672e-07,1.776267517860461e-13
	1.174956046275121e-07,2.693288108572947e-13
	5.229144043661935e-05,-1.741119204553873e-13
	6.658899571061210e-07,1.246788540580233e-12
	-6.266406105785421e-08,-1.375285764346232e-13
	-5.289466633266762e-05,-9.351480436902221e-13
	-5.229144043661933e-05,1.741119204553874e-13
	-6.658899569522703e-07,-1.246788540580233e-12
	-5.229144043661933e-05,1.741119204553874e-13
25		1.778279410038922e+00,0.000000000000000e+00
	-5.229144043661933e-01,1.781675080745420e-09
	1.000000000000000e+00,0.000000000000000e+00
	0.000000000000000e+00,0.000000000000000e+00
	1.174916827648672e-07,1.817642103442538e-13
	1.174956046275121e-07,2.756022847695782e-13
	5.229144043661935e-05,-1.781675080745420e-13
	6.658899571061210e-07,1.275829976431701e-12
	-6.266406105785420e-08,-1.407320285038980e-13
	-5.289466633266762e-05,-9.569304398532609e-13
	-5.229144043661933e-05,1.781675080745421e-13
	-6.658899569522703e-07,-1.275829976431701e-12
	-5.229144043661933e-05,1.781675080745421e-13
26		1.819700858609982e+00,0.000000000000000e+00
	-5.229144043661933e-01,1.823175624648035e-09
	1.000000000000000e+00,0.000000000000000e+00
	0.000000000000000e+00,0.000000000000000e+00
	1.174916827648671e-07,1.859980426927199e-13
	1.174956046275121e-07,2.820218866612743e-13
	5.229144043661935e-05,-1.823175624648036e-13
	6.658899571061210e-07,1.305547874224279e-12
	-6.266406105785420e-08,-1.440100985574941e-13
	-5.289466633266762e-05,-9.792202132019814e-13
	-5.229144043661933e-05,1.823175624648035e-13
	-6.658899569522703e-07,-1.305547874224279e-12
	-5.229144043661933e-05,1.823175624648035e-13
27		1.862087136662866e+00,0.000000000000000e+00
	-5.229144043661933e-01,1.865642840399421e-09
	1.000000000000000e+00,0.000000000000000e+00
	0.000000000000000e+00,0.000000000000000e+00
	1.174916827648671e-07,1.903304936653967e-13
	1.174956046275121e-07,2.885910202902789e-13
	5.229144043661935e-05,-1.865642840399420e-13
	6.658899571061210e-07,1.335957990780740e-12
	-6.266406105785418e-08,-1.473645246715444e-13
	-5.289466633266762e-05,-1.002029182069253e-12
	-5.229144043661933e-05,1.865642840399421e-13
	-6.658899569522703e-07,-1.335957990780740e-12
	-5.229144043661933e-05,1.865642840399421e-13
28		1.905460717963246e+00,0.000000000000000e+00
	-5.229144043661933e-01,1.909099244679489e-09
	1.000000000000000e+00,0.000000000000000e+00
	0.000000000000000e+00,0.000000000000000e+00
	1.174916827648671e-07,1.947638603851369e-13
	1.174956046275121e-07,2.953131686981954e-13
	5.229144043661935e-05,-1.909099244679488e-13
	6.658899571061210e-07,1.367076449947407e-12
	-6.266406105785418e-08,-1.507970854071757e-13
	-5.289466633266762e-05,-1.025369440072283e-12
	-5.229144043661933e-05,1.909099244679489e-13
	-6.658899569522703e-07,-1.367076449947407e-12
	-5.229144043661933e-05,1.909099244679489e-13
29		1.949844599758044e+00,0.000000000000000e+00
	-5.229144043661933e-01,1.953567878649002e-09
	1.000000000000000e+00,0.000000000000000e+00
	0.000000000000000e+00,0.000000000000000e+00
	1.174916827648670e-07,1.993004934816578e-13
	1.174956046275121e-07,3.021918960570874e-13
	5.229144043661935e-05,-1.953567878649000e-13
	6.658899571061210e-07,1.398919751143233e-12
	-6.266406105785418e-08,-1.543096007535253e-13
	-5.289466633266762e-05,-1.049253362524808e-12
	-5.229144043661933e-05,1.953567878649002e-13
	-6.658899569522703e-07,-1.398919751143233e-12
	-5.229144043661933e-05,1.953567878649002e-13
30		1.995262314968878e+00,0.000000000000000e+00
	-5.229144043661933e-01,1.999072320166302e-09
	1.000000000000000e+00,0.000000000000000e+00
	0.000000000000000e+00,0.000000000000000e+00
	1.174916827648670e-07,2.039427983378766e-13
	1.174956046275121e-07,3.092308495592517e-13
	5.229144043661935e-05,-1.999072320166300e-13
	6.658899571061210e-07,1.431504778108007e-12
	-6.266406105785417e-08,-1.579039330927234e-13
	-5.289466633266762e-05,-1.073693612998654e-12
	-5.229144043661933e-05,1.999072320166302e-13
	-6.658899569522703e-07,-1.431504778108007e-12
	-5.229144043661933e-05,1.999072320166302e-13
31		2.041737944669527e+00,0.000000000000000e+00
	-5.229144043661933e-01,2.045636696288605e-09
	1.000000000000000e+00,0.000000000000000e+00
	0.000000000000000e+00,0.000000000000000e+00
	1.174916827648670e-07,2.086932363652761e-13
	1.174956046275121e-07,3.164337613510063e-13
	5.229144043661935e-05,-2.045636696288603e-13
	6.658899571061210e-07,1.464848807854339e-12
	-6.266406105785416e-08,-1.615819881873529e-13
	-5.289466633266762e-05,-1.098703150038126e-12
	-5.229144043661933e-05,2.045636696288605e-13
	-6.658899569522703e-07,-1.464848807854339e-12
	-5.229144043661933e-05,2.045636696288605e-13
32		2.089296130854037e+00,0.000000000000000e+00
	-5.229144043661933e-01,2.093285696064483e-09
	1.000000000000000e+00,0.000000000000000e+00
	0.000000000000000e+00,0.000000000000000e+00
	1.174916827648670e-07,2.135543263089782e-13
