Title: * GA CMOS Amp | W=1.2724801306038713e-05 L=4.2305702712935717e-07 Vbias=0.8304218114753447
Date: Mon Sep  8 18:42:57 2025
Plotname: AC Analysis
Flags: complex forward log
No. Variables: 11
No. Points:          901
Offset:    0.0000000000000000e+00
Command: Linear Technology Corporation LTspice
Variables:
	0	frequency	frequency
	1	V(out)	voltage
	2	V(g)	voltage
	3	V(vdd)	voltage
	4	Id(M1)	device_current
	5	Ig(M1)	device_current
	6	Ib(M1)	device_current
	7	Is(M1)	device_current
	8	I(Rload)	device_current
	9	I(Vg)	device_current
	10	I(Vdd)	device_current
Values:
0		1.000000000000000e+00,0.000000000000000e+00
	-3.789905241226380e+00,5.470781360427466e-10
	1.000000000000000e+00,0.000000000000000e+00
	0.000000000000000e+00,0.000000000000000e+00
	3.789905241226380e-04,-5.470781360427465e-14
	1.167274477947794e-23,1.388737746894632e-13
	3.789905238596458e-12,1.169460211872154e-15
	-3.789905279125432e-04,-8.533542129706074e-14
	-3.789905241226380e-04,5.470781360427466e-14
	-1.167274477947794e-23,-1.388737746894632e-13
	-3.789905241226380e-04,5.470781360427466e-14
1		1.023292992280754e+00,0.000000000000000e+00
	-3.789905241226380e+00,5.598212228425596e-10
	1.000000000000000e+00,0.000000000000000e+00
	0.000000000000000e+00,0.000000000000000e+00
	3.789905241226380e-04,-5.598212228425594e-14
	1.222286429270346e-23,1.421085604513041e-13
	3.789905238596458e-12,1.196700439559934e-15
	-3.789905279125432e-04,-8.732313860660808e-14
	-3.789905241226380e-04,5.598212228425597e-14
	-1.222286429270346e-23,-1.421085604513041e-13
	-3.789905241226380e-04,5.598212228425597e-14
2		1.047128548050899e+00,0.000000000000000e+00
	-3.789905241226380e+00,5.728611342648336e-10
	1.000000000000000e+00,0.000000000000000e+00
	0.000000000000000e+00,0.000000000000000e+00
	3.789905241226380e-04,-5.728611342648336e-14
	1.279891013984175e-23,1.454186940529254e-13
	3.789905238596458e-12,1.224575173661010e-15
	-3.789905279125432e-04,-8.935715580010302e-14
	-3.789905241226380e-04,5.728611342648336e-14
	-1.279891013984175e-23,-1.454186940529254e-13
	-3.789905241226380e-04,5.728611342648336e-14
3		1.071519305237606e+00,0.000000000000000e+00
	-3.789905241226380e+00,5.862047842432084e-10
	1.000000000000000e+00,0.000000000000000e+00
	0.000000000000000e+00,0.000000000000000e+00
	3.789905241226380e-04,-5.862047842432082e-14
	1.340210419136643e-23,1.488059305709775e-13
	3.789905238596458e-12,1.253099193728283e-15
	-3.789905279125432e-04,-9.143855134038495e-14
	-3.789905241226380e-04,5.862047842432084e-14
	-1.340210419136643e-23,-1.488059305709775e-13
	-3.789905241226380e-04,5.862047842432084e-14
4		1.096478196143185e+00,0.000000000000000e+00
	-3.789905241226380e+00,5.998592477575265e-10
	1.000000000000000e+00,0.000000000000000e+00
	0.000000000000000e+00,0.000000000000000e+00
	3.789905241226380e-04,-5.998592477575264e-14
	1.403372590273240e-23,1.522720659630977e-13
	3.789905238596458e-12,1.282287623574812e-15
	-3.789905279125432e-04,-9.356842881091985e-14
	-3.789905241226380e-04,5.998592477575266e-14
	-1.403372590273240e-23,-1.522720659630977e-13
	-3.789905241226380e-04,5.998592477575266e-14
5		1.122018454301963e+00,0.000000000000000e+00
	-3.789905241226380e+00,6.138317645850815e-10
	1.000000000000000e+00,0.000000000000000e+00
	0.000000000000000e+00,0.000000000000000e+00
	3.789905241226380e-04,-6.138317645850816e-14
	1.469511502827248e-23,1.558189380201506e-13
	3.789905238596458e-12,1.312155939292420e-15
	-3.789905279125432e-04,-9.574791750093489e-14
	-3.789905241226380e-04,6.138317645850816e-14
	-1.469511502827248e-23,-1.558189380201506e-13
	-3.789905241226380e-04,6.138317645850816e-14
6		1.148153621496882e+00,0.000000000000000e+00
	-3.789905241226380e+00,6.281297431392435e-10
	1.000000000000000e+00,0.000000000000000e+00
	0.000000000000000e+00,0.000000000000000e+00
	3.789905241226380e-04,-6.281297431392434e-14
	1.538767446299591e-23,1.594484273406493e-13
	3.789905238596458e-12,1.342719977457485e-15
	-3.789905279125432e-04,-9.797817300418245e-14
	-3.789905241226380e-04,6.281297431392435e-14
	-1.538767446299591e-23,-1.594484273406493e-13
	-3.789905241226380e-04,6.281297431392435e-14
7		1.174897554939529e+00,0.000000000000000e+00
	-3.789905241226380e+00,6.427607643974979e-10
	1.000000000000000e+00,0.000000000000000e+00
	0.000000000000000e+00,0.000000000000000e+00
	3.789905241226380e-04,-6.427607643974978e-14
	1.611287321831681e-23,1.631624583278734e-13
	3.789905238596458e-12,1.373995943527655e-15
	-3.789905279125432e-04,-1.002603778316513e-13
	-3.789905241226380e-04,6.427607643974980e-14
	-1.611287321831681e-23,-1.631624583278734e-13
	-3.789905241226380e-04,6.427607643974980e-14
8		1.202264434617413e+00,0.000000000000000e+00
	-3.789905241226380e+00,6.577325859209805e-10
	1.000000000000000e+00,0.000000000000000e+00
	0.000000000000000e+00,0.000000000000000e+00
	3.789905241226380e-04,-6.577325859209806e-14
	1.687224953802431e-23,1.669630002102134e-13
	3.789905238596458e-12,1.406000420434051e-15
	-3.789905279125432e-04,-1.025957420385494e-13
	-3.789905241226380e-04,6.577325859209806e-14
	-1.687224953802431e-23,-1.669630002102134e-13
	-3.789905241226380e-04,6.577325859209806e-14
9		1.230268770812381e+00,0.000000000000000e+00
	-3.789905241226380e+00,6.730531459676383e-10
	1.000000000000000e+00,0.000000000000000e+00
	0.000000000000000e+00,0.000000000000000e+00
	3.789905241226380e-04,-6.730531459676385e-14
	1.766741416110385e-23,1.708520680852815e-13
	3.789905238596458e-12,1.438750377373970e-15
	-3.789905279125432e-04,-1.049855038658916e-13
	-3.789905241226380e-04,6.730531459676382e-14
	-1.766741416110385e-23,-1.708520680852815e-13
	-3.789905241226380e-04,6.730531459676382e-14
10		1.258925411794167e+00,0.000000000000000e+00
	-3.789905241226380e+00,6.887305677011998e-10
	1.000000000000000e+00,0.000000000000000e+00
	0.000000000000000e+00,0.000000000000000e+00
	3.789905241226380e-04,-6.887305677011997e-14
	1.850005373833058e-23,1.748317239883428e-13
	3.789905238596458e-12,1.472263178808042e-15
	-3.789905279125432e-04,-1.074309303970309e-13
	-3.789905241226380e-04,6.887305677011999e-14
	-1.850005373833058e-23,-1.748317239883428e-13
	-3.789905241226380e-04,6.887305677011999e-14
11		1.288249551693134e+00,0.000000000000000e+00
	-3.789905241226380e+00,7.047731634981835e-10
	1.000000000000000e+00,0.000000000000000e+00
	0.000000000000000e+00,0.000000000000000e+00
	3.789905241226380e-04,-7.047731634981833e-14
	1.937193440988173e-23,1.789040779856343e-13
	3.789905238596458e-12,1.506556593667258e-15
	-3.789905279125432e-04,-1.099333182294832e-13
	-3.789905241226380e-04,7.047731634981835e-14
	-1.937193440988173e-23,-1.789040779856343e-13
	-3.789905241226380e-04,7.047731634981835e-14
12		1.318256738556407e+00,0.000000000000000e+00
	-3.789905241226380e+00,7.211894393552293e-10
	1.000000000000000e+00,0.000000000000000e+00
	0.000000000000000e+00,0.000000000000000e+00
	3.789905241226380e-04,-7.211894393552290e-14
	2.028490555155671e-23,1.830712892931491e-13
	3.789905238596458e-12,1.541648804774040e-15
	-3.789905279125432e-04,-1.124939941624002e-13
	-3.789905241226380e-04,7.211894393552294e-14
	-2.028490555155671e-23,-1.830712892931491e-13
	-3.789905241226380e-04,7.211894393552294e-14
13		1.348962882591653e+00,0.000000000000000e+00
	-3.789905241226380e+00,7.379880993990920e-10
	1.000000000000000e+00,0.000000000000000e+00
	0.000000000000000e+00,0.000000000000000e+00
	3.789905241226380e-04,-7.379880993990921e-14
	2.124090369755121e-23,1.873355674214821e-13
	3.789905238596458e-12,1.577558418483304e-15
	-3.789905279125432e-04,-1.151143159000562e-13
	-3.789905241226380e-04,7.379880993990921e-14
	-2.124090369755121e-23,-1.873355674214821e-13
	-3.789905241226380e-04,7.379880993990921e-14
14		1.380384264602885e+00,0.000000000000000e+00
	-3.789905241226380e+00,7.551780505016836e-10
	1.000000000000000e+00,0.000000000000000e+00
	0.000000000000000e+00,0.000000000000000e+00
	3.789905241226380e-04,-7.551780505016834e-14
	2.224195664810578e-23,1.916991733473414e-13
	3.789905238596458e-12,1.614304474547469e-15
	-3.789905279125432e-04,-1.177956727717205e-13
	-3.789905241226380e-04,7.551780505016836e-14
	-2.224195664810578e-23,-1.916991733473414e-13
	-3.789905241226380e-04,7.551780505016836e-14
15		1.412537544622754e+00,0.000000000000000e+00
	-3.789905241226380e+00,7.727684070026141e-10
	1.000000000000000e+00,0.000000000000000e+00
	0.000000000000000e+00,0.000000000000000e+00
	3.789905241226380e-04,-7.727684070026141e-14
	2.329018777074206e-23,1.961644207123480e-13
	3.789905238596458e-12,1.651906456211889e-15
	-3.789905279125432e-04,-1.205394864682984e-13
	-3.789905241226380e-04,7.727684070026141e-14
	-2.329018777074206e-23,-1.961644207123480e-13
	-3.789905241226380e-04,7.727684070026141e-14
16		1.445439770745927e+00,0.000000000000000e+00
	-3.789905241226380e+00,7.907684955417366e-10
	1.000000000000000e+00,0.000000000000000e+00
	0.000000000000000e+00,0.000000000000000e+00
	3.789905241226380e-04,-7.907684955417365e-14
	2.438782050420994e-23,2.007336770497592e-13
	3.789905238596458e-12,1.690384300545009e-15
	-3.789905279125432e-04,-1.233472117961306e-13
	-3.789905241226380e-04,7.907684955417366e-14
	-2.438782050420994e-23,-2.007336770497592e-13
	-3.789905241226380e-04,7.907684955417366e-14
17		1.479108388168207e+00,0.000000000000000e+00
	-3.789905241226380e+00,8.091878600042537e-10
	1.000000000000000e+00,0.000000000000000e+00
	0.000000000000000e+00,0.000000000000000e+00
	3.789905241226380e-04,-8.091878600042537e-14
	2.553718307469930e-23,2.054093650397667e-13
	3.789905238596458e-12,1.729758409009084e-15
	-3.789905279125432e-04,-1.262203374483504e-13
	-3.789905241226380e-04,8.091878600042538e-14
	-2.553718307469930e-23,-2.054093650397667e-13
	-3.789905241226380e-04,8.091878600042538e-14
18		1.513561248436208e+00,0.000000000000000e+00
	-3.789905241226380e+00,8.280362665810128e-10
	1.000000000000000e+00,0.000000000000000e+00
	0.000000000000000e+00,0.000000000000000e+00
	3.789905241226380e-04,-8.280362665810128e-14
	2.674071343431989e-23,2.101939637940326e-13
	3.789905238596458e-12,1.770049658277666e-15
	-3.789905279125432e-04,-1.291603867942089e-13
	-3.789905241226380e-04,8.280362665810129e-14
	-2.674071343431989e-23,-2.101939637940326e-13
	-3.789905241226380e-04,8.280362665810129e-14
19		1.548816618912481e+00,0.000000000000000e+00
	-3.789905241226380e+00,8.473237089466688e-10
	1.000000000000000e+00,0.000000000000000e+00
	0.000000000000000e+00,0.000000000000000e+00
	3.789905241226380e-04,-8.473237089466687e-14
	2.800096443232457e-23,2.150900101701481e-13
	3.789905238596458e-12,1.811279411304500e-15
	-3.789905279125432e-04,-1.321689186867857e-13
	-3.789905241226380e-04,8.473237089466689e-14
	-2.800096443232457e-23,-2.150900101701481e-13
	-3.789905241226380e-04,8.473237089466689e-14
20		1.584893192461113e+00,0.000000000000000e+00
	-3.789905241226380e+00,8.670604135584634e-10
	1.000000000000000e+00,0.000000000000000e+00
	0.000000000000000e+00,0.000000000000000e+00
	3.789905241226380e-04,-8.670604135584635e-14
	2.932060923004491e-23,2.201001001167086e-13
	3.789905238596458e-12,1.853469528650301e-15
	-3.789905279125432e-04,-1.352475282895126e-13
	-3.789905241226380e-04,8.670604135584635e-14
	-2.932060923004491e-23,-2.201001001167086e-13
	-3.789905241226380e-04,8.670604135584635e-14
21		1.621810097358929e+00,0.000000000000000e+00
	-3.789905241226380e+00,8.872568450784283e-10
	1.000000000000000e+00,0.000000000000000e+00
	0.000000000000000e+00,0.000000000000000e+00
	3.789905241226380e-04,-8.872568450784281e-14
	3.070244697102473e-23,2.252268900497203e-13
	3.789905238596458e-12,1.896642380073798e-15
	-3.789905279125432e-04,-1.383978479219513e-13
	-3.789905241226380e-04,8.872568450784284e-14
	-3.070244697102473e-23,-2.252268900497203e-13
	-3.789905241226380e-04,8.872568450784284e-14
22		1.659586907437560e+00,0.000000000000000e+00
	-3.789905241226380e+00,9.079237119218864e-10
	1.000000000000000e+00,0.000000000000000e+00
	0.000000000000000e+00,0.000000000000000e+00
	3.789905241226380e-04,-9.079237119218862e-14
	3.214940871837886e-23,2.304730982610667e-13
	3.789905238596458e-12,1.940820856392214e-15
	-3.789905279125432e-04,-1.416215479252703e-13
	-3.789905241226380e-04,9.079237119218865e-14
	-3.214940871837886e-23,-2.304730982610667e-13
	-3.789905241226380e-04,9.079237119218865e-14
23		1.698243652461743e+00,0.000000000000000e+00
	-3.789905241226380e+00,9.290719719351965e-10
	1.000000000000000e+00,0.000000000000000e+00
	0.000000000000000e+00,0.000000000000000e+00
	3.789905241226380e-04,-9.290719719351963e-14
	3.366456367197098e-23,2.358415063597833e-13
	3.789905238596458e-12,1.986028381618413e-15
	-3.789905279125432e-04,-1.449203375478821e-13
	-3.789905241226380e-04,9.290719719351964e-14
	-3.366456367197098e-23,-2.358415063597833e-13
	-3.789905241226380e-04,9.290719719351964e-14
24		1.737800828749374e+00,0.000000000000000e+00
	-3.789905241226380e+00,9.507128382057480e-10
	1.000000000000000e+00,0.000000000000000e+00
	0.000000000000000e+00,0.000000000000000e+00
	3.789905241226380e-04,-9.507128382057477e-14
	3.525112567859803e-23,2.413349607469031e-13
	3.789905238596458e-12,2.032288925380880e-15
	-3.789905279125432e-04,-1.482959658517092e-13
	-3.789905241226380e-04,9.507128382057480e-14
	-3.525112567859803e-23,-2.413349607469031e-13
	-3.789905241226380e-04,9.507128382057480e-14
25		1.778279410038922e+00,0.000000000000000e+00
	-3.789905241226380e+00,9.728577850072881e-10
	1.000000000000000e+00,0.000000000000000e+00
	0.000000000000000e+00,0.000000000000000e+00
	3.789905241226380e-04,-9.728577850072883e-14
	3.691246004899013e-23,2.469563741246568e-13
	3.789905238596458e-12,2.079627015632005e-15
	-3.789905279125432e-04,-1.517502226395600e-13
	-3.789905241226380e-04,9.728577850072881e-14
	-3.691246004899013e-23,-2.469563741246568e-13
	-3.789905241226380e-04,9.728577850072881e-14
26		1.819700858609982e+00,0.000000000000000e+00
	-3.789905241226380e+00,9.955185538837344e-10
	1.000000000000000e+00,0.000000000000000e+00
	0.000000000000000e+00,0.000000000000000e+00
	3.789905241226380e-04,-9.955185538837347e-14
	3.865209069608586e-23,2.527087270408254e-13
	3.789905238596458e-12,2.128067751653984e-15
	-3.789905279125432e-04,-1.552849394041059e-13
	-3.789905241226380e-04,9.955185538837344e-14
	-3.865209069608586e-23,-2.527087270408254e-13
	-3.789905241226380e-04,9.955185538837344e-14
27		1.862087136662866e+00,0.000000000000000e+00
	-3.789905241226380e+00,1.018707159874696e-09
	1.000000000000000e+00,0.000000000000000e+00
	0.000000000000000e+00,0.000000000000000e+00
	3.789905241226380e-04,-1.018707159874696e-13
	4.047370760972407e-23,2.585950694690665e-13
	3.789905238596458e-12,2.177636817366166e-15
	-3.789905279125432e-04,-1.589019902989632e-13
	-3.789905241226380e-04,1.018707159874696e-13
	-4.047370760972407e-23,-2.585950694690665e-13
	-3.789905241226380e-04,1.018707159874696e-13
28		1.905460717963246e+00,0.000000000000000e+00
	-3.789905241226380e+00,1.042435897886006e-09
	1.000000000000000e+00,0.000000000000000e+00
	0.000000000000000e+00,0.000000000000000e+00
	3.789905241226380e-04,-1.042435897886006e-13
	4.238117468360700e-23,2.646185224260506e-13
	3.789905238596458e-12,2.228360494943372e-15
	-3.789905279125432e-04,-1.626032931323934e-13
	-3.789905241226380e-04,1.042435897886006e-13
	-4.238117468360700e-23,-2.646185224260506e-13
	-3.789905241226380e-04,1.042435897886006e-13
29		1.949844599758044e+00,0.000000000000000e+00
	-3.789905241226380e+00,1.066717349208646e-09
	1.000000000000000e+00,0.000000000000000e+00
	0.000000000000000e+00,0.000000000000000e+00
	3.789905241226380e-04,-1.066717349208645e-13
	4.437853791113695e-23,2.707822796262651e-13
	3.789905238596458e-12,2.280265678750830e-15
	-3.789905279125432e-04,-1.663908103841514e-13
	-3.789905241226380e-04,1.066717349208646e-13
	-4.437853791113695e-23,-2.707822796262651e-13
	-3.789905241226380e-04,1.066717349208646e-13
30		1.995262314968878e+00,0.000000000000000e+00
	-3.789905241226380e+00,1.091564388189509e-09
	1.000000000000000e+00,0.000000000000000e+00
	0.000000000000000e+00,0.000000000000000e+00
	3.789905241226380e-04,-1.091564388189509e-13
	4.647003396751062e-23,2.770896091753648e-13
	3.789905238596458e-12,2.333379889604027e-15
	-3.789905279125432e-04,-1.702665502460179e-13
	-3.789905241226380e-04,1.091564388189509e-13
	-4.647003396751062e-23,-2.770896091753648e-13
	-3.789905241226380e-04,1.091564388189509e-13
31		2.041737944669527e+00,0.000000000000000e+00
	-3.789905241226380e+00,1.116990189057553e-09
	1.000000000000000e+00,0.000000000000000e+00
	0.000000000000000e+00,0.000000000000000e+00
	3.789905241226380e-04,-1.116990189057553e-13
	4.866009919627537e-23,2.835438553029636e-13
	3.789905238596458e-12,2.387731289360631e-15
	-3.789905279125432e-04,-1.742325676865690e-13
	-3.789905241226380e-04,1.116990189057553e-13
	-4.866009919627537e-23,-2.835438553029636e-13
	-3.789905241226380e-04,1.116990189057553e-13
32		2.089296130854037e+00,0.000000000000000e+00
	-3.789905241226380e+00,1.143008232908949e-09
	1.000000000000000e+00,0.000000000000000e+00
	0.000000000000000e+00,0.000000000000000e+00
	3.789905241226380e-04,-1.143008232908949e-13
	5.095337901940858e-23,2.901484401357909e-13
	3.789905238596458e-12,2.443348695852251e-15
	-3.789905279125432e-04,-1.782909655407482e-13
	-3.789905241226380e-04,1.143008232908949e-13
	-5.095337901940858e-23,-2.901484401357909e-13
	-3.789905241226380e-04,1.143008232908949e-13
33		2.137962089502230e+00,0.000000000000000e+00
	-3.789905241226380e+00,1.169632314854936e-09
	1.000000000000000e+00,0.000000000000000e+00
	0.000000000000000e+00,0.000000000000000e+00
	3.789905241226380e-04,-1.169632314854936e-13
	5.335473779088048e-23,2.969068655121467e-13
	3.789905238596458e-12,2.500261598163954e-15
	-3.789905279125432e-04,-1.824438956248171e-13
	-3.789905241226380e-04,1.169632314854936e-13
	-5.335473779088048e-23,-2.969068655121467e-13
	-3.789905241226380e-04,1.169632314854936e-13
34		2.187761623949550e+00,0.000000000000000e+00
	-3.789905241226380e+00,1.196876551336172e-09
	1.000000000000000e+00,0.000000000000000e+00
	0.000000000000000e+00,0.000000000000000e+00
	3.789905241226380e-04,-1.196876551336172e-13
	5.586926911460112e-23,3.038227148386240e-13
	3.789905238596458e-12,2.558500172269762e-15
	-3.789905279125432e-04,-1.866935598772766e-13
	-3.789905241226380e-04,1.196876551336172e-13
	-5.586926911460112e-23,-3.038227148386240e-13
	-3.789905241226380e-04,1.196876551336172e-13
35		2.238721138568337e+00,0.000000000000000e+00
	-3.789905241226380e+00,1.224755387607461e-09
	1.000000000000000e+00,0.000000000000000e+00
	0.000000000000000e+00,0.000000000000000e+00
	3.789905241226380e-04,-1.224755387607461e-13
	5.850230664863723e-23,3.108996549900778e-13
	3.789905238596458e-12,2.618095297032827e-15
	-3.789905279125432e-04,-1.910422115263645e-13
	-3.789905241226380e-04,1.224755387607461e-13
	-5.850230664863723e-23,-3.108996549900778e-13
	-3.789905241226380e-04,1.224755387607461e-13
36		2.290867652767770e+00,0.000000000000000e+00
	-3.789905241226380e+00,1.253283605396814e-09
	1.000000000000000e+00,0.000000000000000e+00
	0.000000000000000e+00,0.000000000000000e+00
	3.789905241226380e-04,-1.253283605396814e-13
	6.125943541861598e-23,3.181414382538508e-13
	3.789905238596458e-12,2.679078570576829e-15
	-3.789905279125432e-04,-1.954921562847463e-13
	-3.789905241226380e-04,1.253283605396814e-13
	-6.125943541861598e-23,-3.181414382538508e-13
	-3.789905241226380e-04,1.253283605396814e-13
37		2.344228815319919e+00,0.000000000000000e+00
	-3.789905241226380e+00,1.282476330742917e-09
	1.000000000000000e+00,0.000000000000000e+00
	0.000000000000000e+00,0.000000000000000e+00
	3.789905241226380e-04,-1.282476330742917e-13
	6.414650366431320e-23,3.255519043192858e-13
	3.789905238596458e-12,2.741482327040850e-15
	-3.789905279125432e-04,-2.000457535720349e-13
	-3.789905241226380e-04,1.282476330742918e-13
	-6.414650366431320e-23,-3.255519043192858e-13
	-3.789905241226380e-04,1.282476330742918e-13
38		2.398832919019488e+00,0.000000000000000e+00
	-3.789905241226380e+00,1.312349042015162e-09
	1.000000000000000e+00,0.000000000000000e+00
	0.000000000000000e+00,0.000000000000000e+00
