LTspice 24.0.9 for Windows
Circuit: * GA CMOS Amp | W=1.974014297415882e-05 L=5.919127899623481e-07 Vbias=0.9301311126184297
Start Time: Mon Sep  8 18:44:54 2025
solver = Normal
Maximum thread count: 2
tnom = 27
temp = 27
method = modified trap
AsciiRawFile = 1
Instance "m1": Length shorter than recommended for a level 3 MOSFET.
Direct Newton iteration for .op point succeeded.
Semiconductor Device Operating Points:
                        --- MOSFET Transistors ---
Name:          m1
Model:        n_1u
Id:          1.17e-04
Vgs:         9.30e-01
Vds:         6.32e-01
Vbs:         0.00e+00
Vth:         7.54e-01
Vdsat:       1.73e-01
Gm:          8.56e-04
Gds:         5.56e-05
Gmb:         1.48e-04
Cbd:         0.00e+00
Cbs:         0.00e+00
Cgsov:       3.95e-15
Cgdov:       3.95e-15
Cgbov:       3.92e-17
Cgs:         8.90e-15
Cgd:         0.00e+00
Cgb:         0.00e+00



gain_db: MAX(db(v(out)/v(g)))=(29.8402dB,61.5133°) FROM 1 TO 1e+09
gain_lin: MAX(mag(v(out)/v(g)))=(14.8077dB,0°) FROM 1 TO 1e+09

Measurement "fc" FAIL'ed

Total elapsed time: 0.893 seconds.

