Title: * GA CMOS Amp | W=2.3518482065490754e-06 L=1e-06 Vbias=1.4732026882116225
Date: Sat Sep  6 22:14:17 2025
Plotname: AC Analysis
Flags: complex forward log
No. Variables: 13
No. Points:          901
Offset:    0.0000000000000000e+00
Command: Linear Technology Corporation LTspice
Variables:
	0	frequency	frequency
	1	V(out)	voltage
	2	V(g)	voltage
	3	V(vdd)	voltage
	4	V(m1#dbody)	voltage
	5	V(m1#sbody)	voltage
	6	Id(M1)	device_current
	7	Ig(M1)	device_current
	8	Ib(M1)	device_current
	9	Is(M1)	device_current
	10	I(Rload)	device_current
	11	I(Vg)	device_current
	12	I(Vdd)	device_current
Values:
0		1.000000000000000e+00,0.000000000000000e+00
	-3.400565855068944e-01,1.564247138649401e-09
	1.000000000000000e+00,0.000000000000000e+00
	0.000000000000000e+00,0.000000000000000e+00
	7.335968152438340e-05,1.424293998465894e-13
	7.335968407480227e-05,1.578574694581342e-13
	3.400565855068943e-05,-1.564247138649401e-13
	4.394927368239074e-05,5.201150259078554e-13
	-3.912516469943278e-05,-8.316471417740752e-14
	-3.882976753364740e-05,-2.805255978655078e-13
	-3.400565855068944e-05,1.564247138649401e-13
	-4.394927368212009e-05,-5.201150259078554e-13
	-3.400565855068944e-05,1.564247138649401e-13
1		1.023292992280754e+00,0.000000000000000e+00
	-3.400565855068944e-01,1.600683135175153e-09
	1.000000000000000e+00,0.000000000000000e+00
	0.000000000000000e+00,0.000000000000000e+00
	7.335968152438340e-05,1.457470067577685e-13
	7.335968407480227e-05,1.615344422756819e-13
	3.400565855068943e-05,-1.600683135175153e-13
	4.394927368239074e-05,5.322300611914314e-13
	-3.912516469943278e-05,-8.510186922277302e-14
	-3.882976753364740e-05,-2.870598784511430e-13
	-3.400565855068944e-05,1.600683135175153e-13
	-4.394927368212009e-05,-5.322300611914314e-13
	-3.400565855068944e-05,1.600683135175153e-13
2		1.047128548050899e+00,0.000000000000000e+00
	-3.400565855068944e-01,1.637967835086721e-09
	1.000000000000000e+00,0.000000000000000e+00
	0.000000000000000e+00,0.000000000000000e+00
	7.335968152438340e-05,1.491418906611202e-13
	7.335968407480227e-05,1.652970627926853e-13
	3.400565855068943e-05,-1.637967835086721e-13
	4.394927368239074e-05,5.446272918983487e-13
	-3.912516469943278e-05,-8.708414640565679e-14
	-3.882976753364740e-05,-2.937463619840197e-13
	-3.400565855068944e-05,1.637967835086721e-13
	-4.394927368212009e-05,-5.446272918983484e-13
	-3.400565855068944e-05,1.637967835086721e-13
3		1.071519305237606e+00,0.000000000000000e+00
	-3.400565855068944e-01,1.676121007225519e-09
	1.000000000000000e+00,0.000000000000000e+00
	0.000000000000000e+00,0.000000000000000e+00
	7.335968152438340e-05,1.526158515690268e-13
	7.335968407480227e-05,1.691473260003466e-13
	3.400565855068943e-05,-1.676121007225519e-13
	4.394927368239074e-05,5.573132912044248e-13
	-3.912516469943278e-05,-8.911259675565983e-14
	-3.882976753364740e-05,-3.005885937262130e-13
	-3.400565855068944e-05,1.676121007225519e-13
	-4.394927368212009e-05,-5.573132912044247e-13
	-3.400565855068944e-05,1.676121007225519e-13
4		1.096478196143185e+00,0.000000000000000e+00
	-3.400565855068944e-01,1.715162880908433e-09
	1.000000000000000e+00,0.000000000000000e+00
	0.000000000000000e+00,0.000000000000000e+00
	7.335968152438340e-05,1.561707314215448e-13
	7.335968407480227e-05,1.730872733591828e-13
	3.400565855068943e-05,-1.715162880908433e-13
	4.394927368239074e-05,5.702947853944110e-13
	-3.912516469943278e-05,-9.118829578400733e-14
	-3.882976753364740e-05,-3.075902015195604e-13
	-3.400565855068944e-05,1.715162880908433e-13
	-4.394927368212009e-05,-5.702947853944111e-13
	-3.400565855068944e-05,1.715162880908433e-13
5		1.122018454301963e+00,0.000000000000000e+00
	-3.400565855068944e-01,1.755114156653669e-09
	1.000000000000000e+00,0.000000000000000e+00
	0.000000000000000e+00,0.000000000000000e+00
	7.335968152438340e-05,1.598084150630266e-13
	7.335968407480227e-05,1.771189938814351e-13
	3.400565855068943e-05,-1.755114156653669e-13
	4.394927368239074e-05,5.835786574283574e-13
	-3.912516469943278e-05,-9.331234405379937e-14
	-3.882976753364740e-05,-3.147548977091912e-13
	-3.400565855068944e-05,1.755114156653669e-13
	-4.394927368212009e-05,-5.835786574283575e-13
	-3.400565855068944e-05,1.755114156653669e-13
6		1.148153621496882e+00,0.000000000000000e+00
	-3.400565855068944e-01,1.795996017156446e-09
	1.000000000000000e+00,0.000000000000000e+00
	0.000000000000000e+00,0.000000000000000e+00
	7.335968152438340e-05,1.635308312414892e-13
	7.335968407480227e-05,1.812446252386903e-13
	3.400565855068943e-05,-1.795996017156446e-13
	4.394927368239074e-05,5.971719505910491e-13
	-3.912516469943278e-05,-9.548586776354358e-14
	-3.882976753364740e-05,-3.220864811118609e-13
	-3.400565855068944e-05,1.795996017156446e-13
	-4.394927368212009e-05,-5.971719505910490e-13
	-3.400565855068944e-05,1.795996017156446e-13
7		1.174897554939529e+00,0.000000000000000e+00
	-3.400565855068944e-01,1.837830138520335e-09
	1.000000000000000e+00,0.000000000000000e+00
	0.000000000000000e+00,0.000000000000000e+00
	7.335968152438340e-05,1.673399536312625e-13
	7.335968407480227e-05,1.854663548953033e-13
	3.400565855068943e-05,-1.837830138520335e-13
	4.394927368239074e-05,6.110818722264491e-13
	-3.912516469943278e-05,-9.771001934428090e-14
	-3.882976753364740e-05,-3.295888390301347e-13
	-3.400565855068944e-05,1.837830138520335e-13
	-4.394927368212009e-05,-6.110818722264493e-13
	-3.400565855068944e-05,1.837830138520335e-13
8		1.202264434617413e+00,0.000000000000000e+00
	-3.400565855068944e-01,1.880638701750227e-09
	1.000000000000000e+00,0.000000000000000e+00
	0.000000000000000e+00,0.000000000000000e+00
	7.335968152438340e-05,1.712378018794572e-13
	7.335968407480227e-05,1.897864212682192e-13
	3.400565855068943e-05,-1.880638701750227e-13
	4.394927368239074e-05,6.253157975591288e-13
	-3.912516469943278e-05,-9.998597807061958e-14
	-3.882976753364740e-05,-3.372659493134864e-13
	-3.400565855068944e-05,1.880638701750227e-13
	-4.394927368212009e-05,-6.253157975591288e-13
	-3.400565855068944e-05,1.880638701750227e-13
9		1.230268770812381e+00,0.000000000000000e+00
	-3.400565855068944e-01,1.924444404512983e-09
	1.000000000000000e+00,0.000000000000000e+00
	0.000000000000000e+00,0.000000000000000e+00
	7.335968152438340e-05,1.752264426768088e-13
	7.335968407480227e-05,1.942071149138118e-13
	3.400565855068943e-05,-1.924444404512983e-13
	4.394927368239074e-05,6.398812736047071e-13
	-3.912516469943278e-05,-1.023149506860022e-13
	-3.882976753364740e-05,-3.451218824674066e-13
	-3.400565855068944e-05,1.924444404512983e-13
	-4.394927368212009e-05,-6.398812736047071e-13
	-3.400565855068944e-05,1.924444404512983e-13
10		1.258925411794167e+00,0.000000000000000e+00
	-3.400565855068944e-01,1.969270473172044e-09
	1.000000000000000e+00,0.000000000000000e+00
	0.000000000000000e+00,0.000000000000000e+00
	7.335968152438340e-05,1.793079908534637e-13
	7.335968407480227e-05,1.987307797423668e-13
	3.400565855068943e-05,-1.969270473172044e-13
	4.394927368239074e-05,6.547860231713806e-13
	-3.912516469943278e-05,-1.046981720425370e-13
	-3.882976753364740e-05,-3.531608038116392e-13
	-3.400565855068944e-05,1.969270473172044e-13
	-4.394927368212009e-05,-6.547860231713806e-13
	-3.400565855068944e-05,1.969270473172044e-13
11		1.288249551693134e+00,0.000000000000000e+00
	-3.400565855068944e-01,2.015140675102358e-09
	1.000000000000000e+00,0.000000000000000e+00
	0.000000000000000e+00,0.000000000000000e+00
	7.335968152438340e-05,1.834846105002909e-13
	7.335968407480227e-05,2.033598142608540e-13
	3.400565855068943e-05,-2.015140675102358e-13
	4.394927368239074e-05,6.700379489546573e-13
	-3.912516469943278e-05,-1.071369057557328e-13
	-3.882976753364740e-05,-3.613869756886887e-13
	-3.400565855068944e-05,2.015140675102358e-13
	-4.394927368212009e-05,-6.700379489546574e-13
	-3.400565855068944e-05,2.015140675102358e-13
12		1.318256738556407e+00,0.000000000000000e+00
	-3.400565855068944e-01,2.062079331292151e-09
	1.000000000000000e+00,0.000000000000000e+00
	0.000000000000000e+00,0.000000000000000e+00
	7.335968152438340e-05,1.877585161163114e-13
	7.335968407480227e-05,2.080966728446476e-13
	3.400565855068943e-05,-2.062079331292151e-13
	4.394927368239074e-05,6.856451377274705e-13
	-3.912516469943278e-05,-1.096324448744850e-13
	-3.882976753364740e-05,-3.698047597237704e-13
	-3.400565855068944e-05,2.062079331292151e-13
	-4.394927368212009e-05,-6.856451377274706e-13
	-3.400565855068944e-05,2.062079331292151e-13
13		1.348962882591653e+00,0.000000000000000e+00
	-3.400565855068944e-01,2.110111329238241e-09
	1.000000000000000e+00,0.000000000000000e+00
	0.000000000000000e+00,0.000000000000000e+00
	7.335968152438340e-05,1.921319737828545e-13
	7.335968407480227e-05,2.129438670388686e-13
	3.400565855068943e-05,-2.110111329238242e-13
	4.394927368239074e-05,7.016158646278932e-13
	-3.912516469943278e-05,-1.121861125666666e-13
	-3.882976753364740e-05,-3.784186191374024e-13
	-3.400565855068944e-05,2.110111329238241e-13
	-4.394927368212009e-05,-7.016158646278931e-13
	-3.400565855068944e-05,2.110111329238241e-13
14		1.380384264602885e+00,0.000000000000000e+00
	-3.400565855068944e-01,2.159262136141720e-09
	1.000000000000000e+00,0.000000000000000e+00
	0.000000000000000e+00,0.000000000000000e+00
	7.335968152438340e-05,1.966073023650646e-13
	7.335968407480227e-05,2.179039668900389e-13
	3.400565855068943e-05,-2.159262136141720e-13
	4.394927368239074e-05,7.179585975467253e-13
	-3.912516469943278e-05,-1.147992628206898e-13
	-3.882976753364740e-05,-3.872331211118635e-13
	-3.400565855068944e-05,2.159262136141720e-13
	-4.394927368212009e-05,-7.179585975467254e-13
	-3.400565855068944e-05,2.159262136141720e-13
15		1.412537544622754e+00,0.000000000000000e+00
	-3.400565855068944e-01,2.209557812410994e-09
	1.000000000000000e+00,0.000000000000000e+00
	0.000000000000000e+00,0.000000000000000e+00
	7.335968152438340e-05,2.011868747413939e-13
	7.335968407480227e-05,2.229796023087543e-13
	3.400565855068943e-05,-2.209557812410993e-13
	4.394927368239074e-05,7.346820016172821e-13
	-3.912516469943278e-05,-1.174732811634084e-13
	-3.882976753364740e-05,-3.962529392127744e-13
	-3.400565855068944e-05,2.209557812410994e-13
	-4.394927368212009e-05,-7.346820016172822e-13
	-3.400565855068944e-05,2.209557812410994e-13
16		1.445439770745927e+00,0.000000000000000e+00
	-3.400565855068944e-01,2.261025025479362e-09
	1.000000000000000e+00,0.000000000000000e+00
	0.000000000000000e+00,0.000000000000000e+00
	7.335968152438340e-05,2.058731190617342e-13
	7.335968407480227e-05,2.281734644640977e-13
	3.400565855068943e-05,-2.261025025479362e-13
	4.394927368239074e-05,7.517949438097624e-13
	-3.912516469943278e-05,-1.202095853947425e-13
	-3.882976753364740e-05,-4.054828558670837e-13
	-3.400565855068944e-05,2.261025025479362e-13
	-4.394927368212009e-05,-7.517949438097624e-13
	-3.400565855068944e-05,2.261025025479362e-13
17		1.479108388168207e+00,0.000000000000000e+00
	-3.400565855068944e-01,2.313691063944445e-09
	1.000000000000000e+00,0.000000000000000e+00
	0.000000000000000e+00,0.000000000000000e+00
	7.335968152438340e-05,2.106685200348539e-13
	7.335968407480227e-05,2.334883072105329e-13
	3.400565855068943e-05,-2.313691063944444e-13
	4.394927368239074e-05,7.693064976326332e-13
	-3.912516469943278e-05,-1.230096263394149e-13
	-3.882976753364740e-05,-4.149277648987738e-13
	-3.400565855068944e-05,2.313691063944445e-13
	-4.394927368212009e-05,-7.693064976326330e-13
	-3.400565855068944e-05,2.313691063944445e-13
18		1.513561248436208e+00,0.000000000000000e+00
	-3.400565855068944e-01,2.367583852036952e-09
	1.000000000000000e+00,0.000000000000000e+00
	0.000000000000000e+00,0.000000000000000e+00
	7.335968152438340e-05,2.155756202458237e-13
	7.335968407480227e-05,2.389269485480342e-13
	3.400565855068943e-05,-2.367583852036952e-13
	4.394927368239074e-05,7.872259479435239e-13
	-3.912516469943278e-05,-1.258748886161973e-13
	-3.882976753364740e-05,-4.245926741236315e-13
	-3.400565855068944e-05,2.367583852036952e-13
	-4.394927368212009e-05,-7.872259479435240e-13
	-3.400565855068944e-05,2.367583852036952e-13
19		1.548816618912481e+00,0.000000000000000e+00
	-3.400565855068944e-01,2.422731964426487e-09
	1.000000000000000e+00,0.000000000000000e+00
	0.000000000000000e+00,0.000000000000000e+00
	7.335968152438340e-05,2.205970215041284e-13
	7.335968407480227e-05,2.444922721162276e-13
	3.400565855068943e-05,-2.422731964426487e-13
	4.394927368239074e-05,8.055627958721819e-13
	-3.912516469943278e-05,-1.288068914250752e-13
	-3.882976753364740e-05,-4.344827080044580e-13
	-3.400565855068944e-05,2.422731964426487e-13
	-4.394927368212009e-05,-8.055627958721820e-13
	-3.400565855068944e-05,2.422731964426487e-13
20		1.584893192461113e+00,0.000000000000000e+00
	-3.400565855068944e-01,2.479164641372209e-09
	1.000000000000000e+00,0.000000000000000e+00
	0.000000000000000e+00,0.000000000000000e+00
	7.335968152438340e-05,2.257353862231815e-13
	7.335968407480227e-05,2.501872287233350e-13
	3.400565855068943e-05,-2.479164641372210e-13
	4.394927368239074e-05,8.243267638580954e-13
	-3.912516469943278e-05,-1.318071893527474e-13
	-3.882976753364740e-05,-4.446031103681270e-13
	-3.400565855068944e-05,2.479164641372210e-13
	-4.394927368212009e-05,-8.243267638580952e-13
	-3.400565855068944e-05,2.479164641372210e-13
21		1.621810097358929e+00,0.000000000000000e+00
	-3.400565855068944e-01,2.536911804226411e-09
	1.000000000000000e+00,0.000000000000000e+00
	0.000000000000000e+00,0.000000000000000e+00
	7.335968152438340e-05,2.309934388319711e-13
	7.335968407480227e-05,2.560148379107309e-13
	3.400565855068943e-05,-2.536911804226411e-13
	4.394927368239074e-05,8.435278008054609e-13
	-3.912516469943278e-05,-1.348773731968888e-13
	-3.882976753364740e-05,-4.549592471859310e-13
	-3.400565855068944e-05,2.536911804226411e-13
	-4.394927368212009e-05,-8.435278008054609e-13
	-3.400565855068944e-05,2.536911804226411e-13
22		1.659586907437560e+00,0.000000000000000e+00
	-3.400565855068944e-01,2.596004071299211e-09
	1.000000000000000e+00,0.000000000000000e+00
	0.000000000000000e+00,0.000000000000000e+00
	7.335968152438340e-05,2.363739672195890e-13
	7.335968407480227e-05,2.619781895539441e-13
	3.400565855068943e-05,-2.596004071299211e-13
	4.394927368239074e-05,8.631760873582242e-13
	-3.912516469943278e-05,-1.380190708096124e-13
	-3.882976753364740e-05,-4.655566094186907e-13
	-3.400565855068944e-05,2.596004071299211e-13
	-4.394927368212009e-05,-8.631760873582243e-13
	-3.400565855068944e-05,2.596004071299211e-13
23		1.698243652461743e+00,0.000000000000000e+00
	-3.400565855068944e-01,2.656472774092789e-09
	1.000000000000000e+00,0.000000000000000e+00
	0.000000000000000e+00,0.000000000000000e+00
	7.335968152438340e-05,2.418798242134062e-13
	7.335968407480227e-05,2.680804455009500e-13
	3.400565855068943e-05,-2.656472774092790e-13
	4.394927368239074e-05,8.832820412979907e-13
	-3.912516469943278e-05,-1.412339479605775e-13
	-3.882976753364740e-05,-4.764008159281343e-13
	-3.400565855068944e-05,2.656472774092789e-13
	-4.394927368212009e-05,-8.832820412979906e-13
	-3.400565855068944e-05,2.656472774092789e-13
24		1.737800828749374e+00,0.000000000000000e+00
	-3.400565855068944e-01,2.718349973913766e-09
	1.000000000000000e+00,0.000000000000000e+00
	0.000000000000000e+00,0.000000000000000e+00
	7.335968152438340e-05,2.475139290916791e-13
	7.335968407480227e-05,2.743248412486246e-13
	3.400565855068943e-05,-2.718349973913766e-13
	4.394927368239074e-05,9.038563230676734e-13
	-3.912516469943278e-05,-1.445237092202036e-13
	-3.882976753364740e-05,-4.874976164560932e-13
	-3.400565855068944e-05,2.718349973913766e-13
	-4.394927368212009e-05,-9.038563230676735e-13
	-3.400565855068944e-05,2.718349973913766e-13
25		1.778279410038922e+00,0.000000000000000e+00
	-3.400565855068944e-01,2.781668478872527e-09
	1.000000000000000e+00,0.000000000000000e+00
	0.000000000000000e+00,0.000000000000000e+00
	7.335968152438340e-05,2.532792691313908e-13
	7.335968407480227e-05,2.807146876582480e-13
	3.400565855068943e-05,-2.781668478872528e-13
	4.394927368239074e-05,9.249098414237995e-13
	-3.912516469943278e-05,-1.478900988634558e-13
	-3.882976753364740e-05,-4.988528946730909e-13
	-3.400565855068944e-05,2.781668478872527e-13
	-4.394927368212009e-05,-9.249098414237997e-13
	-3.400565855068944e-05,2.781668478872527e-13
26		1.819700858609982e+00,0.000000000000000e+00
	-3.400565855068944e-01,2.846461861278522e-09
	1.000000000000000e+00,0.000000000000000e+00
	0.000000000000000e+00,0.000000000000000e+00
	7.335968152438340e-05,2.591789011921432e-13
	7.335968407480227e-05,2.872533727109659e-13
	3.400565855068943e-05,-2.846461861278522e-13
	4.394927368239074e-05,9.464537592204777e-13
	-3.912516469943278e-05,-1.513349017946823e-13
	-3.882976753364740e-05,-5.104726712979431e-13
	-3.400565855068944e-05,2.846461861278522e-13
	-4.394927368212009e-05,-9.464537592204775e-13
	-3.400565855068944e-05,2.846461861278522e-13
27		1.862087136662866e+00,0.000000000000000e+00
	-3.400565855068944e-01,2.912764475440744e-09
	1.000000000000000e+00,0.000000000000000e+00
	0.000000000000000e+00,0.000000000000000e+00
	7.335968152438340e-05,2.652159533369462e-13
	7.335968407480227e-05,2.939443633041429e-13
	3.400565855068943e-05,-2.912764475440744e-13
	4.394927368239074e-05,9.684994993280909e-13
	-3.912516469943278e-05,-1.548599444939944e-13
	-3.882976753364740e-05,-5.223631072900221e-13
	-3.400565855068944e-05,2.912764475440744e-13
	-4.394927368212009e-05,-9.684994993280911e-13
	-3.400565855068944e-05,2.912764475440744e-13
28		1.905460717963246e+00,0.000000000000000e+00
	-3.400565855068944e-01,2.980611475882840e-09
	1.000000000000000e+00,0.000000000000000e+00
	0.000000000000000e+00,0.000000000000000e+00
	7.335968152438340e-05,2.713936264907565e-13
	7.335968407480227e-05,3.007912070895575e-13
	3.400565855068943e-05,-2.980611475882840e-13
	4.394927368239074e-05,9.910587506898542e-13
	-3.912516469943278e-05,-1.584670959856910e-13
	-3.882976753364740e-05,-5.345305071158792e-13
	-3.400565855068944e-05,2.980611475882840e-13
	-4.394927368212009e-05,-9.910587506898544e-13
	-3.400565855068944e-05,2.980611475882840e-13
29		1.949844599758044e+00,0.000000000000000e+00
	-3.400565855068944e-01,3.050038835982506e-09
	1.000000000000000e+00,0.000000000000000e+00
	0.000000000000000e+00,0.000000000000000e+00
	7.335968152438340e-05,2.777151961376516e-13
	7.335968407480227e-05,3.077975343544134e-13
	3.400565855068943e-05,-3.050038835982506e-13
	4.394927368239074e-05,1.014143474519447e-12
	-3.912516469943278e-05,-1.621582688292393e-13
	-3.882976753364740e-05,-5.469813220919571e-13
	-3.400565855068944e-05,3.050038835982506e-13
	-4.394927368212009e-05,-1.014143474519447e-12
	-3.400565855068944e-05,3.050038835982506e-13
30		1.995262314968878e+00,0.000000000000000e+00
	-3.400565855068944e-01,3.121083367045047e-09
	1.000000000000000e+00,0.000000000000000e+00
	0.000000000000000e+00,0.000000000000000e+00
	7.335968152438340e-05,2.841840140575340e-13
	7.335968407480227e-05,3.149670599461658e-13
	3.400565855068943e-05,-3.121083367045047e-13
	4.394927368239074e-05,1.037765910643006e-12
	-3.912516469943278e-05,-1.659354201333392e-13
	-3.882976753364740e-05,-5.597221538051617e-13
	-3.400565855068944e-05,3.121083367045047e-13
	-4.394927368212009e-05,-1.037765910643006e-12
	-3.400565855068944e-05,3.121083367045047e-13
31		2.041737944669527e+00,0.000000000000000e+00
	-3.400565855068944e-01,3.193782737821217e-09
	1.000000000000000e+00,0.000000000000000e+00
	0.000000000000000e+00,0.000000000000000e+00
	7.335968152438340e-05,2.908035101032899e-13
	7.335968407480227e-05,3.223035852421837e-13
	3.400565855068943e-05,-3.193782737821217e-13
	4.394927368239074e-05,1.061938583988843e-12
	-3.912516469943278e-05,-1.698005525936088e-13
	-3.882976753364740e-05,-5.727597576131122e-13
	-3.400565855068944e-05,3.193782737821217e-13
	-4.394927368212009e-05,-1.061938583988842e-12
	-3.400565855068944e-05,3.193782737821217e-13
32		2.089296130854037e+00,0.000000000000000e+00
	-3.400565855068944e-01,3.268175494479693e-09
	1.000000000000000e+00,0.000000000000000e+00
	0.000000000000000e+00,0.000000000000000e+00
	7.335968152438340e-05,2.975771940193420e-13
