Title: * GA CMOS Amp | W=3.15458089562179e-05 L=6.443458668456426e-07 Vbias=0.9083355144139958
Date: Mon Sep  8 18:47:32 2025
Plotname: AC Analysis
Flags: complex forward log
No. Variables: 11
No. Points:          901
Offset:    0.0000000000000000e+00
Command: Linear Technology Corporation LTspice
Variables:
	0	frequency	frequency
	1	V(out)	voltage
	2	V(g)	voltage
	3	V(vdd)	voltage
	4	Id(M1)	device_current
	5	Ig(M1)	device_current
	6	Ib(M1)	device_current
	7	Is(M1)	device_current
	8	I(Rload)	device_current
	9	I(Vg)	device_current
	10	I(Vdd)	device_current
Values:
0		1.000000000000000e+00,0.000000000000000e+00
	-7.568405427372753e+00,7.057362271105027e-09
	1.000000000000000e+00,0.000000000000000e+00
	0.000000000000000e+00,0.000000000000000e+00
	7.568405427372754e-04,-7.057362271105029e-13
	6.461745673437095e-22,9.172336064559318e-13
	7.568405429279890e-12,3.259851146017594e-14
	-7.568405503056809e-04,-2.440958908056049e-13
	-7.568405427372754e-04,7.057362271105028e-13
	-6.461745673437095e-22,-9.172336064559318e-13
	-7.568405427372754e-04,7.057362271105028e-13
1		1.023292992280754e+00,0.000000000000000e+00
	-7.568405427372753e+00,7.221749356008364e-09
	1.000000000000000e+00,0.000000000000000e+00
	0.000000000000000e+00,0.000000000000000e+00
	7.568405427372754e-04,-7.221749356008365e-13
	6.766278364900370e-22,9.385987217707581e-13
	7.568405429279890e-12,3.335782833598208e-14
	-7.568405503056809e-04,-2.497816145059037e-13
	-7.568405427372754e-04,7.221749356008365e-13
	-6.766278364900370e-22,-9.385987217707581e-13
	-7.568405427372754e-04,7.221749356008365e-13
2		1.047128548050899e+00,0.000000000000000e+00
	-7.568405427372753e+00,7.389965508011406e-09
	1.000000000000000e+00,0.000000000000000e+00
	0.000000000000000e+00,0.000000000000000e+00
	7.568405427372754e-04,-7.389965508011408e-13
	7.085163239946336e-22,9.604614945516899e-13
	7.568405429279890e-12,3.413483197391485e-14
	-7.568405503056809e-04,-2.555997757244640e-13
	-7.568405427372754e-04,7.389965508011407e-13
	-7.085163239946336e-22,-9.604614945516899e-13
	-7.568405427372754e-04,7.389965508011407e-13
3		1.071519305237606e+00,0.000000000000000e+00
	-7.568405427372753e+00,7.562099917544556e-09
	1.000000000000000e+00,0.000000000000000e+00
	0.000000000000000e+00,0.000000000000000e+00
	7.568405427372754e-04,-7.562099917544556e-13
	7.419076696148613e-22,9.828335167302438e-13
	7.568405429279890e-12,3.492993435158822e-14
	-7.568405503056809e-04,-2.615534593273764e-13
	-7.568405427372754e-04,7.562099917544556e-13
	-7.419076696148613e-22,-9.828335167302438e-13
	-7.568405427372754e-04,7.562099917544556e-13
4		1.096478196143185e+00,0.000000000000000e+00
	-7.568405427372753e+00,7.738243852550210e-09
	1.000000000000000e+00,0.000000000000000e+00
	0.000000000000000e+00,0.000000000000000e+00
	7.568405427372754e-04,-7.738243852550213e-13
	7.768727008716359e-22,1.005726650248708e-12
	7.568405429279890e-12,3.574355704280692e-14
	-7.568405503056809e-04,-2.676458220364935e-13
	-7.568405427372754e-04,7.738243852550211e-13
	-7.768727008716359e-22,-1.005726650248708e-12
	-7.568405427372754e-04,7.738243852550211e-13
5		1.122018454301963e+00,0.000000000000000e+00
	-7.568405427372753e+00,7.918490706874257e-09
	1.000000000000000e+00,0.000000000000000e+00
	0.000000000000000e+00,0.000000000000000e+00
	7.568405427372754e-04,-7.918490706874258e-13
	8.134855832840972e-22,1.029153033349500e-12
	7.568405429279890e-12,3.657613144109167e-14
	-7.568405503056809e-04,-2.738800941031656e-13
	-7.568405427372754e-04,7.918490706874258e-13
	-8.134855832840972e-22,-1.029153033349500e-12
	-7.568405427372754e-04,7.918490706874258e-13
6		1.148153621496882e+00,0.000000000000000e+00
	-7.568405427372753e+00,8.102936049784702e-09
	1.000000000000000e+00,0.000000000000000e+00
	0.000000000000000e+00,0.000000000000000e+00
	7.568405427372754e-04,-8.102936049784702e-13
	8.518239776846156e-22,1.053125087011024e-12
	7.568405429279890e-12,3.742809898840858e-14
	-7.568405503056809e-04,-2.802595810209628e-13
	-7.568405427372754e-04,8.102936049784702e-13
	-8.518239776846156e-22,-1.053125087011024e-12
	-7.568405427372754e-04,8.102936049784702e-13
7		1.174897554939529e+00,0.000000000000000e+00
	-7.568405427372753e+00,8.291677676643778e-09
	1.000000000000000e+00,0.000000000000000e+00
	0.000000000000000e+00,0.000000000000000e+00
	7.568405427372754e-04,-8.291677676643782e-13
	8.919692049478331e-22,1.077655521533440e-12
	7.568405429279890e-12,3.829991140922907e-14
	-7.568405503056809e-04,-2.867876652782914e-13
	-7.568405427372754e-04,8.291677676643779e-13
	-8.919692049478331e-22,-1.077655521533440e-12
	-7.568405427372754e-04,8.291677676643779e-13
8		1.202264434617413e+00,0.000000000000000e+00
	-7.568405427372753e+00,8.484815660760345e-09
	1.000000000000000e+00,0.000000000000000e+00
	0.000000000000000e+00,0.000000000000000e+00
	7.568405427372754e-04,-8.484815660760346e-13
	9.340064184831399e-22,1.102757343277831e-12
	7.568405429279890e-12,3.919203095003759e-14
	-7.568405503056809e-04,-2.934678081518342e-13
	-7.568405427372754e-04,8.484815660760346e-13
	-9.340064184831399e-22,-1.102757343277831e-12
	-7.568405427372754e-04,8.484815660760346e-13
9		1.230268770812381e+00,0.000000000000000e+00
	-7.568405427372753e+00,8.682452406450057e-09
	1.000000000000000e+00,0.000000000000000e+00
	0.000000000000000e+00,0.000000000000000e+00
	7.568405427372754e-04,-8.682452406450059e-13
	9.780247848564710e-22,1.128443861562347e-12
	7.568405429279890e-12,4.010493062442398e-14
	-7.568405503056809e-04,-3.003035515417647e-13
	-7.568405427372754e-04,8.682452406450057e-13
	-9.780247848564710e-22,-1.128443861562347e-12
	-7.568405427372754e-04,8.682452406450057e-13
10		1.258925411794167e+00,0.000000000000000e+00
	-7.568405427372753e+00,8.884692703331514e-09
	1.000000000000000e+00,0.000000000000000e+00
	0.000000000000000e+00,0.000000000000000e+00
	7.568405427372754e-04,-8.884692703331513e-13
	1.024117672924550e-21,1.154728695718983e-12
	7.568405429279890e-12,4.103909446387866e-14
	-7.568405503056809e-04,-3.072985198497101e-13
	-7.568405427372754e-04,8.884692703331514e-13
	-1.024117672924550e-21,-1.154728695718983e-12
	-7.568405427372754e-04,8.884692703331514e-13
11		1.288249551693134e+00,0.000000000000000e+00
	-7.568405427372753e+00,9.091643781887087e-09
	1.000000000000000e+00,0.000000000000000e+00
	0.000000000000000e+00,0.000000000000000e+00
	7.568405427372754e-04,-9.091643781887090e-13
	1.072382851882750e-21,1.181625782314730e-12
	7.568405429279890e-12,4.199501777443516e-14
	-7.568405503056809e-04,-3.144564219004565e-13
	-7.568405427372754e-04,9.091643781887088e-13
	-1.072382851882750e-21,-1.181625782314730e-12
	-7.568405427372754e-04,9.091643781887088e-13
12		1.318256738556407e+00,0.000000000000000e+00
	-7.568405427372753e+00,9.303415370317951e-09
	1.000000000000000e+00,0.000000000000000e+00
	0.000000000000000e+00,0.000000000000000e+00
	7.568405427372754e-04,-9.303415370317951e-13
	1.122922698646667e-21,1.209149382540927e-12
	7.568405429279890e-12,4.297320739928527e-14
	-7.568405503056809e-04,-3.217810529084175e-13
	-7.568405427372754e-04,9.303415370317951e-13
	-1.122922698646667e-21,-1.209149382540927e-12
	-7.568405427372754e-04,9.303415370317951e-13
13		1.348962882591653e+00,0.000000000000000e+00
	-7.568405427372753e+00,9.520119752723417e-09
	1.000000000000000e+00,0.000000000000000e+00
	0.000000000000000e+00,0.000000000000000e+00
	7.568405427372754e-04,-9.520119752723416e-13
	1.175844415007283e-21,1.237314089774732e-12
	7.568405429279890e-12,4.397418198751609e-14
	-7.568405503056809e-04,-3.292762964899063e-13
	-7.568405427372754e-04,9.520119752723418e-13
	-1.175844415007283e-21,-1.237314089774732e-12
	-7.568405427372754e-04,9.520119752723418e-13
14		1.380384264602885e+00,0.000000000000000e+00
	-7.568405427372753e+00,9.741871828635459e-09
	1.000000000000000e+00,0.000000000000000e+00
	0.000000000000000e+00,0.000000000000000e+00
	7.568405427372754e-04,-9.741871828635459e-13
	1.231260255020335e-21,1.266134837316723e-12
	7.568405429279890e-12,4.499847226910384e-14
	-7.568405503056809e-04,-3.369461267222810e-13
	-7.568405427372754e-04,9.741871828635459e-13
	-1.231260255020335e-21,-1.266134837316723e-12
	-7.568405427372754e-04,9.741871828635459e-13
15		1.412537544622754e+00,0.000000000000000e+00
	-7.568405427372753e+00,9.968789173939961e-09
	1.000000000000000e+00,0.000000000000000e+00
	0.000000000000000e+00,0.000000000000000e+00
	7.568405427372754e-04,-9.968789173939960e-13
	1.289287763112224e-21,1.295626906308735e-12
	7.568405429279890e-12,4.604662133631373e-14
	-7.568405503056809e-04,-3.447946102510530e-13
	-7.568405427372754e-04,9.968789173939962e-13
	-1.289287763112224e-21,-1.295626906308735e-12
	-7.568405427372754e-04,9.968789173939962e-13
16		1.445439770745927e+00,0.000000000000000e+00
	-7.568405427372753e+00,1.020099210321701e-08
	1.000000000000000e+00,0.000000000000000e+00
	0.000000000000000e+00,0.000000000000000e+00
	7.568405427372754e-04,-1.020099210321701e-12
	1.350050023407494e-21,1.325805933836122e-12
	7.568405429279890e-12,4.711918493165513e-14
	-7.568405503056809e-04,-3.528259084460764e-13
	-7.568405427372754e-04,1.020099210321701e-12
	-1.350050023407494e-21,-1.325805933836122e-12
	-7.568405427372754e-04,1.020099210321701e-12
17		1.479108388168207e+00,0.000000000000000e+00
	-7.568405427372753e+00,1.043860373353327e-08
	1.000000000000000e+00,0.000000000000000e+00
	0.000000000000000e+00,0.000000000000000e+00
	7.568405427372754e-04,-1.043860373353328e-12
	1.413675920806772e-21,1.356687921218745e-12
	7.568405429279890e-12,4.821673174254355e-14
	-7.568405503056809e-04,-3.610442796079608e-13
	-7.568405427372754e-04,1.043860373353327e-12
	-1.413675920806772e-21,-1.356687921218745e-12
	-7.568405427372754e-04,1.043860373353327e-12
18		1.513561248436208e+00,0.000000000000000e+00
	-7.568405427372753e+00,1.068175004972032e-08
	1.000000000000000e+00,0.000000000000000e+00
	0.000000000000000e+00,0.000000000000000e+00
	7.568405427372754e-04,-1.068175004972032e-12
	1.480300414368914e-21,1.388289242495085e-12
	7.568405429279890e-12,4.933984370282605e-14
	-7.568405503056809e-04,-3.694540812258796e-13
	-7.568405427372754e-04,1.068175004972032e-12
	-1.480300414368914e-21,-1.388289242495085e-12
	-7.568405427372754e-04,1.068175004972032e-12
19		1.548816618912481e+00,0.000000000000000e+00
	-7.568405427372753e+00,1.093055997117340e-08
	1.000000000000000e+00,0.000000000000000e+00
	0.000000000000000e+00,0.000000000000000e+00
	7.568405427372754e-04,-1.093055997117339e-12
	1.550064823577266e-21,1.420626653103977e-12
	7.568405429279890e-12,5.048911630132952e-14
	-7.568405503056809e-04,-3.780597722879671e-13
	-7.568405427372754e-04,1.093055997117340e-12
	-1.550064823577266e-21,-1.420626653103977e-12
	-7.568405427372754e-04,1.093055997117340e-12
20		1.584893192461113e+00,0.000000000000000e+00
	-7.568405427372753e+00,1.118516542020626e-08
	1.000000000000000e+00,0.000000000000000e+00
	0.000000000000000e+00,0.000000000000000e+00
	7.568405427372754e-04,-1.118516542020626e-12
	1.623117128097236e-21,1.453717298768562e-12
	7.568405429279890e-12,5.166515889759850e-14
	-7.568405503056809e-04,-3.868659156455342e-13
	-7.568405427372754e-04,1.118516542020626e-12
	-1.623117128097236e-21,-1.453717298768562e-12
	-7.568405427372754e-04,1.118516542020626e-12
21		1.621810097358929e+00,0.000000000000000e+00
	-7.568405427372753e+00,1.144570139199808e-08
	1.000000000000000e+00,0.000000000000000e+00
	0.000000000000000e+00,0.000000000000000e+00
	7.568405427372754e-04,-1.144570139199808e-12
	1.699612281661004e-21,1.487578724587176e-12
	7.568405429279890e-12,5.286859504498392e-14
	-7.568405503056809e-04,-3.958771804323526e-13
	-7.568405427372754e-04,1.144570139199808e-12
	-1.699612281661004e-21,-1.487578724587176e-12
	-7.568405427372754e-04,1.144570139199808e-12
22		1.659586907437560e+00,0.000000000000000e+00
	-7.568405427372753e+00,1.171230602616971e-08
	1.000000000000000e+00,0.000000000000000e+00
	0.000000000000000e+00,0.000000000000000e+00
	7.568405427372754e-04,-1.171230602616971e-12
	1.779712540745165e-21,1.522228884336000e-12
	7.568405429279890e-12,5.410006282126150e-14
	-7.568405503056809e-04,-4.050983445402902e-13
	-7.568405427372754e-04,1.171230602616971e-12
	-1.779712540745165e-21,-1.522228884336000e-12
	-7.568405427372754e-04,1.171230602616971e-12
23		1.698243652461743e+00,0.000000000000000e+00
	-7.568405427372753e+00,1.198512068002711e-08
	1.000000000000000e+00,0.000000000000000e+00
	0.000000000000000e+00,0.000000000000000e+00
	7.568405427372754e-04,-1.198512068002711e-12
	1.863587808738461e-21,1.557686149988379e-12
	7.568405429279890e-12,5.536021516694541e-14
	-7.568405503056809e-04,-4.145342971526134e-13
	-7.568405427372754e-04,1.198512068002711e-12
	-1.863587808738461e-21,-1.557686149988379e-12
	-7.568405427372754e-04,1.198512068002711e-12
24		1.737800828749374e+00,0.000000000000000e+00
	-7.568405427372753e+00,1.226429000351089e-08
	1.000000000000000e+00,0.000000000000000e+00
	0.000000000000000e+00,0.000000000000000e+00
	7.568405427372754e-04,-1.226429000351089e-12
	1.951415996329662e-21,1.593969321455896e-12
	7.568405429279890e-12,5.664972023148997e-14
	-7.568405503056809e-04,-4.241900413362970e-13
	-7.568405427372754e-04,1.226429000351089e-12
	-1.951415996329662e-21,-1.593969321455896e-12
	-7.568405427372754e-04,1.226429000351089e-12
25		1.778279410038922e+00,0.000000000000000e+00
	-7.568405427372753e+00,1.254996201589159e-08
	1.000000000000000e+00,0.000000000000000e+00
	0.000000000000000e+00,0.000000000000000e+00
	7.568405427372754e-04,-1.254996201589160e-12
	2.043383398879978e-21,1.631097636556327e-12
	7.568405429279890e-12,5.796926172754880e-14
	-7.568405503056809e-04,-4.340706966947162e-13
	-7.568405427372754e-04,1.254996201589160e-12
	-2.043383398879978e-21,-1.631097636556327e-12
	-7.568405427372754e-04,1.254996201589160e-12
26		1.819700858609982e+00,0.000000000000000e+00
	-7.568405427372753e+00,1.284228818425151e-08
	1.000000000000000e+00,0.000000000000000e+00
	0.000000000000000e+00,0.000000000000000e+00
	7.568405427372754e-04,-1.284228818425151e-12
	2.139685091580503e-21,1.669090781213789e-12
	7.568405429279890e-12,5.931953929348966e-14
	-7.568405503056809e-04,-4.441815020821276e-13
	-7.568405427372754e-04,1.284228818425151e-12
	-2.139685091580503e-21,-1.669090781213789e-12
	-7.568405427372754e-04,1.284228818425151e-12
27		1.862087136662866e+00,0.000000000000000e+00
	-7.568405427372753e+00,1.314142350379451e-08
	1.000000000000000e+00,0.000000000000000e+00
	0.000000000000000e+00,0.000000000000000e+00
	7.568405427372754e-04,-1.314142350379451e-12
	2.240525343232849e-21,1.707968899896480e-12
	7.568405429279890e-12,6.070126886435091e-14
	-7.568405503056809e-04,-4.545278183813805e-13
	-7.568405427372754e-04,1.314142350379451e-12
	-2.240525343232849e-21,-1.707968899896480e-12
	-7.568405427372754e-04,1.314142350379451e-12
28		1.905460717963246e+00,0.000000000000000e+00
	-7.568405427372753e+00,1.344752658002651e-08
	1.000000000000000e+00,0.000000000000000e+00
	0.000000000000000e+00,0.000000000000000e+00
	7.568405427372754e-04,-1.344752658002651e-12
	2.346118049530655e-21,1.747752606297537e-12
	7.568405429279890e-12,6.211518305144023e-14
	-7.568405503056809e-04,-4.651151313463259e-13
	-7.568405427372754e-04,1.344752658002651e-12
	-2.346118049530655e-21,-1.747752606297537e-12
	-7.568405427372754e-04,1.344752658002651e-12
29		1.949844599758044e+00,0.000000000000000e+00
	-7.568405427372753e+00,1.376075971285030e-08
	1.000000000000000e+00,0.000000000000000e+00
	0.000000000000000e+00,0.000000000000000e+00
	7.568405427372754e-04,-1.376075971285031e-12
	2.456687186761045e-21,1.788462994264693e-12
	7.568405429279890e-12,6.356203153077485e-14
	-7.568405503056809e-04,-4.759490545104379e-13
	-7.568405427372754e-04,1.376075971285031e-12
	-2.456687186761045e-21,-1.788462994264693e-12
	-7.568405427372754e-04,1.376075971285031e-12
30		1.995262314968878e+00,0.000000000000000e+00
	-7.568405427372753e+00,1.408128898261904e-08
	1.000000000000000e+00,0.000000000000000e+00
	0.000000000000000e+00,0.000000000000000e+00
	7.568405427372754e-04,-1.408128898261903e-12
	2.572467286888340e-21,1.830121648984515e-12
	7.568405429279890e-12,6.504258144057018e-14
	-7.568405503056809e-04,-4.870353321631817e-13
	-7.568405427372754e-04,1.408128898261904e-12
	-2.572467286888340e-21,-1.830121648984515e-12
	-7.568405427372754e-04,1.408128898261904e-12
31		2.041737944669527e+00,0.000000000000000e+00
	-7.568405427372753e+00,1.440928433819425e-08
	1.000000000000000e+00,0.000000000000000e+00
	0.000000000000000e+00,0.000000000000000e+00
	7.568405427372754e-04,-1.440928433819425e-12
	2.693703935027824e-21,1.872750658427152e-12
	7.568405429279890e-12,6.655761778798563e-14
	-7.568405503056809e-04,-4.983798423957131e-13
	-7.568405427372754e-04,1.440928433819425e-12
	-2.693703935027824e-21,-1.872750658427152e-12
	-7.568405427372754e-04,1.440928433819425e-12
32		2.089296130854037e+00,0.000000000000000e+00
	-7.568405427372753e+00,1.474491968705500e-08
	1.000000000000000e+00,0.000000000000000e+00
	0.000000000000000e+00,0.000000000000000e+00
	7.568405427372754e-04,-1.474491968705500e-12
	2.820654290364681e-21,1.916372625057673e-12
	7.568405429279890e-12,6.810794386534628e-14
	-7.568405503056809e-04,-5.099886002175200e-13
	-7.568405427372754e-04,1.474491968705500e-12
	-2.820654290364681e-21,-1.916372625057673e-12
	-7.568405427372754e-04,1.474491968705500e-12
33		2.137962089502230e+00,0.000000000000000e+00
	-7.568405427372753e+00,1.508837298750591e-08
	1.000000000000000e+00,0.000000000000000e+00
	0.000000000000000e+00,0.000000000000000e+00
	7.568405427372754e-04,-1.508837298750591e-12
	2.953587631623108e-21,1.961010677820190e-12
	7.568405429279890e-12,6.969438167606080e-14
	-7.568405503056809e-04,-5.218677607456592e-13
	-7.568405427372754e-04,1.508837298750591e-12
	-2.953587631623108e-21,-1.961010677820190e-12
	-7.568405427372754e-04,1.508837298750591e-12
34		2.187761623949550e+00,0.000000000000000e+00
	-7.568405427372753e+00,1.543982634303302e-08
	1.000000000000000e+00,0.000000000000000e+00
	0.000000000000000e+00,0.000000000000000e+00
	7.568405427372754e-04,-1.543982634303302e-12
	3.092785928242600e-21,2.006688484401132e-12
	7.568405429279890e-12,7.131777237045268e-14
	-7.568405503056809e-04,-5.340236224682823e-13
	-7.568405427372754e-04,1.543982634303302e-12
	-3.092785928242600e-21,-2.006688484401132e-12
	-7.568405427372754e-04,1.543982634303302e-12
35		2.238721138568337e+00,0.000000000000000e+00
	-7.568405427372753e+00,1.579946609885748e-08
	1.000000000000000e+00,0.000000000000000e+00
	0.000000000000000e+00,0.000000000000000e+00
	7.568405427372754e-04,-1.579946609885747e-12
	3.238544438472927e-21,2.053430263778166e-12
	7.568405429279890e-12,7.297897669175780e-14
	-7.568405503056809e-04,-5.464626305841763e-13
	-7.568405427372754e-04,1.579946609885748e-12
	-3.238544438472927e-21,-2.053430263778166e-12
	-7.568405427372754e-04,1.579946609885748e-12
36		2.290867652767770e+00,0.000000000000000e+00
	-7.568405427372753e+00,1.616748294073820e-08
	1.000000000000000e+00,0.000000000000000e+00
	0.000000000000000e+00,0.000000000000000e+00
	7.568405427372754e-04,-1.616748294073820e-12
	3.391172335656471e-21,2.101260799061417e-12
	7.568405429279890e-12,7.467887543249691e-14
	-7.568405503056809e-04,-5.591913804200940e-13
	-7.568405427372754e-04,1.616748294073820e-12
	-3.391172335656471e-21,-2.101260799061417e-12
	-7.568405427372754e-04,1.616748294073820e-12
37		2.344228815319919e+00,0.000000000000000e+00
	-7.568405427372753e+00,1.654407199607604e-08
	1.000000000000000e+00,0.000000000000000e+00
	0.000000000000000e+00,0.000000000000000e+00
	7.568405427372754e-04,-1.654407199607604e-12
	3.550993364026338e-21,2.150205450633806e-12
	7.568405429279890e-12,7.641836990148091e-14
	-7.568405503056809e-04,-5.722166209276835e-13
	-7.568405427372754e-04,1.654407199607604e-12
	-3.550993364026338e-21,-2.150205450633806e-12
	-7.568405427372754e-04,1.654407199607604e-12
38		2.398832919019488e+00,0.000000000000000e+00
	-7.568405427372753e+00,1.692943293737288e-08
	1.000000000000000e+00,0.000000000000000e+00
	0.000000000000000e+00,0.000000000000000e+00
