LTspice 24.0.9 for Windows
Circuit: * GA CMOS Amp | W=1.466006365143243e-05 L=4.36996831327402e-07 Vbias=1.4488321728910403
Start Time: Mon Sep  8 18:43:13 2025
solver = Normal
Maximum thread count: 2
tnom = 27
temp = 27
method = modified trap
AsciiRawFile = 1
Instance "m1": Length shorter than recommended for a level 3 MOSFET.
Direct Newton iteration for .op point succeeded.
Semiconductor Device Operating Points:
                        --- MOSFET Transistors ---
Name:          m1
Model:        n_1u
Id:          1.77e-04
Vgs:         1.45e+00
Vds:         3.50e-02
Vbs:         0.00e+00
Vth:         6.83e-01
Vdsat:       2.96e-01
Gm:          2.05e-04
Gds:         4.52e-03
Gmb:         2.12e-05
Cbd:         0.00e+00
Cbs:         0.00e+00
Cgsov:       2.93e-15
Cgdov:       2.93e-15
Cgbov:       2.37e-17
Cgs:         3.12e-15
Cgd:         2.87e-15
Cgb:         0.00e+00



gain_db: MAX(db(v(out)/v(g)))=(31.6902dB,134.739°) FROM 1 TO 1e+09
gain_lin: MAX(mag(v(out)/v(g)))=(-26.8998dB,0°) FROM 1 TO 1e+09

Measurement "fc" FAIL'ed

Total elapsed time: 1.089 seconds.

