Title: * GA CMOS Amp | W=3.889587005482816e-05 L=9.502654475480692e-07 Vbias=0.9769530879083541
Date: Mon Sep  8 18:45:20 2025
Plotname: AC Analysis
Flags: complex forward log
No. Variables: 11
No. Points:          901
Offset:    0.0000000000000000e+00
Command: Linear Technology Corporation LTspice
Variables:
	0	frequency	frequency
	1	V(out)	voltage
	2	V(g)	voltage
	3	V(vdd)	voltage
	4	Id(M1)	device_current
	5	Ig(M1)	device_current
	6	Ib(M1)	device_current
	7	Is(M1)	device_current
	8	I(Rload)	device_current
	9	I(Vg)	device_current
	10	I(Vdd)	device_current
Values:
0		1.000000000000000e+00,0.000000000000000e+00
	-8.135879359195613e+00,1.670081137265530e-08
	1.000000000000000e+00,0.000000000000000e+00
	0.000000000000000e+00,0.000000000000000e+00
	8.135879359195612e-04,-1.670081137265530e-12
	2.653856156605608e-21,1.693328346494612e-12
	8.135879340023799e-12,7.463700551669758e-14
	-8.135879440554405e-04,-9.788421474577900e-14
	-8.135879359195613e-04,1.670081137265530e-12
	-2.653856156605608e-21,-1.693328346494612e-12
	-8.135879359195613e-04,1.670081137265530e-12
1		1.023292992280754e+00,0.000000000000000e+00
	-8.135879359195613e+00,1.708982324304089e-08
	1.000000000000000e+00,0.000000000000000e+00
	0.000000000000000e+00,0.000000000000000e+00
	8.135879359195612e-04,-1.708982324304089e-12
	2.778928544002371e-21,1.732771030598293e-12
	8.135879340023799e-12,7.637552471005660e-14
	-8.135879440554405e-04,-1.001642310042601e-13
	-8.135879359195613e-04,1.708982324304089e-12
	-2.778928544002371e-21,-1.732771030598293e-12
	-8.135879359195613e-04,1.708982324304089e-12
2		1.047128548050899e+00,0.000000000000000e+00
	-8.135879359195613e+00,1.748789636392049e-08
	1.000000000000000e+00,0.000000000000000e+00
	0.000000000000000e+00,0.000000000000000e+00
	8.135879359195612e-04,-1.748789636392049e-12
	2.909895411418403e-21,1.773132452838333e-12
	8.135879340023799e-12,7.815453921756604e-14
	-8.135879440554405e-04,-1.024973556638501e-13
	-8.135879359195613e-04,1.748789636392049e-12
	-2.909895411418403e-21,-1.773132452838333e-12
	-8.135879359195613e-04,1.748789636392049e-12
3		1.071519305237606e+00,0.000000000000000e+00
	-8.135879359195613e+00,1.789524179893191e-08
	1.000000000000000e+00,0.000000000000000e+00
	0.000000000000000e+00,0.000000000000000e+00
	8.135879359195612e-04,-1.789524179893192e-12
	3.047034557138526e-21,1.814434013375051e-12
	8.135879340023799e-12,7.997499229626700e-14
	-8.135879440554405e-04,-1.048848257781257e-13
	-8.135879359195613e-04,1.789524179893192e-12
	-3.047034557138526e-21,-1.814434013375051e-12
	-8.135879359195613e-04,1.789524179893192e-12
4		1.096478196143185e+00,0.000000000000000e+00
	-8.135879359195613e+00,1.831207552801666e-08
	1.000000000000000e+00,0.000000000000000e+00
	0.000000000000000e+00,0.000000000000000e+00
	8.135879359195612e-04,-1.831207552801666e-12
	3.190636871677380e-21,1.856697610842533e-12
	8.135879340023799e-12,8.183784917447734e-14
	-8.135879440554405e-04,-1.073279072153439e-13
	-8.135879359195613e-04,1.831207552801666e-12
	-3.190636871677380e-21,-1.856697610842533e-12
	-8.135879359195613e-04,1.831207552801666e-12
5		1.122018454301963e+00,0.000000000000000e+00
	-8.135879359195613e+00,1.873861856193535e-08
	1.000000000000000e+00,0.000000000000000e+00
	0.000000000000000e+00,0.000000000000000e+00
	8.135879359195612e-04,-1.873861856193535e-12
	3.341006954797200e-21,1.899945653959583e-12
	8.135879340023799e-12,8.374409756357197e-14
	-8.135879440554405e-04,-1.098278953296205e-13
	-8.135879359195613e-04,1.873861856193535e-12
	-3.341006954797200e-21,-1.899945653959583e-12
	-8.135879359195613e-04,1.873861856193535e-12
6		1.148153621496882e+00,0.000000000000000e+00
	-8.135879359195613e+00,1.917509705945050e-08
	1.000000000000000e+00,0.000000000000000e+00
	0.000000000000000e+00,0.000000000000000e+00
	8.135879359195612e-04,-1.917509705945050e-12
	3.498463761604749e-21,1.944201073411116e-12
	8.135879340023799e-12,8.569474818167902e-14
	-8.135879440554405e-04,-1.123861156477447e-13
	-8.135879359195613e-04,1.917509705945050e-12
	-3.498463761604749e-21,-1.944201073411116e-12
	-8.135879359195613e-04,1.917509705945050e-12
7		1.174897554939529e+00,0.000000000000000e+00
	-8.135879359195613e+00,1.962174244723899e-08
	1.000000000000000e+00,0.000000000000000e+00
	0.000000000000000e+00,0.000000000000000e+00
	8.135879359195612e-04,-1.962174244723899e-12
	3.663341279097869e-21,1.989487334006315e-12
	8.135879340023799e-12,8.769083528957558e-14
	-8.135879440554405e-04,-1.150039245719916e-13
	-8.135879359195613e-04,1.962174244723899e-12
	-3.663341279097869e-21,-1.989487334006315e-12
	-8.135879359195613e-04,1.962174244723899e-12
8		1.202264434617413e+00,0.000000000000000e+00
	-8.135879359195613e+00,2.007879154259748e-08
	1.000000000000000e+00,0.000000000000000e+00
	0.000000000000000e+00,0.000000000000000e+00
	8.135879359195612e-04,-2.007879154259748e-12
	3.835989234596677e-21,2.035828447119982e-12
	8.135879340023799e-12,8.973341723906941e-14
	-8.135879440554405e-04,-1.176827100993036e-13
	-8.135879359195613e-04,2.007879154259748e-12
	-3.835989234596677e-21,-2.035828447119982e-12
	-8.135879359195613e-04,2.007879154259748e-12
9		1.230268770812381e+00,0.000000000000000e+00
	-8.135879359195613e+00,2.054648667900606e-08
	1.000000000000000e+00,0.000000000000000e+00
	0.000000000000000e+00,0.000000000000000e+00
	8.135879359195612e-04,-2.054648667900607e-12
	4.016773837562098e-21,2.083248983423688e-12
	8.135879340023799e-12,9.182357703414370e-14
	-8.135879440554405e-04,-1.204238925572246e-13
	-8.135879359195613e-04,2.054648667900606e-12
	-4.016773837562098e-21,-2.083248983423687e-12
	-8.135879359195613e-04,2.054648667900606e-12
10		1.258925411794167e+00,0.000000000000000e+00
	-8.135879359195613e+00,2.102507583461678e-08
	1.000000000000000e+00,0.000000000000000e+00
	0.000000000000000e+00,0.000000000000000e+00
	8.135879359195612e-04,-2.102507583461678e-12
	4.206078556375241e-21,2.131774085913465e-12
	8.135879340023799e-12,9.396242290519168e-14
	-8.135879440554405e-04,-1.232289253569785e-13
	-8.135879359195613e-04,2.102507583461678e-12
	-4.206078556375241e-21,-2.131774085913465e-12
	-8.135879359195613e-04,2.102507583461678e-12
11		1.288249551693134e+00,0.000000000000000e+00
	-8.135879359195613e+00,2.151481276373478e-08
	1.000000000000000e+00,0.000000000000000e+00
	0.000000000000000e+00,0.000000000000000e+00
	8.135879359195612e-04,-2.151481276373478e-12
	4.404304931725231e-21,2.181429483240959e-12
	8.135879340023799e-12,9.615108889660315e-14
	-8.135879440554405e-04,-1.260992957640841e-13
	-8.135879359195613e-04,2.151481276373478e-12
	-4.404304931725231e-21,-2.181429483240959e-12
	-8.135879359195613e-04,2.151481276373478e-12
12		1.318256738556407e+00,0.000000000000000e+00
	-8.135879359195613e+00,2.201595713136232e-08
	1.000000000000000e+00,0.000000000000000e+00
	0.000000000000000e+00,0.000000000000000e+00
	8.135879359195612e-04,-2.201595713136232e-12
	4.611873428330856e-21,2.232241503355100e-12
	8.135879340023799e-12,9.839073546805786e-14
	-8.135879440554405e-04,-1.290365256869256e-13
	-8.135879359195613e-04,2.201595713136232e-12
	-4.611873428330856e-21,-2.232241503355100e-12
	-8.135879359195613e-04,2.201595713136232e-12
13		1.348962882591653e+00,0.000000000000000e+00
	-8.135879359195613e+00,2.252877465087655e-08
	1.000000000000000e+00,0.000000000000000e+00
	0.000000000000000e+00,0.000000000000000e+00
	8.135879359195612e-04,-2.252877465087655e-12
	4.829224326802614e-21,2.284237087461529e-12
	8.135879340023799e-12,1.006825501098129e-13
	-8.135879440554405e-04,-1.320421724836865e-13
	-8.135879359195613e-04,2.252877465087656e-12
	-4.829224326802614e-21,-2.284237087461529e-12
	-8.135879359195613e-04,2.252877465087656e-12
14		1.380384264602885e+00,0.000000000000000e+00
	-8.135879359195613e+00,2.305353722491428e-08
	1.000000000000000e+00,0.000000000000000e+00
	0.000000000000000e+00,0.000000000000000e+00
	8.135879359195612e-04,-2.305353722491427e-12
	5.056818657536905e-21,2.337443804307183e-12
	8.135879340023799e-12,1.030277479723272e-13
	-8.135879440554405e-04,-1.351178297880830e-13
	-8.135879359195613e-04,2.305353722491428e-12
	-5.056818657536905e-21,-2.337443804307183e-12
	-8.135879359195613e-04,2.305353722491428e-12
15		1.412537544622754e+00,0.000000000000000e+00
	-8.135879359195613e+00,2.359052308953828e-08
	1.000000000000000e+00,0.000000000000000e+00
	0.000000000000000e+00,0.000000000000000e+00
	8.135879359195612e-04,-2.359052308953829e-12
	5.295139178623318e-21,2.391889864797607e-12
	8.135879340023799e-12,1.054275725105504e-13
	-8.135879440554405e-04,-1.382651283543290e-13
	-8.135879359195613e-04,2.359052308953828e-12
	-5.295139178623318e-21,-2.391889864797607e-12
	-8.135879359195613e-04,2.359052308953828e-12
16		1.445439770745927e+00,0.000000000000000e+00
	-8.135879359195613e+00,2.414001696176184e-08
	1.000000000000000e+00,0.000000000000000e+00
	0.000000000000000e+00,0.000000000000000e+00
	8.135879359195612e-04,-2.414001696176184e-12
	5.544691399839266e-21,2.447604136954751e-12
	8.135879340023799e-12,1.078832961432167e-13
	-8.135879440554405e-04,-1.414857369217839e-13
	-8.135879359195613e-04,2.414001696176185e-12
	-5.544691399839266e-21,-2.447604136954751e-12
	-8.135879359195613e-04,2.414001696176185e-12
17		1.479108388168207e+00,0.000000000000000e+00
	-8.135879359195613e+00,2.470231019050943e-08
	1.000000000000000e+00,0.000000000000000e+00
	0.000000000000000e+00,0.000000000000000e+00
	8.135879359195612e-04,-2.470231019050943e-12
	5.806004654903998e-21,2.504616161223180e-12
	8.135879340023799e-12,1.103962209275029e-13
	-8.135879440554405e-04,-1.447813630997397e-13
	-8.135879359195613e-04,2.470231019050943e-12
	-5.806004654903998e-21,-2.504616161223179e-12
	-8.135879359195613e-04,2.470231019050943e-12
18		1.513561248436208e+00,0.000000000000000e+00
	-8.135879359195613e+00,2.527770091109376e-08
	1.000000000000000e+00,0.000000000000000e+00
	0.000000000000000e+00,0.000000000000000e+00
	8.135879359195612e-04,-2.527770091109377e-12
	6.079633224266389e-21,2.562956166132804e-12
	8.135879340023799e-12,1.129676792493919e-13
	-8.135879440554405e-04,-1.481537542728190e-13
	-8.135879359195613e-04,2.527770091109377e-12
	-6.079633224266389e-21,-2.562956166132804e-12
	-8.135879359195613e-04,2.527770091109377e-12
19		1.548816618912481e+00,0.000000000000000e+00
	-8.135879359195613e+00,2.586649420329108e-08
	1.000000000000000e+00,0.000000000000000e+00
	0.000000000000000e+00,0.000000000000000e+00
	8.135879359195612e-04,-2.586649420329109e-12
	6.366157510808070e-21,2.622655084326446e-12
	8.135879340023799e-12,1.155990345301234e-13
	-8.135879440554405e-04,-1.516046985274606e-13
	-8.135879359195613e-04,2.586649420329108e-12
	-6.366157510808070e-21,-2.622655084326446e-12
	-8.135879359195613e-04,2.586649420329108e-12
20		1.584893192461113e+00,0.000000000000000e+00
	-8.135879359195613e+00,2.646900225309851e-08
	1.000000000000000e+00,0.000000000000000e+00
	0.000000000000000e+00,0.000000000000000e+00
	8.135879359195612e-04,-2.646900225309852e-12
	6.666185270955785e-21,2.683744568960742e-12
	8.135879340023799e-12,1.182916819490959e-13
	-8.135879440554405e-04,-1.551360255999868e-13
	-8.135879359195613e-04,2.646900225309851e-12
	-6.666185270955785e-21,-2.683744568960742e-12
	-8.135879359195613e-04,2.646900225309851e-12
21		1.621810097358929e+00,0.000000000000000e+00
	-8.135879359195613e+00,2.708554451825920e-08
	1.000000000000000e+00,0.000000000000000e+00
	0.000000000000000e+00,0.000000000000000e+00
	8.135879359195612e-04,-2.708554451825920e-12
	6.980352903814221e-21,2.746257010489060e-12
	8.135879340023799e-12,1.210470491836136e-13
	-8.135879440554405e-04,-1.587496078467541e-13
	-8.135879359195613e-04,2.708554451825920e-12
	-6.980352903814221e-21,-2.746257010489060e-12
	-8.135879359195613e-04,2.708554451825920e-12
22		1.659586907437560e+00,0.000000000000000e+00
	-8.135879359195613e+00,2.771644789764304e-08
	1.000000000000000e+00,0.000000000000000e+00
	0.000000000000000e+00,0.000000000000000e+00
	8.135879359195612e-04,-2.771644789764304e-12
	7.309326801053868e-21,2.810225553835349e-12
	8.135879340023799e-12,1.238665971658559e-13
	-8.135879440554405e-04,-1.624473612369014e-13
	-8.135879359195613e-04,2.771644789764304e-12
	-7.309326801053868e-21,-2.810225553835349e-12
	-8.135879359195613e-04,2.771644789764304e-12
23		1.698243652461743e+00,0.000000000000000e+00
	-8.135879359195613e+00,2.836204690457276e-08
	1.000000000000000e+00,0.000000000000000e+00
	0.000000000000000e+00,0.000000000000000e+00
	8.135879359195612e-04,-2.836204690457276e-12
	7.653804760417062e-21,2.875684115968014e-12
	8.135879340023799e-12,1.267518208574830e-13
	-8.135879440554405e-04,-1.662312463682214e-13
	-8.135879359195613e-04,2.836204690457276e-12
	-7.653804760417062e-21,-2.875684115968014e-12
	-8.135879359195613e-04,2.836204690457276e-12
24		1.737800828749374e+00,0.000000000000000e+00
	-8.135879359195613e+00,2.902268384418735e-08
	1.000000000000000e+00,0.000000000000000e+00
	0.000000000000000e+00,0.000000000000000e+00
	8.135879359195612e-04,-2.902268384418736e-12
	8.014517465840579e-21,2.942667403883144e-12
	8.135879340023799e-12,1.297042500422886e-13
	-8.135879440554405e-04,-1.701032695066965e-13
	-8.135879359195613e-04,2.902268384418735e-12
	-8.014517465840579e-21,-2.942667403883143e-12
	-8.135879359195613e-04,2.902268384418735e-12
25		1.778279410038922e+00,0.000000000000000e+00
	-8.135879359195613e+00,2.969870899493678e-08
	1.000000000000000e+00,0.000000000000000e+00
	0.000000000000000e+00,0.000000000000000e+00
	8.135879359195612e-04,-2.969870899493678e-12
	8.392230037334222e-21,3.011210933006621e-12
	8.135879340023799e-12,1.327254501373041e-13
	-8.135879440554405e-04,-1.740654836502471e-13
	-8.135879359195613e-04,2.969870899493678e-12
	-8.392230037334222e-21,-3.011210933006621e-12
	-8.135879359195613e-04,2.969870899493678e-12
26		1.819700858609982e+00,0.000000000000000e+00
	-8.135879359195613e+00,3.039048079430420e-08
	1.000000000000000e+00,0.000000000000000e+00
	0.000000000000000e+00,0.000000000000000e+00
	8.135879359195612e-04,-3.039048079430420e-12
	8.787743653902928e-21,3.081351046024866e-12
	8.135879340023799e-12,1.358170230228114e-13
	-8.135879440554405e-04,-1.781199896172579e-13
	-8.135879359195613e-04,3.039048079430420e-12
	-8.787743653902928e-21,-3.081351046024866e-12
	-8.135879359195613e-04,3.039048079430420e-12
27		1.862087136662866e+00,0.000000000000000e+00
	-8.135879359195613e+00,3.109836602885433e-08
	1.000000000000000e+00,0.000000000000000e+00
	0.000000000000000e+00,0.000000000000000e+00
	8.135879359195612e-04,-3.109836602885433e-12
	9.201897252954878e-21,3.153124932154217e-12
	8.135879340023799e-12,1.389806078916769e-13
	-8.135879440554405e-04,-1.822689371604608e-13
	-8.135879359195613e-04,3.109836602885433e-12
	-9.201897252954878e-21,-3.153124932154217e-12
	-8.135879359195613e-04,3.109836602885433e-12
28		1.905460717963246e+00,0.000000000000000e+00
	-8.135879359195613e+00,3.182274002870850e-08
	1.000000000000000e+00,0.000000000000000e+00
	0.000000000000000e+00,0.000000000000000e+00
	8.135879359195612e-04,-3.182274002870850e-12
	9.635569309800201e-21,3.226570646859139e-12
	8.135879340023799e-12,1.422178821184722e-13
	-8.135879440554405e-04,-1.865145261067605e-13
	-8.135879359195613e-04,3.182274002870850e-12
	-9.635569309800201e-21,-3.226570646859138e-12
	-8.135879359195613e-04,3.182274002870850e-12
29		1.949844599758044e+00,0.000000000000000e+00
	-8.135879359195613e+00,3.256398686654965e-08
	1.000000000000000e+00,0.000000000000000e+00
	0.000000000000000e+00,0.000000000000000e+00
	8.135879359195612e-04,-3.256398686654966e-12
	1.008967970101489e-20,3.301727132029737e-12
	8.135879340023799e-12,1.455305621488437e-13
	-8.135879440554405e-04,-1.908590075236140e-13
	-8.135879359195613e-04,3.256398686654965e-12
	-1.008967970101489e-20,-3.301727132029736e-12
	-8.135879359195613e-04,3.256398686654965e-12
30		1.995262314968878e+00,0.000000000000000e+00
	-8.135879359195613e+00,3.332249956126278e-08
	1.000000000000000e+00,0.000000000000000e+00
	0.000000000000000e+00,0.000000000000000e+00
	8.135879359195612e-04,-3.332249956126278e-12
	1.056519165562236e-20,3.378634236629261e-12
	8.135879340023799e-12,1.489204044095916e-13
	-8.135879440554405e-04,-1.953046849125741e-13
	-8.135879359195613e-04,3.332249956126278e-12
	-1.056519165562236e-20,-3.378634236629261e-12
	-8.135879359195613e-04,3.332249956126278e-12
31		2.041737944669527e+00,0.000000000000000e+00
	-8.135879359195613e+00,3.409868028631869e-08
	1.000000000000000e+00,0.000000000000000e+00
	0.000000000000000e+00,0.000000000000000e+00
	8.135879359195612e-04,-3.409868028631869e-12
	1.106311379823132e-20,3.457332737822557e-12
	8.135879340023799e-12,1.523892062399491e-13
	-8.135879440554405e-04,-1.998539154306374e-13
	-8.135879359195613e-04,3.409868028631869e-12
	-1.106311379823132e-20,-3.457332737822557e-12
	-8.135879359195613e-04,3.409868028631869e-12
32		2.089296130854037e+00,0.000000000000000e+00
	-8.135879359195613e+00,3.489294058301182e-08
	1.000000000000000e+00,0.000000000000000e+00
	0.000000000000000e+00,0.000000000000000e+00
	8.135879359195612e-04,-3.489294058301182e-12
	1.158450228846383e-20,3.537864362596657e-12
	8.135879340023799e-12,1.559388068445669e-13
	-8.135879440554405e-04,-2.045091111400418e-13
	-8.135879359195613e-04,3.489294058301182e-12
	-1.158450228846383e-20,-3.537864362596657e-12
	-8.135879359195613e-04,3.489294058301182e-12
33		2.137962089502230e+00,0.000000000000000e+00
	-8.135879359195613e+00,3.570570157866473e-08
	1.000000000000000e+00,0.000000000000000e+00
	0.000000000000000e+00,0.000000000000000e+00
	8.135879359195612e-04,-3.570570157866472e-12
	1.213046306121146e-20,3.620271809884976e-12
	8.135879340023799e-12,1.595710882686674e-13
	-8.135879440554405e-04,-2.092727402871708e-13
	-8.135879359195613e-04,3.570570157866473e-12
	-1.213046306121146e-20,-3.620271809884975e-12
	-8.135879359195613e-04,3.570570157866473e-12
34		2.187761623949550e+00,0.000000000000000e+00
	-8.135879359195613e+00,3.653739420991547e-08
	1.000000000000000e+00,0.000000000000000e+00
	0.000000000000000e+00,0.000000000000000e+00
	8.135879359195612e-04,-3.653739420991547e-12
	1.270215417247142e-20,3.704598773206859e-12
	8.135879340023799e-12,1.632879763959402e-13
	-8.135879440554405e-04,-2.141473286112520e-13
	-8.135879359195613e-04,3.653739420991547e-12
	-1.270215417247142e-20,-3.704598773206859e-12
	-8.135879359195613e-04,3.653739420991547e-12
35		2.238721138568337e+00,0.000000000000000e+00
	-8.135879359195613e+00,3.738845945120590e-08
	1.000000000000000e+00,0.000000000000000e+00
	0.000000000000000e+00,0.000000000000000e+00
	8.135879359195612e-04,-3.738845945120591e-12
	1.330078825573867e-20,3.790889963834457e-12
	8.135879340023799e-12,1.670914419696723e-13
	-8.135879440554405e-04,-2.191354606835381e-13
	-8.135879359195613e-04,3.738845945120590e-12
	-1.330078825573867e-20,-3.790889963834457e-12
	-8.135879359195613e-04,3.738845945120590e-12
36		2.290867652767770e+00,0.000000000000000e+00
	-8.135879359195613e+00,3.825934854859214e-08
	1.000000000000000e+00,0.000000000000000e+00
	0.000000000000000e+00,0.000000000000000e+00
	8.135879359195612e-04,-3.825934854859214e-12
	1.392763509416409e-20,3.879191134499241e-12
	8.135879340023799e-12,1.709835016376522e-13
	-8.135879440554405e-04,-2.242397812776794e-13
	-8.135879359195613e-04,3.825934854859214e-12
	-1.392763509416409e-20,-3.879191134499241e-12
	-8.135879359195613e-04,3.825934854859214e-12
37		2.344228815319919e+00,0.000000000000000e+00
	-8.135879359195613e+00,3.915052325900116e-08
	1.000000000000000e+00,0.000000000000000e+00
	0.000000000000000e+00,0.000000000000000e+00
	8.135879359195612e-04,-3.915052325900117e-12
	1.458402431393480e-20,3.969549103650701e-12
	8.135879340023799e-12,1.749662190214336e-13
	-8.135879440554405e-04,-2.294629967720181e-13
	-8.135879359195613e-04,3.915052325900117e-12
	-1.458402431393480e-20,-3.969549103650701e-12
	-8.135879359195613e-04,3.915052325900117e-12
38		2.398832919019488e+00,0.000000000000000e+00
	-8.135879359195613e+00,4.006245609506055e-08
	1.000000000000000e+00,0.000000000000000e+00
	0.000000000000000e+00,0.000000000000000e+00
