LTspice 24.0.9 for Windows
Circuit: * GA CMOS Amp | W=1.10291168236269e-05 L=2.718550863186174e-07 Vbias=1.0594259887590558
Start Time: Sat Sep  6 22:01:33 2025
solver = Normal
Maximum thread count: 2
tnom = 27
temp = 27
method = modified trap
AsciiRawFile = 1
Direct Newton iteration for .op point succeeded.
Semiconductor Device Operating Points:
                        --- BSIM4 MOSFETS ---
Name:      m1
Model:      n
Id:      1.75e-04
Vgs:     1.06e+00
Vds:     4.82e-02
Vbs:     0.00e+00
Vth:     2.75e-01
Vdsat:   5.65e-01
Gm:      2.19e-05
Gds:     3.48e-03
Gmb      1.10e-04
Cbd:     5.43e-15
Cbs:     8.82e-15


.measure op idd find i(vdd)
  Error: FIND can not be evaluated over an interval.

gain_db: MAX(db(v(out)/v(g)))=(34.3583dB,148.503°) FROM 1 TO 1e+09
gain_lin: MAX(mag(v(out)/v(g)))=(-18.9844dB,0°) FROM 1 TO 1e+09

Measurement "fc" FAIL'ed

Total elapsed time: 1.484 seconds.

