LTspice 24.0.9 for Windows
Circuit: * GA CMOS Amp | W=3.6894509621203945e-06 L=8.110081631600551e-07 Vbias=1.5
Start Time: Sat Sep  6 22:15:48 2025
solver = Normal
Maximum thread count: 2
tnom = 27
temp = 27
method = modified trap
AsciiRawFile = 1
Direct Newton iteration for .op point succeeded.
Semiconductor Device Operating Points:
                        --- BSIM4 MOSFETS ---
Name:      m1
Model:      n
Id:      1.38e-04
Vgs:     1.50e+00
Vds:     4.23e-01
Vbs:     0.00e+00
Vth:     2.39e-01
Vdsat:   8.69e-01
Gm:      6.54e-06
Gds:     2.22e-04
Gmb      6.77e-05
Cbd:     1.64e-15
Cbs:     2.95e-15


.measure op idd find i(vdd)
  Error: FIND can not be evaluated over an interval.

gain_db: MAX(db(v(out)/v(g)))=(33.828dB,146.265°) FROM 1 TO 1e+09
gain_lin: MAX(mag(v(out)/v(g)))=(-2.1858dB,0°) FROM 1 TO 1e+09

Measurement "fc" FAIL'ed

Total elapsed time: 0.718 seconds.

