LTspice 24.0.9 for Windows
Circuit: * GA CMOS Amp | W=2.2211063732658587e-05 L=9.682685966209894e-07 Vbias=0.5912772283131822
Start Time: Mon Sep  8 18:47:20 2025
solver = Normal
Maximum thread count: 2
tnom = 27
temp = 27
method = modified trap
AsciiRawFile = 1
Instance "m1": Length shorter than recommended for a level 3 MOSFET.
Direct Newton iteration for .op point succeeded.
Semiconductor Device Operating Points:
                        --- MOSFET Transistors ---
Name:          m1
Model:        n_1u
Id:          1.06e-07
Vgs:         5.91e-01
Vds:         1.80e+00
Vbs:         0.00e+00
Vth:         8.08e-01
Vdsat:       4.86e-02
Gm:          1.93e-06
Gds:         6.02e-09
Gmb:         4.97e-07
Cbd:         0.00e+00
Cbs:         0.00e+00
Cgsov:       4.44e-15
Cgdov:       4.44e-15
Cgbov:       7.68e-17
Cgs:         7.45e-15
Cgd:         0.00e+00
Cgb:         9.14e-15



gain_db: MAX(db(v(out)/v(g)))=(32.834dB,141.488°) FROM 1 TO 1e+09
gain_lin: MAX(mag(v(out)/v(g)))=(-11.39dB,0°) FROM 1 TO 1e+09

Measurement "fc" FAIL'ed

Total elapsed time: 0.421 seconds.

