Title: * GA CMOS Amp | W=1.3809825592818056e-05 L=5.269776876655587e-07 Vbias=1.074595854266989
Date: Mon Sep  8 18:45:40 2025
Plotname: AC Analysis
Flags: complex forward log
No. Variables: 11
No. Points:          901
Offset:    0.0000000000000000e+00
Command: Linear Technology Corporation LTspice
Variables:
	0	frequency	frequency
	1	V(out)	voltage
	2	V(g)	voltage
	3	V(vdd)	voltage
	4	Id(M1)	device_current
	5	Ig(M1)	device_current
	6	Ib(M1)	device_current
	7	Is(M1)	device_current
	8	I(Rload)	device_current
	9	I(Vg)	device_current
	10	I(Vdd)	device_current
Values:
0		1.000000000000000e+00,0.000000000000000e+00
	-6.441011909015879e-01,9.789833551099754e-11
	1.000000000000000e+00,0.000000000000000e+00
	0.000000000000000e+00,0.000000000000000e+00
	6.441011909015878e-05,-9.789833551099756e-15
	3.986246647390073e-24,1.100585478542524e-13
	6.454671866440442e-13,1.072003230107976e-15
	-6.441011973562597e-05,-1.013407175332606e-13
	-6.441011909015880e-05,9.789833551099754e-15
	-3.986246647390073e-24,-1.100585478542524e-13
	-6.441011909015880e-05,9.789833551099754e-15
1		1.023292992280754e+00,0.000000000000000e+00
	-6.441011909015879e-01,1.001786806843539e-10
	1.000000000000000e+00,0.000000000000000e+00
	0.000000000000000e+00,0.000000000000000e+00
	6.441011909015878e-05,-1.001786806843538e-14
	4.174112664054334e-24,1.126221407598525e-13
	6.454671866440442e-13,1.096973393071844e-15
	-6.441011973562597e-05,-1.037012460844889e-13
	-6.441011909015880e-05,1.001786806843539e-14
	-4.174112664054334e-24,-1.126221407598525e-13
	-6.441011909015880e-05,1.001786806843539e-14
2		1.047128548050899e+00,0.000000000000000e+00
	-6.441011909015879e-01,1.025121419202307e-10
	1.000000000000000e+00,0.000000000000000e+00
	0.000000000000000e+00,0.000000000000000e+00
	6.441011909015878e-05,-1.025121419202306e-14
	4.370832533312085e-24,1.152454474152137e-13
	6.454671866440442e-13,1.122525185848857e-15
	-6.441011973562597e-05,-1.061167584090395e-13
	-6.441011909015880e-05,1.025121419202307e-14
	-4.370832533312085e-24,-1.152454474152137e-13
	-6.441011909015880e-05,1.025121419202307e-14
3		1.071519305237606e+00,0.000000000000000e+00
	-6.441011909015879e-01,1.048999564506622e-10
	1.000000000000000e+00,0.000000000000000e+00
	0.000000000000000e+00,0.000000000000000e+00
	6.441011909015878e-05,-1.048999564506621e-14
	4.576823524380717e-24,1.179298587322483e-13
	6.454671866440442e-13,1.148672156337792e-15
	-6.441011973562597e-05,-1.085885352435199e-13
	-6.441011909015880e-05,1.048999564506622e-14
	-4.576823524380717e-24,-1.179298587322483e-13
	-6.441011909015880e-05,1.048999564506622e-14
4		1.096478196143185e+00,0.000000000000000e+00
	-6.441011909015879e-01,1.073433903265189e-10
	1.000000000000000e+00,0.000000000000000e+00
	0.000000000000000e+00,0.000000000000000e+00
	6.441011909015878e-05,-1.073433903265188e-14
	4.792522571769980e-24,1.206767980213690e-13
	6.454671866440442e-13,1.175428168008469e-15
	-6.441011973562597e-05,-1.111178871567256e-13
	-6.441011909015880e-05,1.073433903265189e-14
	-4.792522571769980e-24,-1.206767980213690e-13
	-6.441011909015880e-05,1.073433903265189e-14
5		1.122018454301963e+00,0.000000000000000e+00
	-6.441011909015879e-01,1.098437390887844e-10
	1.000000000000000e+00,0.000000000000000e+00
	0.000000000000000e+00,0.000000000000000e+00
	6.441011909015878e-05,-1.098437390887845e-14
	5.018387202078663e-24,1.234877217461469e-13
	6.454671866440442e-13,1.202807407252487e-15
	-6.441011973562597e-05,-1.137061552445209e-13
	-6.441011909015880e-05,1.098437390887845e-14
	-5.018387202078663e-24,-1.234877217461469e-13
	-6.441011909015880e-05,1.098437390887845e-14
6		1.148153621496882e+00,0.000000000000000e+00
	-6.441011909015879e-01,1.124023284554687e-10
	1.000000000000000e+00,0.000000000000000e+00
	0.000000000000000e+00,0.000000000000000e+00
	6.441011909015878e-05,-1.124023284554688e-14
	5.254896504469846e-24,1.263641202955478e-13
	6.454671866440442e-13,1.230824390904852e-15
	-6.441011973562597e-05,-1.163547118409058e-13
	-6.441011909015880e-05,1.124023284554687e-14
	-5.254896504469846e-24,-1.263641202955478e-13
	-6.441011909015880e-05,1.124023284554687e-14
7		1.174897554939529e+00,0.000000000000000e+00
	-6.441011909015879e-01,1.150205150245207e-10
	1.000000000000000e+00,0.000000000000000e+00
	0.000000000000000e+00,0.000000000000000e+00
	6.441011909015878e-05,-1.150205150245207e-14
	5.502552146883257e-24,1.293075187741563e-13
	6.454671866440442e-13,1.259493973941162e-15
	-6.441011973562597e-05,-1.190649612456454e-13
	-6.441011909015880e-05,1.150205150245207e-14
	-5.502552146883257e-24,-1.293075187741563e-13
	-6.441011909015880e-05,1.150205150245207e-14
8		1.202264434617413e+00,0.000000000000000e+00
	-6.441011909015879e-01,1.176996869931152e-10
	1.000000000000000e+00,0.000000000000000e+00
	0.000000000000000e+00,0.000000000000000e+00
	6.441011909015878e-05,-1.176996869931153e-14
	5.761879440140226e-24,1.323194778108062e-13
	6.454671866440442e-13,1.288831357353816e-15
	-6.441011973562597e-05,-1.218383404688485e-13
	-6.441011909015880e-05,1.176996869931152e-14
	-5.761879440140226e-24,-1.323194778108062e-13
	-6.441011909015880e-05,1.176996869931152e-14
9		1.230268770812381e+00,0.000000000000000e+00
	-6.441011909015879e-01,1.204412648936930e-10
	1.000000000000000e+00,0.000000000000000e+00
	0.000000000000000e+00,0.000000000000000e+00
	6.441011909015878e-05,-1.204412648936930e-14
	6.033428452198364e-24,1.354015943860467e-13
	6.454671866440442e-13,1.318852096211855e-15
	-6.441011973562597e-05,-1.246763199928892e-13
	-6.441011909015880e-05,1.204412648936930e-14
	-6.033428452198364e-24,-1.354015943860467e-13
	-6.441011909015880e-05,1.204412648936930e-14
10		1.258925411794167e+00,0.000000000000000e+00
	-6.441011909015879e-01,1.232467023471461e-10
	1.000000000000000e+00,0.000000000000000e+00
	0.000000000000000e+00,0.000000000000000e+00
	6.441011909015878e-05,-1.232467023471462e-14
	6.317775174919459e-24,1.385555026788827e-13
	6.454671866440442e-13,1.349572107908387e-15
	-6.441011973562597e-05,-1.275804045520764e-13
	-6.441011909015880e-05,1.232467023471461e-14
	-6.317775174919459e-24,-1.385555026788827e-13
	-6.441011909015880e-05,1.232467023471461e-14
11		1.288249551693134e+00,0.000000000000000e+00
	-6.441011909015879e-01,1.261174868335466e-10
	1.000000000000000e+00,0.000000000000000e+00
	0.000000000000000e+00,0.000000000000000e+00
	6.441011909015878e-05,-1.261174868335466e-14
	6.615522745825433e-24,1.417828749332379e-13
	6.454671866440442e-13,1.381007680600201e-15
	-6.441011973562597e-05,-1.305521339304835e-13
	-6.441011909015880e-05,1.261174868335466e-14
	-6.615522745825433e-24,-1.417828749332379e-13
	-6.441011909015880e-05,1.261174868335466e-14
12		1.318256738556407e+00,0.000000000000000e+00
	-6.441011909015879e-01,1.290551404808285e-10
	1.000000000000000e+00,0.000000000000000e+00
	0.000000000000000e+00,0.000000000000000e+00
	6.441011909015878e-05,-1.290551404808283e-14
	6.927302727433885e-24,1.450854223446010e-13
	6.454671866440442e-13,1.413175481844073e-15
	-6.441011973562597e-05,-1.335930837783622e-13
	-6.441011909015880e-05,1.290551404808285e-14
	-6.927302727433885e-24,-1.450854223446010e-13
	-6.441011909015880e-05,1.290551404808285e-14
13		1.348962882591653e+00,0.000000000000000e+00
	-6.441011909015879e-01,1.320612208718401e-10
	1.000000000000000e+00,0.000000000000000e+00
	0.000000000000000e+00,0.000000000000000e+00
	6.441011909015878e-05,-1.320612208718400e-14
	7.253776446886880e-24,1.484648959673237e-13
	6.454671866440442e-13,1.446092567434041e-15
	-6.441011973562597e-05,-1.367048664475737e-13
	-6.441011909015880e-05,1.320612208718401e-14
	-7.253776446886880e-24,-1.484648959673237e-13
	-6.441011909015880e-05,1.320612208718401e-14
14		1.380384264602885e+00,0.000000000000000e+00
	-6.441011909015879e-01,1.351373218701948e-10
	1.000000000000000e+00,0.000000000000000e+00
	0.000000000000000e+00,0.000000000000000e+00
	6.441011909015878e-05,-1.351373218701949e-14
	7.595636398714472e-24,1.519230876430536e-13
	6.454671866440442e-13,1.479776390444509e-15
	-6.441011973562597e-05,-1.398891318464786e-13
	-6.441011909015880e-05,1.351373218701948e-14
	-7.595636398714472e-24,-1.519230876430536e-13
	-6.441011909015880e-05,1.351373218701948e-14
15		1.412537544622754e+00,0.000000000000000e+00
	-6.441011909015879e-01,1.382850744653590e-10
	1.000000000000000e+00,0.000000000000000e+00
	0.000000000000000e+00,0.000000000000000e+00
	6.441011909015878e-05,-1.382850744653591e-14
	7.953607713708449e-24,1.554618309507915e-13
	6.454671866440442e-13,1.514244810484407e-15
	-6.441011973562597e-05,-1.431475683147400e-13
	-6.441011909015880e-05,1.382850744653590e-14
	-7.953607713708449e-24,-1.554618309507915e-13
	-6.441011909015880e-05,1.382850744653590e-14
16		1.445439770745927e+00,0.000000000000000e+00
	-6.441011909015879e-01,1.415061476374241e-10
	1.000000000000000e+00,0.000000000000000e+00
	0.000000000000000e+00,0.000000000000000e+00
	6.441011909015878e-05,-1.415061476374241e-14
	8.328449697021960e-24,1.590830021790802e-13
	6.454671866440442e-13,1.549516103166209e-15
	-6.441011973562597e-05,-1.464819035185040e-13
	-6.441011909015880e-05,1.415061476374241e-14
	-8.328449697021960e-24,-1.590830021790802e-13
	-6.441011909015880e-05,1.415061476374241e-14
17		1.479108388168207e+00,0.000000000000000e+00
	-6.441011909015879e-01,1.448022492420219e-10
	1.000000000000000e+00,0.000000000000000e+00
	0.000000000000000e+00,0.000000000000000e+00
	6.441011909015878e-05,-1.448022492420220e-14
	8.720957438757558e-24,1.627885213208367e-13
	6.454671866440442e-13,1.585608969796155e-15
	-6.441011973562597e-05,-1.498939053664306e-13
	-6.441011909015880e-05,1.448022492420219e-14
	-8.720957438757558e-24,-1.627885213208367e-13
	-6.441011909015880e-05,1.448022492420219e-14
18		1.513561248436208e+00,0.000000000000000e+00
	-6.441011909015879e-01,1.481751269158521e-10
	1.000000000000000e+00,0.000000000000000e+00
	0.000000000000000e+00,0.000000000000000e+00
	6.441011909015878e-05,-1.481751269158520e-14
	9.131963500459893e-24,1.665803530913583e-13
	6.454671866440442e-13,1.622542547289879e-15
	-6.441011973562597e-05,-1.533853829470630e-13
	-6.441011909015880e-05,1.481751269158521e-14
	-9.131963500459893e-24,-1.665803530913583e-13
	-6.441011909015880e-05,1.481751269158521e-14
19		1.548816618912481e+00,0.000000000000000e+00
	-6.441011909015879e-01,1.516265690033028e-10
	1.000000000000000e+00,0.000000000000000e+00
	0.000000000000000e+00,0.000000000000000e+00
	6.441011909015878e-05,-1.516265690033029e-14
	9.562339681090376e-24,1.704605079700406e-13
	6.454671866440442e-13,1.660336418319135e-15
	-6.441011973562597e-05,-1.569581874880294e-13
	-6.441011909015880e-05,1.516265690033028e-14
	-9.562339681090376e-24,-1.704605079700406e-13
	-6.441011909015880e-05,1.516265690033028e-14
20		1.584893192461113e+00,0.000000000000000e+00
	-6.441011909015879e-01,1.551584055046540e-10
	1.000000000000000e+00,0.000000000000000e+00
	0.000000000000000e+00,0.000000000000000e+00
	6.441011909015878e-05,-1.551584055046540e-14
	1.001299886622967e-23,1.744310432663602e-13
	6.454671866440442e-13,1.699010621694448e-15
	-6.441011973562597e-05,-1.606142133375893e-13
	-6.441011909015880e-05,1.551584055046540e-14
	-1.001299886622967e-23,-1.744310432663602e-13
	-6.441011909015880e-05,1.551584055046540e-14
21		1.621810097358929e+00,0.000000000000000e+00
	-6.441011909015879e-01,1.587725090463680e-10
	1.000000000000000e+00,0.000000000000000e+00
	0.000000000000000e+00,0.000000000000000e+00
	6.441011909015878e-05,-1.587725090463680e-14
	1.048489696443037e-23,1.784940642106874e-13
	6.454671866440442e-13,1.738585662990521e-15
	-6.441011973562597e-05,-1.643553989690411e-13
	-6.441011909015880e-05,1.587725090463680e-14
	-1.048489696443037e-23,-1.784940642106874e-13
	-6.441011909015880e-05,1.587725090463680e-14
22		1.659586907437560e+00,0.000000000000000e+00
	-6.441011909015879e-01,1.624707958739810e-10
	1.000000000000000e+00,0.000000000000000e+00
	0.000000000000000e+00,0.000000000000000e+00
	6.441011909015878e-05,-1.624707958739812e-14
	1.097903493482726e-23,1.826517250705074e-13
	6.454671866440442e-13,1.779082525417999e-15
	-6.441011973562597e-05,-1.681837280085273e-13
	-6.441011909015880e-05,1.624707958739810e-14
	-1.097903493482726e-23,-1.826517250705074e-13
	-6.441011909015880e-05,1.624707958739810e-14
23		1.698243652461743e+00,0.000000000000000e+00
	-6.441011909015879e-01,1.662552268681217e-10
	1.000000000000000e+00,0.000000000000000e+00
	0.000000000000000e+00,0.000000000000000e+00
	6.441011909015878e-05,-1.662552268681215e-14
	1.149646091030577e-23,1.869062302926411e-13
	6.454671866440442e-13,1.820522680949384e-15
	-6.441011973562597e-05,-1.721012302867784e-13
	-6.441011909015880e-05,1.662552268681217e-14
	-1.149646091030577e-23,-1.869062302926411e-13
	-6.441011909015880e-05,1.662552268681217e-14
24		1.737800828749374e+00,0.000000000000000e+00
	-6.441011909015879e-01,1.701278085841958e-10
	1.000000000000000e+00,0.000000000000000e+00
	0.000000000000000e+00,0.000000000000000e+00
	6.441011909015878e-05,-1.701278085841960e-14
	1.203827242073240e-23,1.912598356720725e-13
	6.454671866440442e-13,1.862928101703691e-15
	-6.441011973562597e-05,-1.761099829153565e-13
	-6.441011909015880e-05,1.701278085841958e-14
	-1.203827242073240e-23,-1.912598356720725e-13
	-6.441011909015880e-05,1.701278085841958e-14
25		1.778279410038922e+00,0.000000000000000e+00
	-6.441011909015879e-01,1.740905943162891e-10
	1.000000000000000e+00,0.000000000000000e+00
	0.000000000000000e+00,0.000000000000000e+00
	6.441011909015878e-05,-1.740905943162894e-14
	1.260561872096271e-23,1.957148495480004e-13
	6.454671866440442e-13,1.906321271596266e-15
	-6.441011973562597e-05,-1.802121113879677e-13
	-6.441011909015880e-05,1.740905943162891e-14
	-1.260561872096271e-23,-1.957148495480004e-13
	-6.441011909015880e-05,1.740905943162891e-14
26		1.819700858609982e+00,0.000000000000000e+00
	-6.441011909015879e-01,1.781456851858503e-10
	1.000000000000000e+00,0.000000000000000e+00
	0.000000000000000e+00,0.000000000000000e+00
	6.441011909015878e-05,-1.781456851858503e-14
	1.319970322856492e-23,2.002736340277508e-13
	6.454671866440442e-13,1.950725198260179e-15
	-6.441011973562597e-05,-1.844097907074260e-13
	-6.441011909015880e-05,1.781456851858503e-14
	-1.319970322856492e-23,-2.002736340277508e-13
	-6.441011909015880e-05,1.781456851858503e-14
27		1.862087136662866e+00,0.000000000000000e+00
	-6.441011909015879e-01,1.822952312557340e-10
	1.000000000000000e+00,0.000000000000000e+00
	0.000000000000000e+00,0.000000000000000e+00
	6.441011909015878e-05,-1.822952312557341e-14
	1.382178607642995e-23,2.049386062391978e-13
	6.454671866440442e-13,1.996163425245134e-15
	-6.441011973562597e-05,-1.887052465388695e-13
	-6.441011909015880e-05,1.822952312557340e-14
	-1.382178607642995e-23,-2.049386062391978e-13
	-6.441011909015880e-05,1.822952312557340e-14
28		1.905460717963246e+00,0.000000000000000e+00
	-6.441011909015879e-01,1.865414326701921e-10
	1.000000000000000e+00,0.000000000000000e+00
	0.000000000000000e+00,0.000000000000000e+00
	6.441011909015878e-05,-1.865414326701921e-14
	1.447318678568223e-23,2.097122396123559e-13
	6.454671866440442e-13,2.042660044500500e-15
	-6.441011973562597e-05,-1.931007563898372e-13
	-6.441011909015880e-05,1.865414326701921e-14
	-1.447318678568223e-23,-2.097122396123559e-13
	-6.441011909015880e-05,1.865414326701921e-14
29		1.949844599758044e+00,0.000000000000000e+00
	-6.441011909015879e-01,1.908865408214197e-10
	1.000000000000000e+00,0.000000000000000e+00
	0.000000000000000e+00,0.000000000000000e+00
	6.441011909015878e-05,-1.908865408214198e-14
	1.515528706456091e-23,2.145970651908262e-13
	6.454671866440442e-13,2.090239709149258e-15
	-6.441011973562597e-05,-1.975986508178335e-13
	-6.441011909015880e-05,1.908865408214197e-14
	-1.515528706456091e-23,-2.145970651908262e-13
	-6.441011909015880e-05,1.908865408214197e-14
30		1.995262314968878e+00,0.000000000000000e+00
	-6.441011909015879e-01,1.953328595432729e-10
	1.000000000000000e+00,0.000000000000000e+00
	0.000000000000000e+00,0.000000000000000e+00
	6.441011909015878e-05,-1.953328595432730e-14
	1.586953373920824e-23,2.195956729737886e-13
	6.454671866440442e-13,2.138927646559411e-15
	-6.441011973562597e-05,-2.022013146660207e-13
	-6.441011909015880e-05,1.953328595432729e-14
	-1.586953373920824e-23,-2.195956729737886e-13
	-6.441011909015880e-05,1.953328595432729e-14
31		2.041737944669527e+00,0.000000000000000e+00
	-6.441011909015879e-01,1.998827463327919e-10
	1.000000000000000e+00,0.000000000000000e+00
	0.000000000000000e+00,0.000000000000000e+00
	6.441011909015878e-05,-1.998827463327920e-14
	1.661744182258188e-23,2.247107132892540e-13
	6.454671866440442e-13,2.188749671719787e-15
	-6.441011973562597e-05,-2.069111883276946e-13
	-6.441011909015880e-05,1.998827463327919e-14
	-1.661744182258188e-23,-2.247107132892540e-13
	-6.441011909015880e-05,1.998827463327919e-14
32		2.089296130854037e+00,0.000000000000000e+00
	-6.441011909015879e-01,2.045386136001776e-10
	1.000000000000000e+00,0.000000000000000e+00
	0.000000000000000e+00,0.000000000000000e+00
	6.441011909015878e-05,-2.045386136001777e-14
	1.740059772800046e-23,2.299448981993034e-13
	6.454671866440442e-13,2.239732200927665e-15
	-6.441011973562597e-05,-2.117307690402133e-13
	-6.441011909015880e-05,2.045386136001776e-14
	-1.740059772800046e-23,-2.299448981993034e-13
	-6.441011909015880e-05,2.045386136001776e-14
33		2.137962089502230e+00,0.000000000000000e+00
	-6.441011909015879e-01,2.093029299478826e-10
	1.000000000000000e+00,0.000000000000000e+00
	0.000000000000000e+00,0.000000000000000e+00
	6.441011909015878e-05,-2.093029299478828e-14
	1.822066263413890e-23,2.353010029380586e-13
	6.454671866440442e-13,2.291902265794812e-15
	-6.441011973562597e-05,-2.166626122090651e-13
	-6.441011909015880e-05,2.093029299478827e-14
	-1.822066263413890e-23,-2.353010029380586e-13
	-6.441011909015880e-05,2.093029299478827e-14
34		2.187761623949550e+00,0.000000000000000e+00
	-6.441011909015879e-01,2.141782214794979e-10
	1.000000000000000e+00,0.000000000000000e+00
	0.000000000000000e+00,0.000000000000000e+00
	6.441011909015878e-05,-2.141782214794979e-14
	1.907937600861114e-23,2.407818673831484e-13
	6.454671866440442e-13,2.345287527580234e-15
	-6.441011973562597e-05,-2.217093327627789e-13
	-6.441011909015880e-05,2.141782214794979e-14
	-1.907937600861114e-23,-2.407818673831484e-13
	-6.441011909015880e-05,2.141782214794979e-14
35		2.238721138568337e+00,0.000000000000000e+00
	-6.441011909015879e-01,2.191670731391255e-10
	1.000000000000000e+00,0.000000000000000e+00
	0.000000000000000e+00,0.000000000000000e+00
	6.441011909015878e-05,-2.191670731391253e-14
	1.997855929761415e-23,2.463903975614497e-13
	6.454671866440442e-13,2.399916291856331e-15
	-6.441011973562597e-05,-2.268736065393935e-13
	-6.441011909015880e-05,2.191670731391255e-14
	-1.997855929761415e-23,-2.463903975614497e-13
	-6.441011909015880e-05,2.191670731391255e-14
36		2.290867652767770e+00,0.000000000000000e+00
	-6.441011909015879e-01,2.242721300819506e-10
	1.000000000000000e+00,0.000000000000000e+00
	0.000000000000000e+00,0.000000000000000e+00
	6.441011909015878e-05,-2.242721300819507e-14
	2.092011978945950e-23,2.521295671899005e-13
	6.454671866440442e-13,2.455817523516987e-15
	-6.441011973562597e-05,-2.321581717052224e-13
	-6.441011909015880e-05,2.242721300819506e-14
	-2.092011978945950e-23,-2.521295671899005e-13
	-6.441011909015880e-05,2.242721300819506e-14
37		2.344228815319919e+00,0.000000000000000e+00
	-6.441011909015879e-01,2.294960990767377e-10
	1.000000000000000e+00,0.000000000000000e+00
	0.000000000000000e+00,0.000000000000000e+00
	6.441011909015878e-05,-2.294960990767379e-14
	2.190605466018762e-23,2.580024192522047e-13
	6.454671866440442e-13,2.513020862135171e-15
	-6.441011973562597e-05,-2.375658302066661e-13
	-6.441011909015880e-05,2.294960990767377e-14
	-2.190605466018762e-23,-2.580024192522047e-13
	-6.441011909015880e-05,2.294960990767377e-14
38		2.398832919019488e+00,0.000000000000000e+00
	-6.441011909015879e-01,2.348417499409954e-10
	1.000000000000000e+00,0.000000000000000e+00
	0.000000000000000e+00,0.000000000000000e+00
