LTspice 24.0.9 for Windows
Circuit: * GA CMOS Amp | W=8.649496514122082e-06 L=1e-06 Vbias=1.4845072957184262
Start Time: Sat Sep  6 22:16:21 2025
solver = Normal
Maximum thread count: 2
tnom = 27
temp = 27
method = modified trap
AsciiRawFile = 1
Direct Newton iteration for .op point succeeded.
Semiconductor Device Operating Points:
                        --- BSIM4 MOSFETS ---
Name:      m1
Model:      n
Id:      1.58e-04
Vgs:     1.48e+00
Vds:     2.22e-01
Vbs:     0.00e+00
Vth:     2.36e-01
Vdsat:   8.60e-01
Gm:     -1.31e-05
Gds:     6.16e-04
Gmb      7.71e-05
Cbd:     4.05e-15
Cbs:     6.92e-15


.measure op idd find i(vdd)
  Error: FIND can not be evaluated over an interval.

gain_db: MAX(db(v(out)/v(g)))=(29.3433dB,180°) FROM 1 TO 1e+09
gain_lin: MAX(mag(v(out)/v(g)))=(-2.08328dB,0°) FROM 1 TO 1e+09

Measurement "fc" FAIL'ed

Total elapsed time: 0.813 seconds.

