LTspice 24.0.9 for Windows
Circuit: * GA CMOS Amp | W=1.5037912298004466e-05 L=9.73665353990474e-07 Vbias=1.1803748851686706
Start Time: Sat Sep  6 22:39:13 2025
solver = Normal
Maximum thread count: 2
tnom = 27
temp = 27
method = modified trap
AsciiRawFile = 1
Direct Newton iteration for .op point succeeded.
Semiconductor Device Operating Points:
                        --- BSIM4 MOSFETS ---
Name:      m1
Model:      n
Id:      1.68e-04
Vgs:     1.18e+00
Vds:     1.20e-01
Vbs:     0.00e+00
Vth:     2.36e-01
Vdsat:   6.65e-01
Gm:     -6.92e-07
Gds:     1.27e-03
Gmb      1.00e-04
Cbd:     7.24e-15
Cbs:     1.20e-14


.measure op idd find i(vdd)
  Error: FIND can not be evaluated over an interval.

gain_db: MAX(db(v(out)/v(g)))=(33.2457dB,180°) FROM 1 TO 1e+09
gain_lin: MAX(mag(v(out)/v(g)))=(-2.51174dB,0°) FROM 1 TO 1e+09

Measurement "fc" FAIL'ed

Total elapsed time: 5.258 seconds.

