Title: * GA CMOS Amp | W=1.9760811442175933e-06 L=8.549808804454229e-07 Vbias=1.0104245893756878
Date: Mon Sep  8 18:45:52 2025
Plotname: AC Analysis
Flags: complex forward log
No. Variables: 11
No. Points:          901
Offset:    0.0000000000000000e+00
Command: Linear Technology Corporation LTspice
Variables:
	0	frequency	frequency
	1	V(out)	voltage
	2	V(g)	voltage
	3	V(vdd)	voltage
	4	Id(M1)	device_current
	5	Ig(M1)	device_current
	6	Ib(M1)	device_current
	7	Is(M1)	device_current
	8	I(Rload)	device_current
	9	I(Vg)	device_current
	10	I(Vdd)	device_current
Values:
0		1.000000000000000e+00,0.000000000000000e+00
	-4.485200138391371e-01,3.574339516927839e-11
	1.000000000000000e+00,0.000000000000000e+00
	0.000000000000000e+00,0.000000000000000e+00
	4.485200138391371e-05,-3.574339516927839e-15
	8.875859945304585e-26,1.622013248945281e-14
	4.485200120920955e-13,-7.792620984097680e-16
	-4.485200183243372e-05,-1.186653087411520e-14
	-4.485200138391372e-05,3.574339516927839e-15
	-8.875859945304585e-26,-1.622013248945281e-14
	-4.485200138391372e-05,3.574339516927839e-15
1		1.023292992280754e+00,0.000000000000000e+00
	-4.485200138391371e-01,3.657596579704433e-11
	1.000000000000000e+00,0.000000000000000e+00
	0.000000000000000e+00,0.000000000000000e+00
	4.485200138391371e-05,-3.657596579704433e-15
	9.294166337229927e-26,1.659794791032244e-14
	4.485200120920955e-13,-7.974134444527102e-16
	-4.485200183243372e-05,-1.214293788616530e-14
	-4.485200138391372e-05,3.657596579704433e-15
	-9.294166337229927e-26,-1.659794791032244e-14
	-4.485200138391372e-05,3.657596579704433e-15
2		1.047128548050899e+00,0.000000000000000e+00
	-4.485200138391371e-01,3.742792948601601e-11
	1.000000000000000e+00,0.000000000000000e+00
	0.000000000000000e+00,0.000000000000000e+00
	4.485200138391371e-05,-3.742792948601601e-15
	9.732186902047117e-26,1.698456378287394e-14
	4.485200120920955e-13,-8.159875896589168e-16
	-4.485200183243372e-05,-1.242578324461342e-14
	-4.485200138391372e-05,3.742792948601601e-15
	-9.732186902047117e-26,-1.698456378287394e-14
	-4.485200138391372e-05,3.742792948601601e-15
3		1.071519305237606e+00,0.000000000000000e+00
	-4.485200138391371e-01,3.829973795861838e-11
	1.000000000000000e+00,0.000000000000000e+00
	0.000000000000000e+00,0.000000000000000e+00
	4.485200138391371e-05,-3.829973795861838e-15
	1.019085074010058e-25,1.738018509596040e-14
	4.485200120920955e-13,-8.349943822860359e-16
	-4.485200183243372e-05,-1.271521691781253e-14
	-4.485200138391372e-05,3.829973795861838e-15
	-1.019085074010058e-25,-1.738018509596040e-14
	-4.485200138391372e-05,3.829973795861838e-15
4		1.096478196143185e+00,0.000000000000000e+00
	-4.485200138391371e-01,3.919185345924339e-11
	1.000000000000000e+00,0.000000000000000e+00
	0.000000000000000e+00,0.000000000000000e+00
	4.485200138391371e-05,-3.919185345924338e-15
	1.067113073888495e-25,1.778502161323868e-14
	4.485200120920955e-13,-8.544438999870933e-16
	-4.485200183243372e-05,-1.301139236732725e-14
	-4.485200138391372e-05,3.919185345924339e-15
	-1.067113073888495e-25,-1.778502161323868e-14
	-4.485200138391372e-05,3.919185345924339e-15
5		1.122018454301963e+00,0.000000000000000e+00
	-4.485200138391371e-01,4.010474899933799e-11
	1.000000000000000e+00,0.000000000000000e+00
	0.000000000000000e+00,0.000000000000000e+00
	4.485200138391371e-05,-4.010474899933799e-15
	1.117404563666992e-25,1.819928798438890e-14
	4.485200120920955e-13,-8.743464551538314e-16
	-4.485200183243372e-05,-1.331446662930127e-14
	-4.485200138391372e-05,4.010474899933799e-15
	-1.117404563666992e-25,-1.819928798438890e-14
	-4.485200138391372e-05,4.010474899933799e-15
6		1.148153621496882e+00,0.000000000000000e+00
	-4.485200138391371e-01,4.103890860820115e-11
	1.000000000000000e+00,0.000000000000000e+00
	0.000000000000000e+00,0.000000000000000e+00
	4.485200138391371e-05,-4.103890860820115e-15
	1.170066218338067e-25,1.862320385892449e-14
	4.485200120920955e-13,-8.947126003844374e-16
	-4.485200183243372e-05,-1.362460039771994e-14
	-4.485200138391372e-05,4.103890860820115e-15
	-1.170066218338067e-25,-1.862320385892449e-14
	-4.485200138391372e-05,4.103890860820115e-15
7		1.174897554939529e+00,0.000000000000000e+00
	-4.485200138391371e-01,4.199482758962255e-11
	1.000000000000000e+00,0.000000000000000e+00
	0.000000000000000e+00,0.000000000000000e+00
	4.485200138391371e-05,-4.199482758962256e-15
	1.225209740331746e-25,1.905699400265333e-14
	4.485200120920955e-13,-9.155531340786837e-16
	-4.485200183243372e-05,-1.394195810961239e-14
	-4.485200138391372e-05,4.199482758962256e-15
	-1.225209740331746e-25,-1.905699400265333e-14
	-4.485200138391372e-05,4.199482758962256e-15
8		1.202264434617413e+00,0.000000000000000e+00
	-4.485200138391371e-01,4.297301278449923e-11
	1.000000000000000e+00,0.000000000000000e+00
	0.000000000000000e+00,0.000000000000000e+00
	4.485200138391371e-05,-4.297301278449923e-15
	1.282952096451401e-25,1.950088841685151e-14
	4.485200120920955e-13,-9.368791061633968e-16
	-4.485200183243372e-05,-1.426670803223819e-14
	-4.485200138391372e-05,4.297301278449923e-15
	-1.282952096451401e-25,-1.950088841685151e-14
	-4.485200138391372e-05,4.297301278449923e-15
9		1.230268770812381e+00,0.000000000000000e+00
	-4.485200138391371e-01,4.397398283956932e-11
	1.000000000000000e+00,0.000000000000000e+00
	0.000000000000000e+00,0.000000000000000e+00
	4.485200138391371e-05,-4.397398283956932e-15
	1.343415765976013e-25,1.995512246021308e-14
	4.485200120920955e-13,-9.587018239512600e-16
	-4.485200183243372e-05,-1.459902235230488e-14
	-4.485200138391372e-05,4.397398283956932e-15
	-1.343415765976013e-25,-1.995512246021308e-14
	-4.485200138391372e-05,4.397398283956932e-15
10		1.258925411794167e+00,0.000000000000000e+00
	-4.485200138391371e-01,4.499826848240543e-11
	1.000000000000000e+00,0.000000000000000e+00
	0.000000000000000e+00,0.000000000000000e+00
	4.485200138391371e-05,-4.499826848240543e-15
	1.406729000455150e-25,2.041993697364032e-14
	4.485200120920955e-13,-9.810328581361027e-16
	-4.485200183243372e-05,-1.493907726726368e-14
	-4.485200138391372e-05,4.499826848240543e-15
	-1.406729000455150e-25,-2.041993697364032e-14
	-4.485200138391372e-05,4.499826848240543e-15
11		1.288249551693134e+00,0.000000000000000e+00
	-4.485200138391371e-01,4.604641280281341e-11
	1.000000000000000e+00,0.000000000000000e+00
	0.000000000000000e+00,0.000000000000000e+00
	4.485200138391371e-05,-4.604641280281340e-15
	1.473026095747695e-25,2.089557840794081e-14
	4.485200120920955e-13,-1.003884048927833e-15
	-4.485200183243372e-05,-1.528705307873164e-14
	-4.485200138391372e-05,4.604641280281341e-15
	-1.473026095747695e-25,-2.089557840794081e-14
	-4.485200138391372e-05,4.604641280281341e-15
12		1.318256738556407e+00,0.000000000000000e+00
	-4.485200138391371e-01,4.711897154078575e-11
	1.000000000000000e+00,0.000000000000000e+00
	0.000000000000000e+00,0.000000000000000e+00
	4.485200138391371e-05,-4.711897154078575e-15
	1.542447676881369e-25,2.138229895449887e-14
	4.485200120920955e-13,-1.027267512330281e-15
	-4.485200183243372e-05,-1.564313428809002e-14
	-4.485200138391372e-05,4.711897154078575e-15
	-1.542447676881369e-25,-2.138229895449887e-14
	-4.485200138391372e-05,4.711897154078575e-15
13		1.348962882591653e+00,0.000000000000000e+00
	-4.485200138391371e-01,4.821651338116234e-11
	1.000000000000000e+00,0.000000000000000e+00
	0.000000000000000e+00,0.000000000000000e+00
	4.485200138391371e-05,-4.821651338116234e-15
	1.615140996337271e-25,2.188035667899079e-14
	4.485200120920955e-13,-1.051195646565264e-15
	-4.485200183243372e-05,-1.600750969430930e-14
	-4.485200138391372e-05,4.821651338116234e-15
	-1.615140996337271e-25,-2.188035667899079e-14
	-4.485200138391372e-05,4.821651338116234e-15
14		1.380384264602885e+00,0.000000000000000e+00
	-4.485200138391371e-01,4.933962025515465e-11
	1.000000000000000e+00,0.000000000000000e+00
	0.000000000000000e+00,0.000000000000000e+00
	4.485200138391371e-05,-4.933962025515464e-15
	1.691260246392130e-25,2.239001565821468e-14
	4.485200120920955e-13,-1.075681138646268e-15
	-4.485200183243372e-05,-1.638037249405294e-14
	-4.485200138391372e-05,4.933962025515465e-15
	-1.691260246392130e-25,-2.239001565821468e-14
	-4.485200138391372e-05,4.933962025515465e-15
15		1.412537544622754e+00,0.000000000000000e+00
	-4.485200138391371e-01,5.048888764889329e-11
	1.000000000000000e+00,0.000000000000000e+00
	0.000000000000000e+00,0.000000000000000e+00
	4.485200138391371e-05,-5.048888764889330e-15
	1.770966886180797e-25,2.291154612010743e-14
	4.485200120920955e-13,-1.100736971105303e-15
	-4.485200183243372e-05,-1.676192038411280e-14
	-4.485200138391372e-05,5.048888764889329e-15
	-1.770966886180797e-25,-2.291154612010743e-14
	-4.485200138391372e-05,5.048888764889329e-15
16		1.445439770745927e+00,0.000000000000000e+00
	-4.485200138391371e-01,5.166492491916282e-11
	1.000000000000000e+00,0.000000000000000e+00
	0.000000000000000e+00,0.000000000000000e+00
	4.485200138391371e-05,-5.166492491916282e-15
	1.854429984172720e-25,2.344522458702323e-14
	4.485200120920955e-13,-1.126376428876405e-15
	-4.485200183243372e-05,-1.715235566623054e-14
	-4.485200138391372e-05,5.166492491916282e-15
	-1.854429984172720e-25,-2.344522458702323e-14
	-4.485200138391372e-05,5.166492491916282e-15
17		1.479108388168207e+00,0.000000000000000e+00
	-4.485200138391371e-01,5.286835561649062e-11
	1.000000000000000e+00,0.000000000000000e+00
	0.000000000000000e+00,0.000000000000000e+00
	4.485200138391371e-05,-5.286835561649063e-15
	1.941826576788833e-25,2.399133402234931e-14
	4.485200120920955e-13,-1.152613106339448e-15
	-4.485200183243372e-05,-1.755188535436080e-14
	-4.485200138391372e-05,5.286835561649062e-15
	-1.941826576788833e-25,-2.399133402234931e-14
	-4.485200138391372e-05,5.286835561649062e-15
18		1.513561248436208e+00,0.000000000000000e+00
	-4.485200138391371e-01,5.409981781576170e-11
	1.000000000000000e+00,0.000000000000000e+00
	0.000000000000000e+00,0.000000000000000e+00
	4.485200138391371e-05,-5.409981781576169e-15
	2.033342043919539e-25,2.455016398053689e-14
	4.485200120920955e-13,-1.179460914528107e-15
	-4.485200183243372e-05,-1.796072128443261e-14
	-4.485200138391372e-05,5.409981781576170e-15
	-2.033342043919539e-25,-2.455016398053689e-14
	-4.485200138391372e-05,5.409981781576170e-15
19		1.548816618912481e+00,0.000000000000000e+00
	-4.485200138391371e-01,5.535996445453444e-11
	1.000000000000000e+00,0.000000000000000e+00
	0.000000000000000e+00,0.000000000000000e+00
	4.485200138391371e-05,-5.535996445453444e-15
	2.129170502140315e-25,2.512201076062678e-14
	4.485200120920955e-13,-1.206934088505662e-15
	-4.485200183243372e-05,-1.837908022666767e-14
	-4.485200138391372e-05,5.535996445453444e-15
	-2.129170502140315e-25,-2.512201076062678e-14
	-4.485200138391372e-05,5.535996445453444e-15
20		1.584893192461113e+00,0.000000000000000e+00
	-4.485200138391371e-01,5.664946367923674e-11
	1.000000000000000e+00,0.000000000000000e+00
	0.000000000000000e+00,0.000000000000000e+00
	4.485200138391371e-05,-5.664946367923674e-15
	2.229515216458993e-25,2.570717756335108e-14
	4.485200120920955e-13,-1.235047194912605e-15
	-4.485200183243372e-05,-1.880718400051480e-14
	-4.485200138391372e-05,5.664946367923674e-15
	-2.229515216458993e-25,-2.570717756335108e-14
	-4.485200138391372e-05,5.664946367923674e-15
21		1.621810097358929e+00,0.000000000000000e+00
	-4.485200138391371e-01,5.796899919942606e-11
	1.000000000000000e+00,0.000000000000000e+00
	0.000000000000000e+00,0.000000000000000e+00
	4.485200138391371e-05,-5.796899919942606e-15
	2.334589031468092e-25,2.630597465189419e-14
	4.485200120920955e-13,-1.263815139690073e-15
	-4.485200183243372e-05,-1.924525959226152e-14
	-4.485200138391372e-05,5.796899919942606e-15
	-2.334589031468092e-25,-2.630597465189419e-14
	-4.485200138391372e-05,5.796899919942606e-15
22		1.659586907437560e+00,0.000000000000000e+00
	-4.485200138391371e-01,5.931927065030133e-11
	1.000000000000000e+00,0.000000000000000e+00
	0.000000000000000e+00,0.000000000000000e+00
	4.485200138391371e-05,-5.931927065030133e-15
	2.444614822816739e-25,2.691871951639848e-14
	4.485200120920955e-13,-1.293253175983176e-15
	-4.485200183243372e-05,-1.969353927538517e-14
	-4.485200138391372e-05,5.931927065030133e-15
	-2.444614822816739e-25,-2.691871951639848e-14
	-4.485200138391372e-05,5.931927065030133e-15
23		1.698243652461743e+00,0.000000000000000e+00
	-4.485200138391371e-01,6.070099396365876e-11
	1.000000000000000e+00,0.000000000000000e+00
	0.000000000000000e+00,0.000000000000000e+00
	4.485200138391371e-05,-6.070099396365876e-15
	2.559825969959799e-25,2.754573704230173e-14
	4.485200120920955e-13,-1.323376912228406e-15
	-4.485200183243372e-05,-2.015226073370745e-14
	-4.485200138391372e-05,6.070099396365876e-15
	-2.559825969959799e-25,-2.754573704230173e-14
	-4.485200138391372e-05,6.070099396365876e-15
24		1.737800828749374e+00,0.000000000000000e+00
	-4.485200138391371e-01,6.211490174748836e-11
	1.000000000000000e+00,0.000000000000000e+00
	0.000000000000000e+00,0.000000000000000e+00
	4.485200138391371e-05,-6.211490174748836e-15
	2.680466851186989e-25,2.818735968259575e-14
	4.485200120920955e-13,-1.354202320429469e-15
	-4.485200183243372e-05,-2.062166718741744e-14
	-4.485200138391372e-05,6.211490174748836e-15
	-2.680466851186989e-25,-2.818735968259575e-14
	-4.485200138391372e-05,6.211490174748836e-15
25		1.778279410038922e+00,0.000000000000000e+00
	-4.485200138391371e-01,6.356174367441241e-11
	1.000000000000000e+00,0.000000000000000e+00
	0.000000000000000e+00,0.000000000000000e+00
	4.485200138391371e-05,-6.356174367441242e-15
	2.806793361981999e-25,2.884392763409729e-14
	4.485200120920955e-13,-1.385745744625817e-15
	-4.485200183243372e-05,-2.110200752203024e-14
	-4.485200138391372e-05,6.356174367441241e-15
	-2.806793361981999e-25,-2.884392763409729e-14
	-4.485200138391372e-05,6.356174367441241e-15
26		1.819700858609982e+00,0.000000000000000e+00
	-4.485200138391371e-01,6.504228687917176e-11
	1.000000000000000e+00,0.000000000000000e+00
	0.000000000000000e+00,0.000000000000000e+00
	4.485200138391371e-05,-6.504228687917176e-15
	2.939073457811112e-25,2.951578901782495e-14
	4.485200120920955e-13,-1.418023909558473e-15
	-4.485200183243372e-05,-2.159353642034930e-14
	-4.485200138391372e-05,6.504228687917177e-15
	-2.939073457811112e-25,-2.951578901782495e-14
	-4.485200138391372e-05,6.504228687917177e-15
27		1.862087136662866e+00,0.000000000000000e+00
	-4.485200138391371e-01,6.655731636537091e-11
	1.000000000000000e+00,0.000000000000000e+00
	0.000000000000000e+00,0.000000000000000e+00
	4.485200138391371e-05,-6.655731636537091e-15
	3.077587722492687e-25,3.020330006357751e-14
	4.485200120920955e-13,-1.451053929537742e-15
	-4.485200183243372e-05,-2.209651449750268e-14
	-4.485200138391372e-05,6.655731636537092e-15
	-3.077587722492687e-25,-3.020330006357751e-14
	-4.485200138391372e-05,6.655731636537092e-15
28		1.905460717963246e+00,0.000000000000000e+00
	-4.485200138391371e-01,6.810763542169720e-11
	1.000000000000000e+00,0.000000000000000e+00
	0.000000000000000e+00,0.000000000000000e+00
	4.485200138391371e-05,-6.810763542169721e-15
	3.222629963353042e-25,3.090682529881172e-14
	4.485200120920955e-13,-1.484853317517424e-15
	-4.485200183243372e-05,-2.261120843912458e-14
	-4.485200138391372e-05,6.810763542169721e-15
	-3.222629963353042e-25,-3.090682529881172e-14
	-4.485200138391372e-05,6.810763542169721e-15
29		1.949844599758044e+00,0.000000000000000e+00
	-4.485200138391371e-01,6.969406604783520e-11
	1.000000000000000e+00,0.000000000000000e+00
	0.000000000000000e+00,0.000000000000000e+00
	4.485200138391371e-05,-6.969406604783520e-15
	3.374507834431194e-25,3.162673774191956e-14
	4.485200120920955e-13,-1.519439994380410e-15
	-4.485200183243372e-05,-2.313789114275563e-14
	-4.485200138391372e-05,6.969406604783520e-15
	-3.374507834431194e-25,-3.162673774191956e-14
	-4.485200138391372e-05,6.969406604783520e-15
30		1.995262314968878e+00,0.000000000000000e+00
	-4.485200138391371e-01,7.131744939030180e-11
	1.000000000000000e+00,0.000000000000000e+00
	0.000000000000000e+00,0.000000000000000e+00
	4.485200138391371e-05,-7.131744939030181e-15
	3.533543489054321e-25,3.236341910000753e-14
	4.485200120920955e-13,-1.554832298440583e-15
	-4.485200183243372e-05,-2.367684186253677e-14
	-4.485200138391372e-05,7.131744939030181e-15
	-3.533543489054321e-25,-3.236341910000753e-14
	-4.485200138391372e-05,7.131744939030181e-15
31		2.041737944669527e+00,0.000000000000000e+00
	-4.485200138391371e-01,7.297864618843316e-11
	1.000000000000000e+00,0.000000000000000e+00
	0.000000000000000e+00,0.000000000000000e+00
	4.485200138391371e-05,-7.297864618843316e-15
	3.700074263168160e-25,3.311725997128281e-14
	4.485200120920955e-13,-1.591048995166027e-15
	-4.485200183243372e-05,-2.422834635727347e-14
	-4.485200138391372e-05,7.297864618843316e-15
	-3.700074263168160e-25,-3.311725997128281e-14
	-4.485200138391372e-05,7.297864618843316e-15
32		2.089296130854037e+00,0.000000000000000e+00
	-4.485200138391371e-01,7.467853723076023e-11
	1.000000000000000e+00,0.000000000000000e+00
	0.000000000000000e+00,0.000000000000000e+00
	4.485200138391371e-05,-7.467853723076023e-15
	3.874453390871778e-25,3.388866005215362e-14
	4.485200120920955e-13,-1.628109287128724e-15
	-4.485200183243372e-05,-2.479269704194888e-14
	-4.485200138391372e-05,7.467853723076023e-15
	-3.874453390871778e-25,-3.388866005215362e-14
	-4.485200138391372e-05,7.467853723076023e-15
33		2.137962089502230e+00,0.000000000000000e+00
	-4.485200138391371e-01,7.641802382201434e-11
	1.000000000000000e+00,0.000000000000000e+00
	0.000000000000000e+00,0.000000000000000e+00
	4.485200138391371e-05,-7.641802382201433e-15
	4.057050753674448e-25,3.467802834915354e-14
	4.485200120920955e-13,-1.666032824186042e-15
	-4.485200183243372e-05,-2.537019314276607e-14
	-4.485200138391372e-05,7.641802382201433e-15
	-4.057050753674448e-25,-3.467802834915354e-14
	-4.485200138391372e-05,7.641802382201433e-15
34		2.187761623949550e+00,0.000000000000000e+00
	-4.485200138391371e-01,7.819802826101099e-11
	1.000000000000000e+00,0.000000000000000e+00
	0.000000000000000e+00,0.000000000000000e+00
	4.485200138391371e-05,-7.819802826101098e-15
	4.248253665063932e-25,3.548578339580215e-14
	4.485200120920955e-13,-1.704839713899293e-15
	-4.485200183243372e-05,-2.596114085580176e-14
	-4.485200138391372e-05,7.819802826101098e-15
	-4.248253665063932e-25,-3.548578339580215e-14
	-4.485200138391372e-05,7.819802826101098e-15
35		2.238721138568337e+00,0.000000000000000e+00
	-4.485200138391371e-01,8.001949432966491e-11
	1.000000000000000e+00,0.000000000000000e+00
	0.000000000000000e+00,0.000000000000000e+00
	4.485200138391371e-05,-8.001949432966491e-15
	4.448467692050308e-25,3.631235347451707e-14
	4.485200120920955e-13,-1.744550532195066e-15
	-4.485200183243372e-05,-2.656585350935552e-14
	-4.485200138391372e-05,8.001949432966492e-15
	-4.448467692050308e-25,-3.631235347451707e-14
	-4.485200138391372e-05,8.001949432966492e-15
36		2.290867652767770e+00,0.000000000000000e+00
	-4.485200138391371e-01,8.188338779339564e-11
	1.000000000000000e+00,0.000000000000000e+00
	0.000000000000000e+00,0.000000000000000e+00
	4.485200138391371e-05,-8.188338779339564e-15
	4.658117515427974e-25,3.715817684369501e-14
	4.485200120920955e-13,-1.785186334274872e-15
	-4.485200183243372e-05,-2.718465173008058e-14
	-4.485200138391372e-05,8.188338779339564e-15
	-4.658117515427974e-25,-3.715817684369501e-14
	-4.485200138391372e-05,8.188338779339564e-15
37		2.344228815319919e+00,0.000000000000000e+00
	-4.485200138391371e-01,8.379069691318919e-11
	1.000000000000000e+00,0.000000000000000e+00
	0.000000000000000e+00,0.000000000000000e+00
	4.485200138391371e-05,-8.379069691318919e-15
	4.877647830580558e-25,3.802370197008210e-14
	4.485200120920955e-13,-1.826768665778852e-15
	-4.485200183243372e-05,-2.781786361298433e-14
	-4.485200138391372e-05,8.379069691318919e-15
	-4.877647830580558e-25,-3.802370197008210e-14
	-4.485200138391372e-05,8.379069691318919e-15
38		2.398832919019488e+00,0.000000000000000e+00
	-4.485200138391371e-01,8.574243296958714e-11
	1.000000000000000e+00,0.000000000000000e+00
