Title: * GA CMOS Amp | W=1.1420206246436202e-05 L=7.487064317245384e-07 Vbias=1.026809466867019
Date: Sat Sep  6 22:07:40 2025
Plotname: AC Analysis
Flags: complex forward log
No. Variables: 13
No. Points:          901
Offset:    0.0000000000000000e+00
Command: Linear Technology Corporation LTspice
Variables:
	0	frequency	frequency
	1	V(out)	voltage
	2	V(g)	voltage
	3	V(vdd)	voltage
	4	V(m1#dbody)	voltage
	5	V(m1#sbody)	voltage
	6	Id(M1)	device_current
	7	Ig(M1)	device_current
	8	Ib(M1)	device_current
	9	Is(M1)	device_current
	10	I(Rload)	device_current
	11	I(Vg)	device_current
	12	I(Vdd)	device_current
Values:
0		1.000000000000000e+00,0.000000000000000e+00
	-1.939425981099688e-02,8.391906904874706e-10
	1.000000000000000e+00,0.000000000000000e+00
	0.000000000000000e+00,0.000000000000000e+00
	4.474389036103072e-06,5.011955743017690e-14
	4.474389182037224e-06,5.514102825431298e-14
	1.939425981099684e-06,-8.391906904874688e-14
	6.213607311492665e-06,2.210712811765769e-12
	-2.386340889161407e-06,-2.907455424892597e-14
	-5.766692403430942e-06,-2.097719188468096e-12
	-1.939425981099688e-06,8.391906904874707e-14
	-6.213607311456038e-06,-2.210712811765769e-12
	-1.939425981099688e-06,8.391906904874707e-14
1		1.023292992280754e+00,0.000000000000000e+00
	-1.939425981099688e-02,8.587379527630761e-10
	1.000000000000000e+00,0.000000000000000e+00
	0.000000000000000e+00,0.000000000000000e+00
	4.474389036103072e-06,5.128699189451283e-14
	4.474389182037224e-06,5.642542779979353e-14
	1.939425981099684e-06,-8.587379527630745e-14
	6.213607311492665e-06,2.262206928225194e-12
	-2.386340889161407e-06,-2.975178761661257e-14
	-5.766692403430942e-06,-2.146581345332273e-12
	-1.939425981099688e-06,8.587379527630762e-14
	-6.213607311456038e-06,-2.262206928225194e-12
	-1.939425981099688e-06,8.587379527630762e-14
2		1.047128548050899e+00,0.000000000000000e+00
	-1.939425981099688e-02,8.787405292679768e-10
	1.000000000000000e+00,0.000000000000000e+00
	0.000000000000000e+00,0.000000000000000e+00
	4.474389036103072e-06,5.248161940081479e-14
	4.474389182037224e-06,5.773974485397236e-14
	1.939425981099684e-06,-8.787405292679788e-14
	6.213607311492665e-06,2.314900496741811e-12
	-2.386340889161407e-06,-3.044479577590496e-14
	-5.766692403430942e-06,-2.196581648039108e-12
	-1.939425981099688e-06,8.787405292679769e-14
	-6.213607311456038e-06,-2.314900496741811e-12
	-1.939425981099688e-06,8.787405292679769e-14
3		1.071519305237606e+00,0.000000000000000e+00
	-1.939425981099688e-02,8.992090256330016e-10
	1.000000000000000e+00,0.000000000000000e+00
	0.000000000000000e+00,0.000000000000000e+00
	4.474389036103071e-06,5.370407335639945e-14
	4.474389182037223e-06,5.908467628514863e-14
	1.939425981099684e-06,-8.992090256330024e-14
	6.213607311492664e-06,2.368821456143132e-12
	-2.386340889161406e-06,-3.115394616890224e-14
	-5.766692403430942e-06,-2.247746607410929e-12
	-1.939425981099688e-06,8.992090256330016e-14
	-6.213607311456038e-06,-2.368821456143131e-12
	-1.939425981099688e-06,8.992090256330016e-14
4		1.096478196143185e+00,0.000000000000000e+00
	-1.939425981099688e-02,9.201542945258553e-10
	1.000000000000000e+00,0.000000000000000e+00
	0.000000000000000e+00,0.000000000000000e+00
	4.474389036103071e-06,5.495500192253511e-14
	4.474389182037223e-06,6.046093519376946e-14
	1.939425981099684e-06,-9.201542945258564e-14
	6.213607311492664e-06,2.423998396035558e-12
	-2.386340889161406e-06,-3.187961479652951e-14
	-5.766692403430942e-06,-2.300103351786443e-12
	-1.939425981099688e-06,9.201542945258554e-14
	-6.213607311456038e-06,-2.423998396035558e-12
	-1.939425981099688e-06,9.201542945258554e-14
5		1.122018454301963e+00,0.000000000000000e+00
	-1.939425981099688e-02,9.415874414053489e-10
	1.000000000000000e+00,0.000000000000000e+00
	0.000000000000000e+00,0.000000000000000e+00
	4.474389036103071e-06,5.623506835810555e-14
	4.474389182037223e-06,6.186925129052511e-14
	1.939425981099684e-06,-9.415874414053503e-14
	6.213607311492664e-06,2.480460571962975e-12
	-2.386340889161406e-06,-3.262218641789849e-14
	-5.766692403430942e-06,-2.353679641404542e-12
	-1.939425981099688e-06,9.415874414053489e-14
	-6.213607311456038e-06,-2.480460571962975e-12
	-1.939425981099688e-06,9.415874414053489e-14
6		1.148153621496882e+00,0.000000000000000e+00
	-1.939425981099688e-02,9.635198304096586e-10
	1.000000000000000e+00,0.000000000000000e+00
	0.000000000000000e+00,0.000000000000000e+00
	4.474389036103071e-06,5.754495137127860e-14
	4.474389182037223e-06,6.331037128325136e-14
	1.939425981099684e-06,-9.635198304096600e-14
	6.213607311492664e-06,2.538237920918424e-12
	-2.386340889161406e-06,-3.338205475431193e-14
	-5.766692403430942e-06,-2.408503883123146e-12
	-1.939425981099688e-06,9.635198304096587e-14
	-6.213607311456038e-06,-2.538237920918423e-12
	-1.939425981099688e-06,9.635198304096587e-14
7		1.174897554939529e+00,0.000000000000000e+00
	-1.939425981099688e-02,9.859630903817442e-10
	1.000000000000000e+00,0.000000000000000e+00
	0.000000000000000e+00,0.000000000000000e+00
	4.474389036103071e-06,5.888534547936615e-14
	4.474389182037223e-06,6.478505927284380e-14
	1.939425981099684e-06,-9.859630903817471e-14
	6.213607311492664e-06,2.597361077217093e-12
	-2.386340889161406e-06,-3.415962269801982e-14
	-5.766692403430942e-06,-2.464605145480899e-12
	-1.939425981099688e-06,9.859630903817442e-14
	-6.213607311456038e-06,-2.597361077217093e-12
	-1.939425981099688e-06,9.859630903817442e-14
8		1.202264434617413e+00,0.000000000000000e+00
	-1.939425981099688e-02,1.008929121035115e-09
	1.000000000000000e+00,0.000000000000000e+00
	0.000000000000000e+00,0.000000000000000e+00
	4.474389036103071e-06,6.025696137706659e-14
	4.474389182037223e-06,6.629409715839436e-14
	1.939425981099684e-06,-1.008929121035115e-13
	6.213607311492664e-06,2.657861388739043e-12
	-2.386340889161406e-06,-3.495530252583828e-14
	-5.766692403430942e-06,-2.522013174109693e-12
	-1.939425981099688e-06,1.008929121035115e-13
	-6.213607311456038e-06,-2.657861388739043e-12
	-1.939425981099688e-06,1.008929121035115e-13
9		1.230268770812381e+00,0.000000000000000e+00
	-1.939425981099688e-02,1.032430099263214e-09
	1.000000000000000e+00,0.000000000000000e+00
	0.000000000000000e+00,0.000000000000000e+00
	4.474389036103071e-06,6.166052631328429e-14
	4.474389182037223e-06,6.783828505176441e-14
	1.939425981099684e-06,-1.032430099263214e-13
	6.213607311492664e-06,2.719770933550256e-12
	-2.386340889161406e-06,-3.576951611774405e-14
	-5.766692403430942e-06,-2.580758407506191e-12
	-1.939425981099688e-06,1.032430099263214e-13
	-6.213607311456038e-06,-2.719770933550255e-12
	-1.939425981099688e-06,1.032430099263214e-13
10		1.258925411794167e+00,0.000000000000000e+00
	-1.939425981099688e-02,1.056478485595770e-09
	1.000000000000000e+00,0.000000000000000e+00
	0.000000000000000e+00,0.000000000000000e+00
	4.474389036103071e-06,6.309678447672686e-14
	4.474389182037223e-06,6.941844170181474e-14
	1.939425981099684e-06,-1.056478485595771e-13
	6.213607311492664e-06,2.783122536910862e-12
	-2.386340889161406e-06,-3.660269518056098e-14
	-5.766692403430942e-06,-2.640871993170724e-12
	-1.939425981099688e-06,1.056478485595770e-13
	-6.213607311456038e-06,-2.783122536910861e-12
	-1.939425981099688e-06,1.056478485595770e-13
11		1.288249551693134e+00,0.000000000000000e+00
	-1.939425981099688e-02,1.081087030805535e-09
	1.000000000000000e+00,0.000000000000000e+00
	0.000000000000000e+00,0.000000000000000e+00
	4.474389036103071e-06,6.456649739048368e-14
	4.474389182037223e-06,7.103540492851712e-14
	1.939425981099684e-06,-1.081087030805536e-13
	6.213607311492664e-06,2.847949788679519e-12
	-2.386340889161406e-06,-3.745528147685659e-14
	-5.766692403430942e-06,-2.702385804122109e-12
	-1.939425981099688e-06,1.081087030805535e-13
	-6.213607311456038e-06,-2.847949788679519e-12
	-1.939425981099688e-06,1.081087030805535e-13
12		1.318256738556407e+00,0.000000000000000e+00
	-1.939425981099688e-02,1.106268782668912e-09
	1.000000000000000e+00,0.000000000000000e+00
	0.000000000000000e+00,0.000000000000000e+00
	4.474389036103071e-06,6.607044431579556e-14
	4.474389182037223e-06,7.269003206717732e-14
	1.939425981099684e-06,-1.106268782668914e-13
	6.213607311492664e-06,2.914287061123206e-12
	-2.386340889161406e-06,-3.832772705917048e-14
	-5.766692403430942e-06,-2.765332455797144e-12
	-1.939425981099688e-06,1.106268782668912e-13
	-6.213607311456038e-06,-2.914287061123206e-12
	-1.939425981099688e-06,1.106268782668912e-13
13		1.348962882591653e+00,0.000000000000000e+00
	-1.939425981099688e-02,1.132037092884058e-09
	1.000000000000000e+00,0.000000000000000e+00
	0.000000000000000e+00,0.000000000000000e+00
	4.474389036103071e-06,6.760942266522938e-14
	4.474389182037223e-06,7.438320042300586e-14
	1.939425981099681e-06,-1.132037092884059e-13
	6.213607311492667e-06,2.982169527141851e-12
	-2.386340889161406e-06,-3.922049450969860e-14
	-5.766692403430942e-06,-2.829745323343747e-12
	-1.939425981099688e-06,1.132037092884059e-13
	-6.213607311456038e-06,-2.982169527141851e-12
	-1.939425981099688e-06,1.132037092884059e-13
14		1.380384264602885e+00,0.000000000000000e+00
	-1.939425981099688e-02,1.158405624150134e-09
	1.000000000000000e+00,0.000000000000000e+00
	0.000000000000000e+00,0.000000000000000e+00
	4.474389036103070e-06,6.918424842547678e-14
	4.474389182037222e-06,7.611580773627667e-14
	1.939425981099681e-06,-1.158405624150138e-13
	6.213607311492667e-06,3.051633178917467e-12
	-2.386340889161405e-06,-4.013405718556035e-14
	-5.766692403430942e-06,-2.895658559316892e-12
	-1.939425981099688e-06,1.158405624150134e-13
	-6.213607311456038e-06,-3.051633178917466e-12
	-1.939425981099688e-06,1.158405624150134e-13
15		1.412537544622754e+00,0.000000000000000e+00
	-1.939425981099688e-02,1.185388357411445e-09
	1.000000000000000e+00,0.000000000000000e+00
	0.000000000000000e+00,0.000000000000000e+00
	4.474389036103069e-06,7.079575659000119e-14
	4.474389182037222e-06,7.788877265832115e-14
	1.939425981099681e-06,-1.185388357411446e-13
	6.213607311492667e-06,3.122714846997684e-12
	-2.386340889161405e-06,-4.106889946977895e-14
	-5.766692403430942e-06,-2.963107111786761e-12
	-1.939425981099688e-06,1.185388357411445e-13
	-6.213607311456038e-06,-3.122714846997683e-12
	-1.939425981099688e-06,1.185388357411445e-13
16		1.445439770745927e+00,0.000000000000000e+00
	-1.939425981099688e-02,1.212999599270325e-09
	1.000000000000000e+00,0.000000000000000e+00
	0.000000000000000e+00,0.000000000000000e+00
	4.474389036103069e-06,7.244480160176223e-14
	4.474389182037222e-06,7.970303523860882e-14
	1.939425981099681e-06,-1.212999599270330e-13
	6.213607311492667e-06,3.195452219823797e-12
	-2.386340889161405e-06,-4.202551702810757e-14
	-5.766692403430942e-06,-3.032126742868657e-12
	-1.939425981099688e-06,1.212999599270326e-13
	-6.213607311456038e-06,-3.195452219823797e-12
	-1.939425981099688e-06,1.212999599270326e-13
17		1.479108388168207e+00,0.000000000000000e+00
	-1.939425981099688e-02,1.241253989572687e-09
	1.000000000000000e+00,0.000000000000000e+00
	0.000000000000000e+00,0.000000000000000e+00
	4.474389036103069e-06,7.413225780625283e-14
	4.474389182037222e-06,8.155955742317440e-14
	1.939425981099681e-06,-1.241253989572685e-13
	6.213607311492667e-06,3.269883863713671e-12
	-2.386340889161405e-06,-4.300441707183798e-14
	-5.766692403430942e-06,-3.102754047684565e-12
	-1.939425981099688e-06,1.241253989572688e-13
	-6.213607311456038e-06,-3.269883863713671e-12
	-1.939425981099688e-06,1.241253989572688e-13
18		1.513561248436208e+00,0.000000000000000e+00
	-1.939425981099688e-02,1.270166509170259e-09
	1.000000000000000e+00,0.000000000000000e+00
	0.000000000000000e+00,0.000000000000000e+00
	4.474389036103069e-06,7.585901991508876e-14
	4.474389182037222e-06,8.345932356465415e-14
	1.939425981099681e-06,-1.270166509170259e-13
	6.213607311492667e-06,3.346049243310116e-12
	-2.386340889161405e-06,-4.400611862673064e-14
	-5.766692403430942e-06,-3.175026473766360e-12
	-1.939425981099688e-06,1.270166509170259e-13
	-6.213607311456038e-06,-3.346049243310116e-12
	-1.939425981099688e-06,1.270166509170259e-13
19		1.548816618912481e+00,0.000000000000000e+00
	-1.939425981099687e-02,1.299752487863634e-09
	1.000000000000000e+00,0.000000000000000e+00
	0.000000000000000e+00,0.000000000000000e+00
	4.474389036103069e-06,7.762600348039651e-14
	4.474389182037222e-06,8.540334094420261e-14
	1.939425981099684e-06,-1.299752487863634e-13
	6.213607311492667e-06,3.423988742505562e-12
	-2.386340889161405e-06,-4.503115280820904e-14
	-5.766692403430946e-06,-3.248982340910989e-12
	-1.939425981099687e-06,1.299752487863634e-13
	-6.213607311456038e-06,-3.423988742505561e-12
	-1.939425981099687e-06,1.299752487863634e-13
20		1.584893192461113e+00,0.000000000000000e+00
	-1.939425981099687e-02,1.330027612530333e-09
	1.000000000000000e+00,0.000000000000000e+00
	0.000000000000000e+00,0.000000000000000e+00
	4.474389036103069e-06,7.943414538025116e-14
	4.474389182037222e-06,8.739264030556651e-14
	1.939425981099684e-06,-1.330027612530332e-13
	6.213607311492667e-06,3.503743685854133e-12
	-2.386340889161405e-06,-4.608006310296409e-14
	-5.766692403430946e-06,-3.324660861498135e-12
	-1.939425981099687e-06,1.330027612530333e-13
	-6.213607311456038e-06,-3.503743685854132e-12
	-1.939425981099687e-06,1.330027612530333e-13
21		1.621810097358929e+00,0.000000000000000e+00
	-1.939425981099687e-02,1.361007935442192e-09
	1.000000000000000e+00,0.000000000000000e+00
	0.000000000000000e+00,0.000000000000000e+00
	4.474389036103068e-06,8.128440431542166e-14
	4.474389182037221e-06,8.942827640159881e-14
	1.939425981099684e-06,-1.361007935442193e-13
	6.213607311492667e-06,3.585356360482474e-12
	-2.386340889161405e-06,-4.715340565711811e-14
	-5.766692403430946e-06,-3.402102161281137e-12
	-1.939425981099687e-06,1.361007935442192e-13
	-6.213607311456038e-06,-3.585356360482474e-12
	-1.939425981099687e-06,1.361007935442192e-13
22		1.659586907437560e+00,0.000000000000000e+00
	-1.939425981099687e-02,1.392709882776492e-09
	1.000000000000000e+00,0.000000000000000e+00
	0.000000000000000e+00,0.000000000000000e+00
	4.474389036103068e-06,8.317776131768648e-14
	4.474389182037221e-06,9.151132855350239e-14
	1.939425981099684e-06,-1.392709882776494e-13
	6.213607311492667e-06,3.668870038510945e-12
	-2.386340889161405e-06,-4.825174957110063e-14
	-5.766692403430946e-06,-3.481347300662195e-12
	-1.939425981099687e-06,1.392709882776492e-13
	-6.213607311456038e-06,-3.668870038510944e-12
	-1.939425981099687e-06,1.392709882776492e-13
23		1.698243652461743e+00,0.000000000000000e+00
	-1.939425981099687e-02,1.425150263325335e-09
	1.000000000000000e+00,0.000000000000000e+00
	0.000000000000000e+00,0.000000000000000e+00
	4.474389036103068e-06,8.511522026998977e-14
	4.474389182037221e-06,9.364290122310070e-14
	1.939425981099684e-06,-1.425150263325337e-13
	6.213607311492667e-06,3.754328999997071e-12
	-2.386340889161405e-06,-4.937567720139317e-14
	-5.766692403430946e-06,-3.562438296463144e-12
	-1.939425981099687e-06,1.425150263325335e-13
	-6.213607311456038e-06,-3.754328999997070e-12
	-1.939425981099687e-06,1.425150263325335e-13
24		1.737800828749374e+00,0.000000000000000e+00
	-1.939425981099687e-02,1.458346277407886e-09
	1.000000000000000e+00,0.000000000000000e+00
	0.000000000000000e+00,0.000000000000000e+00
	4.474389036103068e-06,8.709780843871330e-14
	4.474389182037221e-06,9.582412459843776e-14
	1.939425981099684e-06,-1.458346277407889e-13
	6.213607311492667e-06,3.841778556413413e-12
	-2.386340889161405e-06,-5.052578446930220e-14
	-5.766692403430946e-06,-3.645418144203322e-12
	-1.939425981099687e-06,1.458346277407886e-13
	-6.213607311456038e-06,-3.841778556413413e-12
	-1.939425981099687e-06,1.458346277407886e-13
25		1.778279410038922e+00,0.000000000000000e+00
	-1.939425981099687e-02,1.492315525990214e-09
	1.000000000000000e+00,0.000000000000000e+00
	0.000000000000000e+00,0.000000000000000e+00
	4.474389036103068e-06,8.912657701834686e-14
	4.474389182037221e-06,9.805615519301921e-14
	1.939425981099684e-06,-1.492315525990219e-13
	6.213607311492667e-06,3.931265074672319e-12
	-2.386340889161405e-06,-5.170268117692471e-14
	-5.766692403430946e-06,-3.730330840896372e-12
	-1.939425981099687e-06,1.492315525990214e-13
	-6.213607311456038e-06,-3.931265074672317e-12
	-1.939425981099687e-06,1.492315525990214e-13
26		1.819700858609982e+00,0.000000000000000e+00
	-1.939425981099687e-02,1.527076020017554e-09
	1.000000000000000e+00,0.000000000000000e+00
	0.000000000000000e+00,0.000000000000000e+00
	4.474389036103067e-06,9.120260168884524e-14
	4.474389182037220e-06,1.003401764590106e-13
	1.939425981099684e-06,-1.527076020017554e-13
	6.213607311492666e-06,4.022836001710258e-12
	-2.386340889161405e-06,-5.290699133047311e-14
	-5.766692403430946e-06,-3.817221408378030e-12
	-1.939425981099687e-06,1.527076020017554e-13
	-6.213607311456038e-06,-4.022836001710257e-12
	-1.939425981099687e-06,1.527076020017554e-13
27		1.862087136662866e+00,0.000000000000000e+00
	-1.939425981099687e-02,1.562646189963947e-09
	1.000000000000000e+00,0.000000000000000e+00
	0.000000000000000e+00,0.000000000000000e+00
	4.474389036103067e-06,9.332698318596820e-14
	4.474389182037220e-06,1.026773994147198e-13
	1.939425981099684e-06,-1.562646189963956e-13
	6.213607311492666e-06,4.116539889644836e-12
	-2.386340889161405e-06,-5.413935347113173e-14
	-5.766692403430946e-06,-3.906135917177308e-12
	-1.939425981099687e-06,1.562646189963947e-13
	-6.213607311456038e-06,-4.116539889644835e-12
	-1.939425981099687e-06,1.562646189963947e-13
28		1.905460717963246e+00,0.000000000000000e+00
	-1.939425981099687e-02,1.599044895604328e-09
	1.000000000000000e+00,0.000000000000000e+00
	0.000000000000000e+00,0.000000000000000e+00
	4.474389036103067e-06,9.550084788490504e-14
	4.474389182037220e-06,1.050690632866948e-13
	1.939425981099684e-06,-1.599044895604325e-13
	6.213607311492666e-06,4.212426421517748e-12
	-2.386340889161405e-06,-5.540042101361983e-14
	-5.766692403430946e-06,-3.997121510943696e-12
	-1.939425981099687e-06,1.599044895604328e-13
	-6.213607311456038e-06,-4.212426421517747e-12
	-1.939425981099687e-06,1.599044895604328e-13
29		1.949844599758044e+00,0.000000000000000e+00
	-1.939425981099687e-02,1.636291436014219e-09
	1.000000000000000e+00,0.000000000000000e+00
	0.000000000000000e+00,0.000000000000000e+00
	4.474389036103067e-06,9.772534839749359e-14
	4.474389182037220e-06,1.075164361667779e-13
	1.939425981099684e-06,-1.636291436014216e-13
	6.213607311492666e-06,4.310546437637406e-12
	-2.386340889161405e-06,-5.669086259264060e-14
	-5.766692403430946e-06,-4.090226431443343e-12
	-1.939425981099687e-06,1.636291436014219e-13
	-6.213607311456038e-06,-4.310546437637405e-12
	-1.939425981099687e-06,1.636291436014219e-13
30		1.995262314968878e+00,0.000000000000000e+00
	-1.939425981099687e-02,1.674405559802361e-09
	1.000000000000000e+00,0.000000000000000e+00
	0.000000000000000e+00,0.000000000000000e+00
	4.474389036103067e-06,1.000016641833504e-13
	4.474389182037220e-06,1.100208156844648e-13
	1.939425981099684e-06,-1.674405559802366e-13
	6.213607311492666e-06,4.410951962535125e-12
	-2.386340889161405e-06,-5.801136241740026e-14
	-5.766692403430946e-06,-4.185500044137488e-12
	-1.939425981099687e-06,1.674405559802361e-13
	-6.213607311456038e-06,-4.410951962535126e-12
	-1.939425981099687e-06,1.674405559802361e-13
31		2.041737944669527e+00,0.000000000000000e+00
	-1.939425981099687e-02,1.713407475581689e-09
	1.000000000000000e+00,0.000000000000000e+00
	0.000000000000000e+00,0.000000000000000e+00
	4.474389036103066e-06,1.023310021752357e-13
	4.474389182037219e-06,1.125835296949253e-13
	1.939425981099684e-06,-1.713407475581693e-13
	6.213607311492665e-06,4.513696232549232e-12
	-2.386340889161404e-06,-5.936262063438479e-14
	-5.766692403430946e-06,-4.282992864356679e-12
	-1.939425981099687e-06,1.713407475581689e-13
	-6.213607311456038e-06,-4.513696232549233e-12
	-1.939425981099687e-06,1.713407475581689e-13
32		2.089296130854037e+00,0.000000000000000e+00
	-1.939425981099687e-02,1.753317862684201e-09
	1.000000000000000e+00,0.000000000000000e+00
	0.000000000000000e+00,0.000000000000000e+00
	4.474389036103066e-06,1.047145974189853e-13
