LTspice 24.0.9 for Windows
Circuit: * GA CMOS Amp | W=2.0738676185345585e-06 L=9.515564461079708e-07 Vbias=1.4919589985744137
Start Time: Sat Sep  6 22:14:52 2025
solver = Normal
Maximum thread count: 2
tnom = 27
temp = 27
method = modified trap
AsciiRawFile = 1
Direct Newton iteration for .op point succeeded.
Semiconductor Device Operating Points:
                        --- BSIM4 MOSFETS ---
Name:      m1
Model:      n
Id:      9.12e-05
Vgs:     1.49e+00
Vds:     8.88e-01
Vbs:     0.00e+00
Vth:     2.36e-01
Vdsat:   8.65e-01
Gm:      4.11e-05
Gds:     1.29e-05
Gmb      4.94e-05
Cbd:     8.41e-16
Cbs:     1.66e-15


.measure op idd find i(vdd)
  Error: FIND can not be evaluated over an interval.

gain_db: MAX(db(v(out)/v(g)))=(29.183dB,108.557°) FROM 1 TO 1e+09
gain_lin: MAX(mag(v(out)/v(g)))=(2.40208dB,0°) FROM 1 TO 1e+09
fc: mag(v(out)/v(g))=1 AT 7.3032e+08

Total elapsed time: 0.579 seconds.

