LTspice 24.0.9 for Windows
Circuit: * GA CMOS Amp | W=4.860222724536654e-06 L=8.882378157716385e-07 Vbias=1.2726752829859973
Start Time: Sat Sep  6 22:09:28 2025
solver = Normal
Maximum thread count: 2
tnom = 27
temp = 27
method = modified trap
AsciiRawFile = 1
Direct Newton iteration for .op point succeeded.
Semiconductor Device Operating Points:
                        --- BSIM4 MOSFETS ---
Name:      m1
Model:      n
Id:      1.45e-04
Vgs:     1.27e+00
Vds:     3.54e-01
Vbs:     0.00e+00
Vth:     2.37e-01
Vdsat:   7.24e-01
Gm:      2.22e-05
Gds:     2.77e-04
Gmb      8.38e-05
Cbd:     2.20e-15
Cbs:     3.89e-15


.measure op idd find i(vdd)
  Error: FIND can not be evaluated over an interval.

gain_db: MAX(db(v(out)/v(g)))=(31.4521dB,133.109°) FROM 1 TO 1e+09
gain_lin: MAX(mag(v(out)/v(g)))=(-1.06234dB,0°) FROM 1 TO 1e+09

Measurement "fc" FAIL'ed

Total elapsed time: 3.086 seconds.

