LTspice 24.0.9 for Windows
Circuit: * GA CMOS Amp | W=1.467586564567461e-05 L=7.012834405768384e-07 Vbias=1.0032976472966348
Start Time: Mon Sep  8 18:44:07 2025
solver = Normal
Maximum thread count: 2
tnom = 27
temp = 27
method = modified trap
AsciiRawFile = 1
Instance "m1": Length shorter than recommended for a level 3 MOSFET.
Direct Newton iteration for .op point succeeded.
Semiconductor Device Operating Points:
                        --- MOSFET Transistors ---
Name:          m1
Model:        n_1u
Id:          9.67e-05
Vgs:         1.00e+00
Vds:         8.33e-01
Vbs:         0.00e+00
Vth:         7.82e-01
Vdsat:       2.07e-01
Gm:          5.98e-04
Gds:         3.31e-05
Gmb:         1.24e-04
Cbd:         0.00e+00
Cbs:         0.00e+00
Cgsov:       2.94e-15
Cgdov:       2.94e-15
Cgbov:       5.01e-17
Cgs:         8.47e-15
Cgd:         0.00e+00
Cgb:         0.00e+00



gain_db: MAX(db(v(out)/v(g)))=(29.6143dB,64.4346°) FROM 1 TO 1e+09
gain_lin: MAX(mag(v(out)/v(g)))=(13.0537dB,0°) FROM 1 TO 1e+09

Measurement "fc" FAIL'ed

Total elapsed time: 0.445 seconds.

