Title: * GA CMOS Amp | W=5e-05 L=1e-07 Vbias=1.1226788382841897
Date: Sat Sep  6 22:03:53 2025
Plotname: AC Analysis
Flags: complex forward log
No. Variables: 13
No. Points:          901
Offset:    0.0000000000000000e+00
Command: Linear Technology Corporation LTspice
Variables:
	0	frequency	frequency
	1	V(out)	voltage
	2	V(g)	voltage
	3	V(vdd)	voltage
	4	V(m1#dbody)	voltage
	5	V(m1#sbody)	voltage
	6	Id(M1)	device_current
	7	Ig(M1)	device_current
	8	Ib(M1)	device_current
	9	Is(M1)	device_current
	10	I(Rload)	device_current
	11	I(Vg)	device_current
	12	I(Vdd)	device_current
Values:
0		1.000000000000000e+00,0.000000000000000e+00
	-8.958038406502757e-04,1.930222126141908e-11
	1.000000000000000e+00,0.000000000000000e+00
	0.000000000000000e+00,0.000000000000000e+00
	1.591519979138469e-06,4.530836406974164e-15
	1.591519988050875e-06,5.583529829776844e-15
	8.958038406501820e-08,-1.930222126141909e-15
	3.581205916704949e-06,1.575762616547875e-12
	-8.488106603420373e-07,-2.908902994349640e-15
	-2.821975640427929e-06,-1.570923491427383e-12
	-8.958038406502757e-08,1.930222126141909e-15
	-3.581205916706326e-06,-1.575762616547875e-12
	-8.958038406502757e-08,1.930222126141909e-15
1		1.023292992280754e+00,0.000000000000000e+00
	-8.958038406502757e-04,1.975182775226273e-11
	1.000000000000000e+00,0.000000000000000e+00
	0.000000000000000e+00,0.000000000000000e+00
	1.591519979138469e-06,4.636373144427172e-15
	1.591519988050875e-06,5.713586947001195e-15
	8.958038406501820e-08,-1.975182775226238e-15
	3.581205916704949e-06,1.612466843011425e-12
	-8.488106603420373e-07,-2.976660049342488e-15
	-2.821975640427929e-06,-1.607515000186856e-12
	-8.958038406502757e-08,1.975182775226273e-15
	-3.581205916706326e-06,-1.612466843011426e-12
	-8.958038406502757e-08,1.975182775226273e-15
2		1.047128548050899e+00,0.000000000000000e+00
	-8.958038406502757e-04,2.021190692362696e-11
	1.000000000000000e+00,0.000000000000000e+00
	0.000000000000000e+00,0.000000000000000e+00
	1.591519979138469e-06,4.744368148291008e-15
	1.591519988050875e-06,5.846673483653110e-15
	8.958038406501820e-08,-2.021190692362619e-15
	3.581205916704949e-06,1.650026020738662e-12
	-8.488106603420373e-07,-3.045995368894251e-15
	-2.821975640427929e-06,-1.644958834677405e-12
	-8.958038406502757e-08,2.021190692362696e-15
	-3.581205916706326e-06,-1.650026020738662e-12
	-8.958038406502757e-08,2.021190692362696e-15
3		1.071519305237606e+00,0.000000000000000e+00
	-8.958038406502757e-04,2.068270271557833e-11
	1.000000000000000e+00,0.000000000000000e+00
	0.000000000000000e+00,0.000000000000000e+00
	1.591519979138469e-06,4.854878678946208e-15
	1.591519988050875e-06,5.982860003975933e-15
	8.958038406501820e-08,-2.068270271557661e-15
	3.581205916704949e-06,1.688460064102771e-12
	-8.488106603420373e-07,-3.116945715509118e-15
	-2.821975640427929e-06,-1.683274848115704e-12
	-8.958038406502757e-08,2.068270271557833e-15
	-3.581205916706326e-06,-1.688460064102771e-12
	-8.958038406502757e-08,2.068270271557833e-15
4		1.096478196143185e+00,0.000000000000000e+00
	-8.958038406502757e-04,2.116446475027742e-11
	1.000000000000000e+00,0.000000000000000e+00
	0.000000000000000e+00,0.000000000000000e+00
	1.591519979138469e-06,4.967963330538897e-15
	1.591519988050875e-06,6.122218715865375e-15
	8.958038406501820e-08,-2.116446475027643e-15
	3.581205916704949e-06,1.727789351342278e-12
	-8.488106603420373e-07,-3.189548708000000e-15
	-2.821975640427929e-06,-1.722483356159251e-12
	-8.958038406502757e-08,2.116446475027742e-15
	-3.581205916706326e-06,-1.727789351342278e-12
	-8.958038406502757e-08,2.116446475027742e-15
5		1.122018454301963e+00,0.000000000000000e+00
	-8.958038406502757e-04,2.165744846433193e-11
	1.000000000000000e+00,0.000000000000000e+00
	0.000000000000000e+00,0.000000000000000e+00
	1.591519979138469e-06,5.083682062048210e-15
	1.591519988050875e-06,6.264823509155116e-15
	8.958038406501820e-08,-2.165744846433301e-15
	3.581205916704949e-06,1.768034735365864e-12
	-8.488106603420373e-07,-3.263842841434533e-15
	-2.821975640427929e-06,-1.762605147677996e-12
	-8.958038406502757e-08,2.165744846433193e-15
	-3.581205916706326e-06,-1.768034735365863e-12
	-8.958038406502757e-08,2.165744846433193e-15
6		1.148153621496882e+00,0.000000000000000e+00
	-8.958038406502757e-04,2.216191524423244e-11
	1.000000000000000e+00,0.000000000000000e+00
	0.000000000000000e+00,0.000000000000000e+00
	1.591519979138469e-06,5.202096229077309e-15
	1.591519988050875e-06,6.410749994794155e-15
	8.958038406501820e-08,-2.216191524423295e-15
	3.581205916704949e-06,1.809217554808846e-12
	-8.488106603420373e-07,-3.339867507545664e-15
	-2.821975640427929e-06,-1.803661495776877e-12
	-8.958038406502757e-08,2.216191524423244e-15
	-3.581205916706326e-06,-1.809217554808846e-12
	-8.958038406502757e-08,2.216191524423244e-15
7		1.174897554939529e+00,0.000000000000000e+00
	-8.958038406502757e-04,2.267813256494308e-11
	1.000000000000000e+00,0.000000000000000e+00
	0.000000000000000e+00,0.000000000000000e+00
	1.591519979138469e-06,5.323268616384944e-15
	1.591519988050875e-06,6.560075544936738e-15
	8.958038406501820e-08,-2.267813256493928e-15
	3.581205916704949e-06,1.851359645347213e-12
	-8.488106603420373e-07,-3.417663015617666e-15
	-2.821975640427929e-06,-1.845674169075101e-12
	-8.958038406502757e-08,2.267813256494308e-15
	-3.581205916706326e-06,-1.851359645347213e-12
	-8.958038406502757e-08,2.267813256494308e-15
8		1.202264434617413e+00,0.000000000000000e+00
	-8.958038406502757e-04,2.320637413172021e-11
	1.000000000000000e+00,0.000000000000000e+00
	0.000000000000000e+00,0.000000000000000e+00
	1.591519979138469e-06,5.447263471174781e-15
	1.591519988050875e-06,6.712879333966115e-15
	8.958038406501820e-08,-2.320637413171985e-15
	3.581205916704949e-06,1.894483351275185e-12
	-8.488106603420373e-07,-3.497270613858667e-15
	-2.821975640427929e-06,-1.888665443248154e-12
	-8.958038406502757e-08,2.320637413172021e-15
	-3.581205916706326e-06,-1.894483351275185e-12
	-8.958038406502757e-08,2.320637413172021e-15
9		1.230268770812381e+00,0.000000000000000e+00
	-8.958038406502757e-04,2.374692002523466e-11
	1.000000000000000e+00,0.000000000000000e+00
	0.000000000000000e+00,0.000000000000000e+00
	1.591519979138469e-06,5.574146537160090e-15
	1.591519988050875e-06,6.869242380473821e-15
	8.958038406501820e-08,-2.374692002523403e-15
	3.581205916704949e-06,1.938611537352455e-12
	-8.488106603420373e-07,-3.578732511270986e-15
	-2.821975640427929e-06,-1.932658112838661e-12
	-8.958038406502757e-08,2.374692002523466e-15
	-3.581205916706326e-06,-1.938611537352456e-12
	-8.958038406502757e-08,2.374692002523466e-15
10		1.258925411794167e+00,0.000000000000000e+00
	-8.958038406502757e-04,2.430005685007414e-11
	1.000000000000000e+00,0.000000000000000e+00
	0.000000000000000e+00,0.000000000000000e+00
	1.591519979138469e-06,5.703985089421951e-15
	1.591519988050875e-06,7.029247590216826e-15
	8.958038406501820e-08,-2.430005685007191e-15
	3.581205916704949e-06,1.983767600927387e-12
	-8.488106603420373e-07,-3.662091900030904e-15
	-2.821975640427929e-06,-1.977675503342348e-12
	-8.958038406502757e-08,2.430005685007414e-15
	-3.581205916706326e-06,-1.983767600927387e-12
	-8.958038406502757e-08,2.430005685007414e-15
11		1.288249551693134e+00,0.000000000000000e+00
	-8.958038406502757e-04,2.486607788670480e-11
	1.000000000000000e+00,0.000000000000000e+00
	0.000000000000000e+00,0.000000000000000e+00
	1.591519979138469e-06,5.836847970079392e-15
	1.591519988050875e-06,7.192979800075258e-15
	8.958038406501820e-08,-2.486607788671032e-15
	3.581205916704949e-06,2.029975484342600e-12
	-8.488106603420373e-07,-3.747392978389737e-15
	-2.821975640427929e-06,-2.023741483575539e-12
	-8.958038406502757e-08,2.486607788670481e-15
	-3.581205916706326e-06,-2.029975484342599e-12
	-8.958038406502757e-08,2.486607788670481e-15
12		1.318256738556407e+00,0.000000000000000e+00
	-8.958038406502757e-04,2.544528324697245e-11
	1.000000000000000e+00,0.000000000000000e+00
	0.000000000000000e+00,0.000000000000000e+00
	1.591519979138469e-06,5.972805624790388e-15
	1.591519988050875e-06,7.360525823034030e-15
	8.958038406501820e-08,-2.544528324696865e-15
	3.581205916704949e-06,2.077259687629511e-12
	-8.488106603420373e-07,-3.834680974108321e-15
	-2.821975640427929e-06,-2.070880478330706e-12
	-8.958038406502757e-08,2.544528324697246e-15
	-3.581205916706326e-06,-2.077259687629511e-12
	-8.958038406502757e-08,2.544528324697246e-15
13		1.348962882591653e+00,0.000000000000000e+00
	-8.958038406502757e-04,2.603798003322578e-11
	1.000000000000000e+00,0.000000000000000e+00
	0.000000000000000e+00,0.000000000000000e+00
	1.591519979138469e-06,6.111930140103076e-15
	1.591519988050875e-06,7.531974494212252e-15
	8.958038406501820e-08,-2.603798003322702e-15
	3.581205916704949e-06,2.125645281498587e-12
	-8.488106603420373e-07,-3.924002168437380e-15
	-2.821975640427929e-06,-2.119117481326827e-12
	-8.958038406502757e-08,2.603798003322578e-15
	-3.581205916706326e-06,-2.125645281498587e-12
	-8.958038406502757e-08,2.603798003322578e-15
14		1.380384264602885e+00,0.000000000000000e+00
	-8.958038406502757e-04,2.664448250114614e-11
	1.000000000000000e+00,0.000000000000000e+00
	0.000000000000000e+00,0.000000000000000e+00
	1.591519979138469e-06,6.254295281677006e-15
	1.591519988050875e-06,7.707416717964776e-15
	8.958038406501820e-08,-2.664448250114818e-15
	3.581205916704949e-06,2.175157920632155e-12
	-8.488106603420373e-07,-4.015403920656455e-15
	-2.821975640427929e-06,-2.168478068461384e-12
	-8.958038406502757e-08,2.664448250114614e-15
	-3.581205916706326e-06,-2.175157920632155e-12
	-8.958038406502757e-08,2.664448250114614e-15
15		1.412537544622754e+00,0.000000000000000e+00
	-8.958038406502757e-04,2.726511222637003e-11
	1.000000000000000e+00,0.000000000000000e+00
	0.000000000000000e+00,0.000000000000000e+00
	1.591519979138469e-06,6.399976533394666e-15
	1.591519988050875e-06,7.886945516080888e-15
	8.958038406501820e-08,-2.726511222637179e-15
	3.581205916704949e-06,2.225823857286862e-12
	-8.488106603420373e-07,-4.108934693184416e-15
	-2.821975640427929e-06,-2.218988411371040e-12
	-8.958038406502757e-08,2.726511222637003e-15
	-3.581205916706326e-06,-2.225823857286861e-12
	-8.958038406502757e-08,2.726511222637003e-15
16		1.445439770745927e+00,0.000000000000000e+00
	-8.958038406502757e-04,2.790019827499275e-11
	1.000000000000000e+00,0.000000000000000e+00
	0.000000000000000e+00,0.000000000000000e+00
	1.591519979138469e-06,6.549051137384032e-15
	1.591519988050875e-06,8.070656077105683e-15
	8.958038406501820e-08,-2.790019827499322e-15
	3.581205916704949e-06,2.277669955212962e-12
	-8.488106603420373e-07,-4.204644077274882e-15
	-2.821975640427929e-06,-2.270675291308188e-12
	-8.958038406502757e-08,2.790019827499275e-15
	-3.581205916706326e-06,-2.277669955212962e-12
	-8.958038406502757e-08,2.790019827499275e-15
17		1.479108388168207e+00,0.000000000000000e+00
	-8.958038406502757e-04,2.855007737804367e-11
	1.000000000000000e+00,0.000000000000000e+00
	0.000000000000000e+00,0.000000000000000e+00
	1.591519979138469e-06,6.701598134973385e-15
	1.591519988050875e-06,8.258645806810329e-15
	8.958038406501820e-08,-2.855007737804486e-15
	3.581205916704949e-06,2.330723703897843e-12
	-8.488106603420373e-07,-4.302582819310165e-15
	-2.821975640427929e-06,-2.323566113340728e-12
	-8.958038406502757e-08,2.855007737804367e-15
	-3.581205916706326e-06,-2.330723703897843e-12
	-8.958038406502757e-08,2.855007737804367e-15
18		1.513561248436208e+00,0.000000000000000e+00
	-8.958038406502757e-04,2.921509411002538e-11
	1.000000000000000e+00,0.000000000000000e+00
	0.000000000000000e+00,0.000000000000000e+00
	1.591519979138469e-06,6.857698408600035e-15
	1.591519988050875e-06,8.451014379837845e-15
	8.958038406501820e-08,-2.921509411002465e-15
	3.581205916704949e-06,2.385013233141306e-12
	-8.488106603420373e-07,-4.402802847707662e-15
	-2.821975640427929e-06,-2.377688920882596e-12
	-8.958038406502757e-08,2.921509411002538e-15
	-3.581205916706326e-06,-2.385013233141306e-12
	-8.958038406502757e-08,2.921509411002538e-15
19		1.548816618912481e+00,0.000000000000000e+00
	-8.958038406502757e-04,2.989560107161170e-11
	1.000000000000000e+00,0.000000000000000e+00
	0.000000000000000e+00,0.000000000000000e+00
	1.591519979138469e-06,7.017434724695293e-15
	1.591519988050875e-06,8.647863792551947e-15
	8.958038406501820e-08,-2.989560107161086e-15
	3.581205916704949e-06,2.440567327970363e-12
	-8.488106603420373e-07,-4.505357300452998e-15
	-2.821975640427929e-06,-2.433072410562749e-12
	-8.958038406502757e-08,2.989560107161170e-15
	-3.581205916706326e-06,-2.440567327970363e-12
	-8.958038406502757e-08,2.989560107161170e-15
20		1.584893192461113e+00,0.000000000000000e+00
	-8.958038406502757e-04,3.059195907660126e-11
	1.000000000000000e+00,0.000000000000000e+00
	0.000000000000000e+00,0.000000000000000e+00
	1.591519979138469e-06,7.180891777568320e-15
	1.591519988050875e-06,8.849298417116874e-15
	8.958038406501820e-08,-3.059195907659964e-15
	3.581205916704949e-06,2.497415443901437e-12
	-8.488106603420373e-07,-4.610300553274490e-15
	-2.821975640427929e-06,-2.489745947440503e-12
	-8.958038406502757e-08,3.059195907660126e-15
	-3.581205916706326e-06,-2.497415443901438e-12
	-8.958038406502757e-08,3.059195907660126e-15
21		1.621810097358929e+00,0.000000000000000e+00
	-8.958038406502757e-04,3.130453734322567e-11
	1.000000000000000e+00,0.000000000000000e+00
	0.000000000000000e+00,0.000000000000000e+00
	1.591519979138469e-06,7.348156234312148e-15
	1.591519988050875e-06,9.055425056836868e-15
	8.958038406501820e-08,-3.130453734322693e-15
	3.581205916704949e-06,2.555587722558069e-12
	-8.488106603420373e-07,-4.717688248473869e-15
	-2.821975640427929e-06,-2.547739580575273e-12
	-8.958038406502757e-08,3.130453734322567e-15
	-3.581205916706326e-06,-2.555587722558069e-12
	-8.958038406502757e-08,3.130453734322567e-15
22		1.659586907437560e+00,0.000000000000000e+00
	-8.958038406502757e-04,3.203371368991401e-11
	1.000000000000000e+00,0.000000000000000e+00
	0.000000000000000e+00,0.000000000000000e+00
	1.591519979138469e-06,7.519316780755755e-15
	1.591519988050875e-06,9.266353002784714e-15
	8.958038406501820e-08,-3.203371368991298e-15
	3.581205916704949e-06,2.615115007652405e-12
	-8.488106603420373e-07,-4.827577324428574e-15
	-2.821975640427929e-06,-2.607084058958985e-12
	-8.958038406502757e-08,3.203371368991401e-15
	-3.581205916706326e-06,-2.615115007652405e-12
	-8.958038406502757e-08,3.203371368991401e-15
23		1.698243652461743e+00,0.000000000000000e+00
	-8.958038406502757e-04,3.277987473561707e-11
	1.000000000000000e+00,0.000000000000000e+00
	0.000000000000000e+00,0.000000000000000e+00
	1.591519979138469e-06,7.694464168486447e-15
	1.591519988050875e-06,9.482194091749325e-15
	8.958038406501820e-08,-3.277987473561534e-15
	3.581205916704949e-06,2.676028861338937e-12
	-8.488106603420373e-07,-4.940026045781234e-15
	-2.821975640427929e-06,-2.667810847819594e-12
	-8.958038406502757e-08,3.277987473561707e-15
	-3.581205916706326e-06,-2.676028861338937e-12
	-8.958038406502757e-08,3.277987473561707e-15
24		1.737800828749374e+00,0.000000000000000e+00
	-8.958038406502757e-04,3.354341610479787e-11
	1.000000000000000e+00,0.000000000000000e+00
	0.000000000000000e+00,0.000000000000000e+00
	1.591519979138469e-06,7.873691262967537e-15
	1.591519988050875e-06,9.703062765533050e-15
	8.958038406501820e-08,-3.354341610479841e-15
	3.581205916704949e-06,2.738361580949179e-12
	-8.488106603420373e-07,-5.055094034332338e-15
	-2.821975640427929e-06,-2.729952145304367e-12
	-8.958038406502757e-08,3.354341610479787e-15
	-3.581205916706326e-06,-2.738361580949180e-12
	-8.958038406502757e-08,3.354341610479787e-15
25		1.778279410038922e+00,0.000000000000000e+00
	-8.958038406502757e-04,3.432474263719706e-11
	1.000000000000000e+00,0.000000000000000e+00
	0.000000000000000e+00,0.000000000000000e+00
	1.591519979138469e-06,8.057093092776882e-15
	1.591519988050875e-06,9.929076131630286e-15
	8.958038406501820e-08,-3.432474263719521e-15
	3.581205916704949e-06,2.802146216116142e-12
	-8.488106603420373e-07,-5.172842300652529e-15
	-2.821975640427929e-06,-2.793540899551770e-12
	-8.958038406502757e-08,3.432474263719706e-15
	-3.581205916706326e-06,-2.802146216116142e-12
	-8.958038406502757e-08,3.432474263719706e-15
26		1.819700858609982e+00,0.000000000000000e+00
	-8.958038406502757e-04,3.512426860248416e-11
	1.000000000000000e+00,0.000000000000000e+00
	0.000000000000000e+00,0.000000000000000e+00
	1.591519979138469e-06,8.244766899992248e-15
	1.591519988050875e-06,1.016035402531937e-14
	8.958038406501820e-08,-3.512426860248457e-15
	3.581205916704949e-06,2.867416586297680e-12
	-8.488106603420371e-07,-5.293333276431185e-15
	-2.821975640427929e-06,-2.858610826161000e-12
	-8.958038406502757e-08,3.512426860248416e-15
	-3.581205916706326e-06,-2.867416586297680e-12
	-8.958038406502757e-08,3.512426860248416e-15
27		1.862087136662866e+00,0.000000000000000e+00
	-8.958038406502757e-04,3.594241791990894e-11
	1.000000000000000e+00,0.000000000000000e+00
	0.000000000000000e+00,0.000000000000000e+00
	1.591519979138469e-06,8.436812191750387e-15
	1.591519988050875e-06,1.039701907320086e-14
	8.958038406501820e-08,-3.594241791991409e-15
	3.581205916704949e-06,2.934207298708018e-12
	-8.488106603420371e-07,-5.416630847578556e-15
	-2.821975640427929e-06,-2.925196426068448e-12
	-8.958038406502757e-08,3.594241791990894e-15
	-3.581205916706326e-06,-2.934207298708018e-12
	-8.958038406502757e-08,3.594241791990894e-15
28		1.905460717963246e+00,0.000000000000000e+00
	-8.958038406502757e-04,3.677962438306903e-11
	1.000000000000000e+00,0.000000000000000e+00
	0.000000000000000e+00,0.000000000000000e+00
	1.591519979138469e-06,8.633330793007002e-15
	1.591519988050875e-06,1.063919675821578e-14
	8.958038406501820e-08,-3.677962438306862e-15
	3.581205916704949e-06,3.002553766666955e-12
	-8.488106603420371e-07,-5.542800388098899e-15
	-2.821975640427929e-06,-2.993333003840550e-12
	-8.958038406502757e-08,3.677962438306902e-15
	-3.581205916706326e-06,-3.002553766666956e-12
	-8.958038406502757e-08,3.677962438306902e-15
29		1.949844599758044e+00,0.000000000000000e+00
	-8.958038406502757e-04,3.763633188991290e-11
	1.000000000000000e+00,0.000000000000000e+00
	0.000000000000000e+00,0.000000000000000e+00
	1.591519979138469e-06,8.834426900525710e-15
	1.591519988050875e-06,1.088701548617833e-14
	8.958038406501820e-08,-3.763633188990774e-15
	3.581205916704949e-06,3.072492228376478e-12
	-8.488106603420371e-07,-5.671908794752647e-15
	-2.821975640427929e-06,-3.063056686392735e-12
	-8.958038406502757e-08,3.763633188991291e-15
	-3.581205916706326e-06,-3.072492228376479e-12
	-8.958038406502757e-08,3.763633188991291e-15
30		1.995262314968878e+00,0.000000000000000e+00
	-8.958038406502757e-04,3.851299467810053e-11
	1.000000000000000e+00,0.000000000000000e+00
	0.000000000000000e+00,0.000000000000000e+00
	1.591519979138469e-06,9.040207138124544e-15
	1.591519988050875e-06,1.114060665385833e-14
	8.958038406501820e-08,-3.851299467810020e-15
	3.581205916704949e-06,3.144059766134729e-12
	-8.488106603420371e-07,-5.804024522525963e-15
	-2.821975640427929e-06,-3.134404442144393e-12
	-8.958038406502757e-08,3.851299467810054e-15
	-3.581205916706326e-06,-3.144059766134729e-12
	-8.958038406502757e-08,3.851299467810054e-15
31		2.041737944669527e+00,0.000000000000000e+00
	-8.958038406502757e-04,3.941007756584625e-11
	1.000000000000000e+00,0.000000000000000e+00
	0.000000000000000e+00,0.000000000000000e+00
	1.591519979138469e-06,9.250780613209294e-15
	1.591519988050875e-06,1.140010471864957e-14
	8.958038406501820e-08,-3.941007756584537e-15
	3.581205916704949e-06,3.217294325997534e-12
	-8.488106603420371e-07,-5.939217620926467e-15
	-2.821975640427929e-06,-3.207414100620023e-12
	-8.958038406502757e-08,3.941007756584625e-15
	-3.581205916706326e-06,-3.217294325997535e-12
	-8.958038406502757e-08,3.941007756584625e-15
32		2.089296130854037e+00,0.000000000000000e+00
	-8.958038406502757e-04,4.032805619837142e-11
	1.000000000000000e+00,0.000000000000000e+00
	0.000000000000000e+00,0.000000000000000e+00
	1.591519979138469e-06,9.466258974623728e-15
	1.591519988050875e-06,1.166564726986086e-14
