Title: * GA CMOS Amp | W=2.0573221639193533e-06 L=1e-06 Vbias=1.4844476838012908
Date: Sat Sep  6 22:14:44 2025
Plotname: AC Analysis
Flags: complex forward log
No. Variables: 13
No. Points:          901
Offset:    0.0000000000000000e+00
Command: Linear Technology Corporation LTspice
Variables:
	0	frequency	frequency
	1	V(out)	voltage
	2	V(g)	voltage
	3	V(vdd)	voltage
	4	V(m1#dbody)	voltage
	5	V(m1#sbody)	voltage
	6	Id(M1)	device_current
	7	Ig(M1)	device_current
	8	Ib(M1)	device_current
	9	Is(M1)	device_current
	10	I(Rload)	device_current
	11	I(Vg)	device_current
	12	I(Vdd)	device_current
Values:
0		1.000000000000000e+00,0.000000000000000e+00
	-3.566042283097514e-01,1.457577839485031e-09
	1.000000000000000e+00,0.000000000000000e+00
	0.000000000000000e+00,0.000000000000000e+00
	6.955166678345153e-05,1.275950649658771e-13
	6.955166945797868e-05,1.414908997321720e-13
	3.566042283097514e-05,-1.457577839485031e-13
	4.130367207443120e-05,4.528370138838440e-13
	-3.709422356065130e-05,-7.453758201726513e-14
	-3.986987134475504e-05,-2.325416479180759e-13
	-3.566042283097514e-05,1.457577839485031e-13
	-4.130367207455521e-05,-4.528370138838441e-13
	-3.566042283097514e-05,1.457577839485031e-13
1		1.023292992280754e+00,0.000000000000000e+00
	-3.566042283097514e-01,1.491529188848754e-09
	1.000000000000000e+00,0.000000000000000e+00
	0.000000000000000e+00,0.000000000000000e+00
	6.955166678345153e-05,1.305671358291897e-13
	6.955166945797868e-05,1.447866461674305e-13
	3.566042283097514e-05,-1.491529188848754e-13
	4.130367207443120e-05,4.633849429526803e-13
	-3.709422356065130e-05,-7.627378533981940e-14
	-3.986987134475504e-05,-2.379582387279855e-13
	-3.566042283097514e-05,1.491529188848754e-13
	-4.130367207455521e-05,-4.633849429526802e-13
	-3.566042283097514e-05,1.491529188848754e-13
2		1.047128548050899e+00,0.000000000000000e+00
	-3.566042283097514e-01,1.526271366731127e-09
	1.000000000000000e+00,0.000000000000000e+00
	0.000000000000000e+00,0.000000000000000e+00
	6.955166678345153e-05,1.336084351161791e-13
	6.955166945797868e-05,1.481591603989647e-13
	3.566042283097514e-05,-1.526271366731127e-13
	4.130367207443120e-05,4.741785648518946e-13
	-3.709422356065130e-05,-7.805043003296369e-14
	-3.986987134475504e-05,-2.435009981458182e-13
	-3.566042283097514e-05,1.526271366731128e-13
	-4.130367207455521e-05,-4.741785648518946e-13
	-3.566042283097514e-05,1.526271366731128e-13
3		1.071519305237606e+00,0.000000000000000e+00
	-3.566042283097514e-01,1.561822793894732e-09
	1.000000000000000e+00,0.000000000000000e+00
	0.000000000000000e+00,0.000000000000000e+00
	6.955166678345153e-05,1.367205753639839e-13
	6.955166945797868e-05,1.516102305784608e-13
	3.566042283097514e-05,-1.561822793894731e-13
	4.130367207443120e-05,4.852236025026888e-13
	-3.709422356065130e-05,-7.986845809723105e-14
	-3.986987134475504e-05,-2.491728650159847e-13
	-3.566042283097514e-05,1.561822793894732e-13
	-4.130367207455521e-05,-4.852236025026888e-13
	-3.566042283097514e-05,1.561822793894732e-13
4		1.096478196143185e+00,0.000000000000000e+00
	-3.566042283097514e-01,1.598202320176827e-09
	1.000000000000000e+00,0.000000000000000e+00
	0.000000000000000e+00,0.000000000000000e+00
	6.955166678345153e-05,1.399052066705575e-13
	6.955166945797868e-05,1.551416865090082e-13
	3.566042283097514e-05,-1.598202320176827e-13
	4.130367207443120e-05,4.965259121302236e-13
	-3.709422356065130e-05,-8.172883347516558e-14
	-3.986987134475504e-05,-2.549768466373753e-13
	-3.566042283097514e-05,1.598202320176827e-13
	-4.130367207455521e-05,-4.965259121302236e-13
	-3.566042283097514e-05,1.598202320176827e-13
5		1.122018454301963e+00,0.000000000000000e+00
	-3.566042283097514e-01,1.635429234483789e-09
	1.000000000000000e+00,0.000000000000000e+00
	0.000000000000000e+00,0.000000000000000e+00
	6.955166678345153e-05,1.431640175695721e-13
	6.955166945797868e-05,1.587554006152857e-13
	3.566042283097514e-05,-1.635429234483789e-13
	4.130367207443120e-05,5.080914863686674e-13
	-3.709422356065130e-05,-8.363254256241765e-14
	-3.986987134475504e-05,-2.609160203578708e-13
	-3.566042283097514e-05,1.635429234483789e-13
	-4.130367207455521e-05,-5.080914863686675e-13
	-3.566042283097514e-05,1.635429234483789e-13
6		1.148153621496882e+00,0.000000000000000e+00
	-3.566042283097514e-01,1.673523275018340e-09
	1.000000000000000e+00,0.000000000000000e+00
	0.000000000000000e+00,0.000000000000000e+00
	6.955166678345153e-05,1.464987359257019e-13
	6.955166945797868e-05,1.624532889363457e-13
	3.566042283097514e-05,-1.673523275018340e-13
	4.130367207443120e-05,5.199264574385696e-13
	-3.709422356065130e-05,-8.558059473074390e-14
	-3.986987134475504e-05,-2.669935352059918e-13
	-3.566042283097514e-05,1.673523275018340e-13
	-4.130367207455521e-05,-5.199264574385695e-13
	-3.566042283097514e-05,1.673523275018340e-13
7		1.174897554939529e+00,0.000000000000000e+00
	-3.566042283097514e-01,1.712504639745004e-09
	1.000000000000000e+00,0.000000000000000e+00
	0.000000000000000e+00,0.000000000000000e+00
	6.955166678345153e-05,1.499111298507595e-13
	6.955166945797868e-05,1.662373121415230e-13
	3.566042283097514e-05,-1.712504639745004e-13
	4.130367207443120e-05,5.320371003982461e-13
	-3.709422356065130e-05,-8.757402286318944e-14
	-3.986987134475504e-05,-2.732126135605563e-13
	-3.566042283097514e-05,1.712504639745004e-13
	-4.130367207455521e-05,-5.320371003982460e-13
	-3.566042283097514e-05,1.712504639745004e-13
8		1.202264434617413e+00,0.000000000000000e+00
	-3.566042283097514e-01,1.752393997099340e-09
	1.000000000000000e+00,0.000000000000000e+00
	0.000000000000000e+00,0.000000000000000e+00
	6.955166678345153e-05,1.534030086411724e-13
	6.955166945797868e-05,1.701094765700089e-13
	3.566042283097514e-05,-1.752393997099340e-13
	4.130367207443120e-05,5.444298364708973e-13
	-3.709422356065130e-05,-8.961388390173632e-14
	-3.986987134475504e-05,-2.795765528592269e-13
	-3.566042283097514e-05,1.752393997099340e-13
	-4.130367207455521e-05,-5.444298364708972e-13
	-3.566042283097514e-05,1.752393997099340e-13
9		1.230268770812381e+00,0.000000000000000e+00
	-3.566042283097514e-01,1.793212496946615e-09
	1.000000000000000e+00,0.000000000000000e+00
	0.000000000000000e+00,0.000000000000000e+00
	6.955166678345153e-05,1.569762237372956e-13
	6.955166945797868e-05,1.740718352946372e-13
	3.566042283097514e-05,-1.793212496946615e-13
	4.130367207443120e-05,5.571112364492261e-13
	-3.709422356065130e-05,-9.170125940770785e-14
	-3.986987134475504e-05,-2.860887273468567e-13
	-3.566042283097514e-05,1.793212496946615e-13
	-4.130367207455521e-05,-5.571112364492261e-13
	-3.566042283097514e-05,1.793212496946615e-13
10		1.258925411794167e+00,0.000000000000000e+00
	-3.566042283097514e-01,1.834981781795744e-09
	1.000000000000000e+00,0.000000000000000e+00
	0.000000000000000e+00,0.000000000000000e+00
	6.955166678345153e-05,1.606326697050704e-13
	6.955166945797868e-05,1.781264892104519e-13
	3.566042283097514e-05,-1.834981781795745e-13
	4.130367207443120e-05,5.700880241793594e-13
	-3.709422356065130e-05,-9.383725613522702e-14
	-3.986987134475504e-05,-2.927525898645578e-13
	-3.566042283097514e-05,1.834981781795745e-13
	-4.130367207455521e-05,-5.700880241793593e-13
	-3.566042283097514e-05,1.834981781795745e-13
11		1.288249551693134e+00,0.000000000000000e+00
	-3.566042283097514e-01,1.877723998274437e-09
	1.000000000000000e+00,0.000000000000000e+00
	0.000000000000000e+00,0.000000000000000e+00
	6.955166678345153e-05,1.643742852405475e-13
	6.955166945797868e-05,1.822755881486288e-13
	3.566042283097514e-05,-1.877723998274437e-13
	4.130367207443120e-05,5.833670801259195e-13
	-3.709422356065130e-05,-9.602300661803202e-14
	-3.986987134475504e-05,-2.995716736804438e-13
	-3.566042283097514e-05,1.877723998274437e-13
	-4.130367207455521e-05,-5.833670801259197e-13
	-3.566042283097514e-05,1.877723998274437e-13
12		1.318256738556407e+00,0.000000000000000e+00
	-3.566042283097514e-01,1.921461808871631e-09
	1.000000000000000e+00,0.000000000000000e+00
	0.000000000000000e+00,0.000000000000000e+00
	6.955166678345153e-05,1.682030541978101e-13
	6.955166945797868e-05,1.865213320163447e-13
	3.566042283097514e-05,-1.921461808871631e-13
	4.130367207443120e-05,5.969554450201387e-13
	-3.709422356065130e-05,-9.825966976996065e-14
	-3.986987134475504e-05,-3.065495943630150e-13
	-3.566042283097514e-05,1.921461808871631e-13
	-4.130367207455521e-05,-5.969554450201387e-13
	-3.566042283097514e-05,1.921461808871631e-13
13		1.348962882591653e+00,0.000000000000000e+00
	-3.566042283097514e-01,1.966218403953442e-09
	1.000000000000000e+00,0.000000000000000e+00
	0.000000000000000e+00,0.000000000000000e+00
	6.955166678345153e-05,1.721210066408390e-13
	6.955166945797868e-05,1.908659719631974e-13
	3.566042283097514e-05,-1.966218403953442e-13
	4.130367207443120e-05,6.108603235929470e-13
	-3.709422356065130e-05,-1.005484314994218e-13
	-3.986987134475504e-05,-3.136900516981810e-13
	-3.566042283097514e-05,1.966218403953442e-13
	-4.130367207455521e-05,-6.108603235929468e-13
	-3.566042283097514e-05,1.966218403953442e-13
14		1.380384264602885e+00,0.000000000000000e+00
	-3.566042283097514e-01,2.012017514059006e-09
	1.000000000000000e+00,0.000000000000000e+00
	0.000000000000000e+00,0.000000000000000e+00
	6.955166678345153e-05,1.761302199198796e-13
	6.955166945797868e-05,1.953118115747948e-13
	3.566042283097514e-05,-2.012017514059006e-13
	4.130367207443120e-05,6.250890883950164e-13
	-3.709422356065130e-05,-1.028905053381798e-13
	-3.986987134475504e-05,-3.209968316509361e-13
	-3.566042283097514e-05,2.012017514059006e-13
	-4.130367207455521e-05,-6.250890883950166e-13
	-3.566042283097514e-05,2.012017514059006e-13
15		1.412537544622754e+00,0.000000000000000e+00
	-3.566042283097514e-01,2.058883422482724e-09
	1.000000000000000e+00,0.000000000000000e+00
	0.000000000000000e+00,0.000000000000000e+00
	6.955166678345153e-05,1.802328197728809e-13
	6.955166945797868e-05,1.998612080941466e-13
	3.566042283097514e-05,-2.058883422482724e-13
	4.130367207443120e-05,6.396492837057851e-13
	-3.709422356065130e-05,-1.052871330847849e-13
	-3.986987134475504e-05,-3.284738083727279e-13
	-3.566042283097514e-05,2.058883422482725e-13
	-4.130367207455521e-05,-6.396492837057851e-13
	-3.566042283097514e-05,2.058883422482725e-13
16		1.445439770745927e+00,0.000000000000000e+00
	-3.566042283097514e-01,2.106840978149587e-09
	1.000000000000000e+00,0.000000000000000e+00
	0.000000000000000e+00,0.000000000000000e+00
	6.955166678345153e-05,1.844309814525892e-13
	6.955166945797868e-05,2.045165736715057e-13
	3.566042283097514e-05,-2.106840978149587e-13
	4.130367207443120e-05,6.545486295335339e-13
	-3.709422356065130e-05,-1.077395854629915e-13
	-3.986987134475504e-05,-3.361249462555837e-13
	-3.566042283097514e-05,2.106840978149587e-13
	-4.130367207455521e-05,-6.545486295335338e-13
	-3.566042283097514e-05,2.106840978149587e-13
17		1.479108388168207e+00,0.000000000000000e+00
	-3.566042283097514e-01,2.155915608790401e-09
	1.000000000000000e+00,0.000000000000000e+00
	0.000000000000000e+00,0.000000000000000e+00
	6.955166678345153e-05,1.887269308798962e-13
	6.955166945797868e-05,2.092803766433224e-13
	3.566042283097514e-05,-2.155915608790401e-13
	4.130367207443120e-05,6.697950257086365e-13
	-3.709422356065130e-05,-1.102491627955126e-13
	-3.986987134475504e-05,-3.439543020340838e-13
	-3.566042283097514e-05,2.155915608790401e-13
	-4.130367207455521e-05,-6.697950257086364e-13
	-3.566042283097514e-05,2.155915608790401e-13
18		1.513561248436208e+00,0.000000000000000e+00
	-3.566042283097514e-01,2.206133334423914e-09
	1.000000000000000e+00,0.000000000000000e+00
	0.000000000000000e+00,0.000000000000000e+00
	6.955166678345153e-05,1.931229458240521e-13
	6.955166945797868e-05,2.141551428409886e-13
	3.566042283097514e-05,-2.206133334423913e-13
	4.130367207443120e-05,6.853965560721553e-13
	-3.709422356065130e-05,-1.128171956934681e-13
	-3.986987134475504e-05,-3.519660269362960e-13
	-3.566042283097514e-05,2.206133334423914e-13
	-4.130367207455521e-05,-6.853965560721553e-13
	-3.566042283097514e-05,2.206133334423914e-13
19		1.548816618912481e+00,0.000000000000000e+00
	-3.566042283097514e-01,2.257520781152964e-09
	1.000000000000000e+00,0.000000000000000e+00
	0.000000000000000e+00,0.000000000000000e+00
	6.955166678345153e-05,1.976213571103682e-13
	6.955166945797868e-05,2.191434569300675e-13
	3.566042283097514e-05,-2.257520781152964e-13
	4.130367207443120e-05,7.013614927619995e-13
	-3.709422356065130e-05,-1.154450457618923e-13
	-3.986987134475504e-05,-3.601643688848108e-13
	-3.566042283097514e-05,2.257520781152965e-13
	-4.130367207455521e-05,-7.013614927619994e-13
	-3.566042283097514e-05,2.257520781152965e-13
20		1.584893192461113e+00,0.000000000000000e+00
	-3.566042283097514e-01,2.310105195282002e-09
	1.000000000000000e+00,0.000000000000000e+00
	0.000000000000000e+00,0.000000000000000e+00
	6.955166678345153e-05,2.022245498560522e-13
	6.955166945797868e-05,2.242479637807174e-13
	3.566042283097514e-05,-2.310105195282002e-13
	4.130367207443120e-05,7.176983005989230e-13
	-3.709422356065130e-05,-1.181341063216754e-13
	-3.986987134475504e-05,-3.685536747490474e-13
	-3.566042283097514e-05,2.310105195282002e-13
	-4.130367207455521e-05,-7.176983005989229e-13
	-3.566042283097514e-05,2.310105195282002e-13
21		1.621810097358929e+00,0.000000000000000e+00
	-3.566042283097514e-01,2.363914457763436e-09
	1.000000000000000e+00,0.000000000000000e+00
	0.000000000000000e+00,0.000000000000000e+00
	6.955166678345153e-05,2.069349647348282e-13
	6.955166945797868e-05,2.294713698700365e-13
	3.566042283097514e-05,-2.363914457763435e-13
	4.130367207443120e-05,7.344156415746839e-13
	-3.709422356065130e-05,-1.208858031483200e-13
	-3.986987134475504e-05,-3.771383926500205e-13
	-3.566042283097514e-05,2.363914457763435e-13
	-4.130367207455521e-05,-7.344156415746839e-13
	-3.566042283097514e-05,2.363914457763435e-13
22		1.659586907437560e+00,0.000000000000000e+00
	-3.566042283097514e-01,2.418977098980482e-09
	1.000000000000000e+00,0.000000000000000e+00
	0.000000000000000e+00,0.000000000000000e+00
	6.955166678345153e-05,2.117550992710147e-13
	6.955166945797868e-05,2.348164447170734e-13
	3.566042283097514e-05,-2.418977098980483e-13
	4.130367207443120e-05,7.515223794447483e-13
	-3.709422356065130e-05,-1.237015952279066e-13
	-3.986987134475504e-05,-3.859230743187934e-13
	-3.566042283097514e-05,2.418977098980483e-13
	-4.130367207455521e-05,-7.515223794447482e-13
	-3.566042283097514e-05,2.418977098980483e-13
23		1.698243652461743e+00,0.000000000000000e+00
	-3.566042283097514e-01,2.475322313874356e-09
	1.000000000000000e+00,0.000000000000000e+00
	0.000000000000000e+00,0.000000000000000e+00
	6.955166678345153e-05,2.166875091637446e-13
	6.955166945797868e-05,2.402860223512622e-13
	3.566042283097514e-05,-2.475322313874357e-13
	4.130367207443120e-05,7.690275844279687e-13
	-3.709422356065130e-05,-1.265829755306671e-13
	-3.986987134475504e-05,-3.949123775098659e-13
	-3.566042283097514e-05,2.475322313874357e-13
	-4.130367207455521e-05,-7.690275844279688e-13
	-3.566042283097514e-05,2.475322313874357e-13
24		1.737800828749374e+00,0.000000000000000e+00
	-3.566042283097514e-01,2.532979977423810e-09
	1.000000000000000e+00,0.000000000000000e+00
	0.000000000000000e+00,0.000000000000000e+00
	6.955166678345153e-05,2.217348096420316e-13
	6.955166945797868e-05,2.458830028150632e-13
	3.566042283097514e-05,-2.532979977423810e-13
	4.130367207443120e-05,7.869405380157363e-13
	-3.709422356065130e-05,-1.295314718025778e-13
	-3.986987134475504e-05,-4.041110684707775e-13
	-3.566042283097514e-05,2.532979977423810e-13
	-4.130367207455521e-05,-7.869405380157363e-13
	-3.566042283097514e-05,2.532979977423810e-13
25		1.778279410038922e+00,0.000000000000000e+00
	-3.566042283097514e-01,2.591980660485247e-09
	1.000000000000000e+00,0.000000000000000e+00
	0.000000000000000e+00,0.000000000000000e+00
	6.955166678345153e-05,2.268996768513979e-13
	6.955166945797868e-05,2.516103537016032e-13
	3.566042283097514e-05,-2.591980660485246e-13
	4.130367207443120e-05,8.052707378931493e-13
	-3.709422356065130e-05,-1.325486473753900e-13
	-3.986987134475504e-05,-4.135240244692346e-13
	-3.566042283097514e-05,2.591980660485247e-13
	-4.130367207455521e-05,-8.052707378931495e-13
	-3.566042283097514e-05,2.591980660485247e-13
26		1.819700858609982e+00,0.000000000000000e+00
	-3.566042283097514e-01,2.652355646001794e-09
	1.000000000000000e+00,0.000000000000000e+00
	0.000000000000000e+00,0.000000000000000e+00
	6.955166678345153e-05,2.321848492728031e-13
	6.955166945797868e-05,2.574711117281324e-13
	3.566042283097514e-05,-2.652355646001794e-13
	4.130367207443120e-05,8.240279029748116e-13
	-3.709422356065130e-05,-1.356361019955294e-13
	-3.986987134475504e-05,-4.231562363791029e-13
	-3.566042283097514e-05,2.652355646001794e-13
	-4.130367207455521e-05,-8.240279029748116e-13
	-3.566042283097514e-05,2.652355646001794e-13
27		1.862087136662866e+00,0.000000000000000e+00
	-3.566042283097514e-01,2.714136945589927e-09
	1.000000000000000e+00,0.000000000000000e+00
	0.000000000000000e+00,0.000000000000000e+00
	6.955166678345153e-05,2.375931291746227e-13
	6.955166945797868e-05,2.634683843461330e-13
	3.566042283097514e-05,-2.714136945589927e-13
	4.130367207443120e-05,8.432219785579298e-13
	-3.709422356065130e-05,-1.387954726723028e-13
	-3.986987134475504e-05,-4.330128113266343e-13
	-3.566042283097514e-05,2.714136945589927e-13
	-4.130367207455521e-05,-8.432219785579296e-13
	-3.566042283097514e-05,2.714136945589927e-13
28		1.905460717963246e+00,0.000000000000000e+00
	-3.566042283097514e-01,2.777357316512463e-09
	1.000000000000000e+00,0.000000000000000e+00
	0.000000000000000e+00,0.000000000000000e+00
	6.955166678345153e-05,2.431273840984473e-13
	6.955166945797868e-05,2.696053513889301e-13
	3.566042283097514e-05,-2.777357316512464e-13
	4.130367207443120e-05,8.628631415954419e-13
	-3.709422356065130e-05,-1.420284345458624e-13
	-3.986987134475504e-05,-4.430989753983331e-13
	-3.566042283097514e-05,2.777357316512463e-13
	-4.130367207455521e-05,-8.628631415954418e-13
	-3.566042283097514e-05,2.777357316512463e-13
29		1.949844599758044e+00,0.000000000000000e+00
	-3.566042283097514e-01,2.842050279046885e-09
	1.000000000000000e+00,0.000000000000000e+00
	0.000000000000000e+00,0.000000000000000e+00
	6.955166678345153e-05,2.487905483794924e-13
	6.955166945797868e-05,2.758852667576825e-13
	3.566042283097514e-05,-2.842050279046885e-13
	4.130367207443120e-05,8.829618060919720e-13
	-3.709422356065130e-05,-1.453367017753867e-13
	-3.986987134475504e-05,-4.534200764118967e-13
	-3.566042283097514e-05,2.842050279046885e-13
	-4.130367207455521e-05,-8.829618060919717e-13
	-3.566042283097514e-05,2.842050279046885e-13
30		1.995262314968878e+00,0.000000000000000e+00
	-3.566042283097514e-01,2.908250134258238e-09
	1.000000000000000e+00,0.000000000000000e+00
	0.000000000000000e+00,0.000000000000000e+00
	6.955166678345153e-05,2.545856247024205e-13
	6.955166945797868e-05,2.823114601466431e-13
	3.566042283097514e-05,-2.908250134258239e-13
	4.130367207443120e-05,9.035286286254727e-13
	-3.709422356065130e-05,-1.487220284479511e-13
	-3.986987134475504e-05,-4.639815867516978e-13
	-3.566042283097514e-05,2.908250134258239e-13
	-4.130367207455521e-05,-9.035286286254725e-13
	-3.566042283097514e-05,2.908250134258239e-13
31		2.041737944669527e+00,0.000000000000000e+00
	-3.566042283097514e-01,2.975991982186017e-09
	1.000000000000000e+00,0.000000000000000e+00
	0.000000000000000e+00,0.000000000000000e+00
	6.955166678345153e-05,2.605156856934049e-13
	6.955166945797868e-05,2.888873388086072e-13
	3.566042283097514e-05,-2.975991982186017e-13
	4.130367207443120e-05,9.245745139974862e-13
	-3.709422356065130e-05,-1.521862095085673e-13
	-3.986987134475504e-05,-4.747891062703171e-13
	-3.566042283097514e-05,2.975991982186017e-13
	-4.130367207455521e-05,-9.245745139974860e-13
	-3.566042283097514e-05,2.975991982186017e-13
32		2.089296130854037e+00,0.000000000000000e+00
	-3.566042283097514e-01,3.045311740454662e-09
	1.000000000000000e+00,0.000000000000000e+00
	0.000000000000000e+00,0.000000000000000e+00
	6.955166678345153e-05,2.665838755492768e-13
