LTspice 24.0.9 for Windows
Circuit: * GA CMOS Amp | W=2.366279279107536e-05 L=8.799684450436383e-07 Vbias=1.2672926171580907
Start Time: Sat Sep  6 22:37:16 2025
solver = Normal
Maximum thread count: 2
tnom = 27
temp = 27
method = modified trap
AsciiRawFile = 1
Direct Newton iteration for .op point succeeded.
Semiconductor Device Operating Points:
                        --- BSIM4 MOSFETS ---
Name:      m1
Model:      n
Id:      1.73e-04
Vgs:     1.27e+00
Vds:     6.92e-02
Vbs:     0.00e+00
Vth:     2.38e-01
Vdsat:   7.20e-01
Gm:     -1.58e-05
Gds:     2.41e-03
Gmb      9.62e-05
Cbd:     1.16e-14
Cbs:     1.89e-14


.measure op idd find i(vdd)
  Error: FIND can not be evaluated over an interval.

gain_db: MAX(db(v(out)/v(g)))=(31.7769dB,180°) FROM 1 TO 1e+09
gain_lin: MAX(mag(v(out)/v(g)))=(-3.58751dB,0°) FROM 1 TO 1e+09

Measurement "fc" FAIL'ed

Total elapsed time: 0.461 seconds.

