LTspice 24.0.9 for Windows
Circuit: * GA CMOS Amp | W=3.315946935802477e-05 L=7.800934176081105e-07 Vbias=0.5568223227033814
Start Time: Sat Sep  6 22:03:51 2025
solver = Normal
Maximum thread count: 2
tnom = 27
temp = 27
method = modified trap
AsciiRawFile = 1
Direct Newton iteration for .op point succeeded.
Semiconductor Device Operating Points:
                        --- BSIM4 MOSFETS ---
Name:      m1
Model:      n
Id:      1.74e-04
Vgs:     5.57e-01
Vds:     5.90e-02
Vbs:     0.00e+00
Vth:     2.40e-01
Vdsat:   2.51e-01
Gm:      3.48e-04
Gds:     2.55e-03
Gmb      2.36e-04
Cbd:     1.63e-14
Cbs:     2.65e-14


.measure op idd find i(vdd)
  Error: FIND can not be evaluated over an interval.

gain_db: MAX(db(v(out)/v(g)))=(30.2384dB,122.908°) FROM 1 TO 1e+09
gain_lin: MAX(mag(v(out)/v(g)))=(-2.46736dB,0°) FROM 1 TO 1e+09

Measurement "fc" FAIL'ed

Total elapsed time: 0.588 seconds.

