Title: * GA CMOS Amp | W=1.898834434159303e-05 L=7.353050061294335e-07 Vbias=1.1204628811808095
Date: Mon Sep  8 18:42:55 2025
Plotname: AC Analysis
Flags: complex forward log
No. Variables: 11
No. Points:          901
Offset:    0.0000000000000000e+00
Command: Linear Technology Corporation LTspice
Variables:
	0	frequency	frequency
	1	V(out)	voltage
	2	V(g)	voltage
	3	V(vdd)	voltage
	4	Id(M1)	device_current
	5	Ig(M1)	device_current
	6	Ib(M1)	device_current
	7	Is(M1)	device_current
	8	I(Rload)	device_current
	9	I(Vg)	device_current
	10	I(Vdd)	device_current
Values:
0		1.000000000000000e+00,0.000000000000000e+00
	-7.773674326517660e-01,2.402259861849340e-10
	1.000000000000000e+00,0.000000000000000e+00
	0.000000000000000e+00,0.000000000000000e+00
	7.773674326517669e-05,-2.402259861849341e-14
	1.828592551660914e-23,2.173085050519121e-13
	7.780748701585738e-13,3.111131973622255e-15
	-7.773674404325156e-05,-1.963970384070410e-13
	-7.773674326517661e-05,2.402259861849340e-14
	-1.828592551660914e-23,-2.173085050519121e-13
	-7.773674326517661e-05,2.402259861849340e-14
1		1.023292992280754e+00,0.000000000000000e+00
	-7.773674326517660e-01,2.458215682267763e-10
	1.000000000000000e+00,0.000000000000000e+00
	0.000000000000000e+00,0.000000000000000e+00
	7.773674326517669e-05,-2.458215682267762e-14
	1.914771463597383e-23,2.223702703826285e-13
	7.780748701585738e-13,3.183599546668245e-15
	-7.773674404325156e-05,-2.009717131066192e-13
	-7.773674326517661e-05,2.458215682267763e-14
	-1.914771463597383e-23,-2.223702703826285e-13
	-7.773674326517661e-05,2.458215682267763e-14
2		1.047128548050899e+00,0.000000000000000e+00
	-7.773674326517660e-01,2.515474881179254e-10
	1.000000000000000e+00,0.000000000000000e+00
	0.000000000000000e+00,0.000000000000000e+00
	7.773674326517669e-05,-2.515474881179255e-14
	2.005011862526023e-23,2.275499393741203e-13
	7.780748701585738e-13,3.257755106333815e-15
	-7.773674404325156e-05,-2.056529456686616e-13
	-7.773674326517661e-05,2.515474881179254e-14
	-2.005011862526023e-23,-2.275499393741203e-13
	-7.773674326517661e-05,2.515474881179254e-14
3		1.071519305237606e+00,0.000000000000000e+00
	-7.773674326517660e-01,2.574067818168993e-10
	1.000000000000000e+00,0.000000000000000e+00
	0.000000000000000e+00,0.000000000000000e+00
	7.773674326517669e-05,-2.574067818168993e-14
	2.099505160431704e-23,2.328502583554477e-13
	7.780748701585738e-13,3.333637970878220e-15
	-7.773674404325156e-05,-2.104432181446360e-13
	-7.773674326517661e-05,2.574067818168993e-14
	-2.099505160431704e-23,-2.328502583554477e-13
	-7.773674326517661e-05,2.574067818168993e-14
4		1.096478196143185e+00,0.000000000000000e+00
	-7.773674326517660e-01,2.634025559987741e-10
	1.000000000000000e+00,0.000000000000000e+00
	0.000000000000000e+00,0.000000000000000e+00
	7.773674326517669e-05,-2.634025559987740e-14
	2.198451790268220e-23,2.382740376258927e-13
	7.780748701585738e-13,3.411288374400709e-15
	-7.773674404325156e-05,-2.153450704004160e-13
	-7.773674326517661e-05,2.634025559987741e-14
	-2.198451790268220e-23,-2.382740376258927e-13
	-7.773674326517661e-05,2.634025559987741e-14
5		1.122018454301963e+00,0.000000000000000e+00
	-7.773674326517660e-01,2.695379897023844e-10
	1.000000000000000e+00,0.000000000000000e+00
	0.000000000000000e+00,0.000000000000000e+00
	7.773674326517669e-05,-2.695379897023844e-14
	2.302061631103462e-23,2.438241529450168e-13
	7.780748701585738e-13,3.490747488173045e-15
	-7.773674404325156e-05,-2.203611014629514e-13
	-7.773674326517661e-05,2.695379897023844e-14
	-2.302061631103462e-23,-2.438241529450168e-13
	-7.773674326517661e-05,2.695379897023844e-14
6		1.148153621496882e+00,0.000000000000000e+00
	-7.773674326517660e-01,2.758163360158920e-10
	1.000000000000000e+00,0.000000000000000e+00
	0.000000000000000e+00,0.000000000000000e+00
	7.773674326517669e-05,-2.758163360158921e-14
	2.410554453301054e-23,2.495035470574265e-13
	7.780748701585738e-13,3.572057442469134e-15
	-7.773674404325156e-05,-2.254939708983064e-13
	-7.773674326517661e-05,2.758163360158920e-14
	-2.410554453301054e-23,-2.495035470574265e-13
	-7.773674326517661e-05,2.758163360158920e-14
7		1.174897554939529e+00,0.000000000000000e+00
	-7.773674326517660e-01,2.822409238016161e-10
	1.000000000000000e+00,0.000000000000000e+00
	0.000000000000000e+00,0.000000000000000e+00
	7.773674326517669e-05,-2.822409238016161e-14
	2.524160384682762e-23,2.553152312530559e-13
	7.780748701585738e-13,3.655261348902975e-15
	-7.773674404325156e-05,-2.307464002217972e-13
	-7.773674326517661e-05,2.822409238016161e-14
	-2.524160384682762e-23,-2.553152312530559e-13
	-7.773674326517661e-05,2.822409238016161e-14
8		1.202264434617413e+00,0.000000000000000e+00
	-7.773674326517660e-01,2.888151594610401e-10
	1.000000000000000e+00,0.000000000000000e+00
	0.000000000000000e+00,0.000000000000000e+00
	7.773674326517669e-05,-2.888151594610399e-14
	2.643120398660461e-23,2.612622869637923e-13
	7.780748701585738e-13,3.740403323287090e-15
	-7.773674404325156e-05,-2.361211743409754e-13
	-7.773674326517661e-05,2.888151594610401e-14
	-2.643120398660461e-23,-2.612622869637923e-13
	-7.773674326517661e-05,2.888151594610401e-14
9		1.230268770812381e+00,0.000000000000000e+00
	-7.773674326517660e-01,2.955425287409308e-10
	1.000000000000000e+00,0.000000000000000e+00
	0.000000000000000e+00,0.000000000000000e+00
	7.773674326517669e-05,-2.955425287409313e-14
	2.767686825373043e-23,2.673478673972921e-13
	7.780748701585738e-13,3.827528509023352e-15
	-7.773674404325156e-05,-2.416211430322223e-13
	-7.773674326517661e-05,2.955425287409308e-14
	-2.767686825373043e-23,-2.673478673972921e-13
	-7.773674326517661e-05,2.955425287409308e-14
10		1.258925411794167e+00,0.000000000000000e+00
	-7.773674326517660e-01,3.024265985815279e-10
	1.000000000000000e+00,0.000000000000000e+00
	0.000000000000000e+00,0.000000000000000e+00
	7.773674326517669e-05,-3.024265985815279e-14
	2.898123886912479e-23,2.735751992088533e-13
	7.780748701585738e-13,3.916683101038360e-15
	-7.773674404325156e-05,-2.472492224517388e-13
	-7.773674326517661e-05,3.024265985815279e-14
	-2.898123886912479e-23,-2.735751992088533e-13
	-7.773674326517661e-05,3.024265985815279e-14
11		1.288249551693134e+00,0.000000000000000e+00
	-7.773674326517660e-01,3.094710190077822e-10
	1.000000000000000e+00,0.000000000000000e+00
	0.000000000000000e+00,0.000000000000000e+00
	7.773674326517669e-05,-3.094710190077823e-14
	3.034708257774293e-23,2.799475842122309e-13
	7.780748701585738e-13,4.007914370277031e-15
	-7.773674404325156e-05,-2.530083966817297e-13
	-7.773674326517661e-05,3.094710190077822e-14
	-3.034708257774293e-23,-2.799475842122309e-13
	-7.773674326517661e-05,3.094710190077822e-14
12		1.318256738556407e+00,0.000000000000000e+00
	-7.773674326517660e-01,3.166795250646475e-10
	1.000000000000000e+00,0.000000000000000e+00
	0.000000000000000e+00,0.000000000000000e+00
	7.773674326517669e-05,-3.166795250646478e-14
	3.177729651721270e-23,2.864684011303021e-13
	7.780748701585738e-13,4.101270688765880e-15
	-7.773674404325156e-05,-2.589017193126032e-13
	-7.773674326517661e-05,3.166795250646475e-14
	-3.177729651721270e-23,-2.864684011303021e-13
	-7.773674326517661e-05,3.166795250646475e-14
13		1.348962882591653e+00,0.000000000000000e+00
	-7.773674326517660e-01,3.240559387974513e-10
	1.000000000000000e+00,0.000000000000000e+00
	0.000000000000000e+00,0.000000000000000e+00
	7.773674326517669e-05,-3.240559387974517e-14
	3.327491436305185e-23,2.931411073865102e-13
	7.780748701585738e-13,4.196801555260548e-15
	-7.773674404325156e-05,-2.649323150620256e-13
	-7.773674326517661e-05,3.240559387974513e-14
	-3.327491436305185e-23,-2.931411073865102e-13
	-7.773674326517661e-05,3.240559387974513e-14
14		1.380384264602885e+00,0.000000000000000e+00
	-7.773674326517660e-01,3.316041712783929e-10
	1.000000000000000e+00,0.000000000000000e+00
	0.000000000000000e+00,0.000000000000000e+00
	7.773674326517669e-05,-3.316041712783929e-14
	3.484311276350051e-23,2.999692409380360e-13
	7.780748701585738e-13,4.294557621491108e-15
	-7.773674404325156e-05,-2.711033814316878e-13
	-7.773674326517661e-05,3.316041712783929e-14
	-3.484311276350051e-23,-2.999692409380360e-13
	-7.773674326517661e-05,3.316041712783929e-14
15		1.412537544622754e+00,0.000000000000000e+00
	-7.773674326517660e-01,3.393282246802464e-10
	1.000000000000000e+00,0.000000000000000e+00
	0.000000000000000e+00,0.000000000000000e+00
	7.773674326517669e-05,-3.393282246802461e-14
	3.648521807761805e-23,3.069564221516693e-13
	7.780748701585738e-13,4.394590719017673e-15
	-7.773674404325156e-05,-2.774181904026624e-13
	-7.773674326517661e-05,3.393282246802464e-14
	-3.648521807761805e-23,-3.069564221516693e-13
	-7.773674326517661e-05,3.393282246802464e-14
16		1.445439770745927e+00,0.000000000000000e+00
	-7.773674326517660e-01,3.472321943983653e-10
	1.000000000000000e+00,0.000000000000000e+00
	0.000000000000000e+00,0.000000000000000e+00
	7.773674326517669e-05,-3.472321943983656e-14
	3.820471343093661e-23,3.141063557233760e-13
	7.780748701585738e-13,4.496953886712947e-15
	-7.773674404325156e-05,-2.838800901702524e-13
	-7.773674326517661e-05,3.472321943983653e-14
	-3.820471343093661e-23,-3.141063557233760e-13
	-7.773674326517661e-05,3.472321943983653e-14
17		1.479108388168207e+00,0.000000000000000e+00
	-7.773674326517660e-01,3.553202712221157e-10
	1.000000000000000e+00,0.000000000000000e+00
	0.000000000000000e+00,0.000000000000000e+00
	7.773674326517669e-05,-3.553202712221156e-14
	4.000524610363734e-23,3.214228326425764e-13
	7.780748701585738e-13,4.601701398882976e-15
	-7.773674404325156e-05,-2.904925069192478e-13
	-7.773674326517661e-05,3.553202712221156e-14
	-4.000524610363734e-23,-3.214228326425764e-13
	-7.773674326517661e-05,3.553202712221156e-14
18		1.513561248436208e+00,0.000000000000000e+00
	-7.773674326517660e-01,3.635967435568879e-10
	1.000000000000000e+00,0.000000000000000e+00
	0.000000000000000e+00,0.000000000000000e+00
	7.773674326517669e-05,-3.635967435568878e-14
	4.189063526692069e-23,3.289097322021780e-13
	7.780748701585738e-13,4.708888794045512e-15
	-7.773674404325156e-05,-2.972589466405348e-13
	-7.773674326517661e-05,3.635967435568880e-14
	-4.189063526692069e-23,-3.289097322021780e-13
	-7.773674326517661e-05,3.635967435568880e-14
19		1.548816618912481e+00,0.000000000000000e+00
	-7.773674326517660e-01,3.720659996978658e-10
	1.000000000000000e+00,0.000000000000000e+00
	0.000000000000000e+00,0.000000000000000e+00
	7.773674326517669e-05,-3.720659996978661e-14
	4.386488008398046e-23,3.365710240554283e-13
	7.780748701585738e-13,4.818572904376095e-15
	-7.773674404325156e-05,-3.041829969900178e-13
	-7.773674326517661e-05,3.720659996978658e-14
	-4.386488008398046e-23,-3.365710240554283e-13
	-7.773674326517661e-05,3.720659996978658e-14
20		1.584893192461113e+00,0.000000000000000e+00
	-7.773674326517660e-01,3.807325301567592e-10
	1.000000000000000e+00,0.000000000000000e+00
	0.000000000000000e+00,0.000000000000000e+00
	7.773674326517669e-05,-3.807325301567596e-14
	4.593216819276527e-23,3.444107703206769e-13
	7.780748701585738e-13,4.930811885842048e-15
	-7.773674404325156e-05,-3.112683291908430e-13
	-7.773674326517661e-05,3.807325301567593e-14
	-4.593216819276527e-23,-3.444107703206769e-13
	-7.773674326517661e-05,3.807325301567593e-14
21		1.621810097358929e+00,0.000000000000000e+00
	-7.773674326517660e-01,3.896009300427327e-10
	1.000000000000000e+00,0.000000000000000e+00
	0.000000000000000e+00,0.000000000000000e+00
	7.773674326517669e-05,-3.896009300427327e-14
	4.809688458852001e-23,3.524331277351649e-13
	7.780748701585738e-13,5.045665249036855e-15
	-7.773674404325156e-05,-3.185186999799285e-13
	-7.773674326517661e-05,3.896009300427327e-14
	-4.809688458852001e-23,-3.524331277351649e-13
	-7.773674326517661e-05,3.896009300427327e-14
22		1.659586907437560e+00,0.000000000000000e+00
	-7.773674326517660e-01,3.986759014987926e-10
	1.000000000000000e+00,0.000000000000000e+00
	0.000000000000000e+00,0.000000000000000e+00
	7.773674326517669e-05,-3.986759014987923e-14
	5.036362092494865e-23,3.606423498589822e-13
	7.780748701585738e-13,5.163193890733822e-15
	-7.773674404325156e-05,-3.259379535998368e-13
	-7.773674326517661e-05,3.986759014987926e-14
	-5.036362092494865e-23,-3.606423498589822e-13
	-7.773674326517661e-05,3.986759014987926e-14
23		1.698243652461743e+00,0.000000000000000e+00
	-7.773674326517660e-01,4.079622561949267e-10
	1.000000000000000e+00,0.000000000000000e+00
	0.000000000000000e+00,0.000000000000000e+00
	7.773674326517669e-05,-4.079622561949263e-14
	5.273718525372738e-23,3.690427893303605e-13
	7.780748701585738e-13,5.283460126174742e-15
	-7.773674404325156e-05,-3.335300238370426e-13
	-7.773674326517661e-05,4.079622561949268e-14
	-5.273718525372738e-23,-3.690427893303605e-13
	-7.773674326517661e-05,4.079622561949268e-14
24		1.737800828749374e+00,0.000000000000000e+00
	-7.773674326517660e-01,4.174649178793142e-10
	1.000000000000000e+00,0.000000000000000e+00
	0.000000000000000e+00,0.000000000000000e+00
	7.773674326517669e-05,-4.174649178793142e-14
	5.522261222302685e-23,3.776389001735005e-13
	7.780748701585738e-13,5.406527722109464e-15
	-7.773674404325156e-05,-3.412989361076785e-13
	-7.773674326517661e-05,4.174649178793142e-14
	-5.522261222302685e-23,-3.776389001735005e-13
	-7.773674326517661e-05,4.174649178793142e-14
25		1.778279410038922e+00,0.000000000000000e+00
	-7.773674326517660e-01,4.271889249889626e-10
	1.000000000000000e+00,0.000000000000000e+00
	0.000000000000000e+00,0.000000000000000e+00
	7.773674326517669e-05,-4.271889249889630e-14
	5.782517375667595e-23,3.864352401601544e-13
	7.780748701585738e-13,5.532461930606192e-15
	-7.773674404325156e-05,-3.492488095918643e-13
	-7.773674326517661e-05,4.271889249889626e-14
	-5.782517375667595e-23,-3.864352401601544e-13
	-7.773674326517661e-05,4.271889249889626e-14
26		1.819700858609982e+00,0.000000000000000e+00
	-7.773674326517660e-01,4.371394333211541e-10
	1.000000000000000e+00,0.000000000000000e+00
	0.000000000000000e+00,0.000000000000000e+00
	7.773674326517669e-05,-4.371394333211544e-14
	6.055039023661906e-23,3.954364732262162e-13
	7.780748701585738e-13,5.661329523649383e-15
	-7.773674404325156e-05,-3.573838594177501e-13
	-7.773674326517661e-05,4.371394333211541e-14
	-6.055039023661906e-23,-3.954364732262162e-13
	-7.773674326517661e-05,4.371394333211541e-14
27		1.862087136662866e+00,0.000000000000000e+00
	-7.773674326517660e-01,4.473217187671170e-10
	1.000000000000000e+00,0.000000000000000e+00
	0.000000000000000e+00,0.000000000000000e+00
	7.773674326517669e-05,-4.473217187671171e-14
	6.340404221238627e-23,4.046473719446030e-13
	7.780748701585738e-13,5.793198828542563e-15
	-7.773674404325156e-05,-3.657083988964339e-13
	-7.773674326517661e-05,4.473217187671171e-14
	-6.340404221238627e-23,-4.046473719446030e-13
	-7.773674326517661e-05,4.473217187671171e-14
28		1.905460717963246e+00,0.000000000000000e+00
	-7.773674326517660e-01,4.577411801093731e-10
	1.000000000000000e+00,0.000000000000000e+00
	0.000000000000000e+00,0.000000000000000e+00
	7.773674326517669e-05,-4.577411801093737e-14
	6.639218266241397e-23,4.140728200557361e-13
	7.780748701585738e-13,5.928139764136661e-15
	-7.773674404325156e-05,-3.742268418089354e-13
	-7.773674326517661e-05,4.577411801093731e-14
	-6.639218266241397e-23,-4.140728200557361e-13
	-7.773674326517661e-05,4.577411801093731e-14
29		1.949844599758044e+00,0.000000000000000e+00
	-7.773674326517660e-01,4.684033418842441e-10
	1.000000000000000e+00,0.000000000000000e+00
	0.000000000000000e+00,0.000000000000000e+00
	7.773674326517669e-05,-4.684033418842440e-14
	6.952114983322367e-23,4.237178150569645e-13
	7.780748701585738e-13,6.066223877901918e-15
	-7.773674404325156e-05,-3.829437047464420e-13
	-7.773674326517661e-05,4.684033418842441e-14
	-6.952114983322367e-23,-4.237178150569645e-13
	-7.773674326517661e-05,4.684033418842441e-14
30		1.995262314968878e+00,0.000000000000000e+00
	-7.773674326517660e-01,4.793138573110331e-10
	1.000000000000000e+00,0.000000000000000e+00
	0.000000000000000e+00,0.000000000000000e+00
	7.773674326517669e-05,-4.793138573110331e-14
	7.279758068369251e-23,4.335874708523043e-13
	7.780748701585738e-13,6.207524383863248e-15
	-7.773674404325156e-05,-3.918636095050642e-13
	-7.773674326517661e-05,4.793138573110331e-14
	-7.279758068369251e-23,-4.335874708523043e-13
	-7.773674326517661e-05,4.793138573110331e-14
31		2.041737944669527e+00,0.000000000000000e+00
	-7.773674326517660e-01,4.904785112894374e-10
	1.000000000000000e+00,0.000000000000000e+00
	0.000000000000000e+00,0.000000000000000e+00
	7.773674326517669e-05,-4.904785112894376e-14
	7.622842496293312e-23,4.436870204638986e-13
	7.780748701585738e-13,6.352116201419152e-15
	-7.773674404325156e-05,-4.009912855363740e-13
	-7.773674326517661e-05,4.904785112894374e-14
	-7.622842496293312e-23,-4.436870204638986e-13
	-7.773674326517661e-05,4.904785112894374e-14
32		2.089296130854037e+00,0.000000000000000e+00
	-7.773674326517660e-01,5.019032234667781e-10
	1.000000000000000e+00,0.000000000000000e+00
	0.000000000000000e+00,0.000000000000000e+00
	7.773674326517669e-05,-5.019032234667783e-14
	7.982095995164311e-23,4.540218188066351e-13
	7.780748701585738e-13,6.500075995065274e-15
	-7.773674404325156e-05,-4.103315724550225e-13
	-7.773674326517661e-05,5.019032234667782e-14
	-7.982095995164311e-23,-4.540218188066351e-13
	-7.773674326517661e-05,5.019032234667782e-14
33		2.137962089502230e+00,0.000000000000000e+00
	-7.773674326517660e-01,5.135940513766754e-10
	1.000000000000000e+00,0.000000000000000e+00
	0.000000000000000e+00,0.000000000000000e+00
	7.773674326517669e-05,-5.135940513766756e-14
	8.358280589819305e-23,4.645973455273920e-13
	7.780748701585738e-13,6.651482215042675e-15
	-7.773674404325156e-05,-4.198894226047671e-13
	-7.773674326517661e-05,5.135940513766754e-14
	-8.358280589819305e-23,-4.645973455273920e-13
	-7.773674326517661e-05,5.135940513766754e-14
34		2.187761623949550e+00,0.000000000000000e+00
	-7.773674326517660e-01,5.255571936508335e-10
	1.000000000000000e+00,0.000000000000000e+00
	0.000000000000000e+00,0.000000000000000e+00
	7.773674326517669e-05,-5.255571936508339e-14
	8.752194218219505e-23,4.754192079104203e-13
	7.780748701585738e-13,6.806415138933242e-15
	-7.773674404325156e-05,-4.296699036842702e-13
	-7.773674326517661e-05,5.255571936508335e-14
	-8.752194218219505e-23,-4.754192079104203e-13
	-7.773674326517661e-05,5.255571936508335e-14
35		2.238721138568337e+00,0.000000000000000e+00
	-7.773674326517660e-01,5.377989933056373e-10
	1.000000000000000e+00,0.000000000000000e+00
	0.000000000000000e+00,0.000000000000000e+00
	7.773674326517669e-05,-5.377989933056369e-14
	9.164672423983670e-23,4.864931438504000e-13
	7.780748701585738e-13,6.964956914223948e-15
	-7.773674404325156e-05,-4.396782014340603e-13
	-7.773674326517661e-05,5.377989933056373e-14
	-9.164672423983670e-23,-4.864931438504000e-13
	-7.773674326517661e-05,5.377989933056373e-14
36		2.290867652767770e+00,0.000000000000000e+00
	-7.773674326517660e-01,5.503259411053027e-10
	1.000000000000000e+00,0.000000000000000e+00
	0.000000000000000e+00,0.000000000000000e+00
	7.773674326517669e-05,-5.503259411053024e-14
	9.596590128688135e-23,4.978250248947472e-13
	7.780748701585738e-13,7.127191601862726e-15
	-7.773674404325156e-05,-4.499196223860797e-13
	-7.773674326517661e-05,5.503259411053027e-14
	-9.596590128688135e-23,-4.978250248947472e-13
	-7.773674326517661e-05,5.503259411053027e-14
37		2.344228815319919e+00,0.000000000000000e+00
	-7.773674326517660e-01,5.631446790033672e-10
	1.000000000000000e+00,0.000000000000000e+00
	0.000000000000000e+00,0.000000000000000e+00
	7.773674326517669e-05,-5.631446790033672e-14
	1.004886348769280e-22,5.094208593567867e-13
	7.780748701585738e-13,7.293205220828380e-15
	-7.773674404325156e-05,-4.603995966772784e-13
	-7.773674326517661e-05,5.631446790033673e-14
	-1.004886348769280e-22,-5.094208593567867e-13
	-7.773674326517661e-05,5.631446790033673e-14
38		2.398832919019488e+00,0.000000000000000e+00
	-7.773674326517660e-01,5.762620036643405e-10
	1.000000000000000e+00,0.000000000000000e+00
	0.000000000000000e+00,0.000000000000000e+00
