LTspice 24.0.9 for Windows
Circuit: * GA CMOS Amp | W=3.1770391542279314e-05 L=5.098548068830463e-07 Vbias=1.3593775193666486
Start Time: Sat Sep  6 22:12:14 2025
solver = Normal
Maximum thread count: 2
tnom = 27
temp = 27
method = modified trap
AsciiRawFile = 1
Direct Newton iteration for .op point succeeded.
Semiconductor Device Operating Points:
                        --- BSIM4 MOSFETS ---
Name:      m1
Model:      n
Id:      1.77e-04
Vgs:     1.36e+00
Vds:     3.07e-02
Vbs:     0.00e+00
Vth:     2.50e-01
Vdsat:   7.74e-01
Gm:     -2.28e-05
Gds:     5.75e-03
Gmb      9.05e-05
Cbd:     1.57e-14
Cbs:     2.54e-14


.measure op idd find i(vdd)
  Error: FIND can not be evaluated over an interval.

gain_db: MAX(db(v(out)/v(g)))=(32.8517dB,180°) FROM 1 TO 1e+09
gain_lin: MAX(mag(v(out)/v(g)))=(-9.62277dB,0°) FROM 1 TO 1e+09

Measurement "fc" FAIL'ed

Total elapsed time: 0.572 seconds.

