Title: * GA CMOS Amp | W=2.1213489192609484e-05 L=9.627202509490908e-07 Vbias=1.2061071234130516
Date: Mon Sep  8 18:47:07 2025
Plotname: AC Analysis
Flags: complex forward log
No. Variables: 11
No. Points:          901
Offset:    0.0000000000000000e+00
Command: Linear Technology Corporation LTspice
Variables:
	0	frequency	frequency
	1	V(out)	voltage
	2	V(g)	voltage
	3	V(vdd)	voltage
	4	Id(M1)	device_current
	5	Ig(M1)	device_current
	6	Ib(M1)	device_current
	7	Is(M1)	device_current
	8	I(Rload)	device_current
	9	I(Vg)	device_current
	10	I(Vdd)	device_current
Values:
0		1.000000000000000e+00,0.000000000000000e+00
	-5.849015777579629e-01,2.791036487001102e-10
	1.000000000000000e+00,0.000000000000000e+00
	0.000000000000000e+00,0.000000000000000e+00
	5.849015777579635e-05,-2.791036487001108e-14
	3.072170021630485e-23,2.934249760782658e-13
	5.853671497177415e-13,3.657279880515408e-15
	-5.849015836116350e-05,-2.691718910887701e-13
	-5.849015777579630e-05,2.791036487001102e-14
	-3.072170021630485e-23,-2.934249760782658e-13
	-5.849015777579630e-05,2.791036487001102e-14
1		1.023292992280754e+00,0.000000000000000e+00
	-5.849015777579629e-01,2.856048078348122e-10
	1.000000000000000e+00,0.000000000000000e+00
	0.000000000000000e+00,0.000000000000000e+00
	5.849015777579635e-05,-2.856048078348125e-14
	3.216956934115431e-23,3.002597217810373e-13
	5.853671497177415e-13,3.742468872540773e-15
	-5.849015836116350e-05,-2.754417098700968e-13
	-5.849015777579630e-05,2.856048078348122e-14
	-3.216956934115431e-23,-3.002597217810373e-13
	-5.849015777579630e-05,2.856048078348122e-14
2		1.047128548050899e+00,0.000000000000000e+00
	-5.849015777579629e-01,2.922573984190548e-10
	1.000000000000000e+00,0.000000000000000e+00
	0.000000000000000e+00,0.000000000000000e+00
	5.849015777579635e-05,-2.922573984190546e-14
	3.368567443562563e-23,3.072536691627043e-13
	5.853671497177415e-13,3.829642171099862e-15
	-5.849015836116350e-05,-2.818575714918987e-13
	-5.849015777579630e-05,2.922573984190548e-14
	-3.368567443562563e-23,-3.072536691627043e-13
	-5.849015777579630e-05,2.922573984190548e-14
3		1.071519305237606e+00,0.000000000000000e+00
	-5.849015777579629e-01,2.990649477444230e-10
	1.000000000000000e+00,0.000000000000000e+00
	0.000000000000000e+00,0.000000000000000e+00
	5.849015777579635e-05,-2.990649477444230e-14
	3.527323136189197e-23,3.144105265067445e-13
	5.853671497177415e-13,3.918845996629346e-15
	-5.849015836116350e-05,-2.884228777289316e-13
	-5.849015777579630e-05,2.990649477444230e-14
	-3.527323136189197e-23,-3.144105265067445e-13
	-5.849015777579630e-05,2.990649477444230e-14
4		1.096478196143185e+00,0.000000000000000e+00
	-5.849015777579629e-01,3.060310652636779e-10
	1.000000000000000e+00,0.000000000000000e+00
	0.000000000000000e+00,0.000000000000000e+00
	5.849015777579635e-05,-3.060310652636786e-14
	3.693560754104137e-23,3.217340884736540e-13
	5.853671497177415e-13,4.010127646178317e-15
	-5.849015836116350e-05,-2.951411095934644e-13
	-5.849015777579630e-05,3.060310652636779e-14
	-3.693560754104137e-23,-3.217340884736540e-13
	-5.849015777579630e-05,3.060310652636779e-14
5		1.122018454301963e+00,0.000000000000000e+00
	-5.849015777579629e-01,3.131594445045358e-10
	1.000000000000000e+00,0.000000000000000e+00
	0.000000000000000e+00,0.000000000000000e+00
	5.849015777579635e-05,-3.131594445045360e-14
	3.867632909582852e-23,3.292282381129263e-13
	5.853671497177415e-13,4.103535518485536e-15
	-5.849015836116350e-05,-3.020158291809582e-13
	-5.849015777579630e-05,3.131594445045358e-14
	-3.867632909582852e-23,-3.292282381129263e-13
	-5.849015777579630e-05,3.131594445045358e-14
6		1.148153621496882e+00,0.000000000000000e+00
	-5.849015777579629e-01,3.204538650280252e-10
	1.000000000000000e+00,0.000000000000000e+00
	0.000000000000000e+00,0.000000000000000e+00
	5.849015777579635e-05,-3.204538650280253e-14
	4.049908833005368e-23,3.368969489218970e-13
	5.853671497177415e-13,4.199119139641467e-15
	-5.849015836116350e-05,-3.090506815587359e-13
	-5.849015777579630e-05,3.204538650280252e-14
	-4.049908833005368e-23,-3.368969489218970e-13
	-5.849015777579630e-05,3.204538650280252e-14
7		1.174897554939529e+00,0.000000000000000e+00
	-5.849015777579629e-01,3.279181944324608e-10
	1.000000000000000e+00,0.000000000000000e+00
	0.000000000000000e+00,0.000000000000000e+00
	5.849015777579635e-05,-3.279181944324611e-14
	4.240775156043423e-23,3.447442869525443e-13
	5.853671497177415e-13,4.296929189347073e-15
	-5.849015836116350e-05,-3.162493966986453e-13
	-5.849015777579630e-05,3.279181944324608e-14
	-4.240775156043423e-23,-3.447442869525443e-13
	-5.849015777579630e-05,3.279181944324608e-14
8		1.202264434617413e+00,0.000000000000000e+00
	-5.849015777579629e-01,3.355563904040950e-10
	1.000000000000000e+00,0.000000000000000e+00
	0.000000000000000e+00,0.000000000000000e+00
	5.849015777579635e-05,-3.355563904040951e-14
	4.440636731758077e-23,3.527744129673640e-13
	5.853671497177415e-13,4.397017527785495e-15
	-5.849015836116350e-05,-3.236157914547400e-13
	-5.849015777579630e-05,3.355563904040950e-14
	-4.440636731758077e-23,-3.527744129673640e-13
	-5.849015777579630e-05,3.355563904040950e-14
9		1.230268770812381e+00,0.000000000000000e+00
	-5.849015777579629e-01,3.433725028155352e-10
	1.000000000000000e+00,0.000000000000000e+00
	0.000000000000000e+00,0.000000000000000e+00
	5.849015777579635e-05,-3.433725028155356e-14
	4.649917493347327e-23,3.609915846454604e-13
	5.853671497177415e-13,4.499437223118541e-15
	-5.849015836116350e-05,-3.311537715870253e-13
	-5.849015777579630e-05,3.433725028155352e-14
	-4.649917493347327e-23,-3.609915846454604e-13
	-5.849015777579630e-05,3.433725028155352e-14
10		1.258925411794167e+00,0.000000000000000e+00
	-5.849015777579629e-01,3.513706758730408e-10
	1.000000000000000e+00,0.000000000000000e+00
	0.000000000000000e+00,0.000000000000000e+00
	5.849015777579635e-05,-3.513706758730406e-14
	4.869061353365265e-23,3.694001588400243e-13
	5.853671497177415e-13,4.604242579624329e-15
	-5.849015836116350e-05,-3.388673338323446e-13
	-5.849015777579630e-05,3.513706758730408e-14
	-4.869061353365265e-23,-3.694001588400243e-13
	-5.849015777579630e-05,3.513706758730408e-14
11		1.288249551693134e+00,0.000000000000000e+00
	-5.849015777579629e-01,3.595551503138349e-10
	1.000000000000000e+00,0.000000000000000e+00
	0.000000000000000e+00,0.000000000000000e+00
	5.849015777579635e-05,-3.595551503138352e-14
	5.098533145320118e-23,3.780045938883944e-13
	5.853671497177415e-13,4.711489166490283e-15
	-5.849015836116350e-05,-3.467605680235011e-13
	-5.849015777579630e-05,3.595551503138349e-14
	-5.098533145320118e-23,-3.780045938883944e-13
	-5.849015777579630e-05,3.595551503138349e-14
12		1.318256738556407e+00,0.000000000000000e+00
	-5.849015777579629e-01,3.679302656546004e-10
	1.000000000000000e+00,0.000000000000000e+00
	0.000000000000000e+00,0.000000000000000e+00
	5.849015777579635e-05,-3.679302656546013e-14
	5.338819609648440e-23,3.868094519759263e-13
	5.853671497177415e-13,4.821233847276267e-15
	-5.849015836116350e-05,-3.548376592577424e-13
	-5.849015777579630e-05,3.679302656546004e-14
	-5.338819609648440e-23,-3.868094519759263e-13
	-5.849015777579630e-05,3.679302656546004e-14
13		1.348962882591653e+00,0.000000000000000e+00
	-5.849015777579629e-01,3.765004624923488e-10
	1.000000000000000e+00,0.000000000000000e+00
	0.000000000000000e+00,0.000000000000000e+00
	5.849015777579635e-05,-3.765004624923491e-14
	5.590430426156843e-23,3.958194015549243e-13
	5.853671497177415e-13,4.933534810064520e-15
	-5.849015836116350e-05,-3.631028901157539e-13
	-5.849015777579630e-05,3.765004624923489e-14
	-5.590430426156843e-23,-3.958194015549243e-13
	-5.849015777579630e-05,3.765004624923489e-14
14		1.380384264602885e+00,0.000000000000000e+00
	-5.849015777579629e-01,3.852702848588835e-10
	1.000000000000000e+00,0.000000000000000e+00
	0.000000000000000e+00,0.000000000000000e+00
	5.849015777579635e-05,-3.852702848588843e-14
	5.853899295121187e-23,4.050392198199159e-13
	5.853671497177415e-13,5.048451598312193e-15
	-5.849015836116350e-05,-3.715606429323397e-13
	-5.849015777579630e-05,3.852702848588835e-14
	-5.853899295121187e-23,-4.050392198199159e-13
	-5.849015777579630e-05,3.852702848588835e-14
15		1.412537544622754e+00,0.000000000000000e+00
	-5.849015777579629e-01,3.942443826301054e-10
	1.000000000000000e+00,0.000000000000000e+00
	0.000000000000000e+00,0.000000000000000e+00
	5.849015777579635e-05,-3.942443826301054e-14
	6.129785069336433e-23,4.144737952405839e-13
	5.853671497177415e-13,5.166045142421444e-15
	-5.849015836116350e-05,-3.802154021199948e-13
	-5.849015777579630e-05,3.942443826301054e-14
	-6.129785069336433e-23,-4.144737952405839e-13
	-5.849015777579630e-05,3.942443826301054e-14
16		1.445439770745927e+00,0.000000000000000e+00
	-5.849015777579629e-01,4.034275139914390e-10
	1.000000000000000e+00,0.000000000000000e+00
	0.000000000000000e+00,0.000000000000000e+00
	5.849015777579635e-05,-4.034275139914393e-14
	6.418672939518338e-23,4.241281301536976e-13
	5.853671497177415e-13,5.286377792045819e-15
	-5.849015836116350e-05,-3.890717565465995e-13
	-5.849015777579630e-05,4.034275139914390e-14
	-6.418672939518338e-23,-4.241281301536976e-13
	-5.849015777579630e-05,4.034275139914390e-14
17		1.479108388168207e+00,0.000000000000000e+00
	-5.849015777579629e-01,4.128245479606854e-10
	1.000000000000000e+00,0.000000000000000e+00
	0.000000000000000e+00,0.000000000000000e+00
	5.849015777579635e-05,-4.128245479606857e-14
	6.721175675571436e-23,4.340073434154183e-13
	5.853671497177415e-13,5.409513349149109e-15
	-5.849015836116350e-05,-3.981344019684989e-13
	-5.849015777579630e-05,4.128245479606855e-14
	-6.721175675571436e-23,-4.340073434154183e-13
	-5.849015777579630e-05,4.128245479606855e-14
18		1.513561248436208e+00,0.000000000000000e+00
	-5.849015777579629e-01,4.224404669696395e-10
	1.000000000000000e+00,0.000000000000000e+00
	0.000000000000000e+00,0.000000000000000e+00
	5.849015777579635e-05,-4.224404669696401e-14
	7.037934926356141e-23,4.441166731153843e-13
	5.853671497177415e-13,5.535517101833575e-15
	-5.849015836116350e-05,-4.074081435202538e-13
	-5.849015777579630e-05,4.224404669696395e-14
	-7.037934926356141e-23,-4.441166731153843e-13
	-5.849015777579630e-05,4.224404669696395e-14
19		1.548816618912481e+00,0.000000000000000e+00
	-5.849015777579629e-01,4.322803695058415e-10
	1.000000000000000e+00,0.000000000000000e+00
	0.000000000000000e+00,0.000000000000000e+00
	5.849015777579635e-05,-4.322803695058414e-14
	7.369622580712022e-23,4.544614793540151e-13
	5.853671497177415e-13,5.664455858956521e-15
	-5.849015836116350e-05,-4.168978982623875e-13
	-5.849015777579630e-05,4.322803695058415e-14
	-7.369622580712022e-23,-4.544614793540151e-13
	-5.849015777579630e-05,4.322803695058415e-14
20		1.584893192461113e+00,0.000000000000000e+00
	-5.849015777579629e-01,4.423494728158626e-10
	1.000000000000000e+00,0.000000000000000e+00
	0.000000000000000e+00,0.000000000000000e+00
	5.849015777579635e-05,-4.423494728158631e-14
	7.716942192624101e-23,4.650472470845083e-13
	5.853671497177415e-13,5.796397985553864e-15
	-5.849015836116350e-05,-4.266086977884758e-13
	-5.849015777579630e-05,4.423494728158626e-14
	-7.716942192624101e-23,-4.650472470845083e-13
	-5.849015777579630e-05,4.423494728158626e-14
21		1.621810097358929e+00,0.000000000000000e+00
	-5.849015777579629e-01,4.526531156715581e-10
	1.000000000000000e+00,0.000000000000000e+00
	0.000000000000000e+00,0.000000000000000e+00
	5.849015777579635e-05,-4.526531156715589e-14
	8.080630473555199e-23,4.758795890210336e-13
	5.853671497177415e-13,5.931413439087601e-15
	-5.849015836116350e-05,-4.365456908929654e-13
	-5.849015777579630e-05,4.526531156715581e-14
	-8.080630473555199e-23,-4.758795890210336e-13
	-5.849015777579630e-05,4.526531156715581e-14
22		1.659586907437560e+00,0.000000000000000e+00
	-5.849015777579629e-01,4.631967612007551e-10
	1.000000000000000e+00,0.000000000000000e+00
	0.000000000000000e+00,0.000000000000000e+00
	5.849015777579635e-05,-4.631967612007552e-14
	8.461458855109709e-23,4.869642486146691e-13
	5.853671497177415e-13,6.069573806538168e-15
	-5.849015836116350e-05,-4.467141463011317e-13
	-5.849015777579630e-05,4.631967612007551e-14
	-8.461458855109709e-23,-4.869642486146691e-13
	-5.849015777579630e-05,4.631967612007551e-14
23		1.698243652461743e+00,0.000000000000000e+00
	-5.849015777579629e-01,4.739859997838746e-10
	1.000000000000000e+00,0.000000000000000e+00
	0.000000000000000e+00,0.000000000000000e+00
	5.849015777579635e-05,-4.739859997838741e-14
	8.860235125343457e-23,4.983071030986538e-13
	5.853671497177415e-13,6.210952342361252e-15
	-5.849015836116350e-05,-4.571194554626276e-13
	-5.849015777579630e-05,4.739859997838746e-14
	-8.860235125343457e-23,-4.983071030986538e-13
	-5.849015777579630e-05,4.739859997838746e-14
24		1.737800828749374e+00,0.000000000000000e+00
	-5.849015777579629e-01,4.850265520180258e-10
	1.000000000000000e+00,0.000000000000000e+00
	0.000000000000000e+00,0.000000000000000e+00
	5.849015777579635e-05,-4.850265520180259e-14
	9.277805142190470e-23,5.099141666045756e-13
	5.853671497177415e-13,6.355624007328117e-15
	-5.849015836116350e-05,-4.677671354101011e-13
	-5.849015777579630e-05,4.850265520180258e-14
	-9.277805142190470e-23,-5.099141666045756e-13
	-5.849015777579630e-05,4.850265520180258e-14
25		1.778279410038922e+00,0.000000000000000e+00
	-5.849015777579629e-01,4.963242717501424e-10
	1.000000000000000e+00,0.000000000000000e+00
	0.000000000000000e+00,0.000000000000000e+00
	5.849015777579635e-05,-4.963242717501427e-14
	9.715054627641077e-23,5.217915933511432e-13
	5.853671497177415e-13,6.503665508270061e-15
	-5.849015836116350e-05,-4.786628316843990e-13
	-5.849015777579630e-05,4.963242717501424e-14
	-9.715054627641077e-23,-5.217915933511432e-13
	-5.849015777579630e-05,4.963242717501424e-14
26		1.819700858609982e+00,0.000000000000000e+00
	-5.849015777579629e-01,5.078851491807694e-10
	1.000000000000000e+00,0.000000000000000e+00
	0.000000000000000e+00,0.000000000000000e+00
	5.849015777579635e-05,-5.078851491807691e-14
	1.017291104647697e-22,5.339456809072337e-13
	5.853671497177415e-13,6.655155338750821e-15
	-5.849015836116350e-05,-4.898123213279076e-13
	-5.849015777579630e-05,5.078851491807695e-14
	-1.017291104647697e-22,-5.339456809072337e-13
	-5.849015777579630e-05,5.078851491807695e-14
27		1.862087136662866e+00,0.000000000000000e+00
	-5.849015777579629e-01,5.197153140401467e-10
	1.000000000000000e+00,0.000000000000000e+00
	0.000000000000000e+00,0.000000000000000e+00
	5.849015777579635e-05,-5.197153140401468e-14
	1.065234557354839e-22,5.463828735309478e-13
	5.853671497177415e-13,6.810173820683692e-15
	-5.849015836116350e-05,-5.012215159476168e-13
	-5.849015777579630e-05,5.197153140401467e-14
	-1.065234557354839e-22,-5.463828735309478e-13
	-5.849015777579630e-05,5.197153140401467e-14
28		1.905460717963246e+00,0.000000000000000e+00
	-5.849015777579629e-01,5.318210388382734e-10
	1.000000000000000e+00,0.000000000000000e+00
	0.000000000000000e+00,0.000000000000000e+00
	5.849015777579635e-05,-5.318210388382738e-14
	1.115437515376615e-22,5.591097655864405e-13
	5.853671497177415e-13,6.968803146919363e-15
	-5.849015836116350e-05,-5.128964648495325e-13
	-5.849015777579630e-05,5.318210388382735e-14
	-1.115437515376615e-22,-5.591097655864405e-13
	-5.849015777579630e-05,5.318210388382735e-14
29		1.949844599758044e+00,0.000000000000000e+00
	-5.849015777579629e-01,5.442087421906762e-10
	1.000000000000000e+00,0.000000000000000e+00
	0.000000000000000e+00,0.000000000000000e+00
	5.849015777579635e-05,-5.442087421906757e-14
	1.168006465917818e-22,5.721331050403397e-13
	5.853671497177415e-13,7.131127424826686e-15
	-5.849015836116350e-05,-5.248433582460988e-13
	-5.849015777579630e-05,5.442087421906762e-14
	-1.168006465917818e-22,-5.721331050403397e-13
	-5.849015777579630e-05,5.442087421906762e-14
30		1.995262314968878e+00,0.000000000000000e+00
	-5.849015777579629e-01,5.568849922216425e-10
	1.000000000000000e+00,0.000000000000000e+00
	0.000000000000000e+00,0.000000000000000e+00
	5.849015777579635e-05,-5.568849922216425e-14
	1.223052914770587e-22,5.854597970396082e-13
	5.853671497177415e-13,7.297232720886261e-15
	-5.849015836116350e-05,-5.370685305383302e-13
	-5.849015777579630e-05,5.568849922216425e-14
	-1.223052914770587e-22,-5.854597970396082e-13
	-5.849015777579630e-05,5.568849922216425e-14
31		2.041737944669527e+00,0.000000000000000e+00
	-5.849015777579629e-01,5.698565100467288e-10
	1.000000000000000e+00,0.000000000000000e+00
	0.000000000000000e+00,0.000000000000000e+00
	5.849015777579635e-05,-5.698565100467296e-14
	1.280693622833145e-22,5.990969075727436e-13
	5.853671497177415e-13,7.467207106324714e-15
	-5.849015836116350e-05,-5.495784636743953e-13
	-5.849015777579630e-05,5.698565100467288e-14
	-1.280693622833145e-22,-5.990969075727436e-13
	-5.849015777579630e-05,5.698565100467288e-14
32		2.089296130854037e+00,0.000000000000000e+00
	-5.849015777579629e-01,5.831301733363848e-10
	1.000000000000000e+00,0.000000000000000e+00
	0.000000000000000e+00,0.000000000000000e+00
	5.849015777579635e-05,-5.831301733363855e-14
	1.341050853775317e-22,6.130516672162592e-13
	5.853671497177415e-13,7.641140703811125e-15
	-5.849015836116350e-05,-5.623797905864317e-13
	-5.849015777579630e-05,5.831301733363848e-14
	-1.341050853775317e-22,-6.130516672162592e-13
	-5.849015777579630e-05,5.831301733363848e-14
33		2.137962089502230e+00,0.000000000000000e+00
	-5.849015777579629e-01,5.967130199625840e-10
	1.000000000000000e+00,0.000000000000000e+00
	0.000000000000000e+00,0.000000000000000e+00
	5.849015777579635e-05,-5.967130199625842e-14
	1.404252633376167e-22,6.273314749684310e-13
	5.853671497177415e-13,7.819125735241094e-15
	-5.849015836116350e-05,-5.754792987074137e-13
	-5.849015777579630e-05,5.967130199625841e-14
	-1.404252633376167e-22,-6.273314749684310e-13
	-5.849015777579630e-05,5.967130199625841e-14
34		2.187761623949550e+00,0.000000000000000e+00
	-5.849015777579629e-01,6.106122517303979e-10
	1.000000000000000e+00,0.000000000000000e+00
	0.000000000000000e+00,0.000000000000000e+00
	5.849015777579635e-05,-6.106122517303988e-14
	1.470433021083838e-22,6.419439021723447e-13
	5.853671497177415e-13,8.001256570634304e-15
	-5.849015836116350e-05,-5.888839335699392e-13
	-5.849015777579630e-05,6.106122517303979e-14
	-1.470433021083838e-22,-6.419439021723447e-13
	-5.849015777579630e-05,6.106122517303979e-14
35		2.238721138568337e+00,0.000000000000000e+00
	-5.849015777579629e-01,6.248352381964880e-10
	1.000000000000000e+00,0.000000000000000e+00
	0.000000000000000e+00,0.000000000000000e+00
	5.849015777579635e-05,-6.248352381964883e-14
	1.539732394373617e-22,6.568966965303223e-13
	5.853671497177415e-13,8.187629778170520e-15
	-5.849015836116350e-05,-6.026008024888440e-13
	-5.849015777579630e-05,6.248352381964880e-14
	-1.539732394373617e-22,-6.568966965303223e-13
	-5.849015777579630e-05,6.248352381964880e-14
36		2.290867652767770e+00,0.000000000000000e+00
	-5.849015777579629e-01,6.393895205765419e-10
	1.000000000000000e+00,0.000000000000000e+00
	0.000000000000000e+00,0.000000000000000e+00
	5.849015777579635e-05,-6.393895205765421e-14
	1.612297746507380e-22,6.721977862118560e-13
	5.853671497177415e-13,8.378344175391124e-15
	-5.849015836116350e-05,-6.166371783295929e-13
	-5.849015777579630e-05,6.393895205765420e-14
	-1.612297746507380e-22,-6.721977862118560e-13
	-5.849015777579630e-05,6.393895205765420e-14
37		2.344228815319919e+00,0.000000000000000e+00
	-5.849015777579629e-01,6.542828157437263e-10
	1.000000000000000e+00,0.000000000000000e+00
	0.000000000000000e+00,0.000000000000000e+00
	5.849015777579635e-05,-6.542828157437271e-14
	1.688282998326010e-22,6.878552840572287e-13
	5.853671497177415e-13,8.573500881594025e-15
	-5.849015836116350e-05,-6.310005033644500e-13
	-5.849015777579630e-05,6.542828157437263e-14
	-1.688282998326010e-22,-6.878552840572287e-13
	-5.849015777579630e-05,6.542828157437263e-14
38		2.398832919019488e+00,0.000000000000000e+00
	-5.849015777579629e-01,6.695230203202750e-10
	1.000000000000000e+00,0.000000000000000e+00
	0.000000000000000e+00,0.000000000000000e+00
