LTspice 24.0.9 for Windows
Circuit: * GA CMOS Amp | W=4.403198925628785e-05 L=8.522805113816782e-07 Vbias=0.8485467912192227
Start Time: Mon Sep  8 18:43:57 2025
solver = Normal
Maximum thread count: 2
tnom = 27
temp = 27
method = modified trap
AsciiRawFile = 1
Instance "m1": Length shorter than recommended for a level 3 MOSFET.
Direct Newton iteration for .op point succeeded.
Semiconductor Device Operating Points:
                        --- MOSFET Transistors ---
Name:          m1
Model:        n_1u
Id:          4.29e-05
Vgs:         8.49e-01
Vds:         1.37e+00
Vbs:         0.00e+00
Vth:         7.94e-01
Vdsat:       9.36e-02
Gm:          7.41e-04
Gds:         5.31e-06
Gmb:         1.64e-04
Cbd:         0.00e+00
Cbs:         0.00e+00
Cgsov:       8.81e-15
Cgdov:       8.81e-15
Cgbov:       6.52e-17
Cgs:         3.31e-14
Cgd:         0.00e+00
Cgb:         0.00e+00



gain_db: MAX(db(v(out)/v(g)))=(30.1355dB,58.1628°) FROM 1 TO 1e+09
gain_lin: MAX(mag(v(out)/v(g)))=(16.9435dB,0°) FROM 1 TO 1e+09

Measurement "fc" FAIL'ed

Total elapsed time: 0.459 seconds.

