LTspice 24.0.9 for Windows
Circuit: * GA CMOS Amp | W=1e-06 L=4.773761251897884e-07 Vbias=0.5578870597870341
Start Time: Sat Sep  6 22:37:26 2025
solver = Normal
Maximum thread count: 2
tnom = 27
temp = 27
method = modified trap
AsciiRawFile = 1
Direct Newton iteration for .op point succeeded.
Semiconductor Device Operating Points:
                        --- BSIM4 MOSFETS ---
Name:      m1
Model:      n
Id:      2.51e-05
Vgs:     5.58e-01
Vds:     1.55e+00
Vbs:     0.00e+00
Vth:     2.52e-01
Vdsat:   2.45e-01
Gm:      9.82e-05
Gds:     3.82e-06
Gmb      4.30e-05
Cbd:     3.67e-16
Cbs:     8.00e-16


.measure op idd find i(vdd)
  Error: FIND can not be evaluated over an interval.

gain_db: MAX(db(v(out)/v(g)))=(28.7207dB,91.0278°) FROM 1 TO 1e+09
gain_lin: MAX(mag(v(out)/v(g)))=(-0.0765289dB,0°) FROM 1 TO 1e+09

Measurement "fc" FAIL'ed

Total elapsed time: 0.468 seconds.

