LTspice 24.0.9 for Windows
Circuit: * GA CMOS Amp | W=8.297993929460607e-06 L=7.501051436184194e-07 Vbias=0.7884650222036826
Start Time: Mon Sep  8 18:47:00 2025
solver = Normal
Maximum thread count: 2
tnom = 27
temp = 27
method = modified trap
AsciiRawFile = 1
Instance "m1": Length shorter than recommended for a level 3 MOSFET.
Direct Newton iteration for .op point succeeded.
Semiconductor Device Operating Points:
                        --- MOSFET Transistors ---
Name:          m1
Model:        n_1u
Id:          2.06e-06
Vgs:         7.88e-01
Vds:         1.78e+00
Vbs:         0.00e+00
Vth:         8.01e-01
Vdsat:       4.76e-02
Gm:          3.81e-05
Gds:         2.08e-07
Gmb:         8.77e-06
Cbd:         0.00e+00
Cbs:         0.00e+00
Cgsov:       1.66e-15
Cgdov:       1.66e-15
Cgbov:       5.50e-17
Cgs:         5.07e-15
Cgd:         0.00e+00
Cgb:         1.37e-16



gain_db: MAX(db(v(out)/v(g)))=(29.1133dB,107.127°) FROM 1 TO 1e+09
gain_lin: MAX(mag(v(out)/v(g)))=(-8.14145dB,0°) FROM 1 TO 1e+09

Measurement "fc" FAIL'ed

Total elapsed time: 0.453 seconds.

