Title: * GA CMOS Amp | W=1.4082189529527377e-05 L=1e-06 Vbias=0.9763442801344626
Date: Mon Sep  8 18:44:25 2025
Plotname: AC Analysis
Flags: complex forward log
No. Variables: 11
No. Points:          901
Offset:    0.0000000000000000e+00
Command: Linear Technology Corporation LTspice
Variables:
	0	frequency	frequency
	1	V(out)	voltage
	2	V(g)	voltage
	3	V(vdd)	voltage
	4	Id(M1)	device_current
	5	Ig(M1)	device_current
	6	Ib(M1)	device_current
	7	Is(M1)	device_current
	8	I(Rload)	device_current
	9	I(Vg)	device_current
	10	I(Vdd)	device_current
Values:
0		1.000000000000000e+00,0.000000000000000e+00
	-3.196867163047367e+00,7.059187819473613e-10
	1.000000000000000e+00,0.000000000000000e+00
	0.000000000000000e+00,0.000000000000000e+00
	3.196867163047367e-04,-7.059187819473613e-14
	1.249208084488589e-23,1.771449060810220e-13
	3.196867141667947e-12,-3.703395914883896e-15
	-3.196867195016038e-04,-1.028496319714020e-13
	-3.196867163047367e-04,7.059187819473614e-14
	-1.249208084488589e-23,-1.771449060810220e-13
	-3.196867163047367e-04,7.059187819473614e-14
1		1.023292992280754e+00,0.000000000000000e+00
	-3.196867163047367e+00,7.223617426861007e-10
	1.000000000000000e+00,0.000000000000000e+00
	0.000000000000000e+00,0.000000000000000e+00
	3.196867163047367e-04,-7.223617426861005e-14
	1.308081447723982e-23,1.812711410109422e-13
	3.196867141667947e-12,-3.789659087341878e-15
	-3.196867195016038e-04,-1.052453076549902e-13
	-3.196867163047367e-04,7.223617426861008e-14
	-1.308081447723982e-23,-1.812711410109422e-13
	-3.196867163047367e-04,7.223617426861008e-14
2		1.047128548050899e+00,0.000000000000000e+00
	-3.196867163047367e+00,7.391877091823998e-10
	1.000000000000000e+00,0.000000000000000e+00
	0.000000000000000e+00,0.000000000000000e+00
	3.196867163047367e-04,-7.391877091823998e-14
	1.369729427087531e-23,1.854934882992335e-13
	3.196867141667947e-12,-3.877931587210001e-15
	-3.196867195016038e-04,-1.076967857937835e-13
	-3.196867163047367e-04,7.391877091823998e-14
	-1.369729427087531e-23,-1.854934882992335e-13
	-3.196867163047367e-04,7.391877091823998e-14
3		1.071519305237606e+00,0.000000000000000e+00
	-3.196867163047367e+00,7.564056027864137e-10
	1.000000000000000e+00,0.000000000000000e+00
	0.000000000000000e+00,0.000000000000000e+00
	3.196867163047367e-04,-7.564056027864138e-14
	1.434282786208757e-23,1.898141866903177e-13
	3.196867141667947e-12,-3.968260217736192e-15
	-3.196867195016038e-04,-1.102053661939401e-13
	-3.196867163047367e-04,7.564056027864138e-14
	-1.434282786208757e-23,-1.898141866903177e-13
	-3.196867163047367e-04,7.564056027864138e-14
4		1.096478196143185e+00,0.000000000000000e+00
	-3.196867163047367e+00,7.740245526532367e-10
	1.000000000000000e+00,0.000000000000000e+00
	0.000000000000000e+00,0.000000000000000e+00
	3.196867163047367e-04,-7.740245526532367e-14
	1.501878451417174e-23,1.942355270756728e-13
	3.196867141667947e-12,-4.060692872355911e-15
	-3.196867195016038e-04,-1.127723789379932e-13
	-3.196867163047367e-04,7.740245526532367e-14
	-1.501878451417174e-23,-1.942355270756728e-13
	-3.196867163047367e-04,7.740245526532367e-14
5		1.122018454301963e+00,0.000000000000000e+00
	-3.196867163047367e+00,7.920539005833029e-10
	1.000000000000000e+00,0.000000000000000e+00
	0.000000000000000e+00,0.000000000000000e+00
	3.196867163047367e-04,-7.920539005833029e-14
	1.572659802181399e-23,1.987598537084947e-13
	3.196867141667947e-12,-4.155278560086216e-15
	-3.196867195016038e-04,-1.153991850900782e-13
	-3.196867163047367e-04,7.920539005833030e-14
	-1.572659802181399e-23,-1.987598537084947e-13
	-3.196867163047367e-04,7.920539005833030e-14
6		1.148153621496882e+00,0.000000000000000e+00
	-3.196867163047367e+00,8.105032059755309e-10
	1.000000000000000e+00,0.000000000000000e+00
	0.000000000000000e+00,0.000000000000000e+00
	3.196867163047367e-04,-8.105032059755310e-14
	1.646776975236223e-23,2.033895654466505e-13
	3.196867141667947e-12,-4.252067431510684e-15
	-3.196867195016038e-04,-1.180871774175867e-13
	-3.196867163047367e-04,8.105032059755308e-14
	-1.646776975236223e-23,-2.033895654466505e-13
	-3.196867163047367e-04,8.105032059755308e-14
7		1.174897554939529e+00,0.000000000000000e+00
	-3.196867163047367e+00,8.293822508958454e-10
	1.000000000000000e+00,0.000000000000000e+00
	0.000000000000000e+00,0.000000000000000e+00
	3.196867163047367e-04,-8.293822508958453e-14
	1.724387183042758e-23,2.081271170245852e-13
	3.196867141667947e-12,-4.351110805370114e-15
	-3.196867195016038e-04,-1.208377811296306e-13
	-3.196867163047367e-04,8.293822508958454e-14
	-1.724387183042758e-23,-2.081271170245852e-13
	-3.196867163047367e-04,8.293822508958454e-14
8		1.202264434617413e+00,0.000000000000000e+00
	-3.196867163047367e+00,8.487010452637569e-10
	1.000000000000000e+00,0.000000000000000e+00
	0.000000000000000e+00,0.000000000000000e+00
	3.196867163047367e-04,-8.487010452637568e-14
	1.805655047257144e-23,2.129750203548545e-13
	3.196867141667947e-12,-4.452461195772306e-15
	-3.196867195016038e-04,-1.236524546327065e-13
	-3.196867163047367e-04,8.487010452637568e-14
	-1.805655047257144e-23,-2.129750203548545e-13
	-3.196867163047367e-04,8.487010452637568e-14
9		1.230268770812381e+00,0.000000000000000e+00
	-3.196867163047367e+00,8.684698321597535e-10
	1.000000000000000e+00,0.000000000000000e+00
	0.000000000000000e+00,0.000000000000000e+00
	3.196867163047367e-04,-8.684698321597533e-14
	1.890752947915152e-23,2.179358458599736e-13
	3.196867141667947e-12,-4.556172340035782e-15
	-3.196867195016038e-04,-1.265326903039625e-13
	-3.196867163047367e-04,8.684698321597535e-14
	-1.890752947915152e-23,-2.179358458599736e-13
	-3.196867163047367e-04,8.684698321597535e-14
10		1.258925411794167e+00,0.000000000000000e+00
	-3.196867163047367e+00,8.886990932563185e-10
	1.000000000000000e+00,0.000000000000000e+00
	0.000000000000000e+00,0.000000000000000e+00
	3.196867163047367e-04,-8.886990932563185e-14
	1.979861389073351e-23,2.230122238352896e-13
	3.196867141667947e-12,-4.662299227182044e-15
	-3.196867195016038e-04,-1.294800152824757e-13
	-3.196867163047367e-04,8.886990932563185e-14
	-1.979861389073351e-23,-2.230122238352896e-13
	-3.196867163047367e-04,8.886990932563185e-14
11		1.288249551693134e+00,0.000000000000000e+00
	-3.196867163047367e+00,9.093995543754512e-10
	1.000000000000000e+00,0.000000000000000e+00
	0.000000000000000e+00,0.000000000000000e+00
	3.196867163047367e-04,-9.093995543754511e-14
	2.073169381682416e-23,2.282068458435989e-13
	3.196867141667947e-12,-4.770898127091403e-15
	-3.196867195016038e-04,-1.324959922789624e-13
	-3.196867163047367e-04,9.093995543754513e-14
	-2.073169381682416e-23,-2.282068458435989e-13
	-3.196867163047367e-04,9.093995543754513e-14
12		1.318256738556407e+00,0.000000000000000e+00
	-3.196867163047367e+00,9.305821911756397e-10
	1.000000000000000e+00,0.000000000000000e+00
	0.000000000000000e+00,0.000000000000000e+00
	3.196867163047367e-04,-9.305821911756397e-14
	2.170874844504689e-23,2.335224661422490e-13
	3.196867141667947e-12,-4.882026620337965e-15
	-3.196867195016038e-04,-1.355822204043471e-13
	-3.196867163047367e-04,9.305821911756397e-14
	-2.170874844504689e-23,-2.335224661422490e-13
	-3.196867163047367e-04,9.305821911756397e-14
13		1.348962882591653e+00,0.000000000000000e+00
	-3.196867163047367e+00,9.522582349713013e-10
	1.000000000000000e+00,0.000000000000000e+00
	0.000000000000000e+00,0.000000000000000e+00
	3.196867163047367e-04,-9.522582349713012e-14
	2.273185023926418e-23,2.389619031434831e-13
	3.196867141667947e-12,-4.995743628719927e-15
	-3.196867195016038e-04,-1.387403360176330e-13
	-3.196867163047367e-04,9.522582349713012e-14
	-2.273185023926418e-23,-2.389619031434831e-13
	-3.196867163047367e-04,9.522582349713012e-14
14		1.380384264602885e+00,0.000000000000000e+00
	-3.196867163047367e+00,9.744391786877723e-10
	1.000000000000000e+00,0.000000000000000e+00
	0.000000000000000e+00,0.000000000000000e+00
	3.196867163047367e-04,-9.744391786877723e-14
	2.380316933555119e-23,2.445280409087986e-13
	3.196867141667947e-12,-5.112109446500317e-15
	-3.196867195016038e-04,-1.419720135935210e-13
	-3.196867163047367e-04,9.744391786877724e-14
	-2.380316933555119e-23,-2.445280409087986e-13
	-3.196867163047367e-04,9.744391786877724e-14
15		1.412537544622754e+00,0.000000000000000e+00
	-3.196867163047367e+00,9.971367829550108e-10
	1.000000000000000e+00,0.000000000000000e+00
	0.000000000000000e+00,0.000000000000000e+00
	3.196867163047367e-04,-9.971367829550109e-14
	2.492497814534541e-23,2.502238306781151e-13
	3.196867141667947e-12,-5.231185772376023e-15
	-3.196867195016038e-04,-1.452789666102380e-13
	-3.196867163047367e-04,9.971367829550108e-14
	-2.492497814534541e-23,-2.502238306781151e-13
	-3.196867163047367e-04,9.971367829550108e-14
16		1.445439770745927e+00,0.000000000000000e+00
	-3.196867163047367e+00,1.020363082343238e-09
	1.000000000000000e+00,0.000000000000000e+00
	0.000000000000000e+00,0.000000000000000e+00
	3.196867163047367e-04,-1.020363082343238e-13
	2.609965617553593e-23,2.560522924345612e-13
	3.196867141667947e-12,-5.353035742191162e-15
	-3.196867195016038e-04,-1.486629484580462e-13
	-3.196867163047367e-04,1.020363082343238e-13
	-2.609965617553593e-23,-2.560522924345612e-13
	-3.196867163047367e-04,1.020363082343238e-13
17		1.479108388168207e+00,0.000000000000000e+00
	-3.196867163047367e+00,1.044130391743825e-09
	1.000000000000000e+00,0.000000000000000e+00
	0.000000000000000e+00,0.000000000000000e+00
	3.196867163047367e-04,-1.044130391743825e-13
	2.732969507571663e-23,2.620165165057088e-13
	3.196867141667947e-12,-5.477723962412670e-15
	-3.196867195016038e-04,-1.521257533689136e-13
	-3.196867163047367e-04,1.044130391743825e-13
	-2.732969507571663e-23,-2.620165165057088e-13
	-3.196867163047367e-04,1.044130391743825e-13
18		1.513561248436208e+00,0.000000000000000e+00
	-3.196867163047367e+00,1.068451312898815e-09
	1.000000000000000e+00,0.000000000000000e+00
	0.000000000000000e+00,0.000000000000000e+00
	3.196867163047367e-04,-1.068451312898815e-13
	2.861770392330898e-23,2.681196652021064e-13
	3.196867141667947e-12,-5.605316544385235e-15
	-3.196867195016038e-04,-1.556692173678396e-13
	-3.196867163047367e-04,1.068451312898815e-13
	-2.861770392330898e-23,-2.681196652021064e-13
	-3.196867163047367e-04,1.068451312898815e-13
19		1.548816618912481e+00,0.000000000000000e+00
	-3.196867163047367e+00,1.093338741082529e-09
	1.000000000000000e+00,0.000000000000000e+00
	0.000000000000000e+00,0.000000000000000e+00
	3.196867163047367e-04,-1.093338741082529e-13
	2.996641475776506e-23,2.743649744939774e-13
	3.196867141667947e-12,-5.735881139384742e-15
	-3.196867195016038e-04,-1.592952192463397e-13
	-3.196867163047367e-04,1.093338741082529e-13
	-2.996641475776506e-23,-2.743649744939774e-13
	-3.196867163047367e-04,1.093338741082529e-13
20		1.584893192461113e+00,0.000000000000000e+00
	-3.196867163047367e+00,1.118805871938814e-09
	1.000000000000000e+00,0.000000000000000e+00
	0.000000000000000e+00,0.000000000000000e+00
	3.196867163047367e-04,-1.118805871938813e-13
	3.137868837558957e-23,2.807557557269749e-13
	3.196867141667947e-12,-5.869486974487773e-15
	-3.196867195016038e-04,-1.630056815586058e-13
	-3.196867163047367e-04,1.118805871938814e-13
	-3.137868837558957e-23,-2.807557557269749e-13
	-3.196867163047367e-04,1.118805871938814e-13
21		1.621810097358929e+00,0.000000000000000e+00
	-3.196867163047367e+00,1.144866208477546e-09
	1.000000000000000e+00,0.000000000000000e+00
	0.000000000000000e+00,0.000000000000000e+00
	3.196867163047367e-04,-1.144866208477547e-13
	3.285752039847274e-23,2.872953973779006e-13
	3.196867141667947e-12,-6.006204889276505e-15
	-3.196867195016038e-04,-1.668025716408694e-13
	-3.196867163047367e-04,1.144866208477546e-13
	-3.285752039847274e-23,-2.872953973779006e-13
	-3.196867163047367e-04,1.144866208477546e-13
22		1.659586907437560e+00,0.000000000000000e+00
	-3.196867163047367e+00,1.171533568234110e-09
	1.000000000000000e+00,0.000000000000000e+00
	0.000000000000000e+00,0.000000000000000e+00
	3.196867163047367e-04,-1.171533568234111e-13
	3.440604762740558e-23,2.939873668513202e-13
	3.196867141667947e-12,-6.146107373399047e-15
	-3.196867195016038e-04,-1.706879026545101e-13
	-3.196867163047367e-04,1.171533568234111e-13
	-3.440604762740558e-23,-2.939873668513202e-13
	-3.196867163047367e-04,1.171533568234111e-13
23		1.698243652461743e+00,0.000000000000000e+00
	-3.196867163047367e+00,1.198822090595632e-09
	1.000000000000000e+00,0.000000000000000e+00
	0.000000000000000e+00,0.000000000000000e+00
	3.196867163047367e-04,-1.198822090595632e-13
	3.602755469625530e-23,3.008352123180273e-13
	3.196867141667947e-12,-6.289268605004284e-15
	-3.196867195016038e-04,-1.746637346534598e-13
	-3.196867163047367e-04,1.198822090595632e-13
	-3.602755469625530e-23,-3.008352123180273e-13
	-3.196867163047367e-04,1.198822090595632e-13
24		1.737800828749374e+00,0.000000000000000e+00
	-3.196867163047367e+00,1.226746244297873e-09
	1.000000000000000e+00,0.000000000000000e+00
	0.000000000000000e+00,0.000000000000000e+00
	3.196867163047367e-04,-1.226746244297873e-13
	3.772548103891418e-23,3.078425645963301e-13
	3.196867141667947e-12,-6.435764490072253e-15
	-3.196867195016038e-04,-1.787321756764705e-13
	-3.196867163047367e-04,1.226746244297873e-13
	-3.772548103891418e-23,-3.078425645963301e-13
	-3.196867163047367e-04,1.226746244297873e-13
25		1.778279410038922e+00,0.000000000000000e+00
	-3.196867163047367e+00,1.255320835096748e-09
	1.000000000000000e+00,0.000000000000000e+00
	0.000000000000000e+00,0.000000000000000e+00
	3.196867163047367e-04,-1.255320835096748e-13
	3.950342818479994e-23,3.150131390771600e-13
	3.196867141667947e-12,-6.585672702660266e-15
	-3.196867195016038e-04,-1.828953828648249e-13
	-3.196867163047367e-04,1.255320835096748e-13
	-3.950342818479994e-23,-3.150131390771600e-13
	-3.196867163047367e-04,1.255320835096748e-13
26		1.819700858609982e+00,0.000000000000000e+00
	-3.196867163047367e+00,1.284561013618526e-09
	1.000000000000000e+00,0.000000000000000e+00
	0.000000000000000e+00,0.000000000000000e+00
	3.196867163047367e-04,-1.284561013618526e-13
	4.136516739818253e-23,3.223507376940203e-13
	3.196867141667947e-12,-6.739072726086909e-15
	-3.196867195016038e-04,-1.871555636060808e-13
	-3.196867163047367e-04,1.284561013618526e-13
	-4.136516739818253e-23,-3.223507376940203e-13
	-3.196867163047367e-04,1.284561013618526e-13
27		1.862087136662866e+00,0.000000000000000e+00
	-3.196867163047367e+00,1.314482283392900e-09
	1.000000000000000e+00,0.000000000000000e+00
	0.000000000000000e+00,0.000000000000000e+00
	3.196867163047367e-04,-1.314482283392900e-13
	4.331464767754128e-23,3.298592509388225e-13
	3.196867141667947e-12,-6.896045895075081e-15
	-3.196867195016038e-04,-1.915149767044574e-13
	-3.196867163047367e-04,1.314482283392900e-13
	-4.331464767754128e-23,-3.298592509388225e-13
	-3.196867163047367e-04,1.314482283392900e-13
28		1.905460717963246e+00,0.000000000000000e+00
	-3.196867163047367e+00,1.345100509073159e-09
	1.000000000000000e+00,0.000000000000000e+00
	0.000000000000000e+00,0.000000000000000e+00
	3.196867163047367e-04,-1.345100509073159e-13
	4.535600413192006e-23,3.375426599246758e-13
	3.196867141667947e-12,-7.056675438876791e-15
	-3.196867195016038e-04,-1.959759335784832e-13
	-3.196867163047367e-04,1.345100509073159e-13
	-4.535600413192006e-23,-3.375426599246758e-13
	-3.196867163047367e-04,1.345100509073159e-13
29		1.949844599758044e+00,0.000000000000000e+00
	-3.196867163047367e+00,1.376431924847838e-09
	1.000000000000000e+00,0.000000000000000e+00
	0.000000000000000e+00,0.000000000000000e+00
	3.196867163047367e-04,-1.376431924847838e-13
	4.749356675204805e-23,3.454050384967266e-13
	3.196867141667947e-12,-7.221046525402410e-15
	-3.196867195016038e-04,-2.005407994865404e-13
	-3.196867163047367e-04,1.376431924847838e-13
	-4.749356675204805e-23,-3.454050384967266e-13
	-3.196867163047367e-04,1.376431924847838e-13
30		1.995262314968878e+00,0.000000000000000e+00
	-3.196867163047367e+00,1.408493143048303e-09
	1.000000000000000e+00,0.000000000000000e+00
	0.000000000000000e+00,0.000000000000000e+00
	3.196867163047367e-04,-1.408493143048303e-13
	4.973186959483054e-23,3.534505553921643e-13
	3.196867141667947e-12,-7.389246306377474e-15
	-3.196867195016038e-04,-2.052119947809566e-13
	-3.196867163047367e-04,1.408493143048303e-13
	-4.973186959483054e-23,-3.534505553921643e-13
	-3.196867163047367e-04,1.408493143048303e-13
31		2.041737944669527e+00,0.000000000000000e+00
	-3.196867163047367e+00,1.441301162956822e-09
	1.000000000000000e+00,0.000000000000000e+00
	0.000000000000000e+00,0.000000000000000e+00
	3.196867163047367e-04,-1.441301162956821e-13
	5.207566040069158e-23,3.616834764505422e-13
	3.196867141667947e-12,-7.561363963552533e-15
	-3.196867195016038e-04,-2.099919961913075e-13
	-3.196867163047367e-04,1.441301162956822e-13
	-5.207566040069158e-23,-3.616834764505422e-13
	-3.196867163047367e-04,1.441301162956822e-13
32		2.089296130854037e+00,0.000000000000000e+00
	-3.196867163047367e+00,1.474873379819817e-09
	1.000000000000000e+00,0.000000000000000e+00
	0.000000000000000e+00,0.000000000000000e+00
	3.196867163047367e-04,-1.474873379819817e-13
	5.452991066416790e-23,3.701081668755810e-13
	3.196867141667947e-12,-7.737490755987529e-15
	-3.196867195016038e-04,-2.148833381376118e-13
	-3.196867163047367e-04,1.474873379819817e-13
	-5.452991066416790e-23,-3.701081668755810e-13
	-3.196867163047367e-04,1.474873379819817e-13
33		2.137962089502230e+00,0.000000000000000e+00
	-3.196867163047367e+00,1.509227594071049e-09
	1.000000000000000e+00,0.000000000000000e+00
	0.000000000000000e+00,0.000000000000000e+00
	3.196867163047367e-04,-1.509227594071050e-13
	5.709982617911537e-23,3.787290935496580e-13
	3.196867141667947e-12,-7.917720068439211e-15
	-3.196867195016038e-04,-2.198886140741139e-13
	-3.196867163047367e-04,1.509227594071049e-13
	-5.709982617911537e-23,-3.787290935496580e-13
	-3.196867163047367e-04,1.509227594071049e-13
34		2.187761623949550e+00,0.000000000000000e+00
	-3.196867163047367e+00,1.544382020769648e-09
	1.000000000000000e+00,0.000000000000000e+00
	0.000000000000000e+00,0.000000000000000e+00
	3.196867163047367e-04,-1.544382020769648e-13
	5.979085808089584e-23,3.875508274022072e-13
	3.196867141667947e-12,-8.102147460874512e-15
	-3.196867195016038e-04,-2.250104778643679e-13
	-3.196867163047367e-04,1.544382020769648e-13
	-5.979085808089584e-23,-3.875508274022072e-13
	-3.196867163047367e-04,1.544382020769648e-13
35		2.238721138568337e+00,0.000000000000000e+00
	-3.196867163047367e+00,1.580355299257970e-09
	1.000000000000000e+00,0.000000000000000e+00
	0.000000000000000e+00,0.000000000000000e+00
	3.196867163047367e-04,-1.580355299257970e-13
	6.260871440896585e-23,3.965780458332867e-13
	3.196867141667947e-12,-8.290870719138239e-15
	-3.196867195016038e-04,-2.302516451883514e-13
	-3.196867163047367e-04,1.580355299257971e-13
	-6.260871440896585e-23,-3.965780458332867e-13
	-3.196867163047367e-04,1.580355299257971e-13
36		2.290867652767770e+00,0.000000000000000e+00
	-3.196867163047367e+00,1.617166503044435e-09
	1.000000000000000e+00,0.000000000000000e+00
	0.000000000000000e+00,0.000000000000000e+00
	3.196867163047367e-04,-1.617166503044435e-13
	6.555937221439383e-23,4.058155351935979e-13
	3.196867141667947e-12,-8.483989906799763e-15
	-3.196867195016038e-04,-2.356148949823547e-13
	-3.196867163047367e-04,1.617166503044435e-13
	-6.555937221439383e-23,-4.058155351935979e-13
	-3.196867163047367e-04,1.617166503044435e-13
37		2.344228815319919e+00,0.000000000000000e+00
	-3.196867163047367e+00,1.654835149916543e-09
	1.000000000000000e+00,0.000000000000000e+00
	0.000000000000000e+00,0.000000000000000e+00
	3.196867163047367e-04,-1.654835149916543e-13
	6.864909023798670e-23,4.152681933222726e-13
	3.196867141667947e-12,-8.681607418208931e-15
	-3.196867195016038e-04,-2.411030709124093e-13
	-3.196867163047367e-04,1.654835149916543e-13
	-6.864909023798670e-23,-4.152681933222726e-13
	-3.196867163047367e-04,1.654835149916543e-13
38		2.398832919019488e+00,0.000000000000000e+00
	-3.196867163047367e+00,1.693381212289470e-09
	1.000000000000000e+00,0.000000000000000e+00
	0.000000000000000e+00,0.000000000000000e+00
