Title: * GA CMOS Amp | W=2.317790215524888e-05 L=1e-06 Vbias=1.1104224456459637
Date: Mon Sep  8 18:44:28 2025
Plotname: AC Analysis
Flags: complex forward log
No. Variables: 11
No. Points:          901
Offset:    0.0000000000000000e+00
Command: Linear Technology Corporation LTspice
Variables:
	0	frequency	frequency
	1	V(out)	voltage
	2	V(g)	voltage
	3	V(vdd)	voltage
	4	Id(M1)	device_current
	5	Ig(M1)	device_current
	6	Ib(M1)	device_current
	7	Is(M1)	device_current
	8	I(Rload)	device_current
	9	I(Vg)	device_current
	10	I(Vdd)	device_current
Values:
0		1.000000000000000e+00,0.000000000000000e+00
	-5.193432473231632e+00,7.361224317693841e-09
	1.000000000000000e+00,0.000000000000000e+00
	0.000000000000000e+00,0.000000000000000e+00
	5.193432473231633e-04,-7.361224317693840e-13
	8.774750989467402e-22,8.776621154080786e-13
	5.193469460908207e-12,3.927363297106232e-14
	-5.193432525166327e-04,-1.808133166097569e-13
	-5.193432473231633e-04,7.361224317693841e-13
	-8.774750989467402e-22,-8.776621154080786e-13
	-5.193432473231633e-04,7.361224317693841e-13
1		1.023292992280754e+00,0.000000000000000e+00
	-5.193432473231632e+00,7.532689258902783e-09
	1.000000000000000e+00,0.000000000000000e+00
	0.000000000000000e+00,0.000000000000000e+00
	5.193432473231633e-04,-7.532689258902780e-13
	9.188292263109194e-22,8.981054922873893e-13
	5.193469460908207e-12,4.018843340069419e-14
	-5.193432525166327e-04,-1.850249997978054e-13
	-5.193432473231633e-04,7.532689258902782e-13
	-9.188292263109194e-22,-8.981054922873893e-13
	-5.193432473231633e-04,7.532689258902782e-13
2		1.047128548050899e+00,0.000000000000000e+00
	-5.193432473231632e+00,7.708148131663724e-09
	1.000000000000000e+00,0.000000000000000e+00
	0.000000000000000e+00,0.000000000000000e+00
	5.193432473231633e-04,-7.708148131663723e-13
	9.621323136536842e-22,9.190250565865421e-13
	5.193469460908207e-12,4.112454226967237e-14
	-5.193432525166327e-04,-1.893347856898422e-13
	-5.193432473231633e-04,7.708148131663724e-13
	-9.621323136536842e-22,-9.190250565865421e-13
	-5.193432473231633e-04,7.708148131663724e-13
3		1.071519305237606e+00,0.000000000000000e+00
	-5.193432473231632e+00,7.887693966593476e-09
	1.000000000000000e+00,0.000000000000000e+00
	0.000000000000000e+00,0.000000000000000e+00
	5.193432473231633e-04,-7.887693966593474e-13
	1.007476212629035e-21,9.404319001354320e-13
	5.193469460908207e-12,4.208245591530938e-14
	-5.193432525166327e-04,-1.937449593913940e-13
	-5.193432473231633e-04,7.887693966593477e-13
	-1.007476212629035e-21,-9.404319001354320e-13
	-5.193432473231633e-04,7.887693966593477e-13
4		1.096478196143185e+00,0.000000000000000e+00
	-5.193432473231632e+00,8.071421961270287e-09
	1.000000000000000e+00,0.000000000000000e+00
	0.000000000000000e+00,0.000000000000000e+00
	5.193432473231633e-04,-8.071421961270287e-13
	1.054957103726060e-21,9.623373731258614e-13
	5.193469460908207e-12,4.306268223610002e-14
	-5.193432525166327e-04,-1.982578592349327e-13
	-5.193432473231633e-04,8.071421961270288e-13
	-1.054957103726060e-21,-9.623373731258614e-13
	-5.193432473231633e-04,8.071421961270288e-13
5		1.122018454301963e+00,0.000000000000000e+00
	-5.193432473231632e+00,8.259429530708866e-09
	1.000000000000000e+00,0.000000000000000e+00
	0.000000000000000e+00,0.000000000000000e+00
	5.193432473231633e-04,-8.259429530708865e-13
	1.104675700280652e-21,9.847530901295635e-13
	5.193469460908207e-12,4.406574096101375e-14
	-5.193432525166327e-04,-2.028758780196908e-13
	-5.193432473231633e-04,8.259429530708866e-13
	-1.104675700280652e-21,-9.847530901295635e-13
	-5.193432473231633e-04,8.259429530708866e-13
6		1.148153621496882e+00,0.000000000000000e+00
	-5.193432473231632e+00,8.451816359011101e-09
	1.000000000000000e+00,0.000000000000000e+00
	0.000000000000000e+00,0.000000000000000e+00
	5.193432473231633e-04,-8.451816359011099e-13
	1.156737462101990e-21,1.007690936256400e-12
	5.193469460908207e-12,4.509216392506438e-14
	-5.193432525166327e-04,-2.076014642803547e-13
	-5.193432473231633e-04,8.451816359011101e-13
	-1.156737462101990e-21,-1.007690936256400e-12
	-5.193432473231633e-04,8.451816359011101e-13
7		1.174897554939529e+00,0.000000000000000e+00
	-5.193432473231632e+00,8.648684452219896e-09
	1.000000000000000e+00,0.000000000000000e+00
	0.000000000000000e+00,0.000000000000000e+00
	5.193432473231633e-04,-8.648684452219899e-13
	1.211252819166938e-21,1.031163073456006e-12
	5.193469460908207e-12,4.614249535129360e-14
	-5.193432525166327e-04,-2.124371235853102e-13
	-5.193432473231633e-04,8.648684452219896e-13
	-1.211252819166938e-21,-1.031163073456006e-12
	-5.193432473231633e-04,8.648684452219896e-13
8		1.202264434617413e+00,0.000000000000000e+00
	-5.193432473231632e+00,8.850138192404134e-09
	1.000000000000000e+00,0.000000000000000e+00
	0.000000000000000e+00,0.000000000000000e+00
	5.193432473231633e-04,-8.850138192404134e-13
	1.268337405856835e-21,1.055181946966216e-12
	5.193469460908207e-12,4.721729213932600e-14
	-5.193432525166327e-04,-2.173854198651285e-13
	-5.193432473231633e-04,8.850138192404135e-13
	-1.268337405856835e-21,-1.055181946966216e-12
	-5.193432473231633e-04,8.850138192404135e-13
9		1.230268770812381e+00,0.000000000000000e+00
	-5.193432473231632e+00,9.056284393003410e-09
	1.000000000000000e+00,0.000000000000000e+00
	0.000000000000000e+00,0.000000000000000e+00
	5.193432473231633e-04,-9.056284393003410e-13
	1.328112306233512e-21,1.079760291911691e-12
	5.193469460908207e-12,4.831712416064533e-14
	-5.193432525166327e-04,-2.224489767719954e-13
	-5.193432473231633e-04,9.056284393003411e-13
	-1.328112306233512e-21,-1.079760291911691e-12
	-5.193432473231633e-04,9.056284393003411e-13
10		1.258925411794167e+00,0.000000000000000e+00
	-5.193432473231632e+00,9.267232355461953e-09
	1.000000000000000e+00,0.000000000000000e+00
	0.000000000000000e+00,0.000000000000000e+00
	5.193432473231633e-04,-9.267232355461953e-13
	1.390704310874829e-21,1.104911140056255e-12
	5.193469460908207e-12,4.944257456074782e-14
	-5.193432525166327e-04,-2.276304790708072e-13
	-5.193432473231633e-04,9.267232355461953e-13
	-1.390704310874829e-21,-1.104911140056255e-12
	-5.193432473231633e-04,9.267232355461953e-13
11		1.288249551693134e+00,0.000000000000000e+00
	-5.193432473231632e+00,9.483093927181684e-09
	1.000000000000000e+00,0.000000000000000e+00
	0.000000000000000e+00,0.000000000000000e+00
	5.193432473231633e-04,-9.483093927181684e-13
	1.456246185814487e-21,1.130647826712504e-12
	5.193469460908207e-12,5.059424006833190e-14
	-5.193432525166327e-04,-2.329326740626678e-13
	-5.193432473231633e-04,9.483093927181684e-13
	-1.456246185814487e-21,-1.130647826712505e-12
	-5.193432473231633e-04,9.483093927181684e-13
12		1.318256738556407e+00,0.000000000000000e+00
	-5.193432473231632e+00,9.703983560825193e-09
	1.000000000000000e+00,0.000000000000000e+00
	0.000000000000000e+00,0.000000000000000e+00
	5.193432473231633e-04,-9.703983560825190e-13
	1.524876954156584e-21,1.156983997812370e-12
	5.193469460908207e-12,5.177273131169367e-14
	-5.193432525166327e-04,-2.383583730415450e-13
	-5.193432473231633e-04,9.703983560825194e-13
	-1.524876954156584e-21,-1.156983997812370e-12
	-5.193432473231633e-04,9.703983560825194e-13
13		1.348962882591653e+00,0.000000000000000e+00
	-5.193432473231632e+00,9.930018375000060e-09
	1.000000000000000e+00,0.000000000000000e+00
	0.000000000000000e+00,0.000000000000000e+00
	5.193432473231633e-04,-9.930018375000058e-13
	1.596742190962263e-21,1.183933617142370e-12
	5.193469460908207e-12,5.297867314249090e-14
	-5.193432525166327e-04,-2.439104527848549e-13
	-5.193432473231633e-04,9.930018375000060e-13
	-1.596742190962263e-21,-1.183933617142370e-12
	-5.193432473231633e-04,9.930018375000060e-13
14		1.380384264602885e+00,0.000000000000000e+00
	-5.193432473231632e+00,1.016131821635668e-08
	1.000000000000000e+00,0.000000000000000e+00
	0.000000000000000e+00,0.000000000000000e+00
	5.193432473231633e-04,-1.016131821635668e-12
	1.671994332033926e-21,1.211510973747393e-12
	5.193469460908207e-12,5.421270496704305e-14
	-5.193432525166327e-04,-2.495918570787676e-13
	-5.193432473231633e-04,1.016131821635668e-12
	-1.671994332033926e-21,-1.211510973747393e-12
	-5.193432473231633e-04,1.016131821635668e-12
15		1.412537544622754e+00,0.000000000000000e+00
	-5.193432473231632e+00,1.039800572313256e-08
	1.000000000000000e+00,0.000000000000000e+00
	0.000000000000000e+00,0.000000000000000e+00
	5.193432473231633e-04,-1.039800572313257e-12
	1.750792997252018e-21,1.239730689506939e-12
	5.193469460908207e-12,5.547548108536006e-14
	-5.193432525166327e-04,-2.554055982790425e-13
	-5.193432473231633e-04,1.039800572313256e-12
	-1.750792997252018e-21,-1.239730689506939e-12
	-5.193432473231633e-04,1.039800572313256e-12
16		1.445439770745927e+00,0.000000000000000e+00
	-5.193432473231632e+00,1.064020639017673e-08
	1.000000000000000e+00,0.000000000000000e+00
	0.000000000000000e+00,0.000000000000000e+00
	5.193432473231633e-04,-1.064020639017673e-12
	1.833305329150188e-21,1.268607726887838e-12
	5.193469460908207e-12,5.676767103805189e-14
	-5.193432525166327e-04,-2.613547589082176e-13
	-5.193432473231633e-04,1.064020639017673e-12
	-1.833305329150188e-21,-1.268607726887838e-12
	-5.193432473231633e-04,1.064020639017673e-12
17		1.479108388168207e+00,0.000000000000000e+00
	-5.193432473231632e+00,1.088804863548874e-08
	1.000000000000000e+00,0.000000000000000e+00
	0.000000000000000e+00,0.000000000000000e+00
	5.193432473231633e-04,-1.088804863548874e-12
	1.919706347447013e-21,1.298157396877542e-12
	5.193469460908207e-12,5.808995996133785e-14
	-5.193432525166327e-04,-2.674424932900050e-13
	-5.193432473231633e-04,1.088804863548874e-12
	-1.919706347447013e-21,-1.298157396877542e-12
	-5.193432473231633e-04,1.088804863548874e-12
18		1.513561248436208e+00,0.000000000000000e+00
	-5.193432473231632e+00,1.114166386830766e-08
	1.000000000000000e+00,0.000000000000000e+00
	0.000000000000000e+00,0.000000000000000e+00
	5.193432473231633e-04,-1.114166386830766e-12
	2.010179320286286e-21,1.328395367102214e-12
	5.193469460908207e-12,5.944304895030714e-14
	-5.193432525166327e-04,-2.736720292217548e-13
	-5.193432473231633e-04,1.114166386830766e-12
	-2.010179320286286e-21,-1.328395367102214e-12
	-5.193432473231633e-04,1.114166386830766e-12
19		1.548816618912481e+00,0.000000000000000e+00
	-5.193432473231632e+00,1.140118655878691e-08
	1.000000000000000e+00,0.000000000000000e+00
	0.000000000000000e+00,0.000000000000000e+00
	5.193432473231633e-04,-1.140118655878690e-12
	2.104916152973323e-21,1.359337670133916e-12
	5.193469460908207e-12,6.082765543065025e-14
	-5.193432525166327e-04,-2.800466696858754e-13
	-5.193432473231633e-04,1.140118655878691e-12
	-2.104916152973323e-21,-1.359337670133916e-12
	-5.193432473231633e-04,1.140118655878691e-12
20		1.584893192461113e+00,0.000000000000000e+00
	-5.193432473231632e+00,1.166675430929217e-08
	1.000000000000000e+00,0.000000000000000e+00
	0.000000000000000e+00,0.000000000000000e+00
	5.193432473231633e-04,-1.166675430929217e-12
	2.204117795031841e-21,1.391000711991283e-12
	5.193469460908207e-12,6.224451353905287e-14
	-5.193432525166327e-04,-2.865697946011194e-13
	-5.193432473231633e-04,1.166675430929217e-12
	-2.204117795031841e-21,-1.391000711991283e-12
	-5.193432473231633e-04,1.166675430929217e-12
21		1.621810097358929e+00,0.000000000000000e+00
	-5.193432473231632e+00,1.193850792735996e-08
	1.000000000000000e+00,0.000000000000000e+00
	0.000000000000000e+00,0.000000000000000e+00
	5.193432473231633e-04,-1.193850792735996e-12
	2.307994666444841e-21,1.423401280838219e-12
	5.193469460908207e-12,6.369437451243721e-14
	-5.193432525166327e-04,-2.932448626146605e-13
	-5.193432473231633e-04,1.193850792735996e-12
	-2.307994666444841e-21,-1.423401280838219e-12
	-5.193432473231633e-04,1.193850792735996e-12
22		1.659586907437560e+00,0.000000000000000e+00
	-5.193432473231632e+00,1.221659150035568e-08
	1.000000000000000e+00,0.000000000000000e+00
	0.000000000000000e+00,0.000000000000000e+00
	5.193432473231633e-04,-1.221659150035568e-12
	2.416767103983607e-21,1.456556555885200e-12
	5.193469460908207e-12,6.517800708628302e-14
	-5.193432525166327e-04,-3.000754129359146e-13
	-5.193432473231633e-04,1.221659150035568e-12
	-2.416767103983607e-21,-1.456556555885200e-12
	-5.193432473231633e-04,1.221659150035568e-12
23		1.698243652461743e+00,0.000000000000000e+00
	-5.193432473231632e+00,1.250115247187059e-08
	1.000000000000000e+00,0.000000000000000e+00
	0.000000000000000e+00,0.000000000000000e+00
	5.193432473231633e-04,-1.250115247187059e-12
	2.530665828571531e-21,1.490484116497916e-12
	5.193469460908207e-12,6.669619790221861e-14
	-5.193432525166327e-04,-3.070650672130750e-13
	-5.193432473231633e-04,1.250115247187059e-12
	-2.530665828571531e-21,-1.490484116497916e-12
	-5.193432473231633e-04,1.250115247187059e-12
24		1.737800828749374e+00,0.000000000000000e+00
	-5.193432473231632e+00,1.279234171989840e-08
	1.000000000000000e+00,0.000000000000000e+00
	0.000000000000000e+00,0.000000000000000e+00
	5.193432473231633e-04,-1.279234171989840e-12
	2.649932434674134e-21,1.525201951518088e-12
	5.193469460908207e-12,6.824975192511050e-14
	-5.193432525166327e-04,-3.142175314533583e-13
	-5.193432473231633e-04,1.279234171989840e-12
	-2.649932434674134e-21,-1.525201951518088e-12
	-5.193432473231633e-04,1.279234171989840e-12
25		1.778279410038922e+00,0.000000000000000e+00
	-5.193432473231632e+00,1.309031363683277e-08
	1.000000000000000e+00,0.000000000000000e+00
	0.000000000000000e+00,0.000000000000000e+00
	5.193432473231633e-04,-1.309031363683277e-12
	2.774819902753311e-21,1.560728468801390e-12
	5.193469460908207e-12,6.983949286986604e-14
	-5.193432525166327e-04,-3.215365979879792e-13
	-5.193432473231633e-04,1.309031363683277e-12
	-2.774819902753311e-21,-1.560728468801390e-12
	-5.193432473231633e-04,1.309031363683277e-12
26		1.819700858609982e+00,0.000000000000000e+00
	-5.193432473231632e+00,1.339522621132816e-08
	1.000000000000000e+00,0.000000000000000e+00
	0.000000000000000e+00,0.000000000000000e+00
	5.193432473231633e-04,-1.339522621132816e-12
	2.905593135872813e-21,1.597082504977534e-12
	5.193469460908207e-12,7.146626363817524e-14
	-5.193432525166327e-04,-3.290261474828930e-13
	-5.193432473231633e-04,1.339522621132816e-12
	-2.905593135872813e-21,-1.597082504977534e-12
	-5.193432473231633e-04,1.339522621132816e-12
27		1.862087136662866e+00,0.000000000000000e+00
	-5.193432473231632e+00,1.370724111206758e-08
	1.000000000000000e+00,0.000000000000000e+00
	0.000000000000000e+00,0.000000000000000e+00
	5.193432473231633e-04,-1.370724111206758e-12
	3.042529521593158e-21,1.634283335437703e-12
	5.193469460908207e-12,7.313092676543409e-14
	-5.193432525166327e-04,-3.366901509963783e-13
	-5.193432473231633e-04,1.370724111206758e-12
	-3.042529521593158e-21,-1.634283335437703e-12
	-5.193432473231633e-04,1.370724111206758e-12
28		1.905460717963246e+00,0.000000000000000e+00
	-5.193432473231632e+00,1.402652377348141e-08
	1.000000000000000e+00,0.000000000000000e+00
	0.000000000000000e+00,0.000000000000000e+00
	5.193432473231633e-04,-1.402652377348141e-12
	3.185919520347841e-21,1.672350684554618e-12
	5.193469460908207e-12,7.483436487806559e-14
	-5.193432525166327e-04,-3.445326720845429e-13
	-5.193432473231633e-04,1.402652377348141e-12
	-3.185919520347841e-21,-1.672350684554618e-12
	-5.193432473231633e-04,1.402652377348141e-12
29		1.949844599758044e+00,0.000000000000000e+00
	-5.193432473231632e+00,1.435324348346293e-08
	1.000000000000000e+00,0.000000000000000e+00
	0.000000000000000e+00,0.000000000000000e+00
	5.193432473231633e-04,-1.435324348346293e-12
	3.336067281548853e-21,1.711304736140663e-12
	5.193469460908207e-12,7.657748116150563e-14
	-5.193432525166327e-04,-3.525578689558757e-13
	-5.193432473231633e-04,1.435324348346293e-12
	-3.336067281548853e-21,-1.711304736140663e-12
	-5.193432473231633e-04,1.435324348346293e-12
30		1.995262314968878e+00,0.000000000000000e+00
	-5.193432473231632e+00,1.468757347312701e-08
	1.000000000000000e+00,0.000000000000000e+00
	0.000000000000000e+00,0.000000000000000e+00
	5.193432473231633e-04,-1.468757347312701e-12
	3.493291288728361e-21,1.751166144149605e-12
	5.193469460908207e-12,7.836119983907981e-14
	-5.193432525166327e-04,-3.607699966759839e-13
	-5.193432473231633e-04,1.468757347312701e-12
	-3.493291288728361e-21,-1.751166144149605e-12
	-5.193432473231633e-04,1.468757347312701e-12
31		2.041737944669527e+00,0.000000000000000e+00
	-5.193432473231632e+00,1.502969100865957e-08
	1.000000000000000e+00,0.000000000000000e+00
	0.000000000000000e+00,0.000000000000000e+00
	5.193432473231633e-04,-1.502969100865957e-12
	3.657925035084984e-21,1.791956043627600e-12
	5.193469460908207e-12,8.018646666204211e-14
	-5.193432525166327e-04,-3.691734094236853e-13
	-5.193432473231633e-04,1.502969100865957e-12
	-3.657925035084984e-21,-1.791956043627600e-12
	-5.193432473231633e-04,1.502969100865957e-12
32		2.089296130854037e+00,0.000000000000000e+00
	-5.193432473231632e+00,1.537977748530639e-08
	1.000000000000000e+00,0.000000000000000e+00
	0.000000000000000e+00,0.000000000000000e+00
	5.193432473231633e-04,-1.537977748530639e-12
	3.830317730867575e-21,1.833696061919268e-12
	5.193469460908207e-12,8.205424941102203e-14
	-5.193432525166327e-04,-3.777725627996509e-13
	-5.193432473231633e-04,1.537977748530639e-12
	-3.830317730867575e-21,-1.833696061919268e-12
	-5.193432473231633e-04,1.537977748530639e-12
33		2.137962089502230e+00,0.000000000000000e+00
	-5.193432473231632e+00,1.573801852355135e-08
	1.000000000000000e+00,0.000000000000000e+00
	0.000000000000000e+00,0.000000000000000e+00
	5.193432473231633e-04,-1.573801852355135e-12
	4.010835044096980e-21,1.876408330134803e-12
	5.193469460908207e-12,8.396553840915585e-14
	-5.193432525166327e-04,-3.865720161888239e-13
	-5.193432473231633e-04,1.573801852355135e-12
	-4.010835044096980e-21,-1.876408330134803e-12
	-5.193432473231633e-04,1.573801852355135e-12
34		2.187761623949550e+00,0.000000000000000e+00
	-5.193432473231632e+00,1.610460406753480e-08
	1.000000000000000e+00,0.000000000000000e+00
	0.000000000000000e+00,0.000000000000000e+00
	5.193432473231633e-04,-1.610460406753479e-12
	4.199859876196936e-21,1.920115494884175e-12
	5.193469460908207e-12,8.592134704716946e-14
	-5.193432525166327e-04,-3.955764351778658e-13
	-5.193432473231633e-04,1.610460406753480e-12
	-4.199859876196936e-21,-1.920115494884175e-12
	-5.193432473231633e-04,1.610460406753480e-12
35		2.238721138568337e+00,0.000000000000000e+00
	-5.193432473231632e+00,1.647972848576449e-08
	1.000000000000000e+00,0.000000000000000e+00
	0.000000000000000e+00,0.000000000000000e+00
	5.193432473231633e-04,-1.647972848576449e-12
	4.397793174179328e-21,1.964840730284669e-12
	5.193469460908207e-12,8.792271232069168e-14
	-5.193432525166327e-04,-4.047905940289121e-13
	-5.193432473231633e-04,1.647972848576449e-12
	-4.397793174179328e-21,-1.964840730284669e-12
	-5.193432473231633e-04,1.647972848576449e-12
36		2.290867652767770e+00,0.000000000000000e+00
	-5.193432473231632e+00,1.686359067417232e-08
	1.000000000000000e+00,0.000000000000000e+00
	0.000000000000000e+00,0.000000000000000e+00
	5.193432473231633e-04,-1.686359067417232e-12
	4.605054781106555e-21,2.010607750248101e-12
	5.193469460908207e-12,8.997069538008043e-14
	-5.193432525166327e-04,-4.142193782109493e-13
	-5.193432473231633e-04,1.686359067417232e-12
	-4.605054781106555e-21,-2.010607750248101e-12
	-5.193432473231633e-04,1.686359067417232e-12
37		2.344228815319919e+00,0.000000000000000e+00
	-5.193432473231632e+00,1.725639416157161e-08
	1.000000000000000e+00,0.000000000000000e+00
	0.000000000000000e+00,0.000000000000000e+00
	5.193432473231633e-04,-1.725639416157161e-12
	4.822084326634960e-21,2.057440821054254e-12
	5.193469460908207e-12,9.206638209306281e-14
	-5.193432525166327e-04,-4.238677869901557e-13
	-5.193432473231633e-04,1.725639416157161e-12
	-4.822084326634960e-21,-2.057440821054254e-12
	-5.193432473231633e-04,1.725639416157161e-12
38		2.398832919019488e+00,0.000000000000000e+00
	-5.193432473231632e+00,1.765834721757075e-08
	1.000000000000000e+00,0.000000000000000e+00
	0.000000000000000e+00,0.000000000000000e+00
