Title: * GA CMOS Amp | W=2.9605411566863508e-05 L=9.987584791468936e-07 Vbias=1.1178793988260156
Date: Mon Sep  8 18:44:18 2025
Plotname: AC Analysis
Flags: complex forward log
No. Variables: 11
No. Points:          901
Offset:    0.0000000000000000e+00
Command: Linear Technology Corporation LTspice
Variables:
	0	frequency	frequency
	1	V(out)	voltage
	2	V(g)	voltage
	3	V(vdd)	voltage
	4	Id(M1)	device_current
	5	Ig(M1)	device_current
	6	Ib(M1)	device_current
	7	Is(M1)	device_current
	8	I(Rload)	device_current
	9	I(Vg)	device_current
	10	I(Vdd)	device_current
Values:
0		1.000000000000000e+00,0.000000000000000e+00
	-8.117244317963102e-01,4.998953492565631e-10
	1.000000000000000e+00,0.000000000000000e+00
	0.000000000000000e+00,0.000000000000000e+00
	8.117244317963103e-05,-4.998953492565632e-14
	7.941021303960914e-23,4.599527951241587e-13
	8.125184552953968e-13,7.880604002256551e-15
	-8.117244399214948e-05,-4.178438642007589e-13
	-8.117244317963102e-05,4.998953492565631e-14
	-7.941021303960914e-23,-4.599527951241587e-13
	-8.117244317963102e-05,4.998953492565631e-14
1		1.023292992280754e+00,0.000000000000000e+00
	-8.117244317963102e-01,5.115394077679812e-10
	1.000000000000000e+00,0.000000000000000e+00
	0.000000000000000e+00,0.000000000000000e+00
	8.117244317963103e-05,-5.115394077679819e-14
	8.315270108057853e-23,4.706664720304971e-13
	8.125184552953968e-13,8.064166850448892e-15
	-8.117244399214948e-05,-4.275766981041478e-13
	-8.117244317963102e-05,5.115394077679812e-14
	-8.315270108057853e-23,-4.706664720304972e-13
	-8.117244317963102e-05,5.115394077679812e-14
2		1.047128548050899e+00,0.000000000000000e+00
	-8.117244317963102e-01,5.234546912444222e-10
	1.000000000000000e+00,0.000000000000000e+00
	0.000000000000000e+00,0.000000000000000e+00
	8.117244317963103e-05,-5.234546912444224e-14
	8.707156714901664e-23,4.816297025303131e-13
	8.125184552953968e-13,8.252005426647054e-15
	-8.117244399214948e-05,-4.375362388325180e-13
	-8.117244317963102e-05,5.234546912444222e-14
	-8.707156714901664e-23,-4.816297025303132e-13
	-8.117244317963102e-05,5.234546912444222e-14
3		1.071519305237606e+00,0.000000000000000e+00
	-8.117244317963102e-01,5.356475173269030e-10
	1.000000000000000e+00,0.000000000000000e+00
	0.000000000000000e+00,0.000000000000000e+00
	8.117244317963103e-05,-5.356475173269028e-14
	9.117512368526616e-23,4.928482994735336e-13
	8.125184552953968e-13,8.444219325350639e-15
	-8.117244399214948e-05,-4.477277670661939e-13
	-8.117244317963102e-05,5.356475173269030e-14
	-9.117512368526616e-23,-4.928482994735336e-13
	-8.117244317963102e-05,5.356475173269030e-14
4		1.096478196143185e+00,0.000000000000000e+00
	-8.117244317963102e-01,5.481243508132036e-10
	1.000000000000000e+00,0.000000000000000e+00
	0.000000000000000e+00,0.000000000000000e+00
	8.117244317963103e-05,-5.481243508132029e-14
	9.547207488291392e-23,5.043282111087533e-13
	8.125184552953968e-13,8.640910460913026e-15
	-8.117244399214948e-05,-4.581566864883460e-13
	-8.117244317963102e-05,5.481243508132037e-14
	-9.547207488291392e-23,-5.043282111087534e-13
	-8.117244317963102e-05,5.481243508132037e-14
5		1.122018454301963e+00,0.000000000000000e+00
	-8.117244317963102e-01,5.608918070855890e-10
	1.000000000000000e+00,0.000000000000000e+00
	0.000000000000000e+00,0.000000000000000e+00
	8.117244317963103e-05,-5.608918070855894e-14
	9.997153515155243e-23,5.160755242370761e-13
	8.125184552953968e-13,8.842183121577761e-15
	-8.117244399214948e-05,-4.688285266500950e-13
	-8.117244317963102e-05,5.608918070855890e-14
	-9.997153515155243e-23,-5.160755242370762e-13
	-8.117244317963102e-05,5.608918070855890e-14
6		1.148153621496882e+00,0.000000000000000e+00
	-8.117244317963102e-01,5.739566556183717e-10
	1.000000000000000e+00,0.000000000000000e+00
	0.000000000000000e+00,0.000000000000000e+00
	8.117244317963103e-05,-5.739566556183722e-14
	1.046830484496645e-22,5.280964674394165e-13
	8.125184552953968e-13,9.048144024773643e-15
	-8.117244399214948e-05,-4.797489459023529e-13
	-8.117244317963102e-05,5.739566556183718e-14
	-1.046830484496645e-22,-5.280964674394166e-13
	-8.117244317963102e-05,5.739566556183718e-14
7		1.174897554939529e+00,0.000000000000000e+00
	-8.117244317963102e-01,5.873258235671780e-10
	1.000000000000000e+00,0.000000000000000e+00
	0.000000000000000e+00,0.000000000000000e+00
	8.117244317963103e-05,-5.873258235671780e-14
	1.096166085286392e-22,5.403974143789763e-13
	8.125184552953968e-13,9.258902373697786e-15
	-8.117244399214948e-05,-4.909237343959563e-13
	-8.117244317963102e-05,5.873258235671780e-14
	-1.096166085286392e-22,-5.403974143789763e-13
	-8.117244317963102e-05,5.873258235671780e-14
8		1.202264434617413e+00,0.000000000000000e+00
	-8.117244317963102e-01,6.010063994418159e-10
	1.000000000000000e+00,0.000000000000000e+00
	0.000000000000000e+00,0.000000000000000e+00
	8.117244317963103e-05,-6.010063994418162e-14
	1.147826801308578e-22,5.529848871806453e-13
	8.125184552953968e-13,9.474569915216796e-15
	-8.117244399214948e-05,-5.023588171516805e-13
	-8.117244317963102e-05,6.010063994418159e-14
	-1.147826801308578e-22,-5.529848871806454e-13
	-8.117244317963102e-05,6.010063994418159e-14
9		1.230268770812381e+00,0.000000000000000e+00
	-8.117244317963102e-01,6.150056368646978e-10
	1.000000000000000e+00,0.000000000000000e+00
	0.000000000000000e+00,0.000000000000000e+00
	8.117244317963103e-05,-6.150056368646984e-14
	1.201922211868160e-22,5.658655598891177e-13
	8.125184552953968e-13,9.695260999115252e-15
	-8.117244399214948e-05,-5.140602572017632e-13
	-8.117244317963102e-05,6.150056368646979e-14
	-1.201922211868160e-22,-5.658655598891177e-13
	-8.117244317963102e-05,6.150056368646979e-14
10		1.258925411794167e+00,0.000000000000000e+00
	-8.117244317963102e-01,6.293309584168076e-10
	1.000000000000000e+00,0.000000000000000e+00
	0.000000000000000e+00,0.000000000000000e+00
	8.117244317963103e-05,-6.293309584168080e-14
	1.258567060583632e-22,5.790462620075597e-13
	8.125184552953968e-13,9.921092638727576e-15
	-8.117244399214948e-05,-5.260342588046064e-13
	-8.117244317963102e-05,6.293309584168077e-14
	-1.258567060583632e-22,-5.790462620075597e-13
	-8.117244317963102e-05,6.293309584168077e-14
11		1.288249551693134e+00,0.000000000000000e+00
	-8.117244317963102e-01,6.439899595732500e-10
	1.000000000000000e+00,0.000000000000000e+00
	0.000000000000000e+00,0.000000000000000e+00
	8.117244317963103e-05,-6.439899595732499e-14
	1.317881498773627e-22,5.925339821187013e-13
	8.125184552953968e-13,1.015218457297820e-14
	-8.117244399214948e-05,-5.382871707343545e-13
	-8.117244317963102e-05,6.439899595732500e-14
	-1.317881498773627e-22,-5.925339821187014e-13
	-8.117244317963102e-05,6.439899595732500e-14
12		1.318256738556407e+00,0.000000000000000e+00
	-8.117244317963102e-01,6.589904127304727e-10
	1.000000000000000e+00,0.000000000000000e+00
	0.000000000000000e+00,0.000000000000000e+00
	8.117244317963103e-05,-6.589904127304734e-14
	1.379991340313971e-22,6.063358715902767e-13
	8.125184552953968e-13,1.038865932986923e-14
	-8.117244399214948e-05,-5.508254896470985e-13
	-8.117244317963102e-05,6.589904127304728e-14
	-1.379991340313971e-22,-6.063358715902768e-13
	-8.117244317963102e-05,6.589904127304728e-14
13		1.348962882591653e+00,0.000000000000000e+00
	-8.117244317963102e-01,6.743402713272947e-10
	1.000000000000000e+00,0.000000000000000e+00
	0.000000000000000e+00,0.000000000000000e+00
	8.117244317963103e-05,-6.743402713272945e-14
	1.445028328505784e-22,6.204592483667733e-13
	8.125184552953968e-13,1.063064229144732e-14
	-8.117244399214948e-05,-5.636558635254912e-13
	-8.117244317963102e-05,6.743402713272947e-14
	-1.445028328505784e-22,-6.204592483667734e-13
	-8.117244317963102e-05,6.743402713272947e-14
14		1.380384264602885e+00,0.000000000000000e+00
	-8.117244317963102e-01,6.900476740619230e-10
	1.000000000000000e+00,0.000000000000000e+00
	0.000000000000000e+00,0.000000000000000e+00
	8.117244317963103e-05,-6.900476740619242e-14
	1.513130415520680e-22,6.349116008495032e-13
	8.125184552953968e-13,1.087826176028148e-14
	-8.117244399214948e-05,-5.767850952035922e-13
	-8.117244317963102e-05,6.900476740619231e-14
	-1.513130415520680e-22,-6.349116008495032e-13
	-8.117244317963102e-05,6.900476740619231e-14
15		1.412537544622754e+00,0.000000000000000e+00
	-8.117244317963102e-01,7.061209492071997e-10
	1.000000000000000e+00,0.000000000000000e+00
	0.000000000000000e+00,0.000000000000000e+00
	8.117244317963103e-05,-7.061209492072001e-14
	1.584442055015824e-22,6.497005918670518e-13
	8.125184552953968e-13,1.113164902749179e-14
	-8.117244399214948e-05,-5.902201459738235e-13
	-8.117244317963102e-05,7.061209492071998e-14
	-1.584442055015824e-22,-6.497005918670519e-13
	-8.117244317963102e-05,7.061209492071998e-14
16		1.445439770745927e+00,0.000000000000000e+00
	-8.117244317963102e-01,7.225686190263618e-10
	1.000000000000000e+00,0.000000000000000e+00
	0.000000000000000e+00,0.000000000000000e+00
	8.117244317963103e-05,-7.225686190263615e-14
	1.659114508539502e-22,6.648340627382123e-13
	8.125184552953968e-13,1.139093844236117e-14
	-8.117244399214948e-05,-6.039681392779373e-13
	-8.117244317963102e-05,7.225686190263618e-14
	-1.659114508539502e-22,-6.648340627382124e-13
	-8.117244317963102e-05,7.225686190263618e-14
17		1.479108388168207e+00,0.000000000000000e+00
	-8.117244317963102e-01,7.393994042916578e-10
	1.000000000000000e+00,0.000000000000000e+00
	0.000000000000000e+00,0.000000000000000e+00
	8.117244317963103e-05,-7.393994042916580e-14
	1.737306166377150e-22,6.803200374295559e-13
	8.125184552953968e-13,1.165626748356961e-14
	-8.117244399214948e-05,-6.180363644839597e-13
	-8.117244317963102e-05,7.393994042916579e-14
	-1.737306166377150e-22,-6.803200374295559e-13
	-8.117244317963102e-05,7.393994042916579e-14
18		1.513561248436208e+00,0.000000000000000e+00
	-8.117244317963102e-01,7.566222289082177e-10
	1.000000000000000e+00,0.000000000000000e+00
	0.000000000000000e+00,0.000000000000000e+00
	8.117244317963103e-05,-7.566222289082169e-14
	1.819182883518380e-22,6.961667268098449e-13
	8.125184552953968e-13,1.192777683208677e-14
	-8.117244399214948e-05,-6.324322807511100e-13
	-8.117244317963102e-05,7.566222289082178e-14
	-1.819182883518380e-22,-6.961667268098450e-13
	-8.117244317963102e-05,7.566222289082178e-14
19		1.548816618912481e+00,0.000000000000000e+00
	-8.117244317963102e-01,7.742462246456238e-10
	1.000000000000000e+00,0.000000000000000e+00
	0.000000000000000e+00,0.000000000000000e+00
	8.117244317963103e-05,-7.742462246456241e-14
	1.904918331457650e-22,7.123825330035444e-13
	8.125184552953968e-13,1.220561044576318e-14
	-8.117244399214948e-05,-6.471635209847452e-13
	-8.117244317963102e-05,7.742462246456238e-14
	-1.904918331457650e-22,-7.123825330035444e-13
	-8.117244317963102e-05,7.742462246456238e-14
20		1.584893192461113e+00,0.000000000000000e+00
	-8.117244317963102e-01,7.922807359796974e-10
	1.000000000000000e+00,0.000000000000000e+00
	0.000000000000000e+00,0.000000000000000e+00
	8.117244317963103e-05,-7.922807359796971e-14
	1.994694366574792e-22,7.289760538457401e-13
	8.125184552953968e-13,1.248991563565826e-14
	-8.117244399214948e-05,-6.622378958834287e-13
	-8.117244317963102e-05,7.922807359796974e-14
	-1.994694366574792e-22,-7.289760538457401e-13
	-8.117244317963102e-05,7.922807359796974e-14
21		1.621810097358929e+00,0.000000000000000e+00
	-8.117244317963102e-01,8.107353250470625e-10
	1.000000000000000e+00,0.000000000000000e+00
	0.000000000000000e+00,0.000000000000000e+00
	8.117244317963103e-05,-8.107353250470616e-14
	2.088701415876770e-22,7.459560874408234e-13
	8.125184552953968e-13,1.278084314414680e-14
	-8.117244399214948e-05,-6.776633980802641e-13
	-8.117244317963102e-05,8.107353250470626e-14
	-2.088701415876770e-22,-7.459560874408236e-13
	-8.117244317963102e-05,8.107353250470626e-14
22		1.659586907437560e+00,0.000000000000000e+00
	-8.117244317963102e-01,8.296197767151185e-10
	1.000000000000000e+00,0.000000000000000e+00
	0.000000000000000e+00,0.000000000000000e+00
	8.117244317963103e-05,-8.296197767151197e-14
	2.187138880918900e-22,7.633316368273641e-13
	8.125184552953968e-13,1.307854722484515e-14
	-8.117244399214948e-05,-6.934482063806973e-13
	-8.117244317963102e-05,8.296197767151185e-14
	-2.187138880918900e-22,-7.633316368273642e-13
	-8.117244317963102e-05,8.296197767151185e-14
23		1.698243652461743e+00,0.000000000000000e+00
	-8.117244317963102e-01,8.489441037701046e-10
	1.000000000000000e+00,0.000000000000000e+00
	0.000000000000000e+00,0.000000000000000e+00
	8.117244317963103e-05,-8.489441037701054e-14
	2.290215560762277e-22,7.811119147516393e-13
	8.125184552953968e-13,1.338318572439685e-14
	-8.117244399214948e-05,-7.096006900990256e-13
	-8.117244317963102e-05,8.489441037701047e-14
	-2.290215560762277e-22,-7.811119147516394e-13
	-8.117244317963102e-05,8.489441037701047e-14
24		1.737800828749374e+00,0.000000000000000e+00
	-8.117244317963102e-01,8.687185522260134e-10
	1.000000000000000e+00,0.000000000000000e+00
	0.000000000000000e+00,0.000000000000000e+00
	8.117244317963103e-05,-8.687185522260126e-14
	2.398150094864579e-22,7.993063485523542e-13
	8.125184552953968e-13,1.369492016616706e-14
	-8.117244399214948e-05,-7.261294134959200e-13
	-8.117244317963102e-05,8.687185522260134e-14
	-2.398150094864579e-22,-7.993063485523543e-13
	-8.117244317963102e-05,8.687185522260134e-14
25		1.778279410038922e+00,0.000000000000000e+00
	-8.117244317963102e-01,8.889536067571617e-10
	1.000000000000000e+00,0.000000000000000e+00
	0.000000000000000e+00,0.000000000000000e+00
	8.117244317963103e-05,-8.889536067571627e-14
	2.511171426843674e-22,8.179245851591420e-13
	8.125184552953968e-13,1.401391583588319e-14
	-8.117244399214948e-05,-7.430431403193089e-13
	-8.117244317963102e-05,8.889536067571618e-14
	-2.511171426843674e-22,-8.179245851591421e-13
	-8.117244317963102e-05,8.889536067571618e-14
26		1.819700858609982e+00,0.000000000000000e+00
	-8.117244317963102e-01,9.096599962573048e-10
	1.000000000000000e+00,0.000000000000000e+00
	0.000000000000000e+00,0.000000000000000e+00
	8.117244317963103e-05,-9.096599962573044e-14
	2.629519290097721e-22,8.369764962074929e-13
	8.125184552953968e-13,1.434034186927140e-14
	-8.117244399214948e-05,-7.603508384510339e-13
	-8.117244317963102e-05,9.096599962573049e-14
	-2.629519290097721e-22,-8.369764962074929e-13
	-8.117244317963102e-05,9.096599962573049e-14
27		1.862087136662866e+00,0.000000000000000e+00
	-8.117244317963102e-01,9.308486995282369e-10
	1.000000000000000e+00,0.000000000000000e+00
	0.000000000000000e+00,0.000000000000000e+00
	8.117244317963103e-05,-9.308486995282373e-14
	2.753444716311859e-22,8.564721832728267e-13
	8.125184552953968e-13,1.467437134173576e-14
	-8.117244399214948e-05,-7.780616846617387e-13
	-8.117244317963102e-05,9.308486995282369e-14
	-2.753444716311859e-22,-8.564721832728267e-13
	-8.117244317963102e-05,9.308486995282369e-14
28		1.905460717963246e+00,0.000000000000000e+00
	-8.117244317963102e-01,9.525309511008983e-10
	1.000000000000000e+00,0.000000000000000e+00
	0.000000000000000e+00,0.000000000000000e+00
	8.117244317963103e-05,-9.525309511008980e-14
	2.883210567930058e-22,8.764219832264812e-13
	8.125184552953968e-13,1.501618136012376e-14
	-8.117244399214948e-05,-7.961850694765151e-13
	-8.117244317963102e-05,9.525309511008983e-14
	-2.883210567930058e-22,-8.764219832264812e-13
	-8.117244317963102e-05,9.525309511008983e-14
29		1.949844599758044e+00,0.000000000000000e+00
	-8.117244317963102e-01,9.747182471920709e-10
	1.000000000000000e+00,0.000000000000000e+00
	0.000000000000000e+00,0.000000000000000e+00
	8.117244317963103e-05,-9.747182471920705e-14
	3.019092095721611e-22,8.968364737164589e-13
	8.125184552953968e-13,1.536595315663143e-14
	-8.117244399214948e-05,-8.147306021538832e-13
	-8.117244317963102e-05,9.747182471920709e-14
	-3.019092095721611e-22,-8.968364737164590e-13
	-8.117244317963102e-05,9.747182471920709e-14
30		1.995262314968878e+00,0.000000000000000e+00
	-8.117244317963102e-01,9.974223517998259e-10
	1.000000000000000e+00,0.000000000000000e+00
	0.000000000000000e+00,0.000000000000000e+00
	8.117244317963103e-05,-9.974223517998256e-14
	3.161377522624917e-22,9.177264787758351e-13
	8.125184552953968e-13,1.572387218489523e-14
	-8.117244399214948e-05,-8.337081157807478e-13
	-8.117244317963102e-05,9.974223517998260e-14
	-3.161377522624917e-22,-9.177264787758351e-13
	-8.117244317963102e-05,9.974223517998260e-14
31		2.041737944669527e+00,0.000000000000000e+00
	-8.117244317963102e-01,1.020655302940951e-09
	1.000000000000000e+00,0.000000000000000e+00
	0.000000000000000e+00,0.000000000000000e+00
	8.117244317963103e-05,-1.020655302940951e-13
	3.310368655106979e-22,9.391030745618040e-13
	8.125184552953968e-13,1.609012821832182e-14
	-8.117244399214948e-05,-8.531276724860307e-13
	-8.117244317963102e-05,1.020655302940951e-13
	-3.310368655106979e-22,-9.391030745618042e-13
	-8.117244317963102e-05,1.020655302940951e-13
32		2.089296130854037e+00,0.000000000000000e+00
	-8.117244317963102e-01,1.044429419033665e-09
	1.000000000000000e+00,0.000000000000000e+00
	0.000000000000000e+00,0.000000000000000e+00
	8.117244317963103e-05,-1.044429419033665e-13
	3.466381523335379e-22,9.609775952284046e-13
	8.125184552953968e-13,1.646491545070755e-14
	-8.117244399214948e-05,-8.729995687757457e-13
	-8.117244317963102e-05,1.044429419033665e-13
	-3.466381523335379e-22,-9.609775952284046e-13
	-8.117244317963102e-05,1.044429419033665e-13
33		2.137962089502230e+00,0.000000000000000e+00
	-8.117244317963102e-01,1.068757305429009e-09
	1.000000000000000e+00,0.000000000000000e+00
	0.000000000000000e+00,0.000000000000000e+00
	8.117244317963103e-05,-1.068757305429008e-13
	3.629747051520641e-22,9.833616389360375e-13
	8.125184552953968e-13,1.684843259920406e-14
	-8.117244399214948e-05,-8.933343409923408e-13
	-8.117244317963102e-05,1.068757305429009e-13
	-3.629747051520641e-22,-9.833616389360377e-13
	-8.117244317963102e-05,1.068757305429009e-13
34		2.187761623949550e+00,0.000000000000000e+00
	-8.117244317963102e-01,1.093651861094366e-09
	1.000000000000000e+00,0.000000000000000e+00
	0.000000000000000e+00,0.000000000000000e+00
	8.117244317963103e-05,-1.093651861094367e-13
	3.800811759850842e-22,1.006267074000964e-12
	8.125184552953968e-13,1.724088300968008e-14
	-8.117244399214948e-05,-9.141427709012077e-13
	-8.117244317963102e-05,1.093651861094366e-13
	-3.800811759850842e-22,-1.006267074000964e-12
	-8.117244317963102e-05,1.093651861094366e-13
35		2.238721138568337e+00,0.000000000000000e+00
	-8.117244317963102e-01,1.119126285452670e-09
	1.000000000000000e+00,0.000000000000000e+00
	0.000000000000000e+00,0.000000000000000e+00
	8.117244317963103e-05,-1.119126285452669e-13
	3.979938499507396e-22,1.029706045188046e-12
	8.125184552953968e-13,1.764247476453790e-14
	-8.117244399214948e-05,-9.354358914073168e-13
	-8.117244317963102e-05,1.119126285452670e-13
	-3.979938499507396e-22,-1.029706045188046e-12
	-8.117244317963102e-05,1.119126285452670e-13
36		2.290867652767770e+00,0.000000000000000e+00
	-8.117244317963102e-01,1.145194085380908e-09
	1.000000000000000e+00,0.000000000000000e+00
	0.000000000000000e+00,0.000000000000000e+00
	8.117244317963103e-05,-1.145194085380907e-13
	4.167507222321056e-22,1.053690980150057e-12
	8.125184552953968e-13,1.805342079304167e-14
	-8.117244399214948e-05,-9.572249924050078e-13
	-8.117244317963102e-05,1.145194085380908e-13
	-4.167507222321056e-22,-1.053690980150057e-12
	-8.117244317963102e-05,1.145194085380908e-13
37		2.344228815319919e+00,0.000000000000000e+00
	-8.117244317963102e-01,1.171869082371651e-09
	1.000000000000000e+00,0.000000000000000e+00
	0.000000000000000e+00,0.000000000000000e+00
	8.117244317963103e-05,-1.171869082371651e-13
	4.363915786700684e-22,1.078234596016992e-12
	8.125184552953968e-13,1.847393898421544e-14
	-8.117244399214948e-05,-9.795216267640426e-13
	-8.117244317963102e-05,1.171869082371651e-13
	-4.363915786700684e-22,-1.078234596016992e-12
	-8.117244317963102e-05,1.171869082371651e-13
38		2.398832919019488e+00,0.000000000000000e+00
	-8.117244317963102e-01,1.199165419861388e-09
	1.000000000000000e+00,0.000000000000000e+00
	0.000000000000000e+00,0.000000000000000e+00
