Title: * GA CMOS Amp | W=2.8884707565389516e-06 L=9.307572106648615e-07 Vbias=1.4304237389541068
Date: Sat Sep  6 22:11:35 2025
Plotname: AC Analysis
Flags: complex forward log
No. Variables: 13
No. Points:          901
Offset:    0.0000000000000000e+00
Command: Linear Technology Corporation LTspice
Variables:
	0	frequency	frequency
	1	V(out)	voltage
	2	V(g)	voltage
	3	V(vdd)	voltage
	4	V(m1#dbody)	voltage
	5	V(m1#sbody)	voltage
	6	Id(M1)	device_current
	7	Ig(M1)	device_current
	8	Ib(M1)	device_current
	9	Is(M1)	device_current
	10	I(Rload)	device_current
	11	I(Vg)	device_current
	12	I(Vdd)	device_current
Values:
0		1.000000000000000e+00,0.000000000000000e+00
	-1.859256937411801e-01,1.344532538903849e-09
	1.000000000000000e+00,0.000000000000000e+00
	0.000000000000000e+00,0.000000000000000e+00
	6.081762835800553e-05,1.475637669307117e-13
	6.081762975244262e-05,1.583231718070583e-13
	1.859256937411800e-05,-1.344532538903849e-13
	3.751260968673587e-05,6.103413778295940e-13
	-3.243606913285200e-05,-8.372438041494948e-14
	-2.366910992800187e-05,-3.921637435242595e-13
	-1.859256937411801e-05,1.344532538903849e-13
	-3.751260968654080e-05,-6.103413778295941e-13
	-1.859256937411801e-05,1.344532538903849e-13
1		1.023292992280754e+00,0.000000000000000e+00
	-1.859256937411801e-01,1.375850724953759e-09
	1.000000000000000e+00,0.000000000000000e+00
	0.000000000000000e+00,0.000000000000000e+00
	6.081762835800553e-05,1.510009686147478e-13
	6.081762975244262e-05,1.620109922258247e-13
	1.859256937411800e-05,-1.375850724953759e-13
	3.751260968673587e-05,6.245580548320035e-13
	-3.243606913285200e-05,-8.567457176166583e-14
	-2.366910992800187e-05,-4.012984105749618e-13
	-1.859256937411801e-05,1.375850724953759e-13
	-3.751260968654080e-05,-6.245580548320034e-13
	-1.859256937411801e-05,1.375850724953759e-13
2		1.047128548050899e+00,0.000000000000000e+00
	-1.859256937411801e-01,1.407898405269577e-09
	1.000000000000000e+00,0.000000000000000e+00
	0.000000000000000e+00,0.000000000000000e+00
	6.081762835800553e-05,1.545182330110775e-13
	6.081762975244262e-05,1.657847130171381e-13
	1.859256937411800e-05,-1.407898405269577e-13
	3.751260968673587e-05,6.391058807820881e-13
	-3.243606913285200e-05,-8.767018890036720e-14
	-2.366910992800187e-05,-4.106458513547632e-13
	-1.859256937411801e-05,1.407898405269577e-13
	-3.751260968654080e-05,-6.391058807820882e-13
	-1.859256937411801e-05,1.407898405269577e-13
3		1.071519305237606e+00,0.000000000000000e+00
	-1.859256937411801e-01,1.440692571955607e-09
	1.000000000000000e+00,0.000000000000000e+00
	0.000000000000000e+00,0.000000000000000e+00
	6.081762835800553e-05,1.581174250198403e-13
	6.081762975244262e-05,1.696463350577133e-13
	1.859256937411800e-05,-1.440692571955607e-13
	3.751260968673587e-05,6.539925691297298e-13
	-3.243606913285200e-05,-8.971228993367571e-14
	-2.366910992800187e-05,-4.202110220004934e-13
	-1.859256937411801e-05,1.440692571955607e-13
	-3.751260968654080e-05,-6.539925691297298e-13
	-1.859256937411801e-05,1.440692571955607e-13
4		1.096478196143185e+00,0.000000000000000e+00
	-1.859256937411801e-01,1.474250612913108e-09
	1.000000000000000e+00,0.000000000000000e+00
	0.000000000000000e+00,0.000000000000000e+00
	6.081762835800553e-05,1.618004529802801e-13
	6.081762975244262e-05,1.735979058306708e-13
	1.859256937411800e-05,-1.474250612913109e-13
	3.751260968673587e-05,6.692260129941390e-13
	-3.243606913285200e-05,-9.180195761058958e-14
	-2.366910992800187e-05,-4.299989940922385e-13
	-1.859256937411801e-05,1.474250612913108e-13
	-3.751260968654080e-05,-6.692260129941391e-13
	-1.859256937411801e-05,1.474250612913108e-13
5		1.122018454301963e+00,0.000000000000000e+00
	-1.859256937411801e-01,1.508590321059591e-09
	1.000000000000000e+00,0.000000000000000e+00
	0.000000000000000e+00,0.000000000000000e+00
	6.081762835800553e-05,1.655692696825723e-13
	6.081762975244262e-05,1.776415205111398e-13
	1.859256937411800e-05,-1.508590321059591e-13
	3.751260968673587e-05,6.848142893488915e-13
	-3.243606913285200e-05,-9.394029990057119e-14
	-2.366910992800187e-05,-4.400149573423612e-13
	-1.859256937411801e-05,1.508590321059591e-13
	-3.751260968654080e-05,-6.848142893488915e-13
	-1.859256937411801e-05,1.508590321059591e-13
6		1.148153621496882e+00,0.000000000000000e+00
	-1.859256937411801e-01,1.543729903762852e-09
	1.000000000000000e+00,0.000000000000000e+00
	0.000000000000000e+00,0.000000000000000e+00
	6.081762835800553e-05,1.694258734032186e-13
	6.081762975244262e-05,1.817793230771472e-13
	1.859256937411800e-05,-1.543729903762852e-13
	3.751260968673587e-05,7.007656633044452e-13
	-3.243606913285200e-05,-9.612845058100692e-14
	-2.366910992800187e-05,-4.502642223471531e-13
	-1.859256937411801e-05,1.543729903762852e-13
	-3.751260968654080e-05,-7.007656633044453e-13
	-1.859256937411801e-05,1.543729903762852e-13
7		1.174897554939529e+00,0.000000000000000e+00
	-1.859256937411801e-01,1.579687992494769e-09
	1.000000000000000e+00,0.000000000000000e+00
	0.000000000000000e+00,0.000000000000000e+00
	6.081762835800553e-05,1.733723089645598e-13
	6.081762975244262e-05,1.860135074463839e-13
	1.859256937411800e-05,-1.579687992494770e-13
	3.751260968673587e-05,7.170885924904133e-13
	-3.243606913285200e-05,-9.836756983835116e-14
	-2.366910992800187e-05,-4.607522234025851e-13
	-1.859256937411801e-05,1.579687992494769e-13
	-3.751260968654080e-05,-7.170885924904134e-13
	-1.859256937411801e-05,1.579687992494769e-13
8		1.202264434617413e+00,0.000000000000000e+00
	-1.859256937411801e-01,1.616483652709950e-09
	1.000000000000000e+00,0.000000000000000e+00
	0.000000000000000e+00,0.000000000000000e+00
	6.081762835800553e-05,1.774106688189678e-13
	6.081762975244262e-05,1.903463186394485e-13
	1.859256937411800e-05,-1.616483652709951e-13
	3.751260968673587e-05,7.337917315399095e-13
	-3.243606913285200e-05,-1.006588448832724e-13
	-2.366910992800187e-05,-4.714845213856419e-13
	-1.859256937411801e-05,1.616483652709950e-13
	-3.751260968654080e-05,-7.337917315399095e-13
	-1.859256937411801e-05,1.616483652709950e-13
9		1.230268770812381e+00,0.000000000000000e+00
	-1.859256937411801e-01,1.654136393954488e-09
	1.000000000000000e+00,0.000000000000000e+00
	0.000000000000000e+00,0.000000000000000e+00
	6.081762835800553e-05,1.815430941582914e-13
	6.081762975244262e-05,1.947800539701871e-13
	1.859256937411800e-05,-1.654136393954489e-13
	3.751260968673587e-05,7.508839366783496e-13
	-3.243606913285200e-05,-1.030034905801281e-13
	-2.366910992800187e-05,-4.824668067027727e-13
	-1.859256937411801e-05,1.654136393954488e-13
	-3.751260968654080e-05,-7.508839366783497e-13
	-1.859256937411801e-05,1.654136393954488e-13
10		1.258925411794167e+00,0.000000000000000e+00
	-1.859256937411801e-01,1.692666180210185e-09
	1.000000000000000e+00,0.000000000000000e+00
	0.000000000000000e+00,0.000000000000000e+00
	6.081762835800553e-05,1.857717760491447e-13
	6.081762975244262e-05,1.993170642637596e-13
	1.859256937411800e-05,-1.692666180210185e-13
	3.751260968673587e-05,7.683742704191407e-13
	-3.243606913285200e-05,-1.054027500911018e-13
	-2.366910992800187e-05,-4.937049023070205e-13
	-1.859256937411801e-05,1.692666180210185e-13
	-3.751260968654080e-05,-7.683742704191406e-13
	-1.859256937411801e-05,1.692666180210185e-13
11		1.288249551693134e+00,0.000000000000000e+00
	-1.859256937411801e-01,1.732093440479715e-09
	1.000000000000000e+00,0.000000000000000e+00
	0.000000000000000e+00,0.000000000000000e+00
	6.081762835800553e-05,1.900989565946395e-13
	6.081762975244262e-05,2.039597551030779e-13
	1.859256937411800e-05,-1.732093440479715e-13
	3.751260968673587e-05,7.862720063687440e-13
	-3.243606913285200e-05,-1.078578955353441e-13
	-2.366910992800187e-05,-5.052047667854284e-13
	-1.859256937411801e-05,1.732093440479715e-13
	-3.751260968654080e-05,-7.862720063687441e-13
	-1.859256937411801e-05,1.732093440479715e-13
12		1.318256738556407e+00,0.000000000000000e+00
	-1.859256937411801e-01,1.772439079618353e-09
	1.000000000000000e+00,0.000000000000000e+00
	0.000000000000000e+00,0.000000000000000e+00
	6.081762835800553e-05,1.945269301231778e-13
	6.081762975244262e-05,2.087105881042784e-13
	1.859256937411800e-05,-1.772439079618354e-13
	3.751260968673587e-05,8.045866341436642e-13
	-3.243606913285200e-05,-1.103702286634672e-13
	-2.366910992800187e-05,-5.169724975183615e-13
	-1.859256937411801e-05,1.772439079618353e-13
	-3.751260968654080e-05,-8.045866341436643e-13
	-1.859256937411801e-05,1.772439079618353e-13
13		1.348962882591653e+00,0.000000000000000e+00
	-1.859256937411801e-01,1.813724489418010e-09
	1.000000000000000e+00,0.000000000000000e+00
	0.000000000000000e+00,0.000000000000000e+00
	6.081762835800553e-05,1.990580444049358e-13
	6.081762975244262e-05,2.135720822219030e-13
	1.859256937411800e-05,-1.813724489418010e-13
	3.751260968673587e-05,8.233278644019704e-13
	-3.243606913285200e-05,-1.129410815477504e-13
	-2.366910992800187e-05,-5.290143339124189e-13
	-1.859256937411801e-05,1.813724489418010e-13
	-3.751260968654080e-05,-8.233278644019706e-13
	-1.859256937411801e-05,1.813724489418010e-13
14		1.380384264602885e+00,0.000000000000000e+00
	-1.859256937411801e-01,1.855971559949439e-09
	1.000000000000000e+00,0.000000000000000e+00
	0.000000000000000e+00,0.000000000000000e+00
	6.081762835800553e-05,2.036947018966820e-13
	6.081762975244262e-05,2.185468150844823e-13
	1.859256937411800e-05,-1.855971559949439e-13
	3.751260968673587e-05,8.425056339920153e-13
	-3.243606913285200e-05,-1.155718172884222e-13
	-2.366910992800187e-05,-5.413366607086492e-13
	-1.859256937411801e-05,1.855971559949439e-13
	-3.751260968654080e-05,-8.425056339920154e-13
	-1.859256937411801e-05,1.855971559949439e-13
15		1.412537544622754e+00,0.000000000000000e+00
	-1.859256937411801e-01,1.899202691168641e-09
	1.000000000000000e+00,0.000000000000000e+00
	0.000000000000000e+00,0.000000000000000e+00
	6.081762835800553e-05,2.084393610155919e-13
	6.081762975244262e-05,2.236374243612286e-13
	1.859256937411800e-05,-1.899202691168640e-13
	3.751260968673587e-05,8.621301112210832e-13
	-3.243606913285200e-05,-1.182638307363942e-13
	-2.366910992800187e-05,-5.539460113678250e-13
	-1.859256937411801e-05,1.899202691168641e-13
	-3.751260968654080e-05,-8.621301112210833e-13
	-1.859256937411801e-05,1.899202691168641e-13
16		1.445439770745927e+00,0.000000000000000e+00
	-1.859256937411801e-01,1.943440804793618e-09
	1.000000000000000e+00,0.000000000000000e+00
	0.000000000000000e+00,0.000000000000000e+00
	6.081762835800553e-05,2.132945374427334e-13
	6.081762975244262e-05,2.288466091605625e-13
	1.859256937411800e-05,-1.943440804793619e-13
	3.751260968673587e-05,8.822117012467614e-13
	-3.243606913285200e-05,-1.210185492328294e-13
	-2.366910992800187e-05,-5.668490715345702e-13
	-1.859256937411801e-05,1.943440804793618e-13
	-3.751260968654080e-05,-8.822117012467614e-13
	-1.859256937411801e-05,1.943440804793618e-13
17		1.479108388168207e+00,0.000000000000000e+00
	-1.859256937411801e-01,1.988709356457779e-09
	1.000000000000000e+00,0.000000000000000e+00
	0.000000000000000e+00,0.000000000000000e+00
	6.081762835800553e-05,2.182628054569139e-13
	6.081762975244262e-05,2.341771314612161e-13
	1.859256937411800e-05,-1.988709356457779e-13
	3.751260968673587e-05,9.027610515938931e-13
	-3.243606913285200e-05,-1.238374333659377e-13
	-2.366910992800187e-05,-5.800526825821775e-13
	-1.859256937411801e-05,1.988709356457779e-13
	-3.751260968654080e-05,-9.027610515938932e-13
	-1.859256937411801e-05,1.988709356457779e-13
18		1.513561248436208e+00,0.000000000000000e+00
	-1.859256937411801e-01,2.035032348146414e-09
	1.000000000000000e+00,0.000000000000000e+00
	0.000000000000000e+00,0.000000000000000e+00
	6.081762835800553e-05,2.233467992995976e-13
	6.081762975244262e-05,2.396318175766714e-13
	1.859256937411800e-05,-2.035032348146414e-13
	3.751260968673587e-05,9.237890578000352e-13
	-3.243606913285200e-05,-1.267219777453989e-13
	-2.366910992800187e-05,-5.935638452399950e-13
	-1.859256937411801e-05,2.035032348146414e-13
	-3.751260968654080e-05,-9.237890578000354e-13
	-1.859256937411801e-05,2.035032348146414e-13
19		1.548816618912481e+00,0.000000000000000e+00
	-1.859256937411801e-01,2.082434340922873e-09
	1.000000000000000e+00,0.000000000000000e+00
	0.000000000000000e+00,0.000000000000000e+00
	6.081762835800553e-05,2.285492145716143e-13
	6.081762975244262e-05,2.452135596537079e-13
	1.859256937411800e-05,-2.082434340922874e-13
	3.751260968673587e-05,9.453068691924166e-13
	-3.243606913285200e-05,-1.296737117948244e-13
	-2.366910992800187e-05,-6.073897233053049e-13
	-1.859256937411801e-05,2.082434340922873e-13
	-3.751260968654080e-05,-9.453068691924166e-13
	-1.859256937411801e-05,2.082434340922873e-13
20		1.584893192461113e+00,0.000000000000000e+00
	-1.859256937411801e-01,2.130940467951167e-09
	1.000000000000000e+00,0.000000000000000e+00
	0.000000000000000e+00,0.000000000000000e+00
	6.081762835800553e-05,2.338728096624033e-13
	6.081762975244262e-05,2.509253172058579e-13
	1.859256937411800e-05,-2.130940467951167e-13
	3.751260968673587e-05,9.673258947994595e-13
	-3.243606913285200e-05,-1.326942005626779e-13
	-2.366910992800187e-05,-6.215376474416647e-13
	-1.859256937411801e-05,2.130940467951167e-13
	-3.751260968654080e-05,-9.673258947994595e-13
	-1.859256937411801e-05,2.130940467951167e-13
21		1.621810097358929e+00,0.000000000000000e+00
	-1.859256937411801e-01,2.180576447821899e-09
	1.000000000000000e+00,0.000000000000000e+00
	0.000000000000000e+00,0.000000000000000e+00
	6.081762835800553e-05,2.393204072125478e-13
	6.081762975244262e-05,2.567701186825797e-13
	1.859256937411800e-05,-2.180576447821900e-13
	3.751260968673587e-05,9.898578093999966e-13
	-3.243606913285200e-05,-1.357850455520852e-13
	-2.366910992800187e-05,-6.360151190657214e-13
	-1.859256937411801e-05,2.180576447821900e-13
	-3.751260968654080e-05,-9.898578093999966e-13
	-1.859256937411801e-05,2.180576447821900e-13
22		1.659586907437560e+00,0.000000000000000e+00
	-1.859256937411801e-01,2.231368598188609e-09
	1.000000000000000e+00,0.000000000000000e+00
	0.000000000000000e+00,0.000000000000000e+00
	6.081762835800553e-05,2.448948956103767e-13
	6.081762975244262e-05,2.627510630749814e-13
	1.859256937411800e-05,-2.231368598188609e-13
	3.751260968673587e-05,1.012914559713395e-12
	-3.243606913285200e-05,-1.389478855699718e-13
	-2.366910992800187e-05,-6.508298143245623e-13
	-1.859256937411801e-05,2.231368598188609e-13
	-3.751260968654080e-05,-1.012914559713395e-12
	-1.859256937411801e-05,2.231368598188609e-13
23		1.698243652461743e+00,0.000000000000000e+00
	-1.859256937411801e-01,2.283343849721734e-09
	1.000000000000000e+00,0.000000000000000e+00
	0.000000000000000e+00,0.000000000000000e+00
	6.081762835800553e-05,2.505992305234254e-13
	6.081762975244262e-05,2.688713215589469e-13
	1.859256937411800e-05,-2.283343849721735e-13
	3.751260968673587e-05,1.036508370733863e-12
	-3.243606913285200e-05,-1.421843975959803e-13
	-2.366910992800187e-05,-6.659895881657090e-13
	-1.859256937411801e-05,2.283343849721734e-13
	-3.751260968654080e-05,-1.036508370733863e-12
	-1.859256937411801e-05,2.283343849721734e-13
24		1.737800828749374e+00,0.000000000000000e+00
	-1.859256937411801e-01,2.336529760387609e-09
	1.000000000000000e+00,0.000000000000000e+00
	0.000000000000000e+00,0.000000000000000e+00
	6.081762835800553e-05,2.564364364655704e-13
	6.081762975244262e-05,2.751341391765356e-13
	1.859256937411800e-05,-2.336529760387609e-13
	3.751260968673587e-05,1.060651752212303e-12
	-3.243606913285200e-05,-1.454962976716271e-13
	-2.366910992800187e-05,-6.815024785019153e-13
	-1.859256937411801e-05,2.336529760387609e-13
	-3.751260968654080e-05,-1.060651752212304e-12
	-1.859256937411801e-05,2.336529760387609e-13
25		1.778279410038922e+00,0.000000000000000e+00
	-1.859256937411801e-01,2.390954530060070e-09
	1.000000000000000e+00,0.000000000000000e+00
	0.000000000000000e+00,0.000000000000000e+00
	6.081762835800553e-05,2.624096084006669e-13
	6.081762975244262e-05,2.815428365565465e-13
	1.859256937411800e-05,-2.390954530060070e-13
	3.751260968673587e-05,1.085357505289153e-12
	-3.243606913285200e-05,-1.488853418101706e-13
	-2.366910992800187e-05,-6.973767104729753e-13
	-1.859256937411801e-05,2.390954530060070e-13
	-3.751260968654080e-05,-1.085357505289153e-12
	-1.859256937411801e-05,2.390954530060070e-13
26		1.819700858609982e+00,0.000000000000000e+00
	-1.859256937411801e-01,2.446647015472393e-09
	1.000000000000000e+00,0.000000000000000e+00
	0.000000000000000e+00,0.000000000000000e+00
	6.081762835800553e-05,2.685219133835394e-13
	6.081762975244262e-05,2.881008116751598e-13
	1.859256937411800e-05,-2.446647015472394e-13
	3.751260968673587e-05,1.110638729281712e-12
	-3.243606913285200e-05,-1.523533269276723e-13
	-2.366910992800187e-05,-7.136207008067999e-13
	-1.859256937411801e-05,2.446647015472393e-13
	-3.751260968654080e-05,-1.110638729281712e-12
	-1.859256937411801e-05,2.446647015472393e-13
27		1.862087136662866e+00,0.000000000000000e+00
	-1.859256937411801e-01,2.503636745517522e-09
	1.000000000000000e+00,0.000000000000000e+00
	0.000000000000000e+00,0.000000000000000e+00
	6.081762835800553e-05,2.747765922391956e-13
	6.081762975244262e-05,2.948115416575883e-13
	1.859256937411800e-05,-2.503636745517522e-13
	3.751260968673587e-05,1.136508828629577e-12
	-3.243606913285200e-05,-1.559020917957458e-13
	-2.366910992800187e-05,-7.302430622820790e-13
	-1.859256937411801e-05,2.503636745517522e-13
	-3.751260968654080e-05,-1.136508828629577e-12
	-1.859256937411801e-05,2.503636745517522e-13
28		1.905460717963246e+00,0.000000000000000e+00
	-1.859256937411801e-01,2.561953936904674e-09
	1.000000000000000e+00,0.000000000000000e+00
	0.000000000000000e+00,0.000000000000000e+00
	6.081762835800553e-05,2.811769612811551e-13
	6.081762975244262e-05,3.016785846216957e-13
	1.859256937411800e-05,-2.561953936904675e-13
	3.751260968673587e-05,1.162981520001855e-12
	-3.243606913285200e-05,-1.595335180164976e-13
	-2.366910992800187e-05,-7.472526082948898e-13
	-1.859256937411801e-05,2.561953936904674e-13
	-3.751260968654080e-05,-1.162981520001855e-12
	-1.859256937411801e-05,2.561953936904674e-13
29		1.949844599758044e+00,0.000000000000000e+00
	-1.859256937411801e-01,2.621629510180642e-09
	1.000000000000000e+00,0.000000000000000e+00
	0.000000000000000e+00,0.000000000000000e+00
	6.081762835800553e-05,2.877264140698029e-13
	6.081762975244262e-05,3.087055815645577e-13
	1.859256937411800e-05,-2.621629510180643e-13
	3.751260968673587e-05,1.190070839569918e-12
	-3.243606913285200e-05,-1.632495310201774e-13
	-2.366910992800187e-05,-7.646583575316760e-13
	-1.859256937411801e-05,2.621629510180642e-13
	-3.751260968654080e-05,-1.190070839569918e-12
	-1.859256937411801e-05,2.621629510180642e-13
30		1.995262314968878e+00,0.000000000000000e+00
	-1.859256937411801e-01,2.682695106124277e-09
	1.000000000000000e+00,0.000000000000000e+00
	0.000000000000000e+00,0.000000000000000e+00
	6.081762835800553e-05,2.944284232116998e-13
	6.081762975244262e-05,3.158962582929665e-13
	1.859256937411800e-05,-2.682695106124277e-13
	3.751260968673587e-05,1.217791150449570e-12
	-3.243606913285200e-05,-1.670521010860671e-13
	-2.366910992800187e-05,-7.824695387510754e-13
	-1.859256937411801e-05,2.682695106124277e-13
	-3.751260968654080e-05,-1.217791150449570e-12
	-1.859256937411801e-05,2.682695106124277e-13
31		2.041737944669527e+00,0.000000000000000e+00
	-1.859256937411801e-01,2.745183102522846e-09
	1.000000000000000e+00,0.000000000000000e+00
	0.000000000000000e+00,0.000000000000000e+00
	6.081762835800553e-05,3.012865422008046e-13
	6.081762975244262e-05,3.232544273989037e-13
	1.859256937411800e-05,-2.745183102522847e-13
	3.751260968673587e-05,1.246157150316563e-12
	-3.243606913285200e-05,-1.709432443871486e-13
	-2.366910992800187e-05,-8.006955956771293e-13
	-1.859256937411801e-05,2.745183102522846e-13
	-3.751260968654080e-05,-1.246157150316563e-12
	-1.859256937411801e-05,2.745183102522846e-13
32		2.089296130854037e+00,0.000000000000000e+00
	-1.859256937411801e-01,2.809126631339167e-09
	1.000000000000000e+00,0.000000000000000e+00
	0.000000000000000e+00,0.000000000000000e+00
	6.081762835800553e-05,3.083044073025830e-13
