Title: * GA CMOS Amp | W=2.1063259091931684e-05 L=8.961425454849741e-07 Vbias=1.0086290219448013
Date: Mon Sep  8 18:46:07 2025
Plotname: AC Analysis
Flags: complex forward log
No. Variables: 11
No. Points:          901
Offset:    0.0000000000000000e+00
Command: Linear Technology Corporation LTspice
Variables:
	0	frequency	frequency
	1	V(out)	voltage
	2	V(g)	voltage
	3	V(vdd)	voltage
	4	Id(M1)	device_current
	5	Ig(M1)	device_current
	6	Ib(M1)	device_current
	7	Is(M1)	device_current
	8	I(Rload)	device_current
	9	I(Vg)	device_current
	10	I(Vdd)	device_current
Values:
0		1.000000000000000e+00,0.000000000000000e+00
	-5.400284175944552e+00,3.615709840679421e-09
	1.000000000000000e+00,0.000000000000000e+00
	0.000000000000000e+00,0.000000000000000e+00
	5.400284175944553e-04,-3.615709840679421e-13
	1.876687619235869e-22,4.657147680639660e-13
	5.400284169496117e-12,8.970183052643210e-15
	-5.400284229947395e-04,-1.131139670486672e-13
	-5.400284175944552e-04,3.615709840679421e-13
	-1.876687619235869e-22,-4.657147680639660e-13
	-5.400284175944552e-04,3.615709840679421e-13
1		1.023292992280754e+00,0.000000000000000e+00
	-5.400284175944552e+00,3.699930542087813e-09
	1.000000000000000e+00,0.000000000000000e+00
	0.000000000000000e+00,0.000000000000000e+00
	5.400284175944553e-04,-3.699930542087814e-13
	1.965133181875555e-22,4.765626585615133e-13
	5.400284169496117e-12,9.179125457245356e-15
	-5.400284229947395e-04,-1.157487298099772e-13
	-5.400284175944552e-04,3.699930542087814e-13
	-1.965133181875555e-22,-4.765626585615133e-13
	-5.400284175944552e-04,3.699930542087814e-13
2		1.047128548050899e+00,0.000000000000000e+00
	-5.400284175944552e+00,3.786112995643992e-09
	1.000000000000000e+00,0.000000000000000e+00
	0.000000000000000e+00,0.000000000000000e+00
	5.400284175944553e-04,-3.786112995643991e-13
	2.057747055463994e-22,4.876632288886822e-13
	5.400284169496117e-12,9.392934755665096e-15
	-5.400284229947395e-04,-1.184448640799482e-13
	-5.400284175944552e-04,3.786112995643992e-13
	-2.057747055463994e-22,-4.876632288886822e-13
	-5.400284175944552e-04,3.786112995643992e-13
3		1.071519305237606e+00,0.000000000000000e+00
	-5.400284175944552e+00,3.874302896425589e-09
	1.000000000000000e+00,0.000000000000000e+00
	0.000000000000000e+00,0.000000000000000e+00
	5.400284175944553e-04,-3.874302896425589e-13
	2.154725686444025e-22,4.990223647147938e-13
	5.400284169496117e-12,9.611724312422406e-15
	-5.400284229947395e-04,-1.212037993846573e-13
	-5.400284175944552e-04,3.874302896425589e-13
	-2.154725686444025e-22,-4.990223647147938e-13
	-5.400284175944552e-04,3.874302896425589e-13
4		1.096478196143185e+00,0.000000000000000e+00
	-5.400284175944552e+00,3.964547003885333e-09
	1.000000000000000e+00,0.000000000000000e+00
	0.000000000000000e+00,0.000000000000000e+00
	5.400284175944553e-04,-3.964547003885333e-13
	2.256274779494109e-22,5.106460888040190e-13
	5.400284169496117e-12,9.835610132636479e-15
	-5.400284229947395e-04,-1.240269985481222e-13
	-5.400284175944552e-04,3.964547003885333e-13
	-2.256274779494109e-22,-5.106460888040190e-13
	-5.400284175944552e-04,3.964547003885333e-13
5		1.122018454301963e+00,0.000000000000000e+00
	-5.400284175944552e+00,4.056893166643522e-09
	1.000000000000000e+00,0.000000000000000e+00
	0.000000000000000e+00,0.000000000000000e+00
	5.400284175944553e-04,-4.056893166643521e-13
	2.362609733855531e-22,5.225405642087285e-13
	5.400284169496117e-12,1.006471092353234e-14
	-5.400284229947395e-04,-1.269159584679088e-13
	-5.400284175944552e-04,4.056893166643522e-13
	-2.362609733855531e-22,-5.225405642087285e-13
	-5.400284175944552e-04,4.056893166643522e-13
6		1.148153621496882e+00,0.000000000000000e+00
	-5.400284175944552e+00,4.151390347857993e-09
	1.000000000000000e+00,0.000000000000000e+00
	0.000000000000000e+00,0.000000000000000e+00
	5.400284175944553e-04,-4.151390347857993e-13
	2.473956100223064e-22,5.347120975372233e-13
	5.400284169496117e-12,1.029914815738231e-14
	-5.400284229947395e-04,-1.298722109088063e-13
	-5.400284175944552e-04,4.151390347857994e-13
	-2.473956100223064e-22,-5.347120975372233e-13
	-5.400284175944552e-04,4.151390347857994e-13
7		1.174897554939529e+00,0.000000000000000e+00
	-5.400284175944552e+00,4.248088651185046e-09
	1.000000000000000e+00,0.000000000000000e+00
	0.000000000000000e+00,0.000000000000000e+00
	5.400284175944553e-04,-4.248088651185046e-13
	2.590550059168242e-22,5.471671422975836e-13
	5.400284169496117e-12,1.053904613591057e-14
	-5.400284229947395e-04,-1.328973233149895e-13
	-5.400284175944552e-04,4.248088651185046e-13
	-2.590550059168242e-22,-5.471671422975836e-13
	-5.400284175944552e-04,4.248088651185046e-13
8		1.202264434617413e+00,0.000000000000000e+00
	-5.400284175944552e+00,4.347039347345059e-09
	1.000000000000000e+00,0.000000000000000e+00
	0.000000000000000e+00,0.000000000000000e+00
	5.400284175944553e-04,-4.347039347345060e-13
	2.712638922110013e-22,5.599123023194035e-13
	5.400284169496117e-12,1.078453205620092e-14
	-5.400284229947395e-04,-1.359928996410985e-13
	-5.400284175944552e-04,4.347039347345059e-13
	-2.712638922110013e-22,-5.599123023194035e-13
	-5.400284175944552e-04,4.347039347345059e-13
9		1.230268770812381e+00,0.000000000000000e+00
	-5.400284175944552e+00,4.448294901306902e-09
	1.000000000000000e+00,0.000000000000000e+00
	0.000000000000000e+00,0.000000000000000e+00
	5.400284175944553e-04,-4.448294901306902e-13
	2.840481655895415e-22,5.729543352552287e-13
	5.400284169496117e-12,1.103573607813740e-14
	-5.400284229947395e-04,-1.391605812026759e-13
	-5.400284175944552e-04,4.448294901306902e-13
	-2.840481655895415e-22,-5.729543352552287e-13
	-5.400284175944552e-04,4.448294901306902e-13
10		1.258925411794167e+00,0.000000000000000e+00
	-5.400284175944552e+00,4.551909000105561e-09
	1.000000000000000e+00,0.000000000000000e+00
	0.000000000000000e+00,0.000000000000000e+00
	5.400284175944553e-04,-4.551909000105562e-13
	2.974349432102981e-22,5.863001561635534e-13
	5.400284169496117e-12,1.129279139341791e-14
	-5.400284229947395e-04,-1.424020475464151e-13
	-5.400284175944552e-04,4.551909000105562e-13
	-2.974349432102981e-22,-5.863001561635534e-13
	-5.400284175944552e-04,4.551909000105562e-13
11		1.288249551693134e+00,0.000000000000000e+00
	-5.400284175944552e+00,4.657936581307716e-09
	1.000000000000000e+00,0.000000000000000e+00
	0.000000000000000e+00,0.000000000000000e+00
	5.400284175944553e-04,-4.657936581307716e-13
	3.114526202234013e-22,5.999568411752760e-13
	5.400284169496117e-12,1.155583429617290e-14
	-5.400284229947395e-04,-1.457190173406774e-13
	-5.400284175944552e-04,4.657936581307716e-13
	-3.114526202234013e-22,-5.999568411752760e-13
	-5.400284175944552e-04,4.657936581307716e-13
12		1.318256738556407e+00,0.000000000000000e+00
	-5.400284175944552e+00,4.766433862140359e-09
	1.000000000000000e+00,0.000000000000000e+00
	0.000000000000000e+00,0.000000000000000e+00
	5.400284175944553e-04,-4.766433862140359e-13
	3.261309300011784e-22,6.139316312455573e-13
	5.400284169496117e-12,1.182500425523144e-14
	-5.400284229947395e-04,-1.491132492867529e-13
	-5.400284175944552e-04,4.766433862140360e-13
	-3.261309300011784e-22,-6.139316312455573e-13
	-5.400284175944552e-04,4.766433862140360e-13
13		1.348962882591653e+00,0.000000000000000e+00
	-5.400284175944552e+00,4.877458369297920e-09
	1.000000000000000e+00,0.000000000000000e+00
	0.000000000000000e+00,0.000000000000000e+00
	5.400284175944553e-04,-4.877458369297919e-13
	3.415010072066236e-22,6.282319359930709e-13
	5.400284169496117e-12,1.210044398806825e-14
	-5.400284229947395e-04,-1.525865430513474e-13
	-5.400284175944552e-04,4.877458369297920e-13
	-3.415010072066236e-22,-6.282319359930709e-13
	-5.400284175944552e-04,4.877458369297920e-13
14		1.380384264602885e+00,0.000000000000000e+00
	-5.400284175944552e+00,4.991068969443676e-09
	1.000000000000000e+00,0.000000000000000e+00
	0.000000000000000e+00,0.000000000000000e+00
	5.400284175944553e-04,-4.991068969443676e-13
	3.575954538341915e-22,6.428653376286807e-13
	5.400284169496117e-12,1.238229953647625e-14
	-5.400284229947395e-04,-1.561407402207894e-13
	-5.400284175944552e-04,4.991068969443676e-13
	-3.575954538341915e-22,-6.428653376286807e-13
	-5.400284175944552e-04,4.991068969443676e-13
15		1.412537544622754e+00,0.000000000000000e+00
	-5.400284175944552e+00,5.107325900421638e-09
	1.000000000000000e+00,0.000000000000000e+00
	0.000000000000000e+00,0.000000000000000e+00
	5.400284175944553e-04,-5.107325900421640e-13
	3.744484083629994e-22,6.578395949756300e-13
	5.400284169496117e-12,1.267072034399743e-14
	-5.400284229947395e-04,-1.597777252774634e-13
	-5.400284175944552e-04,5.107325900421639e-13
	-3.744484083629994e-22,-6.578395949756300e-13
	-5.400284175944552e-04,5.107325900421639e-13
16		1.445439770745927e+00,0.000000000000000e+00
	-5.400284175944552e+00,5.226290803195455e-09
	1.000000000000000e+00,0.000000000000000e+00
	0.000000000000000e+00,0.000000000000000e+00
	5.400284175944553e-04,-5.226290803195454e-13
	3.920956181691177e-22,6.731626475833716e-13
	5.400284169496117e-12,1.296585933516167e-14
	-5.400284229947395e-04,-1.634994265989878e-13
	-5.400284175944552e-04,5.226290803195455e-13
	-3.920956181691177e-22,-6.731626475833716e-13
	-5.400284175944552e-04,5.226290803195455e-13
17		1.479108388168207e+00,0.000000000000000e+00
	-5.400284175944552e+00,5.348026754531262e-09
	1.000000000000000e+00,0.000000000000000e+00
	0.000000000000000e+00,0.000000000000000e+00
	5.400284175944553e-04,-5.348026754531262e-13
	4.105745153505481e-22,6.888426199372231e-13
	5.400284169496117e-12,1.326787299656875e-14
	-5.400284229947395e-04,-1.673078174806657e-13
	-5.400284175944552e-04,5.348026754531262e-13
	-4.105745153505481e-22,-6.888426199372231e-13
	-5.400284175944552e-04,5.348026754531262e-13
18		1.513561248436208e+00,0.000000000000000e+00
	-5.400284175944552e+00,5.472598300441825e-09
	1.000000000000000e+00,0.000000000000000e+00
	0.000000000000000e+00,0.000000000000000e+00
	5.400284175944553e-04,-5.472598300441825e-13
	4.299242961257212e-22,7.048878257660753e-13
	5.400284169496117e-12,1.357692145986001e-14
	-5.400284229947395e-04,-1.712049171817527e-13
	-5.400284175944552e-04,5.472598300441825e-13
	-4.299242961257212e-22,-7.048878257660753e-13
	-5.400284175944552e-04,5.472598300441825e-13
19		1.548816618912481e+00,0.000000000000000e+00
	-5.400284175944552e+00,5.600071490409685e-09
	1.000000000000000e+00,0.000000000000000e+00
	0.000000000000000e+00,0.000000000000000e+00
	5.400284175944553e-04,-5.600071490409685e-13
	4.501860039739315e-22,7.213067724504420e-13
	5.400284169496117e-12,1.389316858662099e-14
	-5.400284229947395e-04,-1.751927919960945e-13
	-5.400284175944552e-04,5.600071490409686e-13
	-4.501860039739315e-22,-7.213067724504420e-13
	-5.400284175944552e-04,5.600071490409686e-13
20		1.584893192461113e+00,0.000000000000000e+00
	-5.400284175944552e+00,5.730513912407468e-09
	1.000000000000000e+00,0.000000000000000e+00
	0.000000000000000e+00,0.000000000000000e+00
	5.400284175944553e-04,-5.730513912407469e-13
	4.714026166940592e-22,7.381081655331858e-13
	5.400284169496117e-12,1.421678205526424e-14
	-5.400284229947395e-04,-1.792735563477032e-13
	-5.400284175944552e-04,5.730513912407469e-13
	-4.714026166940592e-22,-7.381081655331858e-13
	-5.400284175944552e-04,5.730513912407469e-13
21		1.621810097358929e+00,0.000000000000000e+00
	-5.400284175944552e+00,5.863994728733930e-09
	1.000000000000000e+00,0.000000000000000e+00
	0.000000000000000e+00,0.000000000000000e+00
	5.400284175944553e-04,-5.863994728733930e-13
	4.936191375662449e-22,7.553009133353118e-13
	5.400284169496117e-12,1.454793344993479e-14
	-5.400284229947395e-04,-1.834493739118536e-13
	-5.400284175944552e-04,5.863994728733930e-13
	-4.936191375662449e-22,-7.553009133353118e-13
	-5.400284175944552e-04,5.863994728733930e-13
22		1.659586907437560e+00,0.000000000000000e+00
	-5.400284175944552e+00,6.000584712684712e-09
	1.000000000000000e+00,0.000000000000000e+00
	0.000000000000000e+00,0.000000000000000e+00
	5.400284175944553e-04,-6.000584712684712e-13
	5.168826908098793e-22,7.728941316792779e-13
	5.400284169496117e-12,1.488679835148490e-14
	-5.400284229947395e-04,-1.877224587622916e-13
	-5.400284175944552e-04,6.000584712684712e-13
	-5.168826908098793e-22,-7.728941316792779e-13
	-5.400284175944552e-04,6.000584712684712e-13
23		1.698243652461743e+00,0.000000000000000e+00
	-5.400284175944552e+00,6.140356286077289e-09
	1.000000000000000e+00,0.000000000000000e+00
	0.000000000000000e+00,0.000000000000000e+00
	5.400284175944553e-04,-6.140356286077288e-13
	5.412426215403910e-22,7.908971487223234e-13
	5.400284169496117e-12,1.523355643057131e-14
	-5.400284229947395e-04,-1.920950765451659e-13
	-5.400284175944552e-04,6.140356286077289e-13
	-5.412426215403910e-22,-7.908971487223234e-13
	-5.400284175944552e-04,6.140356286077289e-13
24		1.737800828749374e+00,0.000000000000000e+00
	-5.400284175944552e+00,6.283383557649965e-09
	1.000000000000000e+00,0.000000000000000e+00
	0.000000000000000e+00,0.000000000000000e+00
	5.400284175944553e-04,-6.283383557649967e-13
	5.667506004368519e-22,8.093195099023828e-13
	5.400284169496117e-12,1.558839154291715e-14
	-5.400284229947395e-04,-1.965695456803032e-13
	-5.400284175944552e-04,6.283383557649966e-13
	-5.667506004368519e-22,-8.093195099023828e-13
	-5.400284175944552e-04,6.283383557649966e-13
25		1.778279410038922e+00,0.000000000000000e+00
	-5.400284175944552e+00,6.429742362355325e-09
	1.000000000000000e+00,0.000000000000000e+00
	0.000000000000000e+00,0.000000000000000e+00
	5.400284175944553e-04,-6.429742362355325e-13
	5.934607333424164e-22,8.281709829992029e-13
	5.400284169496117e-12,1.595149182679548e-14
	-5.400284229947395e-04,-2.011482385904659e-13
	-5.400284175944552e-04,6.429742362355325e-13
	-5.934607333424164e-22,-8.281709829992029e-13
	-5.400284175944552e-04,6.429742362355325e-13
26		1.819700858609982e+00,0.000000000000000e+00
	-5.400284175944552e+00,6.579510301568905e-09
	1.000000000000000e+00,0.000000000000000e+00
	0.000000000000000e+00,0.000000000000000e+00
	5.400284175944553e-04,-6.579510301568903e-13
	6.214296760300664e-22,8.474615633133477e-13
	5.400284169496117e-12,1.632304980278358e-14
	-5.400284229947395e-04,-2.058335829592409e-13
	-5.400284175944552e-04,6.579510301568905e-13
	-6.214296760300664e-22,-8.474615633133477e-13
	-5.400284175944552e-04,6.579510301568905e-13
27		1.862087136662866e+00,0.000000000000000e+00
	-5.400284175944552e+00,6.732766784234490e-09
	1.000000000000000e+00,0.000000000000000e+00
	0.000000000000000e+00,0.000000000000000e+00
	5.400284175944553e-04,-6.732766784234490e-13
	6.507167543771041e-22,8.672014789658413e-13
	5.400284169496117e-12,1.670326247583807e-14
	-5.400284229947395e-04,-2.106280630182304e-13
	-5.400284175944552e-04,6.732766784234491e-13
	-6.507167543771041e-22,-8.672014789658413e-13
	-5.400284175944552e-04,6.732766784234491e-13
28		1.905460717963246e+00,0.000000000000000e+00
	-5.400284175944552e+00,6.889593068967781e-09
	1.000000000000000e+00,0.000000000000000e+00
	0.000000000000000e+00,0.000000000000000e+00
	5.400284175944553e-04,-6.889593068967783e-13
	6.813840902032908e-22,8.874011963212513e-13
	5.400284169496117e-12,1.709233143975133e-14
	-5.400284229947395e-04,-2.155342208642243e-13
	-5.400284175944552e-04,6.889593068967781e-13
	-6.813840902032908e-22,-8.874011963212513e-13
	-5.400284175944552e-04,6.889593068967781e-13
29		1.949844599758044e+00,0.000000000000000e+00
	-5.400284175944552e+00,7.050072307140787e-09
	1.000000000000000e+00,0.000000000000000e+00
	0.000000000000000e+00,0.000000000000000e+00
	5.400284175944553e-04,-7.050072307140786e-13
	7.134967330395554e-22,9.080714255370941e-13
	5.400284169496117e-12,1.749046298403760e-14
	-5.400284229947395e-04,-2.205546578070530e-13
	-5.400284175944552e-04,7.050072307140788e-13
	-7.134967330395554e-22,-9.080714255370941e-13
	-5.400284175944552e-04,7.050072307140788e-13
30		1.995262314968878e+00,0.000000000000000e+00
	-5.400284175944552e+00,7.214289586969775e-09
	1.000000000000000e+00,0.000000000000000e+00
	0.000000000000000e+00,0.000000000000000e+00
	5.400284175944553e-04,-7.214289586969774e-13
	7.471227981067697e-22,9.292231262425030e-13
	5.400284169496117e-12,1.789786820331140e-14
	-5.400284229947395e-04,-2.256920357488371e-13
	-5.400284175944552e-04,7.214289586969776e-13
	-7.471227981067697e-22,-9.292231262425030e-13
	-5.400284175944552e-04,7.214289586969776e-13
31		2.041737944669527e+00,0.000000000000000e+00
	-5.400284175944552e+00,7.382331978630185e-09
	1.000000000000000e+00,0.000000000000000e+00
	0.000000000000000e+00,0.000000000000000e+00
	5.400284175944553e-04,-7.382331978630185e-13
	7.823336107972668e-22,9.508675133491677e-13
	5.400284169496117e-12,1.831476310921314e-14
	-5.400284229947395e-04,-2.309490785953624e-13
	-5.400284175944552e-04,7.382331978630186e-13
	-7.823336107972668e-22,-9.508675133491677e-13
	-5.400284175944552e-04,7.382331978630186e-13
32		2.089296130854037e+00,0.000000000000000e+00
	-5.400284175944552e+00,7.554288580422382e-09
	1.000000000000000e+00,0.000000000000000e+00
	0.000000000000000e+00,0.000000000000000e+00
	5.400284175944553e-04,-7.554288580422383e-13
	8.192038579655596e-22,9.730160629976297e-13
	5.400284169496117e-12,1.874136874494004e-14
	-5.400284229947395e-04,-2.363285737003314e-13
	-5.400284175944552e-04,7.554288580422382e-13
	-8.192038579655596e-22,-9.730160629976297e-13
	-5.400284175944552e-04,7.554288580422382e-13
33		2.137962089502230e+00,0.000000000000000e+00
	-5.400284175944552e+00,7.730250566012748e-09
	1.000000000000000e+00,0.000000000000000e+00
	0.000000000000000e+00,0.000000000000000e+00
	5.400284175944553e-04,-7.730250566012751e-13
	8.578117463491714e-22,9.956805186420834e-13
	5.400284169496117e-12,1.917791130244647e-14
	-5.400284229947395e-04,-2.418333733432548e-13
	-5.400284175944552e-04,7.730250566012748e-13
	-8.578117463491714e-22,-9.956805186420834e-13
	-5.400284175944552e-04,7.730250566012748e-13
34		2.187761623949550e+00,0.000000000000000e+00
	-5.400284175944552e+00,7.910311232775180e-09
	1.000000000000000e+00,0.000000000000000e+00
	0.000000000000000e+00,0.000000000000000e+00
	5.400284175944553e-04,-7.910311232775181e-13
	8.982391684556146e-22,1.018872897276911e-12
	5.400284169496117e-12,1.962462224237544e-14
	-5.400284229947395e-04,-2.474663962417680e-13
	-5.400284175944552e-04,7.910311232775180e-13
	-8.982391684556146e-22,-1.018872897276911e-12
	-5.400284175944552e-04,7.910311232775180e-13
35		2.238721138568337e+00,0.000000000000000e+00
	-5.400284175944552e+00,8.094566051258574e-09
	1.000000000000000e+00,0.000000000000000e+00
	0.000000000000000e+00,0.000000000000000e+00
	5.400284175944553e-04,-8.094566051258575e-13
	9.405718762673750e-22,1.042605495808251e-12
	5.400284169496117e-12,2.008173841677981e-14
	-5.400284229947395e-04,-2.532306290991736e-13
	-5.400284175944552e-04,8.094566051258574e-13
	-9.405718762673750e-22,-1.042605495808251e-12
	-5.400284175944552e-04,8.094566051258574e-13
36		2.290867652767770e+00,0.000000000000000e+00
	-5.400284175944552e+00,8.283112715806594e-09
	1.000000000000000e+00,0.000000000000000e+00
	0.000000000000000e+00,0.000000000000000e+00
	5.400284175944553e-04,-8.283112715806596e-13
	9.848996631333665e-22,1.066890897573985e-12
	5.400284169496117e-12,2.054950219470622e-14
	-5.400284229947395e-04,-2.591291281880312e-13
	-5.400284175944552e-04,8.283112715806595e-13
	-9.848996631333665e-22,-1.066890897573985e-12
	-5.400284175944552e-04,8.283112715806595e-13
37		2.344228815319919e+00,0.000000000000000e+00
	-5.400284175944552e+00,8.476051196356493e-09
	1.000000000000000e+00,0.000000000000000e+00
	0.000000000000000e+00,0.000000000000000e+00
	5.400284175944553e-04,-8.476051196356494e-13
	1.031316554232662e-21,1.091741979015582e-12
	5.400284169496117e-12,2.102816159070072e-14
	-5.400284229947395e-04,-2.651650209706334e-13
	-5.400284175944552e-04,8.476051196356494e-13
	-1.031316554232662e-21,-1.091741979015582e-12
	-5.400284175944552e-04,8.476051196356494e-13
38		2.398832919019488e+00,0.000000000000000e+00
	-5.400284175944552e+00,8.673483791444502e-09
	1.000000000000000e+00,0.000000000000000e+00
	0.000000000000000e+00,0.000000000000000e+00
