LTspice 24.0.9 for Windows
Circuit: * GA CMOS Amp | W=1.7124149329982408e-05 L=1e-06 Vbias=1.213958276869096
Start Time: Mon Sep  8 18:44:39 2025
solver = Normal
Maximum thread count: 2
tnom = 27
temp = 27
method = modified trap
AsciiRawFile = 1
Direct Newton iteration for .op point succeeded.
Semiconductor Device Operating Points:
                        --- MOSFET Transistors ---
Name:          m1
Model:        n_1u
Id:          1.57e-04
Vgs:         1.21e+00
Vds:         2.33e-01
Vbs:         0.00e+00
Vth:         8.13e-01
Vdsat:       3.39e-01
Gm:          4.71e-04
Gds:         2.94e-04
Gmb:         1.16e-04
Cbd:         0.00e+00
Cbs:         0.00e+00
Cgsov:       3.42e-15
Cgdov:       3.42e-15
Cgbov:       8.00e-17
Cgs:         1.49e-14
Cgd:         6.62e-15
Cgb:         0.00e+00



gain_db: MAX(db(v(out)/v(g)))=(28.7335dB,86.724°) FROM 1 TO 1e+09
gain_lin: MAX(mag(v(out)/v(g)))=(1.5619dB,0°) FROM 1 TO 1e+09

Measurement "fc" FAIL'ed

Total elapsed time: 0.429 seconds.

