LTspice 24.0.9 for Windows
Circuit: * GA CMOS Amp | W=1.3732645591418022e-05 L=4.124316827029052e-07 Vbias=0.5930741100893161
Start Time: Sat Sep  6 22:00:53 2025
solver = Normal
Maximum thread count: 2
tnom = 27
temp = 27
method = modified trap
AsciiRawFile = 1
Direct Newton iteration for .op point succeeded.
Semiconductor Device Operating Points:
                        --- BSIM4 MOSFETS ---
Name:      m1
Model:      n
Id:      1.72e-04
Vgs:     5.93e-01
Vds:     7.87e-02
Vbs:     0.00e+00
Vth:     2.57e-01
Vdsat:   2.65e-01
Gm:      3.32e-04
Gds:     1.80e-03
Gmb      2.22e-04
Cbd:     6.70e-15
Cbs:     1.10e-14


.measure op idd find i(vdd)
  Error: FIND can not be evaluated over an interval.

gain_db: MAX(db(v(out)/v(g)))=(29.8868dB,119.046°) FROM 1 TO 1e+09
gain_lin: MAX(mag(v(out)/v(g)))=(-9.14602dB,0°) FROM 1 TO 1e+09

Measurement "fc" FAIL'ed

Total elapsed time: 0.797 seconds.

