Title: * GA CMOS Amp | W=7.20055016282558e-06 L=1.1892975003407694e-07 Vbias=1.3519977584005254
Date: Sat Sep  6 22:34:10 2025
Plotname: AC Analysis
Flags: complex forward log
No. Variables: 13
No. Points:          901
Offset:    0.0000000000000000e+00
Command: Linear Technology Corporation LTspice
Variables:
	0	frequency	frequency
	1	V(out)	voltage
	2	V(g)	voltage
	3	V(vdd)	voltage
	4	V(m1#dbody)	voltage
	5	V(m1#sbody)	voltage
	6	Id(M1)	device_current
	7	Ig(M1)	device_current
	8	Ib(M1)	device_current
	9	Is(M1)	device_current
	10	I(Rload)	device_current
	11	I(Vg)	device_current
	12	I(Vdd)	device_current
Values:
0		1.000000000000000e+00,0.000000000000000e+00
	-7.578958925089700e-04,2.592334907052044e-11
	1.000000000000000e+00,0.000000000000000e+00
	0.000000000000000e+00,0.000000000000000e+00
	3.935510313797930e-06,2.119334845200588e-15
	3.935510320055154e-06,2.246064446123407e-15
	7.578958925089837e-08,-2.592334907052073e-15
	3.308680374709504e-06,2.631829949795314e-13
	-2.098938838531972e-06,-1.189879723371427e-15
	-1.285531125428430e-06,-2.594007803491080e-13
	-7.578958925089701e-08,2.592334907052044e-15
	-3.308680374722317e-06,-2.631829949795314e-13
	-7.578958925089701e-08,2.592334907052044e-15
1		1.023292992280754e+00,0.000000000000000e+00
	-7.578958925089700e-04,2.652718144031136e-11
	1.000000000000000e+00,0.000000000000000e+00
	0.000000000000000e+00,0.000000000000000e+00
	3.935510313797930e-06,2.168700495390179e-15
	3.935510320055154e-06,2.298382007929036e-15
	7.578958925089837e-08,-2.652718144031155e-15
	3.308680374709504e-06,2.693133144500154e-13
	-2.098938838531972e-06,-1.217595582582943e-15
	-1.285531125428430e-06,-2.654430007234013e-13
	-7.578958925089701e-08,2.652718144031137e-15
	-3.308680374722317e-06,-2.693133144500154e-13
	-7.578958925089701e-08,2.652718144031137e-15
2		1.047128548050899e+00,0.000000000000000e+00
	-7.578958925089700e-04,2.714507887283070e-11
	1.000000000000000e+00,0.000000000000000e+00
	0.000000000000000e+00,0.000000000000000e+00
	3.935510313797930e-06,2.219216019288569e-15
	3.935510320055154e-06,2.351918202297951e-15
	7.578958925089837e-08,-2.714507887283052e-15
	3.308680374709504e-06,2.755864274046038e-13
	-2.098938838531972e-06,-1.245957027089128e-15
	-1.285531125428430e-06,-2.716259624902317e-13
	-7.578958925089701e-08,2.714507887283070e-15
	-3.308680374722317e-06,-2.755864274046038e-13
	-7.578958925089701e-08,2.714507887283070e-15
3		1.071519305237606e+00,0.000000000000000e+00
	-7.578958925089700e-04,2.777736898547600e-11
	1.000000000000000e+00,0.000000000000000e+00
	0.000000000000000e+00,0.000000000000000e+00
	3.935510313797930e-06,2.270908200895184e-15
	3.935510320055154e-06,2.406701414829042e-15
	7.578958925089837e-08,-2.777736898547652e-15
	3.308680374709504e-06,2.820056599308199e-13
	-2.098938838531972e-06,-1.274979094503266e-15
	-1.285531125428430e-06,-2.779529439377690e-13
	-7.578958925089701e-08,2.777736898547600e-15
	-3.308680374722317e-06,-2.820056599308199e-13
	-7.578958925089701e-08,2.777736898547600e-15
4		1.096478196143185e+00,0.000000000000000e+00
	-7.578958925089700e-04,2.842438702683435e-11
	1.000000000000000e+00,0.000000000000000e+00
	0.000000000000000e+00,0.000000000000000e+00
	3.935510313797930e-06,2.323804448088937e-15
	3.935510320055154e-06,2.462760692306735e-15
	7.578958925089837e-08,-2.842438702683462e-15
	3.308680374709504e-06,2.885744155907175e-13
	-2.098938838531972e-06,-1.304677172709653e-15
	-1.285531125428430e-06,-2.844272997153243e-13
	-7.578958925089701e-08,2.842438702683435e-15
	-3.308680374722317e-06,-2.885744155907174e-13
	-7.578958925089701e-08,2.842438702683435e-15
5		1.122018454301963e+00,0.000000000000000e+00
	-7.578958925089700e-04,2.908647605443558e-11
	1.000000000000000e+00,0.000000000000000e+00
	0.000000000000000e+00,0.000000000000000e+00
	3.935510313797930e-06,2.377932807160255e-15
	3.935510320055154e-06,2.520125758101980e-15
	7.578958925089837e-08,-2.908647605443558e-15
	3.308680374709504e-06,2.952961772254952e-13
	-2.098938838531972e-06,-1.335067008022456e-15
	-1.285531125428430e-06,-2.910524626120292e-13
	-7.578958925089701e-08,2.908647605443558e-15
	-3.308680374722317e-06,-2.952961772254951e-13
	-7.578958925089701e-08,2.908647605443558e-15
6		1.148153621496882e+00,0.000000000000000e+00
	-7.578958925089700e-04,2.976398711664589e-11
	1.000000000000000e+00,0.000000000000000e+00
	0.000000000000000e+00,0.000000000000000e+00
	3.935510313797930e-06,2.433321977681591e-15
	3.935510320055154e-06,2.578827027931980e-15
	7.578958925089837e-08,-2.976398711664601e-15
	3.308680374709504e-06,3.021745088021449e-13
	-2.098938838531972e-06,-1.366164713534612e-15
	-1.285531125428430e-06,-2.978319453769457e-13
	-7.578958925089701e-08,2.976398711664589e-15
	-3.308680374722317e-06,-3.021745088021448e-13
	-7.578958925089701e-08,2.976398711664589e-15
7		1.174897554939529e+00,0.000000000000000e+00
	-7.578958925089700e-04,3.045727943879838e-11
	1.000000000000000e+00,0.000000000000000e+00
	0.000000000000000e+00,0.000000000000000e+00
	3.935510313797930e-06,2.490001327724317e-15
	3.935510320055154e-06,2.638895625986999e-15
	7.578958925089837e-08,-3.045727943879838e-15
	3.308680374709504e-06,3.092130573031139e-13
	-2.098938838531972e-06,-1.397986777661213e-15
	-1.285531125428430e-06,-3.047693425815728e-13
	-7.578958925089701e-08,3.045727943879838e-15
	-3.308680374722317e-06,-3.092130573031138e-13
	-7.578958925089701e-08,3.045727943879838e-15
8		1.202264434617413e+00,0.000000000000000e+00
	-7.578958925089700e-04,3.116672061365909e-11
	1.000000000000000e+00,0.000000000000000e+00
	0.000000000000000e+00,0.000000000000000e+00
	3.935510313797930e-06,2.548000909430067e-15
	3.935510320055154e-06,2.700363401432830e-15
	7.578958925089837e-08,-3.116672061365916e-15
	3.308680374709504e-06,3.164155546599838e-13
	-2.098938838531972e-06,-1.430550072881872e-15
	-1.285531125428430e-06,-3.118683325257360e-13
	-7.578958925089701e-08,3.116672061365909e-15
	-3.308680374722317e-06,-3.164155546599837e-13
	-7.578958925089701e-08,3.116672061365909e-15
9		1.230268770812381e+00,0.000000000000000e+00
	-7.578958925089700e-04,3.189268679632946e-11
	1.000000000000000e+00,0.000000000000000e+00
	0.000000000000000e+00,0.000000000000000e+00
	3.935510313797930e-06,2.607351474944776e-15
	3.935510320055154e-06,2.763262945297636e-15
	7.578958925089837e-08,-3.189268679632968e-15
	3.308680374709504e-06,3.237858197321893e-13
	-2.098938838531972e-06,-1.463871864686741e-15
	-1.285531125428430e-06,-3.191326791878695e-13
	-7.578958925089701e-08,3.189268679632946e-15
	-3.308680374722317e-06,-3.237858197321892e-13
	-7.578958925089701e-08,3.189268679632946e-15
10		1.258925411794167e+00,0.000000000000000e+00
	-7.578958925089700e-04,3.263556290368887e-11
	1.000000000000000e+00,0.000000000000000e+00
	0.000000000000000e+00,0.000000000000000e+00
	3.935510313797930e-06,2.668084492723877e-15
	3.935510320055154e-06,2.827627607752147e-15
	7.578958925089837e-08,-3.263556290368940e-15
	3.308680374709504e-06,3.313277603318288e-13
	-2.098938838531972e-06,-1.497969820730903e-15
	-1.285531125428430e-06,-3.265662342207289e-13
	-7.578958925089701e-08,3.263556290368888e-15
	-3.308680374722317e-06,-3.313277603318287e-13
	-7.578958925089701e-08,3.263556290368888e-15
11		1.288249551693134e+00,0.000000000000000e+00
	-7.578958925089700e-04,3.339574281848257e-11
	1.000000000000000e+00,0.000000000000000e+00
	0.000000000000000e+00,0.000000000000000e+00
	3.935510313797930e-06,2.730232164217296e-15
	3.935510320055154e-06,2.893491515792367e-15
	7.578958925089837e-08,-3.339574281848266e-15
	3.308680374709504e-06,3.390453752956376e-13
	-2.098938838531972e-06,-1.532862020201991e-15
	-1.285531125428430e-06,-3.341729389935873e-13
	-7.578958925089701e-08,3.339574281848257e-15
	-3.308680374722317e-06,-3.390453752956375e-13
	-7.578958925089701e-08,3.339574281848257e-15
12		1.318256738556407e+00,0.000000000000000e+00
	-7.578958925089700e-04,3.417362959816353e-11
	1.000000000000000e+00,0.000000000000000e+00
	0.000000000000000e+00,0.000000000000000e+00
	3.935510313797930e-06,2.793827440943075e-15
	3.935510320055154e-06,2.960889591334145e-15
	7.578958925089837e-08,-3.417362959816361e-15
	3.308680374709504e-06,3.469427566052243e-13
	-2.098938838531972e-06,-1.568566963406017e-15
	-1.285531125428430e-06,-3.419568266820019e-13
	-7.578958925089701e-08,3.417362959816353e-15
	-3.308680374722317e-06,-3.469427566052243e-13
	-7.578958925089701e-08,3.417362959816353e-15
13		1.348962882591653e+00,0.000000000000000e+00
	-7.578958925089700e-04,3.496963568859891e-11
	1.000000000000000e+00,0.000000000000000e+00
	0.000000000000000e+00,0.000000000000000e+00
	3.935510313797930e-06,2.858904041958722e-15
	3.935510320055154e-06,3.029857569729257e-15
	7.578958925089837e-08,-3.496963568859900e-15
	3.308680374709504e-06,3.550240915566933e-13
	-2.098938838531972e-06,-1.605103581576479e-15
	-1.285531125428430e-06,-3.499220244062570e-13
	-7.578958925089701e-08,3.496963568859891e-15
	-3.308680374722317e-06,-3.550240915566933e-13
	-7.578958925089701e-08,3.496963568859891e-15
14		1.380384264602885e+00,0.000000000000000e+00
	-7.578958925089700e-04,3.578418314275423e-11
	1.000000000000000e+00,0.000000000000000e+00
	0.000000000000000e+00,0.000000000000000e+00
	3.935510313797930e-06,2.925496471739483e-15
	3.935510320055154e-06,3.100432018712745e-15
	7.578958925089837e-08,-3.578418314275460e-15
	3.308680374709504e-06,3.632936649808052e-13
	-2.098938838531972e-06,-1.642491246911951e-15
	-1.285531125428430e-06,-3.580727554196178e-13
	-7.578958925089701e-08,3.578418314275422e-15
	-3.308680374722317e-06,-3.632936649808052e-13
	-7.578958925089701e-08,3.578418314275422e-15
15		1.412537544622754e+00,0.000000000000000e+00
	-7.578958925089700e-04,3.661770384447150e-11
	1.000000000000000e+00,0.000000000000000e+00
	0.000000000000000e+00,0.000000000000000e+00
	3.935510313797930e-06,2.993640038473084e-15
	3.935510320055154e-06,3.172650357791624e-15
	7.578958925089837e-08,-3.661770384447137e-15
	3.308680374709504e-06,3.717558615148500e-13
	-2.098938838531972e-06,-1.680749782847477e-15
	-1.285531125428430e-06,-3.664133413475554e-13
	-7.578958925089701e-08,3.661770384447151e-15
	-3.308680374722317e-06,-3.717558615148499e-13
	-7.578958925089701e-08,3.661770384447151e-15
16		1.445439770745927e+00,0.000000000000000e+00
	-7.578958925089700e-04,3.747063973745970e-11
	1.000000000000000e+00,0.000000000000000e+00
	0.000000000000000e+00,0.000000000000000e+00
	3.935510313797930e-06,3.063370872780594e-15
	3.935510320055154e-06,3.246550878085196e-15
	7.578958925089837e-08,-3.747063973745985e-15
	3.308680374709504e-06,3.804151679274404e-13
	-2.098938838531972e-06,-1.719899474565222e-15
	-1.285531125428430e-06,-3.749482044791292e-13
	-7.578958925089701e-08,3.747063973745970e-15
	-3.308680374722317e-06,-3.804151679274404e-13
	-7.578958925089701e-08,3.747063973745970e-15
17		1.479108388168207e+00,0.000000000000000e+00
	-7.578958925089700e-04,3.834344305961927e-11
	1.000000000000000e+00,0.000000000000000e+00
	0.000000000000000e+00,0.000000000000000e+00
	3.935510313797930e-06,3.134725946873360e-15
	3.935510320055154e-06,3.322172762627510e-15
	7.578958925089837e-08,-3.834344305961931e-15
	3.308680374709504e-06,3.892761754974560e-13
	-2.098938838531972e-06,-1.759961079749943e-15
	-1.285531125428430e-06,-3.836818701117441e-13
	-7.578958925089701e-08,3.834344305961927e-15
	-3.308680374722317e-06,-3.892761754974559e-13
	-7.578958925089701e-08,3.834344305961927e-15
18		1.513561248436208e+00,0.000000000000000e+00
	-7.578958925089700e-04,3.923657658282451e-11
	1.000000000000000e+00,0.000000000000000e+00
	0.000000000000000e+00,0.000000000000000e+00
	3.935510313797930e-06,3.207743094156159e-15
	3.935510320055154e-06,3.399556107142724e-15
	7.578958925089837e-08,-3.923657658282528e-15
	3.308680374709504e-06,3.983435824483997e-13
	-2.098938838531972e-06,-1.800955839594986e-15
	-1.285531125428430e-06,-3.926189689505222e-13
	-7.578958925089701e-08,3.923657658282451e-15
	-3.308680374722317e-06,-3.983435824483997e-13
	-7.578958925089701e-08,3.923657658282451e-15
19		1.548816618912481e+00,0.000000000000000e+00
	-7.578958925089700e-04,4.015051385829147e-11
	1.000000000000000e+00,0.000000000000000e+00
	0.000000000000000e+00,0.000000000000000e+00
	3.935510313797930e-06,3.282461029286982e-15
	3.935510320055154e-06,3.478741941304391e-15
	7.578958925089837e-08,-4.015051385829123e-15
	3.308680374709504e-06,4.076221964394582e-13
	-2.098938838531972e-06,-1.842905490064652e-15
	-1.285531125428430e-06,-4.017642395635645e-13
	-7.578958925089701e-08,4.015051385829147e-15
	-3.308680374722317e-06,-4.076221964394581e-13
	-7.578958925089701e-08,4.015051385829147e-15
20		1.584893192461113e+00,0.000000000000000e+00
	-7.578958925089700e-04,4.108573946766096e-11
	1.000000000000000e+00,0.000000000000000e+00
	0.000000000000000e+00,0.000000000000000e+00
	3.935510313797930e-06,3.358919368704039e-15
	3.935510320055154e-06,3.559772250489928e-15
	7.578958925089837e-08,-4.108573946766113e-15
	3.308680374709504e-06,4.171169371145867e-13
	-2.098938838531972e-06,-1.885832273418886e-15
	-1.285531125428430e-06,-4.111225308944017e-13
	-7.578958925089701e-08,4.108573946766097e-15
	-3.308680374722317e-06,-4.171169371145866e-13
	-7.578958925089701e-08,4.108573946766097e-15
21		1.621810097358929e+00,0.000000000000000e+00
	-7.578958925089700e-04,4.204274927993026e-11
	1.000000000000000e+00,0.000000000000000e+00
	0.000000000000000e+00,0.000000000000000e+00
	3.935510313797930e-06,3.437158651630938e-15
	3.935510320055154e-06,3.642689998041832e-15
	7.578958925089837e-08,-4.204274927993045e-15
	3.308680374709504e-06,4.268328387109684e-13
	-2.098938838531972e-06,-1.929758950006429e-15
	-1.285531125428430e-06,-4.206988048329690e-13
	-7.578958925089701e-08,4.204274927993026e-15
	-3.308680374722317e-06,-4.268328387109684e-13
	-7.578958925089701e-08,4.204274927993026e-15
22		1.659586907437560e+00,0.000000000000000e+00
	-7.578958925089700e-04,4.302205071436935e-11
	1.000000000000000e+00,0.000000000000000e+00
	0.000000000000000e+00,0.000000000000000e+00
	3.935510313797930e-06,3.517220361571104e-15
	3.935510320055154e-06,3.727539148047402e-15
	7.578958925089837e-08,-4.302205071437015e-15
	3.308680374709504e-06,4.367750527282354e-13
	-2.098938838531972e-06,-1.974708810332646e-15
	-1.285531125428430e-06,-4.304981388464658e-13
	-7.578958925089701e-08,4.302205071436935e-15
	-3.308680374722317e-06,-4.367750527282354e-13
	-7.578958925089701e-08,4.302205071436935e-15
23		1.698243652461743e+00,0.000000000000000e+00
	-7.578958925089700e-04,4.402416300956137e-11
	1.000000000000000e+00,0.000000000000000e+00
	0.000000000000000e+00,0.000000000000000e+00
	3.935510313797930e-06,3.599146948302891e-15
	3.935510320055154e-06,3.814364688649078e-15
	7.578958925089837e-08,-4.402416300956197e-15
	3.308680374709504e-06,4.469488506598602e-13
	-2.098938838531972e-06,-2.020705687408461e-15
	-1.285531125428430e-06,-4.405257286714956e-13
	-7.578958925089701e-08,4.402416300956137e-15
	-3.308680374722317e-06,-4.469488506598602e-13
	-7.578958925089701e-08,4.402416300956137e-15
24		1.737800828749374e+00,0.000000000000000e+00
	-7.578958925089700e-04,4.504961749870974e-11
	1.000000000000000e+00,0.000000000000000e+00
	0.000000000000000e+00,0.000000000000000e+00
	3.935510313797930e-06,3.682981850387009e-15
	3.935510320055154e-06,3.903212655897761e-15
	7.578958925089837e-08,-4.504961749871022e-15
	3.308680374709504e-06,4.573596267881722e-13
	-2.098938838531972e-06,-2.067773969386941e-15
	-1.285531125428430e-06,-4.507868910689142e-13
	-7.578958925089701e-08,4.504961749870974e-15
	-3.308680374722317e-06,-4.573596267881721e-13
	-7.578958925089701e-08,4.504961749870974e-15
25		1.778279410038922e+00,0.000000000000000e+00
	-7.578958925089700e-04,4.609895789135811e-11
	1.000000000000000e+00,0.000000000000000e+00
	0.000000000000000e+00,0.000000000000000e+00
	3.935510313797930e-06,3.768769518198231e-15
	3.935510320055154e-06,3.994130158161729e-15
	7.578958925089837e-08,-4.609895789135876e-15
	3.308680374709504e-06,4.680129010444777e-13
	-2.098938838531972e-06,-2.115938612494216e-15
	-1.285531125428430e-06,-4.612870666428476e-13
	-7.578958925089701e-08,4.609895789135811e-15
	-3.308680374722317e-06,-4.680129010444776e-13
	-7.578958925089701e-08,4.609895789135811e-15
26		1.819700858609982e+00,0.000000000000000e+00
	-7.578958925089700e-04,4.717274056167233e-11
	1.000000000000000e+00,0.000000000000000e+00
	0.000000000000000e+00,0.000000000000000e+00
	3.935510313797930e-06,3.856555437493563e-15
	3.935510320055154e-06,4.087165401104117e-15
	7.578958925089837e-08,-4.717274056167177e-15
	3.308680374709504e-06,4.789143219358000e-13
	-2.098938838531972e-06,-2.165225154261593e-15
	-1.285531125428430e-06,-4.720318227253713e-13
	-7.578958925089701e-08,4.717274056167234e-15
	-3.308680374722317e-06,-4.789143219357998e-13
	-7.578958925089701e-08,4.717274056167234e-15
27		1.862087136662866e+00,0.000000000000000e+00
	-7.578958925089700e-04,4.827153484343737e-11
	1.000000000000000e+00,0.000000000000000e+00
	0.000000000000000e+00,0.000000000000000e+00
	3.935510313797930e-06,3.946386153529403e-15
	3.935510320055154e-06,4.182367713242203e-15
	7.578958925089837e-08,-4.827153484343801e-15
	3.308680374709504e-06,4.900696695397932e-13
	-2.098938838531972e-06,-2.215659727065904e-15
	-1.285531125428430e-06,-4.830268563283835e-13
	-7.578958925089701e-08,4.827153484343738e-15
	-3.308680374722317e-06,-4.900696695397932e-13
	-7.578958925089701e-08,4.827153484343738e-15
28		1.905460717963246e+00,0.000000000000000e+00
	-7.578958925089700e-04,4.939592333192572e-11
	1.000000000000000e+00,0.000000000000000e+00
	0.000000000000000e+00,0.000000000000000e+00
	3.935510313797930e-06,4.038309295740437e-15
	3.935510320055154e-06,4.279787572102027e-15
	7.578958925089837e-08,-4.939592333192581e-15
	3.308680374709504e-06,5.014848585694153e-13
	-2.098938838531972e-06,-2.267269071985226e-15
	-1.285531125428430e-06,-4.942779971642375e-13
	-7.578958925089701e-08,4.939592333192573e-15
	-3.308680374722317e-06,-5.014848585694152e-13
	-7.578958925089701e-08,4.939592333192573e-15
29		1.949844599758044e+00,0.000000000000000e+00
	-7.578958925089700e-04,5.054650219279699e-11
	1.000000000000000e+00,0.000000000000000e+00
	0.000000000000000e+00,0.000000000000000e+00
	3.935510313797930e-06,4.132373602993419e-15
	3.935510320055154e-06,4.379476630982269e-15
	7.578958925089837e-08,-5.054650219279726e-15
	3.308680374709504e-06,5.131659415089878e-13
	-2.098938838531972e-06,-2.320080552977372e-15
	-1.285531125428430e-06,-5.057912107367307e-13
	-7.578958925089701e-08,5.054650219279699e-15
	-3.308680374722317e-06,-5.131659415089877e-13
	-7.578958925089701e-08,5.054650219279699e-15
30		1.995262314968878e+00,0.000000000000000e+00
	-7.578958925089700e-04,5.172388147819291e-11
	1.000000000000000e+00,0.000000000000000e+00
	0.000000000000000e+00,0.000000000000000e+00
	3.935510313797930e-06,4.228628949429134e-15
	3.935510320055154e-06,4.481487746341481e-15
	7.578958925089837e-08,-5.172388147819323e-15
	3.308680374709504e-06,5.251191118233025e-13
	-2.098938838531972e-06,-2.374122171388601e-15
	-1.285531125428430e-06,-5.175726015040945e-13
	-7.578958925089701e-08,5.172388147819292e-15
	-3.308680374722317e-06,-5.251191118233023e-13
	-7.578958925089701e-08,5.172388147819292e-15
31		2.041737944669527e+00,0.000000000000000e+00
	-7.578958925089700e-04,5.292868545019510e-11
	1.000000000000000e+00,0.000000000000000e+00
	0.000000000000000e+00,0.000000000000000e+00
	3.935510313797930e-06,4.327126370906361e-15
	3.935510320055154e-06,4.585875005823306e-15
	7.578958925089837e-08,-5.292868545019465e-15
	3.308680374709504e-06,5.373507072414789e-13
	-2.098938838531972e-06,-2.429422580800323e-15
	-1.285531125428430e-06,-5.296284161156591e-13
	-7.578958925089701e-08,5.292868545019510e-15
	-3.308680374722317e-06,-5.373507072414789e-13
	-7.578958925089701e-08,5.292868545019510e-15
32		2.089296130854037e+00,0.000000000000000e+00
	-7.578958925089700e-04,5.416155291181696e-11
	1.000000000000000e+00,0.000000000000000e+00
	0.000000000000000e+00,0.000000000000000e+00
	3.935510313797930e-06,4.427918092061729e-15
