LTspice 24.0.9 for Windows
Circuit: * GA CMOS Amp | W=1.3511153025647655e-05 L=4.2596657062205543e-07 Vbias=1.3037606405860385
Start Time: Mon Sep  8 18:43:52 2025
solver = Normal
Maximum thread count: 2
tnom = 27
temp = 27
method = modified trap
AsciiRawFile = 1
Instance "m1": Length shorter than recommended for a level 3 MOSFET.
Direct Newton iteration for .op point succeeded.
Semiconductor Device Operating Points:
                        --- MOSFET Transistors ---
Name:          m1
Model:        n_1u
Id:          1.76e-04
Vgs:         1.30e+00
Vds:         4.44e-02
Vbs:         0.00e+00
Vth:         6.75e-01
Vdsat:       2.69e-01
Gm:          2.52e-04
Gds:         3.38e-03
Gmb:         2.31e-05
Cbd:         0.00e+00
Cbs:         0.00e+00
Cgsov:       2.70e-15
Cgdov:       2.70e-15
Cgbov:       2.26e-17
Cgs:         2.79e-15
Cgd:         2.47e-15
Cgb:         0.00e+00



gain_db: MAX(db(v(out)/v(g)))=(31.0225dB,129.908°) FROM 1 TO 1e+09
gain_lin: MAX(mag(v(out)/v(g)))=(-22.7465dB,0°) FROM 1 TO 1e+09

Measurement "fc" FAIL'ed

Total elapsed time: 0.483 seconds.

