Title: * GA CMOS Amp | W=2.432440372390563e-05 L=6.3582844387151e-07 Vbias=1.185214742425363
Date: Sat Sep  6 22:06:50 2025
Plotname: AC Analysis
Flags: complex forward log
No. Variables: 13
No. Points:          901
Offset:    0.0000000000000000e+00
Command: Linear Technology Corporation LTspice
Variables:
	0	frequency	frequency
	1	V(out)	voltage
	2	V(g)	voltage
	3	V(vdd)	voltage
	4	V(m1#dbody)	voltage
	5	V(m1#sbody)	voltage
	6	Id(M1)	device_current
	7	Ig(M1)	device_current
	8	Ib(M1)	device_current
	9	Is(M1)	device_current
	10	I(Rload)	device_current
	11	I(Vg)	device_current
	12	I(Vdd)	device_current
Values:
0		1.000000000000000e+00,0.000000000000000e+00
	4.348323057703538e-03,5.572274697711407e-10
	1.000000000000000e+00,0.000000000000000e+00
	0.000000000000000e+00,0.000000000000000e+00
	4.450932929789991e-05,6.289511665211539e-14
	4.450932926332952e-05,6.042580028684987e-14
	-4.348323057703547e-07,-5.572274697711375e-14
	3.770271096877344e-05,4.076545293694153e-12
	-2.373830896069818e-05,-3.240804079533072e-14
	-1.352956970230491e-05,-3.988414505921708e-12
	4.348323057703538e-07,5.572274697711407e-14
	-3.770271096881217e-05,-4.076545293694153e-12
	4.348323057703538e-07,5.572274697711407e-14
1		1.023292992280754e+00,0.000000000000000e+00
	4.348323057703538e-03,5.702069649231440e-10
	1.000000000000000e+00,0.000000000000000e+00
	0.000000000000000e+00,0.000000000000000e+00
	4.450932929789991e-05,6.436013211879023e-14
	4.450932926332952e-05,6.183329798648984e-14
	-4.348323057703547e-07,-5.702069649231445e-14
	3.770271096877344e-05,4.171500231752317e-12
	-2.373830896069818e-05,-3.316292103941073e-14
	-1.352956970230491e-05,-4.081316614220591e-12
	4.348323057703538e-07,5.702069649231440e-14
	-3.770271096881217e-05,-4.171500231752315e-12
	4.348323057703538e-07,5.702069649231440e-14
2		1.047128548050899e+00,0.000000000000000e+00
	4.348323057703538e-03,5.834887913555310e-10
	1.000000000000000e+00,0.000000000000000e+00
	0.000000000000000e+00,0.000000000000000e+00
	4.450932929789991e-05,6.585927217942152e-14
	4.450932926332952e-05,6.327358051918270e-14
	-4.348323057703547e-07,-5.834887913555269e-14
	3.770271096877344e-05,4.268666954449685e-12
	-2.373830896069818e-05,-3.393538470318897e-14
	-1.352956970230491e-05,-4.176382690610944e-12
	4.348323057703538e-07,5.834887913555310e-14
	-3.770271096881217e-05,-4.268666954449686e-12
	4.348323057703538e-07,5.834887913555310e-14
3		1.071519305237606e+00,0.000000000000000e+00
	4.348323057703538e-03,5.970799912684818e-10
	1.000000000000000e+00,0.000000000000000e+00
	0.000000000000000e+00,0.000000000000000e+00
	4.450932929789991e-05,6.739333169791287e-14
	4.450932926332952e-05,6.474741154179171e-14
	-4.348323057703513e-07,-5.970799912684827e-14
	3.770271096877344e-05,4.368096980868793e-12
	-2.373830896069818e-05,-3.472584135712478e-14
	-1.352956970230492e-05,-4.273663140384820e-12
	4.348323057703538e-07,5.970799912684818e-14
	-3.770271096881217e-05,-4.368096980868792e-12
	4.348323057703538e-07,5.970799912684818e-14
4		1.096478196143185e+00,0.000000000000000e+00
	4.348323057703538e-03,6.109877708960913e-10
	1.000000000000000e+00,0.000000000000000e+00
	0.000000000000000e+00,0.000000000000000e+00
	4.450932929789991e-05,6.896312405292664e-14
	4.450932926332952e-05,6.625557249903346e-14
	-4.348323057703513e-07,-6.109877708960839e-14
	3.770271096877344e-05,4.469843030125754e-12
	-2.373830896069818e-05,-3.553471011179896e-14
	-1.352956970230492e-05,-4.373209542924347e-12
	4.348323057703538e-07,6.109877708960913e-14
	-3.770271096881217e-05,-4.469843030125754e-12
	4.348323057703538e-07,6.109877708960913e-14
5		1.122018454301963e+00,0.000000000000000e+00
	4.348323057703538e-03,6.252195043272091e-10
	1.000000000000000e+00,0.000000000000000e+00
	0.000000000000000e+00,0.000000000000000e+00
	4.450932929789991e-05,7.056948156914814e-14
	4.450932926332952e-05,6.779886303781040e-14
	-4.348323057703547e-07,-6.252195043272081e-14
	3.770271096877345e-05,4.573959049322656e-12
	-2.373830896069818e-05,-3.636241984013194e-14
	-1.352956970230492e-05,-4.475074679049803e-12
	4.348323057703538e-07,6.252195043272091e-14
	-3.770271096881217e-05,-4.573959049322656e-12
	4.348323057703538e-07,6.252195043272091e-14
6		1.148153621496882e+00,0.000000000000000e+00
	4.348323057703538e-03,6.397827374152798e-10
	1.000000000000000e+00,0.000000000000000e+00
	0.000000000000000e+00,0.000000000000000e+00
	4.450932929789991e-05,7.221325595859514e-14
	4.450932926332952e-05,6.937810143119402e-14
	-4.348323057703547e-07,-6.397827374152761e-14
	3.770271096877345e-05,4.680500242151014e-12
	-2.373830896069818e-05,-3.720940940477768e-14
	-1.352956970230492e-05,-4.579312559004708e-12
	4.348323057703538e-07,6.397827374152799e-14
	-3.770271096881217e-05,-4.680500242151015e-12
	4.348323057703538e-07,6.397827374152799e-14
7		1.174897554939529e+00,0.000000000000000e+00
	4.348323057703538e-03,6.546851917792535e-10
	1.000000000000000e+00,0.000000000000000e+00
	0.000000000000000e+00,0.000000000000000e+00
	4.450932929789991e-05,7.389531877220682e-14
	4.450932926332952e-05,7.099412501228420e-14
	-4.348323057703547e-07,-6.546851917792488e-14
	3.770271096877345e-05,4.789523098161505e-12
	-2.373830896069818e-05,-3.807612789081457e-14
	-1.352956970230492e-05,-4.685978451092766e-12
	4.348323057703538e-07,6.546851917792536e-14
	-3.770271096881217e-05,-4.789523098161504e-12
	4.348323057703538e-07,6.546851917792536e-14
8		1.202264434617413e+00,0.000000000000000e+00
	4.348323057703538e-03,6.699347688976917e-10
	1.000000000000000e+00,0.000000000000000e+00
	0.000000000000000e+00,0.000000000000000e+00
	4.450932929789991e-05,7.561656186195170e-14
	4.450932926332952e-05,7.264779061817424e-14
	-4.348323057703547e-07,-6.699347688976872e-14
	3.770271096877345e-05,4.901085422715474e-12
	-2.373830896069818e-05,-3.896303484385633e-14
	-1.352956970230492e-05,-4.795128910981849e-12
	4.348323057703538e-07,6.699347688976917e-14
	-3.770271096881217e-05,-4.901085422715475e-12
	4.348323057703538e-07,6.699347688976917e-14
9		1.230268770812381e+00,0.000000000000000e+00
	4.348323057703538e-03,6.855395542982346e-10
	1.000000000000000e+00,0.000000000000000e+00
	0.000000000000000e+00,0.000000000000000e+00
	4.450932929789991e-05,7.737789785369930e-14
	4.450932926332952e-05,7.433997504425719e-14
	-4.348323057703547e-07,-6.855395542982357e-14
	3.770271096877345e-05,5.015246367634104e-12
	-2.373830896069818e-05,-3.987060051370903e-14
	-1.352956970230492e-05,-4.906821811690571e-12
	4.348323057703538e-07,6.855395542982347e-14
	-3.770271096881217e-05,-5.015246367634103e-12
	4.348323057703538e-07,6.855395542982347e-14
10		1.258925411794167e+00,0.000000000000000e+00
	4.348323057703538e-03,7.015078218446548e-10
	1.000000000000000e+00,0.000000000000000e+00
	0.000000000000000e+00,0.000000000000000e+00
	4.450932929789991e-05,7.918026063110652e-14
	4.450932926332952e-05,7.607157550911456e-14
	-4.348323057703547e-07,-7.015078218446479e-14
	3.770271096877345e-05,5.132066462561483e-12
	-2.373830896069818e-05,-4.079930610370389e-14
	-1.352956970230492e-05,-5.021116374273315e-12
	4.348323057703538e-07,7.015078218446549e-14
	-3.770271096881217e-05,-5.132066462561484e-12
	4.348323057703538e-07,7.015078218446549e-14
11		1.288249551693134e+00,0.000000000000000e+00
	4.348323057703538e-03,7.178480381237713e-10
	1.000000000000000e+00,0.000000000000000e+00
	0.000000000000000e+00,0.000000000000000e+00
	4.450932929789991e-05,8.102460583077498e-14
	4.450932926332952e-05,7.784351013023317e-14
	-4.348323057703547e-07,-7.178480381237595e-14
	3.770271096877345e-05,5.251607647058246e-12
	-2.373830896069818e-05,-4.174964402583759e-14
	-1.352956970230492e-05,-5.138073199220033e-12
	4.348323057703538e-07,7.178480381237712e-14
	-3.770271096881217e-05,-5.251607647058247e-12
	4.348323057703538e-07,7.178480381237712e-14
12		1.318256738556407e+00,0.000000000000000e+00
	4.348323057703538e-03,7.345688669345427e-10
	1.000000000000000e+00,0.000000000000000e+00
	0.000000000000000e+00,0.000000000000000e+00
	4.450932929789991e-05,8.291191134894237e-14
	4.450932926332952e-05,7.965671841080349e-14
	-4.348323057703547e-07,-7.345688669345346e-14
	3.770271096877345e-05,5.373933303442723e-12
	-2.373830896069818e-05,-4.272211816185566e-14
	-1.352956970230492e-05,-5.257754298587415e-12
	4.348323057703538e-07,7.345688669345428e-14
	-3.770271096881217e-05,-5.373933303442723e-12
	4.348323057703538e-07,7.345688669345428e-14
13		1.348962882591653e+00,0.000000000000000e+00
	4.348323057703538e-03,7.516791738817313e-10
	1.000000000000000e+00,0.000000000000000e+00
	0.000000000000000e+00,0.000000000000000e+00
	4.450932929789991e-05,8.484317785997585e-14
	4.450932926332952e-05,8.151216173785654e-14
	-4.348323057703547e-07,-7.516791738817251e-14
	3.770271096877345e-05,5.499108290397102e-12
	-2.373830896069818e-05,-4.371724413041722e-14
	-1.352956970230492e-05,-5.380223128878513e-12
	4.348323057703538e-07,7.516791738817313e-14
	-3.770271096881217e-05,-5.499108290397103e-12
	4.348323057703538e-07,7.516791738817313e-14
14		1.380384264602885e+00,0.000000000000000e+00
	4.348323057703538e-03,7.691880310765620e-10
	1.000000000000000e+00,0.000000000000000e+00
	0.000000000000000e+00,0.000000000000000e+00
	4.450932929789991e-05,8.681942934694292e-14
	4.450932926332952e-05,8.341082389200402e-14
	-4.348323057703547e-07,-7.691880310765592e-14
	3.770271096877345e-05,5.627198977356354e-12
	-2.373830896069818e-05,-4.473554956048288e-14
	-1.352956970230492e-05,-5.505544624688215e-12
	4.348323057703538e-07,7.691880310765621e-14
	-3.770271096881217e-05,-5.627198977356354e-12
	4.348323057703538e-07,7.691880310765621e-14
15		1.412537544622754e+00,0.000000000000000e+00
	4.348323057703538e-03,7.871047219468770e-10
	1.000000000000000e+00,0.000000000000000e+00
	0.000000000000000e+00,0.000000000000000e+00
	4.450932929789991e-05,8.884171364454076e-14
	4.450932926332951e-05,8.535371156905182e-14
	-4.348323057703547e-07,-7.871047219468687e-14
	3.770271096877344e-05,5.758273279698183e-12
	-2.373830896069817e-05,-4.577757437107051e-14
	-1.352956970230492e-05,-5.633785233132425e-12
	4.348323057703538e-07,7.871047219468771e-14
	-3.770271096881217e-05,-5.758273279698182e-12
	4.348323057703538e-07,7.871047219468771e-14
16		1.445439770745927e+00,0.000000000000000e+00
	4.348323057703538e-03,8.054387461593305e-10
	1.000000000000000e+00,0.000000000000000e+00
	0.000000000000000e+00,0.000000000000000e+00
	4.450932929789991e-05,9.091110299467197e-14
	4.450932926332951e-05,8.734185491376341e-14
	-4.348323057703547e-07,-8.054387461593272e-14
	3.770271096877344e-05,5.892400694752664e-12
	-2.373830896069817e-05,-4.684387105752748e-14
	-1.352956970230492e-05,-5.765012949079204e-12
	4.348323057703538e-07,8.054387461593305e-14
	-3.770271096881217e-05,-5.892400694752665e-12
	4.348323057703538e-07,8.054387461593305e-14
17		1.479108388168207e+00,0.000000000000000e+00
	4.348323057703538e-03,8.241998246562398e-10
	1.000000000000000e+00,0.000000000000000e+00
	0.000000000000000e+00,0.000000000000000e+00
	4.450932929789991e-05,9.302869461496170e-14
	4.450932926332951e-05,8.937630806605646e-14
	-4.348323057703547e-07,-8.241998246562365e-14
	3.770271096877344e-05,6.029652338650647e-12
	-2.373830896069817e-05,-4.793500498447111e-14
	-1.352956970230492e-05,-5.899297351200553e-12
	4.348323057703538e-07,8.241998246562398e-14
	-3.770271096881217e-05,-6.029652338650647e-12
	4.348323057703538e-07,8.241998246562398e-14
18		1.513561248436208e+00,0.000000000000000e+00
	4.348323057703538e-03,8.433979048097567e-10
	1.000000000000000e+00,0.000000000000000e+00
	0.000000000000000e+00,0.000000000000000e+00
	4.450932929789991e-05,9.519561128051667e-14
	4.450932926332951e-05,9.145814971992144e-14
	-4.348323057703547e-07,-8.433979048097505e-14
	3.770271096877344e-05,6.170100984030468e-12
	-2.373830896069817e-05,-4.905155468555232e-14
	-1.352956970230492e-05,-6.036709638863940e-12
	4.348323057703538e-07,8.433979048097567e-14
	-3.770271096881217e-05,-6.170100984030469e-12
	4.348323057703538e-07,8.433979048097567e-14
19		1.548816618912481e+00,0.000000000000000e+00
	4.348323057703538e-03,8.630431656960946e-10
	1.000000000000000e+00,0.000000000000000e+00
	0.000000000000000e+00,0.000000000000000e+00
	4.450932929789991e-05,9.741300191923541e-14
	4.450932926332951e-05,9.358848369535960e-14
	-4.348323057703547e-07,-8.630431656960927e-14
	3.770271096877344e-05,6.313821098622963e-12
	-2.373830896069817e-05,-5.019411217020187e-14
	-1.352956970230492e-05,-6.177322669883153e-12
	4.348323057703538e-07,8.630431656960946e-14
	-3.770271096881217e-05,-6.313821098622962e-12
	4.348323057703538e-07,8.630431656960946e-14
20		1.584893192461113e+00,0.000000000000000e+00
	4.348323057703538e-03,8.831460234926113e-10
	1.000000000000000e+00,0.000000000000000e+00
	0.000000000000000e+00,0.000000000000000e+00
	4.450932929789991e-05,9.968204222098522e-14
	4.450932926332951e-05,9.576843952364308e-14
	-4.348323057703547e-07,-8.831460234926108e-14
	3.770271096877344e-05,6.460888884735251e-12
	-2.373830896069817e-05,-5.136328323752168e-14
	-1.352956970230492e-05,-6.321210999148468e-12
	4.348323057703538e-07,8.831460234926113e-14
	-3.770271096881217e-05,-6.460888884735251e-12
	4.348323057703538e-07,8.831460234926113e-14
21		1.621810097358929e+00,0.000000000000000e+00
	4.348323057703538e-03,9.037171370006033e-10
	1.000000000000000e+00,0.000000000000000e+00
	0.000000000000000e+00,0.000000000000000e+00
	4.450932929789991e-05,1.020039352609684e-13
	4.450932926332951e-05,9.799917304620717e-14
	-4.348323057703547e-07,-9.037171370006047e-14
	3.770271096877344e-05,6.611382319654198e-12
	-2.373830896069817e-05,-5.255968779748746e-14
	-1.352956970230492e-05,-6.468450918156650e-12
	4.348323057703538e-07,9.037171370006033e-14
	-3.770271096881217e-05,-6.611382319654198e-12
	4.348323057703538e-07,9.037171370006033e-14
22		1.659586907437560e+00,0.000000000000000e+00
	4.348323057703538e-03,9.247674132967437e-10
	1.000000000000000e+00,0.000000000000000e+00
	0.000000000000000e+00,0.000000000000000e+00
	4.450932929789991e-05,1.043799121376087e-13
	4.450932926332951e-05,1.002818670274928e-13
	-4.348323057703547e-07,-9.247674132967393e-14
	3.770271096877344e-05,6.765381196991017e-12
	-2.373830896069817e-05,-5.378396019963320e-14
	-1.352956970230492e-05,-6.619120495461711e-12
	4.348323057703538e-07,9.247674132967438e-14
	-3.770271096881217e-05,-6.765381196991019e-12
	4.348323057703538e-07,9.247674132967438e-14
23		1.698243652461743e+00,0.000000000000000e+00
	4.348323057703538e-03,9.463080135161577e-10
	1.000000000000000e+00,0.000000000000000e+00
	0.000000000000000e+00,0.000000000000000e+00
	4.450932929789991e-05,1.068112326252959e-13
	4.450932926332951e-05,1.026177317820638e-13
	-4.348323057703547e-07,-9.463080135161477e-14
	3.770271096877345e-05,6.922967168988888e-12
	-2.373830896069817e-05,-5.503674956939164e-14
	-1.352956970230492e-05,-6.773299618067882e-12
	4.348323057703538e-07,9.463080135161578e-14
	-3.770271096881217e-05,-6.922967168988890e-12
	4.348323057703538e-07,9.463080135161578e-14
24		1.737800828749374e+00,0.000000000000000e+00
	4.348323057703538e-03,9.683503587702052e-10
	1.000000000000000e+00,0.000000000000000e+00
	0.000000000000000e+00,0.000000000000000e+00
	4.450932929789991e-05,1.092991858423347e-13
	4.450932926332951e-05,1.050080058163319e-13
	-4.348323057703547e-07,-9.683503587702012e-14
	3.770271096877345e-05,7.084223789816060e-12
	-2.373830896069817e-05,-5.631872015226926e-14
	-1.352956970230492e-05,-6.931070033786771e-12
	4.348323057703538e-07,9.683503587702053e-14
	-3.770271096881217e-05,-7.084223789816060e-12
	4.348323057703538e-07,9.683503587702053e-14
25		1.778279410038922e+00,0.000000000000000e+00
	4.348323057703538e-03,9.909061362021053e-10
	1.000000000000000e+00,0.000000000000000e+00
	0.000000000000000e+00,0.000000000000000e+00
	4.450932929789991e-05,1.118450909344529e-13
	4.450932926332951e-05,1.074539564852291e-13
	-4.348323057703547e-07,-9.909061362020943e-14
	3.770271096877345e-05,7.249236559867381e-12
	-2.373830896069817e-05,-5.763055166603802e-14
	-1.352956970230492e-05,-7.092515394581134e-12
	4.348323057703538e-07,9.909061362021053e-14
	-3.770271096881217e-05,-7.249236559867381e-12
	4.348323057703538e-07,9.909061362021053e-14
26		1.819700858609982e+00,0.000000000000000e+00
	4.348323057703538e-03,1.013987305183613e-09
	1.000000000000000e+00,0.000000000000000e+00
	0.000000000000000e+00,0.000000000000000e+00
	4.450932929789991e-05,1.144502977742293e-13
	4.450932926332951e-05,1.099568806641760e-13
	-4.348323057703547e-07,-1.013987305183606e-13
	3.770271096877345e-05,7.418092971097732e-12
	-2.373830896069817e-05,-5.897293966113064e-14
	-1.352956970230492e-05,-7.257721300918241e-12
	4.348323057703538e-07,1.013987305183613e-13
	-3.770271096881217e-05,-7.418092971097732e-12
	4.348323057703538e-07,1.013987305183613e-13
27		1.862087136662866e+00,0.000000000000000e+00
	4.348323057703539e-03,1.037606103656037e-09
	1.000000000000000e+00,0.000000000000000e+00
	0.000000000000000e+00,0.000000000000000e+00
	4.450932929789991e-05,1.171161876768145e-13
	4.450932926332951e-05,1.125181054367024e-13
	-4.348323057703513e-07,-1.037606103656033e-13
	3.770271096877345e-05,7.590882553411427e-12
	-2.373830896069817e-05,-6.034659588943074e-14
	-1.352956970230492e-05,-7.426775347156394e-12
	4.348323057703539e-07,1.037606103656037e-13
	-3.770271096881217e-05,-7.590882553411429e-12
	4.348323057703539e-07,1.037606103656037e-13
28		1.905460717963246e+00,0.000000000000000e+00
	4.348323057703539e-03,1.061775054618961e-09
	1.000000000000000e+00,0.000000000000000e+00
	0.000000000000000e+00,0.000000000000000e+00
	4.450932929789991e-05,1.198441741323218e-13
	4.450932926332951e-05,1.151389887980846e-13
	-4.348323057703513e-07,-1.061775054618950e-13
	3.770271096877345e-05,7.767696922132151e-12
	-2.373830896069817e-05,-6.175224868165303e-14
	-1.352956970230492e-05,-7.599767167988603e-12
	4.348323057703539e-07,1.061775054618961e-13
	-3.770271096881217e-05,-7.767696922132151e-12
	4.348323057703539e-07,1.061775054618961e-13
29		1.949844599758044e+00,0.000000000000000e+00
	4.348323057703539e-03,1.086506972770097e-09
	1.000000000000000e+00,0.000000000000000e+00
	0.000000000000000e+00,0.000000000000000e+00
	4.450932929789991e-05,1.226357035552794e-13
	4.450932926332951e-05,1.178209203753723e-13
	-4.348323057703547e-07,-1.086506972770094e-13
	3.770271096877345e-05,7.948629826578613e-12
	-2.373830896069817e-05,-6.319064333351398e-14
	-1.352956970230492e-05,-7.776788485968090e-12
	4.348323057703539e-07,1.086506972770097e-13
	-3.770271096881217e-05,-7.948629826578613e-12
	4.348323057703539e-07,1.086506972770097e-13
30		1.995262314968878e+00,0.000000000000000e+00
	4.348323057703539e-03,1.111814971299817e-09
	1.000000000000000e+00,0.000000000000000e+00
	0.000000000000000e+00,0.000000000000000e+00
	4.450932929789991e-05,1.254922560515374e-13
	4.450932926332951e-05,1.205653221641871e-13
	-4.348323057703547e-07,-1.111814971299809e-13
	3.770271096877345e-05,8.133777199771680e-12
	-2.373830896069817e-05,-6.466254250089741e-14
	-1.352956970230492e-05,-7.957933160140801e-12
	4.348323057703539e-07,1.111814971299817e-13
	-3.770271096881217e-05,-8.133777199771680e-12
	4.348323057703539e-07,1.111814971299817e-13
31		2.041737944669527e+00,0.000000000000000e+00
	4.348323057703539e-03,1.137712468843930e-09
	1.000000000000000e+00,0.000000000000000e+00
	0.000000000000000e+00,0.000000000000000e+00
	4.450932929789991e-05,1.284153462030402e-13
	4.450932926332951e-05,1.233736492826842e-13
	-4.348323057703547e-07,-1.137712468843921e-13
	3.770271096877345e-05,8.323237209299335e-12
	-2.373830896069817e-05,-6.616872660422474e-14
	-1.352956970230492e-05,-8.143297235810717e-12
	4.348323057703539e-07,1.137712468843930e-13
	-3.770271096881217e-05,-8.323237209299334e-12
	4.348323057703539e-07,1.137712468843930e-13
32		2.089296130854037e+00,0.000000000000000e+00
	4.348323057703539e-03,1.164213196598429e-09
	1.000000000000000e+00,0.000000000000000e+00
	0.000000000000000e+00,0.000000000000000e+00
	4.450932929789991e-05,1.314065238708780e-13
	4.450932926332951e-05,1.262473907430742e-13
	-4.348323057703547e-07,-1.164213196598431e-13
