Title: * GA CMOS Amp | W=2.4259875572679773e-06 L=6.920488763502754e-07 Vbias=1.4845072957184264
Date: Sat Sep  6 22:15:51 2025
Plotname: AC Analysis
Flags: complex forward log
No. Variables: 13
No. Points:          901
Offset:    0.0000000000000000e+00
Command: Linear Technology Corporation LTspice
Variables:
	0	frequency	frequency
	1	V(out)	voltage
	2	V(g)	voltage
	3	V(vdd)	voltage
	4	V(m1#dbody)	voltage
	5	V(m1#sbody)	voltage
	6	Id(M1)	device_current
	7	Ig(M1)	device_current
	8	Ib(M1)	device_current
	9	Is(M1)	device_current
	10	I(Rload)	device_current
	11	I(Vg)	device_current
	12	I(Vdd)	device_current
Values:
0		1.000000000000000e+00,0.000000000000000e+00
	-8.920148812255785e-02,7.298503245436402e-10
	1.000000000000000e+00,0.000000000000000e+00
	0.000000000000000e+00,0.000000000000000e+00
	5.367430997797334e-05,8.153814732699003e-14
	5.367431064698036e-05,8.594412855635025e-14
	8.920148812255776e-06,-7.298503245436400e-14
	3.255888219689778e-05,3.966929483262065e-13
	-2.862629898875480e-05,-4.554510008898497e-14
	-1.285273202039875e-05,-2.781628157828575e-13
	-8.920148812255784e-06,7.298503245436403e-14
	-3.255888219699798e-05,-3.966929483262065e-13
	-8.920148812255784e-06,7.298503245436403e-14
1		1.023292992280754e+00,0.000000000000000e+00
	-8.920148812255785e-02,7.468507225193412e-10
	1.000000000000000e+00,0.000000000000000e+00
	0.000000000000000e+00,0.000000000000000e+00
	5.367430997797334e-05,8.343741476326457e-14
	5.367431064698036e-05,8.794602447938944e-14
	8.920148812255776e-06,-7.468507225193411e-14
	3.255888219689778e-05,4.059331141093984e-13
	-2.862629898875480e-05,-4.660598175378386e-14
	-1.285273202039875e-05,-2.846420601036805e-13
	-8.920148812255784e-06,7.468507225193411e-14
	-3.255888219699798e-05,-4.059331141093984e-13
	-8.920148812255784e-06,7.468507225193411e-14
2		1.047128548050899e+00,0.000000000000000e+00
	-8.920148812255785e-02,7.642471106338598e-10
	1.000000000000000e+00,0.000000000000000e+00
	0.000000000000000e+00,0.000000000000000e+00
	5.367430997797334e-05,8.538092182127138e-14
	5.367431064698036e-05,8.999455054871086e-14
	8.920148812255776e-06,-7.642471106338598e-14
	3.255888219689778e-05,4.153885110028511e-13
	-2.862629898875480e-05,-4.769157452701171e-14
	-1.285273202039875e-05,-2.912722254124534e-13
	-8.920148812255784e-06,7.642471106338598e-14
	-3.255888219699798e-05,-4.153885110028511e-13
	-8.920148812255784e-06,7.642471106338598e-14
3		1.071519305237606e+00,0.000000000000000e+00
	-8.920148812255785e-02,7.820487126824430e-10
	1.000000000000000e+00,0.000000000000000e+00
	0.000000000000000e+00,0.000000000000000e+00
	5.367430997797334e-05,8.736969897417791e-14
	5.367431064698036e-05,9.209079291995190e-14
	8.920148812255776e-06,-7.820487126824427e-14
	3.255888219689778e-05,4.250641523831545e-13
	-2.862629898875480e-05,-4.880245400432641e-14
	-1.285273202039875e-05,-2.980568271105838e-13
	-8.920148812255784e-06,7.820487126824430e-14
	-3.255888219699798e-05,-4.250641523831543e-13
	-8.920148812255784e-06,7.820487126824430e-14
4		1.096478196143185e+00,0.000000000000000e+00
	-8.920148812255785e-02,8.002649673101284e-10
	1.000000000000000e+00,0.000000000000000e+00
	0.000000000000000e+00,0.000000000000000e+00
	5.367430997797334e-05,8.940480069795525e-14
	5.367431064698036e-05,9.423586304856487e-14
	8.920148812255776e-06,-8.002649673101281e-14
	3.255888219689778e-05,4.349651684034405e-13
	-2.862629898875480e-05,-4.993920918873103e-14
	-1.285273202039875e-05,-3.049994624836966e-13
	-8.920148812255784e-06,8.002649673101284e-14
	-3.255888219699798e-05,-4.349651684034404e-13
	-8.920148812255784e-06,8.002649673101284e-14
5		1.122018454301963e+00,0.000000000000000e+00
	-8.920148812255785e-02,8.189055330162415e-10
	1.000000000000000e+00,0.000000000000000e+00
	0.000000000000000e+00,0.000000000000000e+00
	5.367430997797334e-05,9.148730603047509e-14
	5.367431064698036e-05,9.643089827912531e-14
	8.920148812255776e-06,-8.189055330162412e-14
	3.255888219689778e-05,4.450968087134588e-13
	-2.862629898875480e-05,-5.110244280287112e-14
	-1.285273202039875e-05,-3.121038126089636e-13
	-8.920148812255784e-06,8.189055330162415e-14
	-3.255888219699798e-05,-4.450968087134587e-13
	-8.920148812255784e-06,8.189055330162415e-14
6		1.148153621496882e+00,0.000000000000000e+00
	-8.920148812255785e-02,8.379802932754556e-10
	1.000000000000000e+00,0.000000000000000e+00
	0.000000000000000e+00,0.000000000000000e+00
	5.367430997797334e-05,9.361831914362995e-14
	5.367431064698036e-05,9.867706244836716e-14
	8.920148812255776e-06,-8.379802932754555e-14
	3.255888219689778e-05,4.554644452430097e-13
	-2.862629898875480e-05,-5.229277160860608e-14
	-1.285273202039875e-05,-3.193736443068581e-13
	-8.920148812255784e-06,8.379802932754556e-14
	-3.255888219699798e-05,-4.554644452430096e-13
	-8.920148812255784e-06,8.379802932754556e-14
7		1.174897554939529e+00,0.000000000000000e+00
	-8.920148812255785e-02,8.574993617781445e-10
	1.000000000000000e+00,0.000000000000000e+00
	0.000000000000000e+00,0.000000000000000e+00
	5.367430997797334e-05,9.579896992877967e-14
	5.367431064698036e-05,1.009755465022645e-13
	8.920148812255776e-06,-8.574993617781447e-14
	3.255888219689778e-05,4.660735750502129e-13
	-2.862629898875480e-05,-5.351082673402456e-14
	-1.285273202039875e-05,-3.268128121383739e-13
	-8.920148812255784e-06,8.574993617781445e-14
	-3.255888219699798e-05,-4.660735750502129e-13
	-8.920148812255784e-06,8.574993617781445e-14
8		1.202264434617413e+00,0.000000000000000e+00
	-8.920148812255785e-02,8.774730877927948e-10
	1.000000000000000e+00,0.000000000000000e+00
	0.000000000000000e+00,0.000000000000000e+00
	5.367430997797334e-05,9.803041459583495e-14
	5.367431064698036e-05,1.033275691274866e-13
	8.920148812255776e-06,-8.774730877927945e-14
	3.255888219689778e-05,4.769298232361211e-13
	-2.862629898875480e-05,-5.475725400807698e-14
	-1.285273202039875e-05,-3.344252604487647e-13
	-8.920148812255784e-06,8.774730877927949e-14
	-3.255888219699798e-05,-4.769298232361211e-13
	-8.920148812255784e-06,8.774730877927949e-14
9		1.230268770812381e+00,0.000000000000000e+00
	-8.920148812255785e-02,8.979120616533218e-10
	1.000000000000000e+00,0.000000000000000e+00
	0.000000000000000e+00,0.000000000000000e+00
	5.367430997797334e-05,1.003138362862948e-13
	5.367431064698036e-05,1.057343773975623e-13
	8.920148812255776e-06,-8.979120616533214e-14
	3.255888219689778e-05,4.880389459272215e-13
	-2.862629898875480e-05,-5.603271430300240e-14
	-1.285273202039875e-05,-3.422150254588870e-13
	-8.920148812255784e-06,8.979120616533218e-14
	-3.255888219699798e-05,-4.880389459272215e-13
	-8.920148812255784e-06,8.979120616533218e-14
10		1.258925411794167e+00,0.000000000000000e+00
	-8.920148812255785e-02,9.188271203742085e-10
	1.000000000000000e+00,0.000000000000000e+00
	0.000000000000000e+00,0.000000000000000e+00
	5.367430997797334e-05,1.026504457005643e-13
	5.367431064698036e-05,1.081972474340940e-13
	8.920148812255776e-06,-9.188271203742089e-14
	3.255888219689778e-05,4.994068333274117e-13
	-2.862629898875480e-05,-5.733788388473194e-14
	-1.285273202039875e-05,-3.501862374052588e-13
	-8.920148812255784e-06,9.188271203742085e-14
	-3.255888219699798e-05,-4.994068333274116e-13
	-8.920148812255784e-06,9.188271203742085e-14
11		1.288249551693134e+00,0.000000000000000e+00
	-8.920148812255785e-02,9.402293533964327e-10
	1.000000000000000e+00,0.000000000000000e+00
	0.000000000000000e+00,0.000000000000000e+00
	5.367430997797334e-05,1.050414817398836e-13
	5.367431064698036e-05,1.107174850833753e-13
	8.920148812255776e-06,-9.402293533964325e-14
	3.255888219689778e-05,5.110395128410630e-13
	-2.862629898875480e-05,-5.867345477145380e-14
	-1.285273202039875e-05,-3.583431227299659e-13
	-8.920148812255784e-06,9.402293533964328e-14
	-3.255888219699798e-05,-5.110395128410628e-13
	-8.920148812255784e-06,9.402293533964328e-14
12		1.318256738556407e+00,0.000000000000000e+00
	-8.920148812255785e-02,9.621301084672343e-10
	1.000000000000000e+00,0.000000000000000e+00
	0.000000000000000e+00,0.000000000000000e+00
	5.367430997797334e-05,1.074882121632097e-13
	5.367431064698036e-05,1.132964266087668e-13
	8.920148812255776e-06,-9.621301084672344e-14
	3.255888219689778e-05,5.229431522688302e-13
	-2.862629898875480e-05,-6.004013510053044e-14
	-1.285273202039875e-05,-3.666900063215764e-13
	-8.920148812255784e-06,9.621301084672343e-14
	-3.255888219699798e-05,-5.229431522688302e-13
	-8.920148812255784e-06,9.621301084672343e-14
13		1.348962882591653e+00,0.000000000000000e+00
	-8.920148812255785e-02,9.845409976568427e-10
	1.000000000000000e+00,0.000000000000000e+00
	0.000000000000000e+00,0.000000000000000e+00
	5.367430997797334e-05,1.099919342593994e-13
	5.367431064698036e-05,1.159354393992018e-13
	8.920148812255776e-06,-9.845409976568427e-14
	3.255888219689778e-05,5.351240630779014e-13
	-2.862629898875480e-05,-6.143864950396254e-14
	-1.285273202039875e-05,-3.752313138082546e-13
	-8.920148812255784e-06,9.845409976568427e-14
	-3.255888219699798e-05,-5.351240630779011e-13
	-8.920148812255784e-06,9.845409976568427e-14
14		1.380384264602885e+00,0.000000000000000e+00
	-8.920148812255785e-02,1.007473903515350e-09
	1.000000000000000e+00,0.000000000000000e+00
	0.000000000000000e+00,0.000000000000000e+00
	5.367430997797334e-05,1.125539755350488e-13
	5.367431064698036e-05,1.186359226941933e-13
	8.920148812255776e-06,-1.007473903515349e-13
	3.255888219689778e-05,5.475887037484206e-13
	-2.862629898875480e-05,-6.286973949259829e-14
	-1.285273202039875e-05,-3.839715739042874e-13
	-8.920148812255784e-06,1.007473903515350e-13
	-3.255888219699798e-05,-5.475887037484207e-13
	-8.920148812255784e-06,1.007473903515350e-13
15		1.412537544622754e+00,0.000000000000000e+00
	-8.920148812255785e-02,1.030940985372994e-09
	1.000000000000000e+00,0.000000000000000e+00
	0.000000000000000e+00,0.000000000000000e+00
	5.367430997797334e-05,1.151756944183549e-13
	5.367431064698036e-05,1.213993083257293e-13
	8.920148812255776e-06,-1.030940985372994e-13
	3.255888219689778e-05,5.603436831978608e-13
	-2.862629898875480e-05,-6.433416384929243e-14
	-1.285273202039875e-05,-3.929154208112690e-13
	-8.920148812255784e-06,1.030940985372994e-13
	-3.255888219699798e-05,-5.603436831978608e-13
	-8.920148812255784e-06,1.030940985372994e-13
16		1.445439770745927e+00,0.000000000000000e+00
	-8.920148812255785e-02,1.054954685787200e-09
	1.000000000000000e+00,0.000000000000000e+00
	0.000000000000000e+00,0.000000000000000e+00
	5.367430997797334e-05,1.178584809793721e-13
	5.367431064698036e-05,1.242270614774494e-13
	8.920148812255776e-06,-1.054954685787200e-13
	3.255888219689778e-05,5.733957642851579e-13
	-2.862629898875480e-05,-6.583269903122274e-14
	-1.285273202039875e-05,-4.020675966752151e-13
	-8.920148812255784e-06,1.054954685787200e-13
	-3.255888219699798e-05,-5.733957642851578e-13
	-8.920148812255784e-06,1.054954685787200e-13
17		1.479108388168207e+00,0.000000000000000e+00
	-8.920148812255785e-02,1.079527737139786e-09
	1.000000000000000e+00,0.000000000000000e+00
	0.000000000000000e+00,0.000000000000000e+00
	5.367430997797334e-05,1.206037576670460e-13
	5.367431064698036e-05,1.271206814615044e-13
	8.920148812255776e-06,-1.079527737139786e-13
	3.255888219689778e-05,5.867518673964690e-13
	-2.862629898875480e-05,-6.736613958157821e-14
	-1.285273202039875e-05,-4.114329541009123e-13
	-8.920148812255784e-06,1.079527737139787e-13
	-3.255888219699798e-05,-5.867518673964688e-13
	-8.920148812255784e-06,1.079527737139787e-13
18		1.513561248436208e+00,0.000000000000000e+00
	-8.920148812255785e-02,1.104673168387843e-09
	1.000000000000000e+00,0.000000000000000e+00
	0.000000000000000e+00,0.000000000000000e+00
	5.367430997797334e-05,1.234129800634144e-13
	5.367431064698036e-05,1.300817025135114e-13
	8.920148812255776e-06,-1.104673168387843e-13
	3.255888219689778e-05,6.004190741144531e-13
	-2.862629898875480e-05,-6.893529855083612e-14
	-1.285273202039875e-05,-4.210164587248326e-13
	-8.920148812255784e-06,1.104673168387843e-13
	-3.255888219699798e-05,-6.004190741144530e-13
	-8.920148812255784e-06,1.104673168387843e-13
19		1.548816618912481e+00,0.000000000000000e+00
	-8.920148812255785e-02,1.130404311971857e-09
	1.000000000000000e+00,0.000000000000000e+00
	0.000000000000000e+00,0.000000000000000e+00
	5.367430997797334e-05,1.262876376553765e-13
	5.367431064698036e-05,1.331116946060260e-13
	8.920148812255776e-06,-1.130404311971858e-13
	3.255888219689778e-05,6.144046309730186e-13
	-2.862629898875480e-05,-7.054100792785224e-14
	-1.285273202039875e-05,-4.308231918479806e-13
	-8.920148812255784e-06,1.130404311971857e-13
	-3.255888219699798e-05,-6.144046309730185e-13
	-8.920148812255784e-06,1.130404311971857e-13
20		1.584893192461113e+00,0.000000000000000e+00
	-8.920148812255785e-02,1.156734810884749e-09
	1.000000000000000e+00,0.000000000000000e+00
	0.000000000000000e+00,0.000000000000000e+00
	5.367430997797334e-05,1.292292546244378e-13
	5.367431064698036e-05,1.362122642809622e-13
	8.920148812255776e-06,-1.156734810884750e-13
	3.255888219689778e-05,6.287159532995328e-13
	-2.862629898875480e-05,-7.218411908099231e-14
	-1.285273202039875e-05,-4.408583531300655e-13
	-8.920148812255784e-06,1.156734810884750e-13
	-3.255888219699798e-05,-6.287159532995327e-13
	-8.920148812255784e-06,1.156734810884750e-13
21		1.621810097358929e+00,0.000000000000000e+00
	-8.920148812255785e-02,1.183678625905567e-09
	1.000000000000000e+00,0.000000000000000e+00
	0.000000000000000e+00,0.000000000000000e+00
	5.367430997797334e-05,1.322393906548524e-13
	5.367431064698036e-05,1.393850555014027e-13
	8.920148812255776e-06,-1.183678625905567e-13
	3.255888219689778e-05,6.433606291465256e-13
	-2.862629898875480e-05,-7.386550320953889e-14
	-1.285273202039875e-05,-4.511272633464300e-13
	-8.920148812255784e-06,1.183678625905567e-13
	-3.255888219699798e-05,-6.433606291465255e-13
	-8.920148812255784e-06,1.183678625905567e-13
22		1.659586907437560e+00,0.000000000000000e+00
	-8.920148812255785e-02,1.211250043001679e-09
	1.000000000000000e+00,0.000000000000000e+00
	0.000000000000000e+00,0.000000000000000e+00
	5.367430997797334e-05,1.353196417605875e-13
	5.367431064698036e-05,1.426317505232493e-13
	8.920148812255776e-06,-1.211250043001679e-13
	3.255888219689778e-05,6.583464233149768e-13
	-2.862629898875480e-05,-7.558605180561267e-14
	-1.285273202039875e-05,-4.616353672091962e-13
	-8.920148812255784e-06,1.211250043001679e-13
	-3.255888219699798e-05,-6.583464233149767e-13
	-8.920148812255784e-06,1.211250043001679e-13
23		1.698243652461743e+00,0.000000000000000e+00
	-8.920148812255785e-02,1.239463680903381e-09
	1.000000000000000e+00,0.000000000000000e+00
	0.000000000000000e+00,0.000000000000000e+00
	5.367430997797334e-05,1.384716411315513e-13
	5.367431064698036e-05,1.459540707871779e-13
	8.920148812255776e-06,-1.239463680903380e-13
	3.255888219689778e-05,6.736812814713146e-13
	-2.862629898875480e-05,-7.734667712685352e-14
	-1.285273202039875e-05,-4.723882362541231e-13
	-8.920148812255784e-06,1.239463680903381e-13
	-3.255888219699798e-05,-6.736812814713147e-13
	-8.920148812255784e-06,1.239463680903381e-13
24		1.737800828749374e+00,0.000000000000000e+00
	-8.920148812255785e-02,1.268334498854938e-09
	1.000000000000000e+00,0.000000000000000e+00
	0.000000000000000e+00,0.000000000000000e+00
	5.367430997797334e-05,1.416970599995318e-13
	5.367431064698036e-05,1.493537778313682e-13
	8.920148812255776e-06,-1.268334498854937e-13
	3.255888219689778e-05,6.893733343603144e-13
	-2.862629898875480e-05,-7.914831268011126e-14
	-1.285273202039875e-05,-4.833915717947094e-13
	-8.920148812255784e-06,1.268334498854938e-13
	-3.255888219699798e-05,-6.893733343603142e-13
	-8.920148812255784e-06,1.268334498854938e-13
25		1.778279410038922e+00,0.000000000000000e+00
	-8.920148812255785e-02,1.297877804546180e-09
	1.000000000000000e+00,0.000000000000000e+00
	0.000000000000000e+00,0.000000000000000e+00
	5.367430997797334e-05,1.449976085243065e-13
	5.367431064698036e-05,1.528326742254958e-13
	8.920148812255776e-06,-1.297877804546180e-13
	3.255888219689778e-05,7.054309021161270e-13
	-2.862629898875480e-05,-8.099191371640382e-14
	-1.285273202039875e-05,-4.946512079451051e-13
	-8.920148812255784e-06,1.297877804546180e-13
	-3.255888219699798e-05,-7.054309021161270e-13
	-8.920148812255784e-06,1.297877804546180e-13
26		1.819700858609982e+00,0.000000000000000e+00
	-8.920148812255785e-02,1.328109262228836e-09
	1.000000000000000e+00,0.000000000000000e+00
	0.000000000000000e+00,0.000000000000000e+00
	5.367430997797334e-05,1.483750367003909e-13
	5.367431064698036e-05,1.563926045264772e-13
	8.920148812255776e-06,-1.328109262228836e-13
	3.255888219689778e-05,7.218624986737232e-13
	-2.862629898875480e-05,-8.287845773740350e-14
	-1.285273202039875e-05,-5.061731147134361e-13
	-8.920148812255784e-06,1.328109262228836e-13
	-3.255888219699798e-05,-7.218624986737234e-13
	-8.920148812255784e-06,1.328109262228836e-13
27		1.862087136662866e+00,0.000000000000000e+00
	-8.920148812255785e-02,1.359044901021931e-09
	1.000000000000000e+00,0.000000000000000e+00
	0.000000000000000e+00,0.000000000000000e+00
	5.367430997797334e-05,1.518311352849098e-13
	5.367431064698036e-05,1.600354562564795e-13
	8.920148812255776e-06,-1.359044901021930e-13
	3.255888219689778e-05,7.386768362830962e-13
	-2.862629898875480e-05,-8.480894501372170e-14
	-1.285273202039875e-05,-5.179634011671815e-13
	-8.920148812255784e-06,1.359044901021931e-13
	-3.255888219699798e-05,-7.386768362830960e-13
	-8.920148812255784e-06,1.359044901021931e-13
28		1.905460717963246e+00,0.000000000000000e+00
	-8.920148812255785e-02,1.390701123410632e-09
	1.000000000000000e+00,0.000000000000000e+00
	0.000000000000000e+00,0.000000000000000e+00
	5.367430997797334e-05,1.553677367470793e-13
	5.367431064698036e-05,1.637631609037086e-13
	8.920148812255776e-06,-1.390701123410632e-13
	3.255888219689778e-05,7.558828301286101e-13
	-2.862629898875480e-05,-8.678439911526518e-14
	-1.285273202039875e-05,-5.300283186722817e-13
	-8.920148812255784e-06,1.390701123410632e-13
	-3.255888219699798e-05,-7.558828301286100e-13
	-8.920148812255784e-06,1.390701123410632e-13
29		1.949844599758044e+00,0.000000000000000e+00
	-8.920148812255785e-02,1.423094713943073e-09
	1.000000000000000e+00,0.000000000000000e+00
	0.000000000000000e+00,0.000000000000000e+00
	5.367430997797334e-05,1.589867162398073e-13
	5.367431064698036e-05,1.675776949465106e-13
	8.920148812255776e-06,-1.423094713943073e-13
	3.255888219689778e-05,7.734896030559506e-13
	-2.862629898875480e-05,-8.880586745394696e-14
	-1.285273202039875e-05,-5.423742642076963e-13
	-8.920148812255784e-06,1.423094713943073e-13
	-3.255888219699798e-05,-7.734896030559504e-13
	-8.920148812255784e-06,1.423094713943073e-13
30		1.995262314968878e+00,0.000000000000000e+00
	-8.920148812255785e-02,1.456242848129731e-09
	1.000000000000000e+00,0.000000000000000e+00
	0.000000000000000e+00,0.000000000000000e+00
	5.367430997797334e-05,1.626899925939236e-13
	5.367431064698036e-05,1.714810809013263e-13
	8.920148812255776e-06,-1.456242848129730e-13
	3.255888219689778e-05,7.915064904091764e-13
	-2.862629898875480e-05,-9.087442183903741e-14
	-1.285273202039875e-05,-5.550077837571659e-13
	-8.920148812255784e-06,1.456242848129731e-13
	-3.255888219699798e-05,-7.915064904091763e-13
	-8.920148812255784e-06,1.456242848129731e-13
31		2.041737944669527e+00,0.000000000000000e+00
	-8.920148812255785e-02,1.490163101550119e-09
	1.000000000000000e+00,0.000000000000000e+00
	0.000000000000000e+00,0.000000000000000e+00
	5.367430997797334e-05,1.664795293355697e-13
	5.367431064698036e-05,1.754753883950562e-13
	8.920148812255776e-06,-1.490163101550120e-13
	3.255888219689778e-05,8.099430449804438e-13
	-2.862629898875480e-05,-9.299115904545207e-14
	-1.285273202039875e-05,-5.679355757799798e-13
	-8.920148812255784e-06,1.490163101550119e-13
	-3.255888219699798e-05,-8.099430449804438e-13
	-8.920148812255784e-06,1.490163101550119e-13
32		2.089296130854037e+00,0.000000000000000e+00
	-8.920148812255785e-02,1.524873459171591e-09
	1.000000000000000e+00,0.000000000000000e+00
	0.000000000000000e+00,0.000000000000000e+00
	5.367430997797334e-05,1.703573357272867e-13
