LTspice 24.0.9 for Windows
Circuit: * GA CMOS Amp | W=2.8884707565389516e-06 L=9.307572106648615e-07 Vbias=1.4304237389541068
Start Time: Sat Sep  6 22:11:35 2025
solver = Normal
Maximum thread count: 2
tnom = 27
temp = 27
method = modified trap
AsciiRawFile = 1
Direct Newton iteration for .op point succeeded.
Semiconductor Device Operating Points:
                        --- BSIM4 MOSFETS ---
Name:      m1
Model:      n
Id:      1.17e-04
Vgs:     1.43e+00
Vds:     6.33e-01
Vbs:     0.00e+00
Vth:     2.37e-01
Vdsat:   8.25e-01
Gm:      3.43e-05
Gds:     7.23e-05
Gmb      6.34e-05
Cbd:     1.23e-15
Cbs:     2.31e-15


.measure op idd find i(vdd)
  Error: FIND can not be evaluated over an interval.

gain_db: MAX(db(v(out)/v(g)))=(29.8144dB,118.17°) FROM 1 TO 1e+09
gain_lin: MAX(mag(v(out)/v(g)))=(1.55279dB,0°) FROM 1 TO 1e+09
fc: mag(v(out)/v(g))=1 AT 8.12692e+08

Total elapsed time: 1.304 seconds.

