LTspice 24.0.9 for Windows
Circuit: * GA CMOS Amp | W=1.76049306229839e-05 L=9.526541503115229e-07 Vbias=1.5
Start Time: Mon Sep  8 18:44:15 2025
solver = Normal
Maximum thread count: 2
tnom = 27
temp = 27
method = modified trap
AsciiRawFile = 1
Instance "m1": Length shorter than recommended for a level 3 MOSFET.
Direct Newton iteration for .op point succeeded.
Semiconductor Device Operating Points:
                        --- MOSFET Transistors ---
Name:          m1
Model:        n_1u
Id:          1.70e-04
Vgs:         1.50e+00
Vds:         1.02e-01
Vbs:         0.00e+00
Vth:         8.10e-01
Vdsat:       4.92e-01
Gm:          2.32e-04
Gds:         1.39e-03
Gmb:         5.95e-05
Cbd:         0.00e+00
Cbs:         0.00e+00
Cgsov:       3.52e-15
Cgdov:       3.52e-15
Cgbov:       7.53e-17
Cgs:         1.23e-14
Cgd:         1.05e-14
Cgb:         0.00e+00



gain_db: MAX(db(v(out)/v(g)))=(30.0282dB,120.672°) FROM 1 TO 1e+09
gain_lin: MAX(mag(v(out)/v(g)))=(-15.5607dB,0°) FROM 1 TO 1e+09

Measurement "fc" FAIL'ed

Total elapsed time: 0.577 seconds.

