Title: * GA CMOS Amp | W=4.520866361708377e-05 L=9.268849693811368e-07 Vbias=1.163638512631977
Date: Sat Sep  6 22:05:10 2025
Plotname: AC Analysis
Flags: complex forward log
No. Variables: 13
No. Points:          901
Offset:    0.0000000000000000e+00
Command: Linear Technology Corporation LTspice
Variables:
	0	frequency	frequency
	1	V(out)	voltage
	2	V(g)	voltage
	3	V(vdd)	voltage
	4	V(m1#dbody)	voltage
	5	V(m1#sbody)	voltage
	6	Id(M1)	device_current
	7	Ig(M1)	device_current
	8	Ib(M1)	device_current
	9	Is(M1)	device_current
	10	I(Rload)	device_current
	11	I(Vg)	device_current
	12	I(Vdd)	device_current
Values:
0		1.000000000000000e+00,0.000000000000000e+00
	6.081358753812820e-03,1.140484656288601e-09
	1.000000000000000e+00,0.000000000000000e+00
	0.000000000000000e+00,0.000000000000000e+00
	1.062074106367217e-04,1.538960586528545e-13
	1.062074105869320e-04,1.474276288868153e-13
	-6.081358753812808e-07,-1.140484656288598e-13
	9.218799938935593e-05,1.090347842785589e-11
	-5.664395235921259e-05,-7.913170251349661e-14
	-3.493591115476206e-05,-1.071029825971353e-11
	6.081358753812820e-07,1.140484656288601e-13
	-9.218799938937039e-05,-1.090347842785588e-11
	6.081358753812820e-07,1.140484656288601e-13
1		1.023292992280754e+00,0.000000000000000e+00
	6.081358753812820e-03,1.167049956583850e-09
	1.000000000000000e+00,0.000000000000000e+00
	0.000000000000000e+00,0.000000000000000e+00
	1.062074106367217e-04,1.574807583590939e-13
	1.062074105869320e-04,1.508616595084458e-13
	-6.081358753812808e-07,-1.167049956583856e-13
	9.218799938935593e-05,1.115745306670930e-11
	-5.664395235921259e-05,-8.097491664930639e-14
	-3.493591115476206e-05,-1.095977315440161e-11
	6.081358753812820e-07,1.167049956583850e-13
	-9.218799938937039e-05,-1.115745306670930e-11
	6.081358753812820e-07,1.167049956583850e-13
2		1.047128548050899e+00,0.000000000000000e+00
	6.081358753812820e-03,1.194234042213812e-09
	1.000000000000000e+00,0.000000000000000e+00
	0.000000000000000e+00,0.000000000000000e+00
	1.062074106367217e-04,1.611489564479196e-13
	1.062074105869320e-04,1.543756789788378e-13
	-6.081358753812808e-07,-1.194234042213824e-13
	9.218799938935593e-05,1.141734353486504e-11
	-5.664395235921259e-05,-8.286106475775343e-14
	-3.493591115476206e-05,-1.121505906588590e-11
	6.081358753812820e-07,1.194234042213812e-13
	-9.218799938937039e-05,-1.141734353486504e-11
	6.081358753812820e-07,1.194234042213812e-13
3		1.071519305237606e+00,0.000000000000000e+00
	6.081358753812820e-03,1.222051326540512e-09
	1.000000000000000e+00,0.000000000000000e+00
	0.000000000000000e+00,0.000000000000000e+00
	1.062074106367217e-04,1.649025978465125e-13
	1.062074105869320e-04,1.579715504776280e-13
	-6.081358753812808e-07,-1.222051326540510e-13
	9.218799938935593e-05,1.168328762968937e-11
	-5.664395235921259e-05,-8.479114689953081e-14
	-3.493591115476206e-05,-1.147629135013578e-11
	6.081358753812820e-07,1.222051326540512e-13
	-9.218799938937039e-05,-1.168328762968937e-11
	6.081358753812820e-07,1.222051326540512e-13
4		1.096478196143185e+00,0.000000000000000e+00
	6.081358753812820e-03,1.250516558656305e-09
	1.000000000000000e+00,0.000000000000000e+00
	0.000000000000000e+00,0.000000000000000e+00
	1.062074106367217e-04,1.687436727852276e-13
	1.062074105869320e-04,1.616511805834822e-13
	-6.081358753812842e-07,-1.250516558656309e-13
	9.218799938935593e-05,1.195542635826155e-11
	-5.664395235921259e-05,-8.676618642973787e-14
	-3.493591115476206e-05,-1.174360851596618e-11
	6.081358753812820e-07,1.250516558656305e-13
	-9.218799938937039e-05,-1.195542635826155e-11
	6.081358753812820e-07,1.250516558656305e-13
5		1.122018454301963e+00,0.000000000000000e+00
	6.081358753812820e-03,1.279644831204042e-09
	1.000000000000000e+00,0.000000000000000e+00
	0.000000000000000e+00,0.000000000000000e+00
	1.062074106367217e-04,1.726742178528401e-13
	1.062074105869320e-04,1.654165202849880e-13
	-6.081358753812842e-07,-1.279644831204029e-13
	9.218799938935593e-05,1.223390401213766e-11
	-5.664395235921259e-05,-8.878723054047625e-14
	-3.493591115476206e-05,-1.201715229847678e-11
	6.081358753812820e-07,1.279644831204042e-13
	-9.218799938937039e-05,-1.223390401213766e-11
	6.081358753812820e-07,1.279644831204042e-13
6		1.148153621496882e+00,0.000000000000000e+00
	6.081358753812820e-03,1.309451588379385e-09
	1.000000000000000e+00,0.000000000000000e+00
	0.000000000000000e+00,0.000000000000000e+00
	1.062074106367217e-04,1.766963170763715e-13
	1.062074105869320e-04,1.692695660150954e-13
	-6.081358753812842e-07,-1.309451588379394e-13
	9.218799938935593e-05,1.251886824385587e-11
	-5.664395235921259e-05,-9.085535081608506e-14
	-3.493591115476206e-05,-1.229706773420184e-11
	6.081358753812820e-07,1.309451588379385e-13
	-9.218799938937039e-05,-1.251886824385587e-11
	6.081358753812820e-07,1.309451588379385e-13
7		1.174897554939529e+00,0.000000000000000e+00
	6.081358753812820e-03,1.339952634119527e-09
	1.000000000000000e+00,0.000000000000000e+00
	0.000000000000000e+00,0.000000000000000e+00
	1.062074106367217e-04,1.808121030260691e-13
	1.062074105869320e-04,1.732123607096516e-13
	-6.081358753812842e-07,-1.339952634119530e-13
	9.218799938935593e-05,1.281047014522378e-11
	-5.664395235921259e-05,-9.297164380130933e-14
	-3.493591115476206e-05,-1.258350323801052e-11
	6.081358753812820e-07,1.339952634119527e-13
	-9.218799938937039e-05,-1.281047014522378e-11
	6.081358753812820e-07,1.339952634119527e-13
8		1.202264434617413e+00,0.000000000000000e+00
	6.081358753812821e-03,1.371164140482649e-09
	1.000000000000000e+00,0.000000000000000e+00
	0.000000000000000e+00,0.000000000000000e+00
	1.062074106367217e-04,1.850237579461223e-13
	1.062074105869320e-04,1.772469948905928e-13
	-6.081358753812808e-07,-1.371164140482653e-13
	9.218799938935593e-05,1.310886432742931e-11
	-5.664395235921259e-05,-9.513723158270228e-14
	-3.493591115476206e-05,-1.287661068179834e-11
	6.081358753812821e-07,1.371164140482649e-13
	-9.218799938937039e-05,-1.310886432742931e-11
	6.081358753812821e-07,1.371164140482649e-13
9		1.230268770812381e+00,0.000000000000000e+00
	6.081358753812821e-03,1.403102656222558e-09
	1.000000000000000e+00,0.000000000000000e+00
	0.000000000000000e+00,0.000000000000000e+00
	1.062074106367217e-04,1.893335149117174e-13
	1.062074105869320e-04,1.813756077743662e-13
	-6.081358753812808e-07,-1.403102656222562e-13
	9.218799938935593e-05,1.341420900301757e-11
	-5.664395235921259e-05,-9.735326238357049e-14
	-3.493591115476206e-05,-1.317654547501175e-11
	6.081358753812821e-07,1.403102656222558e-13
	-9.218799938937039e-05,-1.341420900301757e-11
	6.081358753812821e-07,1.403102656222558e-13
10		1.258925411794167e+00,0.000000000000000e+00
	6.081358753812821e-03,1.435785115563056e-09
	1.000000000000000e+00,0.000000000000000e+00
	0.000000000000000e+00,0.000000000000000e+00
	1.062074106367217e-04,1.937436590130441e-13
	1.062074105869320e-04,1.856003884061716e-13
	-6.081358753812808e-07,-1.435785115563053e-13
	9.218799938935593e-05,1.372666606977728e-11
	-5.664395235921259e-05,-9.962091117277721e-14
	-3.493591115476206e-05,-1.348346664704820e-11
	6.081358753812821e-07,1.435785115563056e-13
	-9.218799938937039e-05,-1.372666606977728e-11
	6.081358753812821e-07,1.435785115563056e-13
11		1.288249551693134e+00,0.000000000000000e+00
	6.081358753812821e-03,1.469228847176688e-09
	1.000000000000000e+00,0.000000000000000e+00
	0.000000000000000e+00,0.000000000000000e+00
	1.062074106367217e-04,1.982565285668800e-13
	1.062074105869320e-04,1.899235768206215e-13
	-6.081358753812842e-07,-1.469228847176685e-13
	9.218799938935594e-05,1.404640119658110e-11
	-5.664395235921259e-05,-1.019413802877264e-13
	-3.493591115476206e-05,-1.379753693157570e-11
	6.081358753812821e-07,1.469228847176688e-13
	-9.218799938937039e-05,-1.404640119658110e-11
	6.081358753812821e-07,1.469228847176688e-13
12		1.318256738556407e+00,0.000000000000000e+00
	6.081358753812821e-03,1.503451583372636e-09
	1.000000000000000e+00,0.000000000000000e+00
	0.000000000000000e+00,0.000000000000000e+00
	1.062074106367217e-04,2.028745163563974e-13
	1.062074105869320e-04,1.943474652294375e-13
	-6.081358753812842e-07,-1.503451583372646e-13
	9.218799938935594e-05,1.437358391122544e-11
	-5.664395235921259e-05,-1.043159000718578e-13
	-3.493591115476206e-05,-1.411892285281631e-11
	6.081358753812821e-07,1.503451583372636e-13
	-9.218799938937039e-05,-1.437358391122544e-11
	6.081358753812821e-07,1.503451583372636e-13
13		1.348962882591653e+00,0.000000000000000e+00
	6.081358753812821e-03,1.538471469498623e-09
	1.000000000000000e+00,0.000000000000000e+00
	0.000000000000000e+00,0.000000000000000e+00
	1.062074106367217e-04,2.076000708998488e-13
	1.062074105869320e-04,1.988743992368109e-13
	-6.081358753812842e-07,-1.538471469498613e-13
	9.218799938935594e-05,1.470838769031638e-11
	-5.664395235921259e-05,-1.067457295269916e-13
	-3.493591115476206e-05,-1.444779481383953e-11
	6.081358753812821e-07,1.538471469498623e-13
	-9.218799938937039e-05,-1.470838769031639e-11
	6.081358753812821e-07,1.538471469498623e-13
14		1.380384264602885e+00,0.000000000000000e+00
	6.081358753812821e-03,1.574307073561815e-09
	1.000000000000000e+00,0.000000000000000e+00
	0.000000000000000e+00,0.000000000000000e+00
	1.062074106367217e-04,2.124356977488030e-13
	1.062074105869320e-04,2.035067790830736e-13
	-6.081358753812842e-07,-1.574307073561778e-13
	9.218799938935594e-05,1.505099005124926e-11
	-5.664395235921259e-05,-1.092321569808673e-13
	-3.493591115476206e-05,-1.478432718691222e-11
	6.081358753812821e-07,1.574307073561815e-13
	-9.218799938937039e-05,-1.505099005124926e-11
	6.081358753812821e-07,1.574307073561815e-13
15		1.412537544622754e+00,0.000000000000000e+00
	6.081358753812821e-03,1.610977396073826e-09
	1.000000000000000e+00,0.000000000000000e+00
	0.000000000000000e+00,0.000000000000000e+00
	1.062074106367217e-04,2.173839608166224e-13
	1.062074105869320e-04,2.082470609173368e-13
	-6.081358753812808e-07,-1.610977396073816e-13
	9.218799938935594e-05,1.540157264633071e-11
	-5.664395235921259e-05,-1.117765007702327e-13
	-3.493591115476207e-05,-1.512869840595310e-11
	6.081358753812822e-07,1.610977396073826e-13
	-9.218799938937039e-05,-1.540157264633072e-11
	6.081358753812822e-07,1.610977396073826e-13
16		1.445439770745927e+00,0.000000000000000e+00
	6.081358753812821e-03,1.648501880125043e-09
	1.000000000000000e+00,0.000000000000000e+00
	0.000000000000000e+00,0.000000000000000e+00
	1.062074106367217e-04,2.224474837378837e-13
	1.062074105869320e-04,2.130977580997739e-13
	-6.081358753812842e-07,-1.648501880125012e-13
	9.218799938935594e-05,1.576032135909317e-11
	-5.664395235921259e-05,-1.143801099398434e-13
	-3.493591115476207e-05,-1.548109106114082e-11
	6.081358753812822e-07,1.648501880125043e-13
	-9.218799938937039e-05,-1.576032135909317e-11
	6.081358753812822e-07,1.648501880125043e-13
17		1.479108388168207e+00,0.000000000000000e+00
	6.081358753812821e-03,1.686900421693604e-09
	1.000000000000000e+00,0.000000000000000e+00
	0.000000000000000e+00,0.000000000000000e+00
	1.062074106367217e-04,2.276289512594634e-13
	1.062074105869320e-04,2.180614425342380e-13
	-6.081358753812842e-07,-1.686900421693616e-13
	9.218799938935594e-05,1.612742640285273e-11
	-5.664395235921259e-05,-1.170443649577440e-13
	-3.493591115476207e-05,-1.584169199572562e-11
	6.081358753812822e-07,1.686900421693604e-13
	-9.218799938937039e-05,-1.612742640285273e-11
	6.081358753812822e-07,1.686900421693604e-13
18		1.513561248436208e+00,0.000000000000000e+00
	6.081358753812821e-03,1.726193380194515e-09
	1.000000000000000e+00,0.000000000000000e+00
	0.000000000000000e+00,0.000000000000000e+00
	1.062074106367217e-04,2.329311106640263e-13
	1.062074105869320e-04,2.231407460319181e-13
	-6.081358753812842e-07,-1.726193380194498e-13
	9.218799938935594e-05,1.650308242156281e-11
	-5.664395235921259e-05,-1.197706784472105e-13
	-3.493591115476207e-05,-1.621069240509615e-11
	6.081358753812822e-07,1.726193380194515e-13
	-9.218799938937039e-05,-1.650308242156281e-11
	6.081358753812822e-07,1.726193380194515e-13
19		1.548816618912481e+00,0.000000000000000e+00
	6.081358753812821e-03,1.766401589274474e-09
	1.000000000000000e+00,0.000000000000000e+00
	0.000000000000000e+00,0.000000000000000e+00
	1.062074106367217e-04,2.383567732266709e-13
	1.062074105869320e-04,2.283383617067613e-13
	-6.081358753812842e-07,-1.766401589274457e-13
	9.218799938935594e-05,1.688748859301692e-11
	-5.664395235921258e-05,-1.225604959357421e-13
	-3.493591115476207e-05,-1.658828793815373e-11
	6.081358753812822e-07,1.766401589274474e-13
	-9.218799938937039e-05,-1.688748859301692e-11
	6.081358753812822e-07,1.766401589274474e-13
20		1.584893192461113e+00,0.000000000000000e+00
	6.081358753812822e-03,1.807546367858156e-09
	1.000000000000000e+00,0.000000000000000e+00
	0.000000000000000e+00,0.000000000000000e+00
	1.062074106367217e-04,2.439088157055053e-13
	1.062074105869320e-04,2.336570454033969e-13
	-6.081358753812808e-07,-1.807546367858162e-13
	9.218799938935594e-05,1.728084873445538e-11
	-5.664395235921258e-05,-1.254152966214987e-13
	-3.493591115476208e-05,-1.697467880104807e-11
	6.081358753812823e-07,1.807546367858156e-13
	-9.218799938937039e-05,-1.728084873445539e-11
	6.081358753812823e-07,1.807546367858156e-13
21		1.621810097358929e+00,0.000000000000000e+00
	6.081358753812822e-03,1.849649531451781e-09
	1.000000000000000e+00,0.000000000000000e+00
	0.000000000000000e+00,0.000000000000000e+00
	1.062074106367217e-04,2.495901818669414e-13
	1.062074105869320e-04,2.390996171583220e-13
	-6.081358753812842e-07,-1.849649531451762e-13
	9.218799938935594e-05,1.768337141063193e-11
	-5.664395235921258e-05,-1.283365941575917e-13
	-3.493591115476208e-05,-1.737006986332917e-11
	6.081358753812823e-07,1.849649531451781e-13
	-9.218799938937039e-05,-1.768337141063194e-11
	6.081358753812823e-07,1.849649531451781e-13
22		1.659586907437560e+00,0.000000000000000e+00
	6.081358753812822e-03,1.892733403709988e-09
	1.000000000000000e+00,0.000000000000000e+00
	0.000000000000000e+00,0.000000000000000e+00
	1.062074106367217e-04,2.554038840465202e-13
	1.062074105869320e-04,2.446689626951221e-13
	-6.081358753812842e-07,-1.892733403709960e-13
	9.218799938935594e-05,1.809527004439749e-11
	-5.664395235921258e-05,-1.313259374546428e-13
	-3.493591115476208e-05,-1.777467076657186e-11
	6.081358753812823e-07,1.892733403709989e-13
	-9.218799938937039e-05,-1.809527004439750e-11
	6.081358753812823e-07,1.892733403709989e-13
23		1.698243652461743e+00,0.000000000000000e+00
	6.081358753812822e-03,1.936820828272130e-09
	1.000000000000000e+00,0.000000000000000e+00
	0.000000000000000e+00,0.000000000000000e+00
	1.062074106367217e-04,2.613530047460903e-13
	1.062074105869320e-04,2.503680349545198e-13
	-6.081358753812842e-07,-1.936820828272143e-13
	9.218799938935594e-05,1.851676302985980e-11
	-5.664395235921258e-05,-1.343849115020366e-13
	-3.493591115476208e-05,-1.818869603553056e-11
	6.081358753812823e-07,1.936820828272130e-13
	-9.218799938937039e-05,-1.851676302985981e-11
	6.081358753812823e-07,1.936820828272130e-13
24		1.737800828749374e+00,0.000000000000000e+00
	6.081358753812822e-03,1.981935180874276e-09
	1.000000000000000e+00,0.000000000000000e+00
	0.000000000000000e+00,0.000000000000000e+00
	1.062074106367217e-04,2.674406982681930e-13
	1.062074105869320e-04,2.561998556600630e-13
	-6.081358753812876e-07,-1.981935180874293e-13
	9.218799938935594e-05,1.894807384817888e-11
	-5.664395235921258e-05,-1.375151382083034e-13
	-3.493591115476208e-05,-1.861236519188315e-11
	6.081358753812823e-07,1.981935180874276e-13
	-9.218799938937039e-05,-1.894807384817888e-11
	6.081358753812823e-07,1.981935180874276e-13
25		1.778279410038922e+00,0.000000000000000e+00
	6.081358753812823e-03,2.028100381743336e-09
	1.000000000000000e+00,0.000000000000000e+00
	0.000000000000000e+00,0.000000000000000e+00
	1.062074106367217e-04,2.736701923885134e-13
	1.062074105869320e-04,2.621675169202831e-13
	-6.081358753812842e-07,-2.028100381743352e-13
	9.218799938935594e-05,1.938943118605968e-11
	-5.664395235921258e-05,-1.407182772610762e-13
	-3.493591115476208e-05,-1.904590287062426e-11
	6.081358753812823e-07,2.028100381743336e-13
	-9.218799938937039e-05,-1.938943118605967e-11
	6.081358753812823e-07,2.028100381743336e-13
26		1.819700858609982e+00,0.000000000000000e+00
	6.081358753812823e-03,2.075340908279878e-09
	1.000000000000000e+00,0.000000000000000e+00
	0.000000000000000e+00,0.000000000000000e+00
	1.062074106367217e-04,2.800447900672915e-13
	1.062074105869320e-04,2.682741828681717e-13
	-6.081358753812842e-07,-2.075340908279871e-13
	9.218799938935594e-05,1.984106905700477e-11
	-5.664395235921258e-05,-1.439960270070795e-13
	-3.493591115476208e-05,-1.948953893916970e-11
	6.081358753812823e-07,2.075340908279878e-13
	-9.218799938937039e-05,-1.984106905700478e-11
	6.081358753812823e-07,2.075340908279878e-13
27		1.862087136662866e+00,0.000000000000000e+00
	6.081358753812823e-03,2.123681808036374e-09
	1.000000000000000e+00,0.000000000000000e+00
	0.000000000000000e+00,0.000000000000000e+00
	1.062074106367217e-04,2.865678712005944e-13
	1.062074105869320e-04,2.745230913388457e-13
	-6.081358753812876e-07,-2.123681808036377e-13
	9.218799938935594e-05,2.030322692539149e-11
	-5.664395235921258e-05,-1.473501253526146e-13
	-3.493591115476208e-05,-1.994350861923524e-11
	6.081358753812823e-07,2.123681808036375e-13
	-9.218799938937039e-05,-2.030322692539150e-11
	6.081358753812823e-07,2.123681808036375e-13
28		1.905460717963246e+00,0.000000000000000e+00
	6.081358753812824e-03,2.173148711997744e-09
	1.000000000000000e+00,0.000000000000000e+00
	0.000000000000000e+00,0.000000000000000e+00
	1.062074106367217e-04,2.932428944123820e-13
	1.062074105869320e-04,2.809175555862901e-13
	-6.081358753812842e-07,-2.173148711997743e-13
	9.218799938935596e-05,2.077614983343904e-11
	-5.664395235921258e-05,-1.507823506850212e-13
	-3.493591115476209e-05,-2.040805261155424e-11
	6.081358753812824e-07,2.173148711997744e-13
	-9.218799938937039e-05,-2.077614983343904e-11
	6.081358753812824e-07,2.173148711997744e-13
29		1.949844599758044e+00,0.000000000000000e+00
	6.081358753812824e-03,2.223767848171238e-09
	1.000000000000000e+00,0.000000000000000e+00
	0.000000000000000e+00,0.000000000000000e+00
	1.062074106367217e-04,3.000733988883157e-13
	1.062074105869320e-04,2.874609660400900e-13
	-6.081358753812842e-07,-2.223767848171248e-13
	9.218799938935596e-05,2.126008853113313e-11
	-5.664395235921258e-05,-1.542945228156014e-13
	-3.493591115476209e-05,-2.088341722350040e-11
	6.081358753812824e-07,2.223767848171238e-13
	-9.218799938937039e-05,-2.126008853113313e-11
	6.081358753812824e-07,2.223767848171238e-13
30		1.995262314968878e+00,0.000000000000000e+00
	6.081358753812824e-03,2.275566055492879e-09
	1.000000000000000e+00,0.000000000000000e+00
	0.000000000000000e+00,0.000000000000000e+00
	1.062074106367216e-04,3.070630062522808e-13
	1.062074105869320e-04,2.941567921030799e-13
	-6.081358753812876e-07,-2.275566055492885e-13
	9.218799938935596e-05,2.175529960917696e-11
	-5.664395235921258e-05,-1.578885039445079e-13
	-3.493591115476209e-05,-2.136985449968316e-11
	6.081358753812824e-07,2.275566055492880e-13
	-9.218799938937039e-05,-2.175529960917695e-11
	6.081358753812824e-07,2.275566055492880e-13
31		2.041737944669527e+00,0.000000000000000e+00
	6.081358753812825e-03,2.328570798057821e-09
	1.000000000000000e+00,0.000000000000000e+00
	0.000000000000000e+00,0.000000000000000e+00
	1.062074106367216e-04,3.142154224866202e-13
	1.062074105869320e-04,3.010085839908682e-13
	-6.081358753812808e-07,-2.328570798057814e-13
	9.218799938935594e-05,2.226204563503900e-11
	-5.664395235921258e-05,-1.615661996481071e-13
	-3.493591115476209e-05,-2.186762235558511e-11
	6.081358753812825e-07,2.328570798057821e-13
	-9.218799938937039e-05,-2.226204563503900e-11
	6.081358753812825e-07,2.328570798057821e-13
32		2.089296130854037e+00,0.000000000000000e+00
	6.081358753812825e-03,2.382810179682172e-09
	1.000000000000000e+00,0.000000000000000e+00
	0.000000000000000e+00,0.000000000000000e+00
	1.062074106367216e-04,3.215344398970951e-13
	1.062074105869320e-04,3.080199746142084e-13
	-6.081358753812808e-07,-2.382810179682162e-13
