Title: * GA CMOS Amp | W=1.7124149329982408e-05 L=1e-06 Vbias=1.213958276869096
Date: Mon Sep  8 18:44:39 2025
Plotname: AC Analysis
Flags: complex forward log
No. Variables: 11
No. Points:          901
Offset:    0.0000000000000000e+00
Command: Linear Technology Corporation LTspice
Variables:
	0	frequency	frequency
	1	V(out)	voltage
	2	V(g)	voltage
	3	V(vdd)	voltage
	4	Id(M1)	device_current
	5	Ig(M1)	device_current
	6	Ib(M1)	device_current
	7	Is(M1)	device_current
	8	I(Rload)	device_current
	9	I(Vg)	device_current
	10	I(Vdd)	device_current
Values:
0		1.000000000000000e+00,0.000000000000000e+00
	-1.197002208429925e+00,6.469949540547861e-10
	1.000000000000000e+00,0.000000000000000e+00
	0.000000000000000e+00,0.000000000000000e+00
	1.197002208429925e-04,-6.469949540547861e-14
	5.838388071874157e-23,2.996480982366071e-13
	1.197059812385604e-12,6.466633612196519e-15
	-1.197002220400523e-04,-2.414152364433251e-13
	-1.197002208429925e-04,6.469949540547861e-14
	-5.838388071874157e-23,-2.996480982366071e-13
	-1.197002208429925e-04,6.469949540547861e-14
1		1.023292992280754e+00,0.000000000000000e+00
	-1.197002208429925e+00,6.620654025252711e-10
	1.000000000000000e+00,0.000000000000000e+00
	0.000000000000000e+00,0.000000000000000e+00
	1.197002208429925e-04,-6.620654025252707e-14
	6.113542824659277e-23,3.066277990757751e-13
	1.197059812385604e-12,6.617260859007896e-15
	-1.197002220400523e-04,-2.470385196822559e-13
	-1.197002208429925e-04,6.620654025252712e-14
	-6.113542824659277e-23,-3.066277990757751e-13
	-1.197002208429925e-04,6.620654025252712e-14
2		1.047128548050899e+00,0.000000000000000e+00
	-1.197002208429925e+00,6.774868868356465e-10
	1.000000000000000e+00,0.000000000000000e+00
	0.000000000000000e+00,0.000000000000000e+00
	1.197002208429925e-04,-6.774868868356461e-14
	6.401665221432463e-23,3.137700780327117e-13
	1.197059812385604e-12,6.771396665116454e-15
	-1.197002220400523e-04,-2.527927860142636e-13
	-1.197002208429925e-04,6.774868868356466e-14
	-6.401665221432463e-23,-3.137700780327117e-13
	-1.197002208429925e-04,6.774868868356466e-14
3		1.071519305237606e+00,0.000000000000000e+00
	-1.197002208429925e+00,6.932675836610213e-10
	1.000000000000000e+00,0.000000000000000e+00
	0.000000000000000e+00,0.000000000000000e+00
	1.197002208429925e-04,-6.932675836610210e-14
	6.703366408426513e-23,3.210787220382593e-13
	1.197059812385604e-12,6.929122755366902e-15
	-1.197002220400523e-04,-2.586810864275241e-13
	-1.197002208429925e-04,6.932675836610213e-14
	-6.703366408426513e-23,-3.210787220382593e-13
	-1.197002208429925e-04,6.932675836610213e-14
4		1.096478196143185e+00,0.000000000000000e+00
	-1.197002208429925e+00,7.094158601357343e-10
	1.000000000000000e+00,0.000000000000000e+00
	0.000000000000000e+00,0.000000000000000e+00
	1.197002208429925e-04,-7.094158601357343e-14
	7.019286334308824e-23,3.285576062322108e-13
	1.197059812385604e-12,7.090522758220076e-15
	-1.197002220400523e-04,-2.647065429768574e-13
	-1.197002208429925e-04,7.094158601357343e-14
	-7.019286334308824e-23,-3.285576062322108e-13
	-1.197002208429925e-04,7.094158601357343e-14
5		1.122018454301963e+00,0.000000000000000e+00
	-1.197002208429925e+00,7.259402782897207e-10
	1.000000000000000e+00,0.000000000000000e+00
	0.000000000000000e+00,0.000000000000000e+00
	1.197002208429925e-04,-7.259402782897206e-14
	7.350095107598323e-23,3.362106960179607e-13
	1.197059812385604e-12,7.255682250093841e-15
	-1.197002220400523e-04,-2.708723504390825e-13
	-1.197002208429925e-04,7.259402782897208e-14
	-7.350095107598323e-23,-3.362106960179607e-13
	-1.197002208429925e-04,7.259402782897208e-14
6		1.148153621496882e+00,0.000000000000000e+00
	-1.197002208429925e+00,7.428495995882116e-10
	1.000000000000000e+00,0.000000000000000e+00
	0.000000000000000e+00,0.000000000000000e+00
	1.197002208429925e-04,-7.428495995882116e-14
	7.696494418055451e-23,3.440420491650141e-13
	1.197059812385604e-12,7.424688800736906e-15
	-1.197002220400523e-04,-2.771817780069298e-13
	-1.197002208429925e-04,7.428495995882116e-14
	-7.696494418055451e-23,-3.440420491650141e-13
	-1.197002208429925e-04,7.428495995882116e-14
7		1.174897554939529e+00,0.000000000000000e+00
	-1.197002208429925e+00,7.601527895771810e-10
	1.000000000000000e+00,0.000000000000000e+00
	0.000000000000000e+00,0.000000000000000e+00
	1.197002208429925e-04,-7.601527895771810e-14
	8.059219025060256e-23,3.520558179604696e-13
	1.197059812385604e-12,7.597632019659434e-15
	-1.197002220400523e-04,-2.836381710224109e-13
	-1.197002208429925e-04,7.601527895771810e-14
	-8.059219025060256e-23,-3.520558179604696e-13
	-1.197002208429925e-04,7.601527895771810e-14
8		1.202264434617413e+00,0.000000000000000e+00
	-1.197002208429925e+00,7.778590226369962e-10
	1.000000000000000e+00,0.000000000000000e+00
	0.000000000000000e+00,0.000000000000000e+00
	1.197002208429925e-04,-7.778590226369957e-14
	8.439038316135534e-23,3.602562514106174e-13
	1.197059812385604e-12,7.774603603645363e-15
	-1.197002220400523e-04,-2.902449527505632e-13
	-1.197002208429925e-04,7.778590226369962e-14
	-8.439038316135534e-23,-3.602562514106174e-13
	-1.197002208429925e-04,7.778590226369962e-14
9		1.230268770812381e+00,0.000000000000000e+00
	-1.197002208429925e+00,7.959776868467947e-10
	1.000000000000000e+00,0.000000000000000e+00
	0.000000000000000e+00,0.000000000000000e+00
	1.197002208429925e-04,-7.959776868467945e-14
	8.836757938920909e-23,3.686476974938183e-13
	1.197059812385604e-12,7.955697385371032e-15
	-1.197002220400523e-04,-2.970056261945099e-13
	-1.197002208429925e-04,7.959776868467947e-14
	-8.836757938920909e-23,-3.686476974938183e-13
	-1.197002208429925e-04,7.959776868467947e-14
10		1.258925411794167e+00,0.000000000000000e+00
	-1.197002208429925e+00,8.145183889621696e-10
	1.000000000000000e+00,0.000000000000000e+00
	0.000000000000000e+00,0.000000000000000e+00
	1.197002208429925e-04,-8.145183889621693e-14
	9.253221510059512e-23,3.772346054658596e-13
	1.197059812385604e-12,8.141009383156474e-15
	-1.197002220400523e-04,-3.039237759527991e-13
	-1.197002208429925e-04,8.145183889621697e-14
	-9.253221510059512e-23,-3.772346054658596e-13
	-1.197002208429925e-04,8.145183889621697e-14
11		1.288249551693134e+00,0.000000000000000e+00
	-1.197002208429925e+00,8.334909595087977e-10
	1.000000000000000e+00,0.000000000000000e+00
	0.000000000000000e+00,0.000000000000000e+00
	1.197002208429925e-04,-8.334909595087974e-14
	9.689312404621970e-23,3.860215282190092e-13
	1.197059812385604e-12,8.330637851875979e-15
	-1.197002220400523e-04,-3.110030701200054e-13
	-1.197002208429925e-04,8.334909595087978e-14
	-9.689312404621970e-23,-3.860215282190092e-13
	-1.197002208429925e-04,8.334909595087978e-14
12		1.318256738556407e+00,0.000000000000000e+00
	-1.197002208429925e+00,8.529054579947144e-10
	1.000000000000000e+00,0.000000000000000e+00
	0.000000000000000e+00,0.000000000000000e+00
	1.197002208429925e-04,-8.529054579947148e-14
	1.014595562986337e-22,3.950131246960195e-13
	1.197059812385604e-12,8.524683335053354e-15
	-1.197002220400523e-04,-3.182472622316014e-13
	-1.197002208429925e-04,8.529054579947144e-14
	-1.014595562986337e-22,-3.950131246960195e-13
	-1.197002208429925e-04,8.529054579947144e-14
13		1.348962882591653e+00,0.000000000000000e+00
	-1.197002208429925e+00,8.727721782439986e-10
	1.000000000000000e+00,0.000000000000000e+00
	0.000000000000000e+00,0.000000000000000e+00
	1.197002208429925e-04,-8.727721782439981e-14
	1.062411978728769e-22,4.042141623603604e-13
	1.197059812385604e-12,8.723248718172716e-15
	-1.197002220400523e-04,-3.256601932541334e-13
	-1.197002208429925e-04,8.727721782439987e-14
	-1.062411978728769e-22,-4.042141623603604e-13
	-1.197002208429925e-04,8.727721782439987e-14
14		1.380384264602885e+00,0.000000000000000e+00
	-1.197002208429925e+00,8.931016538546930e-10
	1.000000000000000e+00,0.000000000000000e+00
	0.000000000000000e+00,0.000000000000000e+00
	1.197002208429925e-04,-8.931016538546921e-14
	1.112481912718139e-22,4.136295197239919e-13
	1.197059812385604e-12,8.926439283228085e-15
	-1.197002220400523e-04,-3.332457936217508e-13
	-1.197002208429925e-04,8.931016538546931e-14
	-1.112481912718139e-22,-4.136295197239919e-13
	-1.197002208429925e-04,8.931016538546931e-14
15		1.412537544622754e+00,0.000000000000000e+00
	-1.197002208429925e+00,9.139046637838590e-10
	1.000000000000000e+00,0.000000000000000e+00
	0.000000000000000e+00,0.000000000000000e+00
	1.197002208429925e-04,-9.139046637838589e-14
	1.164911569997432e-22,4.232641889340148e-13
	1.197059812385604e-12,9.134362764547068e-15
	-1.197002220400523e-04,-3.410080853201760e-13
	-1.197002208429925e-04,9.139046637838591e-14
	-1.164911569997432e-22,-4.232641889340148e-13
	-1.197002208429925e-04,9.139046637838591e-14
16		1.445439770745927e+00,0.000000000000000e+00
	-1.197002208429925e+00,9.351922380627213e-10
	1.000000000000000e+00,0.000000000000000e+00
	0.000000000000000e+00,0.000000000000000e+00
	1.197002208429925e-04,-9.351922380627215e-14
	1.219812160899104e-22,4.331232784195744e-13
	1.197059812385604e-12,9.347129405911205e-15
	-1.197002220400523e-04,-3.489511840192135e-13
	-1.197002208429925e-04,9.351922380627213e-14
	-1.219812160899104e-22,-4.331232784195744e-13
	-1.197002208429925e-04,9.351922380627213e-14
17		1.479108388168207e+00,0.000000000000000e+00
	-1.197002208429925e+00,9.569756636449375e-10
	1.000000000000000e+00,0.000000000000000e+00
	0.000000000000000e+00,0.000000000000000e+00
	1.197002208429925e-04,-9.569756636449371e-14
	1.277300136937109e-22,4.432120156004165e-13
	1.197059812385604e-12,9.564852019010282e-15
	-1.197002220400523e-04,-3.570793012549330e-13
	-1.197002208429925e-04,9.569756636449376e-14
	-1.277300136937109e-22,-4.432120156004165e-13
	-1.197002208429925e-04,9.569756636449376e-14
18		1.513561248436208e+00,0.000000000000000e+00
	-1.197002208429925e+00,9.792664903910887e-10
	1.000000000000000e+00,0.000000000000000e+00
	0.000000000000000e+00,0.000000000000000e+00
	1.197002208429925e-04,-9.792664903910885e-14
	1.337497437816170e-22,4.535357496585344e-13
	1.197059812385604e-12,9.787646043255714e-15
	-1.197002220400523e-04,-3.653967466626813e-13
	-1.197002208429925e-04,9.792664903910887e-14
	-1.337497437816170e-22,-4.535357496585344e-13
	-1.197002208429925e-04,9.792664903910887e-14
19		1.548816618912481e+00,0.000000000000000e+00
	-1.197002208429925e+00,1.002076537192569e-09
	1.000000000000000e+00,0.000000000000000e+00
	0.000000000000000e+00,0.000000000000000e+00
	1.197002208429925e-04,-1.002076537192569e-13
	1.400531750082244e-22,4.640999543743767e-13
	1.197059812385604e-12,1.001562960698792e-14
	-1.197002220400523e-04,-3.739079302621077e-13
	-1.197002208429925e-04,1.002076537192569e-13
	-1.400531750082244e-22,-4.640999543743767e-13
	-1.197002208429925e-04,1.002076537192569e-13
20		1.584893192461113e+00,0.000000000000000e+00
	-1.197002208429925e+00,1.025417898238121e-09
	1.000000000000000e+00,0.000000000000000e+00
	0.000000000000000e+00,0.000000000000000e+00
	1.197002208429925e-04,-1.025417898238121e-13
	1.466536777962806e-22,4.749102310291174e-13
	1.197059812385604e-12,1.024892359011050e-14
	-1.197002220400523e-04,-3.826173647954158e-13
	-1.197002208429925e-04,1.025417898238121e-13
	-1.466536777962806e-22,-4.749102310291174e-13
	-1.197002208429925e-04,1.025417898238121e-13
21		1.621810097358929e+00,0.000000000000000e+00
	-1.197002208429925e+00,1.049302949426328e-09
	1.000000000000000e+00,0.000000000000000e+00
	0.000000000000000e+00,0.000000000000000e+00
	1.197002208429925e-04,-1.049302949426328e-13
	1.535652526971437e-22,4.859723113745298e-13
	1.197059812385604e-12,1.048765168818091e-14
	-1.197002220400523e-04,-3.915296681200779e-13
	-1.197002208429925e-04,1.049302949426328e-13
	-1.535652526971437e-22,-4.859723113745298e-13
	-1.197002208429925e-04,1.049302949426328e-13
22		1.659586907437560e+00,0.000000000000000e+00
	-1.197002208429925e+00,1.073744354927489e-09
	1.000000000000000e+00,0.000000000000000e+00
	0.000000000000000e+00,0.000000000000000e+00
	1.197002208429925e-04,-1.073744354927488e-13
	1.608025600878296e-22,4.972920606720369e-13
	1.197059812385604e-12,1.073194047799697e-14
	-1.197002220400523e-04,-4.006495656572852e-13
	-1.197002208429925e-04,1.073744354927489e-13
	-1.608025600878296e-22,-4.972920606720369e-13
	-1.197002208429925e-04,1.073744354927489e-13
23		1.698243652461743e+00,0.000000000000000e+00
	-1.197002208429925e+00,1.098755073898318e-09
	1.000000000000000e+00,0.000000000000000e+00
	0.000000000000000e+00,0.000000000000000e+00
	1.197002208429925e-04,-1.098755073898317e-13
	1.683809512676366e-22,5.088754808025510e-13
	1.197059812385604e-12,1.098191948470851e-14
	-1.197002220400523e-04,-4.099818928974278e-13
	-1.197002208429925e-04,1.098755073898318e-13
	-1.683809512676366e-22,-5.088754808025510e-13
	-1.197002208429925e-04,1.098755073898318e-13
24		1.737800828749374e+00,0.000000000000000e+00
	-1.197002208429925e+00,1.124348367353071e-09
	1.000000000000000e+00,0.000000000000000e+00
	0.000000000000000e+00,0.000000000000000e+00
	1.197002208429925e-04,-1.124348367353070e-13
	1.763165010203095e-22,5.207287134487498e-13
	1.197059812385604e-12,1.123772125049369e-14
	-1.197002220400523e-04,-4.195315979639365e-13
	-1.197002208429925e-04,1.124348367353071e-13
	-1.763165010203095e-22,-5.207287134487498e-13
	-1.197002208429925e-04,1.124348367353071e-13
25		1.778279410038922e+00,0.000000000000000e+00
	-1.197002208429925e+00,1.150537805194704e-09
	1.000000000000000e+00,0.000000000000000e+00
	0.000000000000000e+00,0.000000000000000e+00
	1.197002208429925e-04,-1.150537805194704e-13
	1.846260417108117e-22,5.328580433514786e-13
	1.197059812385604e-12,1.149948140483470e-14
	-1.197002220400523e-04,-4.293037442368429e-13
	-1.197002208429925e-04,1.150537805194704e-13
	-1.846260417108117e-22,-5.328580433514786e-13
	-1.197002208429925e-04,1.150537805194704e-13
26		1.819700858609982e+00,0.000000000000000e+00
	-1.197002208429925e+00,1.177337273409820e-09
	1.000000000000000e+00,0.000000000000000e+00
	0.000000000000000e+00,0.000000000000000e+00
	1.197002208429925e-04,-1.177337273409819e-13
	1.933271989890269e-22,5.452699016420023e-13
	1.197059812385604e-12,1.176733873643013e-14
	-1.197002220400523e-04,-4.393035130374505e-13
	-1.197002208429925e-04,1.177337273409820e-13
	-1.933271989890269e-22,-5.452699016420023e-13
	-1.197002208429925e-04,1.177337273409820e-13
27		1.862087136662866e+00,0.000000000000000e+00
	-1.197002208429925e+00,1.204760981431199e-09
	1.000000000000000e+00,0.000000000000000e+00
	0.000000000000000e+00,0.000000000000000e+00
	1.197002208429925e-04,-1.204760981431199e-13
	2.024384291761271e-22,5.579708692518770e-13
	1.197059812385604e-12,1.204143526678278e-14
	-1.197002220400523e-04,-4.495362063755399e-13
	-1.197002208429925e-04,1.204760981431199e-13
	-2.024384291761271e-22,-5.579708692518770e-13
	-1.197002208429925e-04,1.204760981431199e-13
28		1.905460717963246e+00,0.000000000000000e+00
	-1.197002208429925e+00,1.232823469671830e-09
	1.000000000000000e+00,0.000000000000000e+00
	0.000000000000000e+00,0.000000000000000e+00
	1.197002208429925e-04,-1.232823469671830e-13
	2.119790584129028e-22,5.709676804022466e-13
	1.197059812385604e-12,1.232191632550120e-14
	-1.197002220400523e-04,-4.600072497605648e-13
	-1.197002208429925e-04,1.232823469671830e-13
	-2.119790584129028e-22,-5.709676804022466e-13
	-1.197002208429925e-04,1.232823469671830e-13
29		1.949844599758044e+00,0.000000000000000e+00
	-1.197002208429925e+00,1.261539617234428e-09
	1.000000000000000e+00,0.000000000000000e+00
	0.000000000000000e+00,0.000000000000000e+00
	1.197002208429925e-04,-1.261539617234428e-13
	2.219693236530998e-22,5.842672261744162e-13
	1.197059812385604e-12,1.260893062735532e-14
	-1.197002220400523e-04,-4.707221950783288e-13
	-1.197002208429925e-04,1.261539617234429e-13
	-2.219693236530998e-22,-5.842672261744162e-13
	-1.197002208429925e-04,1.261539617234429e-13
30		1.995262314968878e+00,0.000000000000000e+00
	-1.197002208429925e+00,1.290924649800535e-09
	1.000000000000000e+00,0.000000000000000e+00
	0.000000000000000e+00,0.000000000000000e+00
	1.197002208429925e-04,-1.290924649800535e-13
	2.324304155887105e-22,5.978765581635945e-13
	1.197059812385604e-12,1.290263035112683e-14
	-1.197002220400523e-04,-4.816867235346678e-13
	-1.197002208429925e-04,1.290924649800535e-13
	-2.324304155887105e-22,-5.978765581635945e-13
	-1.197002208429925e-04,1.290924649800535e-13
31		2.041737944669527e+00,0.000000000000000e+00
	-1.197002208429925e+00,1.320994147703374e-09
	1.000000000000000e+00,0.000000000000000e+00
	0.000000000000000e+00,0.000000000000000e+00
	1.197002208429925e-04,-1.320994147703374e-13
	2.433845235982735e-22,6.118028922177429e-13
	1.197059812385604e-12,1.320317122029699e-14
	-1.197002220400523e-04,-4.929066486677025e-13
	-1.197002208429925e-04,1.320994147703374e-13
	-2.433845235982735e-22,-6.118028922177429e-13
	-1.197002208429925e-04,1.320994147703374e-13
32		2.089296130854037e+00,0.000000000000000e+00
	-1.197002208429925e+00,1.351764054188750e-09
	1.000000000000000e+00,0.000000000000000e+00
	0.000000000000000e+00,0.000000000000000e+00
	1.197002208429925e-04,-1.351764054188749e-13
	2.548548828135201e-22,6.260536122635138e-13
	1.197059812385604e-12,1.351071258561281e-14
	-1.197002220400523e-04,-5.043879194302517e-13
	-1.197002208429925e-04,1.351764054188750e-13
	-2.548548828135201e-22,-6.260536122635138e-13
	-1.197002208429925e-04,1.351764054188750e-13
33		2.137962089502230e+00,0.000000000000000e+00
	-1.197002208429925e+00,1.383250683868370e-09
	1.000000000000000e+00,0.000000000000000e+00
	0.000000000000000e+00,0.000000000000000e+00
	1.197002208429925e-04,-1.383250683868369e-13
	2.668658234042034e-22,6.406362742213060e-13
	1.197059812385604e-12,1.382541750957702e-14
	-1.197002220400523e-04,-5.161366233440461e-13
	-1.197002208429925e-04,1.383250683868370e-13
	-2.668658234042034e-22,-6.406362742213060e-13
	-1.197002208429925e-04,1.383250683868370e-13
34		2.187761623949550e+00,0.000000000000000e+00
	-1.197002208429925e+00,1.415470731370063e-09
	1.000000000000000e+00,0.000000000000000e+00
	0.000000000000000e+00,0.000000000000000e+00
	1.197002208429925e-04,-1.415470731370063e-13
	2.794428221856512e-22,6.555586100115141e-13
	1.197059812385604e-12,1.414745285290573e-14
	-1.197002220400523e-04,-5.281589897274135e-13
	-1.197002208429925e-04,1.415470731370063e-13
	-2.794428221856512e-22,-6.555586100115141e-13
	-1.197002208429925e-04,1.415470731370063e-13
35		2.238721138568337e+00,0.000000000000000e+00
	-1.197002208429925e+00,1.448441280189500e-09
	1.000000000000000e+00,0.000000000000000e+00
	0.000000000000000e+00,0.000000000000000e+00
	1.197002208429925e-04,-1.448441280189500e-13
	2.926125566585067e-22,6.708285316540941e-13
	1.197059812385604e-12,1.447698936300091e-14
	-1.197002220400523e-04,-5.404613929981450e-13
	-1.197002208429925e-04,1.448441280189500e-13
	-2.926125566585067e-22,-6.708285316540941e-13
	-1.197002208429925e-04,1.448441280189500e-13
36		2.290867652767770e+00,0.000000000000000e+00
	-1.197002208429925e+00,1.482179811748079e-09
	1.000000000000000e+00,0.000000000000000e+00
	0.000000000000000e+00,0.000000000000000e+00
	1.197002208429925e-04,-1.482179811748079e-13
	3.064029615952837e-22,6.864541354636225e-13
	1.197059812385604e-12,1.481420176448178e-14
	-1.197002220400523e-04,-5.530503560532964e-13
	-1.197002208429925e-04,1.482179811748079e-13
	-3.064029615952837e-22,-6.864541354636225e-13
	-1.197002208429925e-04,1.482179811748079e-13
37		2.344228815319919e+00,0.000000000000000e+00
	-1.197002208429925e+00,1.516704214661817e-09
	1.000000000000000e+00,0.000000000000000e+00
	0.000000000000000e+00,0.000000000000000e+00
	1.197002208429925e-04,-1.516704214661817e-13
	3.208432882937648e-22,7.024437063420684e-13
	1.197059812385604e-12,1.515926885182747e-14
	-1.197002220400523e-04,-5.659325537277141e-13
	-1.197002208429925e-04,1.516704214661817e-13
	-3.208432882937648e-22,-7.024437063420684e-13
	-1.197002208429925e-04,1.516704214661817e-13
38		2.398832919019488e+00,0.000000000000000e+00
	-1.197002208429925e+00,1.552032794226122e-09
	1.000000000000000e+00,0.000000000000000e+00
	0.000000000000000e+00,0.000000000000000e+00
