LTspice 24.0.9 for Windows
Circuit: * GA CMOS Amp | W=1.1420206246436202e-05 L=7.487064317245384e-07 Vbias=1.026809466867019
Start Time: Sat Sep  6 22:07:35 2025
solver = Normal
Maximum thread count: 2
tnom = 27
temp = 27
method = modified trap
AsciiRawFile = 1
Direct Newton iteration for .op point succeeded.
Semiconductor Device Operating Points:
                        --- BSIM4 MOSFETS ---
Name:      m1
Model:      n
Id:      1.68e-04
Vgs:     1.03e+00
Vds:     1.23e-01
Vbs:     0.00e+00
Vth:     2.41e-01
Vdsat:   5.62e-01
Gm:      2.70e-05
Gds:     1.19e-03
Gmb      1.14e-04
Cbd:     5.50e-15
Cbs:     9.14e-15


.measure op idd find i(vdd)
  Error: FIND can not be evaluated over an interval.

gain_db: MAX(db(v(out)/v(g)))=(32.8272dB,141.452°) FROM 1 TO 1e+09
gain_lin: MAX(mag(v(out)/v(g)))=(-4.26438dB,0°) FROM 1 TO 1e+09

Measurement "fc" FAIL'ed

Total elapsed time: 11.362 seconds.

