Title: * GA CMOS Amp | W=4.90954619751816e-05 L=9.367948372454444e-07 Vbias=0.8833230674733304
Date: Mon Sep  8 18:43:05 2025
Plotname: AC Analysis
Flags: complex forward log
No. Variables: 11
No. Points:          901
Offset:    0.0000000000000000e+00
Command: Linear Technology Corporation LTspice
Variables:
	0	frequency	frequency
	1	V(out)	voltage
	2	V(g)	voltage
	3	V(vdd)	voltage
	4	Id(M1)	device_current
	5	Ig(M1)	device_current
	6	Ib(M1)	device_current
	7	Is(M1)	device_current
	8	I(Rload)	device_current
	9	I(Vg)	device_current
	10	I(Vdd)	device_current
Values:
0		1.000000000000000e+00,0.000000000000000e+00
	-8.167664230848155e+00,5.256391792563564e-09
	1.000000000000000e+00,0.000000000000000e+00
	0.000000000000000e+00,0.000000000000000e+00
	8.167664230848157e-04,-5.256391792563563e-13
	3.242940223722181e-22,8.996502007990969e-13
	8.167664136173036e-12,-1.074022742704944e-14
	-8.167664312524798e-04,-3.632707941156911e-13
	-8.167664230848156e-04,5.256391792563564e-13
	-3.242940223722181e-22,-8.996502007990969e-13
	-8.167664230848156e-04,5.256391792563564e-13
1		1.023292992280754e+00,0.000000000000000e+00
	-8.167664230848155e+00,5.378828886012367e-09
	1.000000000000000e+00,0.000000000000000e+00
	0.000000000000000e+00,0.000000000000000e+00
	8.167664230848157e-04,-5.378828886012367e-13
	3.395775287882067e-22,9.206057459816893e-13
	8.167664136173036e-12,-1.099039946160131e-14
	-8.167664312524798e-04,-3.717324579188513e-13
	-8.167664230848156e-04,5.378828886012367e-13
	-3.395775287882067e-22,-9.206057459816893e-13
	-8.167664230848156e-04,5.378828886012367e-13
2		1.047128548050899e+00,0.000000000000000e+00
	-8.167664230848155e+00,5.504117905733749e-09
	1.000000000000000e+00,0.000000000000000e+00
	0.000000000000000e+00,0.000000000000000e+00
	8.167664230848157e-04,-5.504117905733750e-13
	3.555813246707074e-22,9.420494085164586e-13
	8.167664136173036e-12,-1.124639875142279e-14
	-8.167664312524798e-04,-3.803912191916608e-13
	-8.167664230848156e-04,5.504117905733749e-13
	-3.555813246707074e-22,-9.420494085164586e-13
	-8.167664230848156e-04,5.504117905733749e-13
3		1.071519305237606e+00,0.000000000000000e+00
	-8.167664230848155e+00,5.632325281624366e-09
	1.000000000000000e+00,0.000000000000000e+00
	0.000000000000000e+00,0.000000000000000e+00
	8.167664230848157e-04,-5.632325281624365e-13
	3.723393562164533e-22,9.639925581171212e-13
	8.167664136173036e-12,-1.150836103072587e-14
	-8.167664312524798e-04,-3.892516689239588e-13
	-8.167664230848156e-04,5.632325281624366e-13
	-3.723393562164533e-22,-9.639925581171212e-13
	-8.167664230848156e-04,5.632325281624366e-13
4		1.096478196143185e+00,0.000000000000000e+00
	-8.167664230848155e+00,5.763518990931937e-09
	1.000000000000000e+00,0.000000000000000e+00
	0.000000000000000e+00,0.000000000000000e+00
	8.167664230848157e-04,-5.763518990931937e-13
	3.898871694571413e-22,9.864468293320475e-13
	8.167664136173036e-12,-1.177642519537864e-14
	-8.167664312524798e-04,-3.983185050434752e-13
	-8.167664230848156e-04,5.763518990931938e-13
	-3.898871694571413e-22,-9.864468293320475e-13
	-8.167664230848156e-04,5.763518990931938e-13
5		1.122018454301963e+00,0.000000000000000e+00
	-8.167664230848155e+00,5.897768594297695e-09
	1.000000000000000e+00,0.000000000000000e+00
	0.000000000000000e+00,0.000000000000000e+00
	8.167664230848157e-04,-5.897768594297696e-13
	4.082619856573314e-22,1.009424127713054e-12
	8.167664136173036e-12,-1.205073337654954e-14
	-8.167664312524798e-04,-4.075965349067344e-13
	-8.167664230848156e-04,5.897768594297695e-13
	-4.082619856573314e-22,-1.009424127713054e-12
	-8.167664230848156e-04,5.897768594297695e-13
6		1.148153621496882e+00,0.000000000000000e+00
	-8.167664230848155e+00,6.035145272638346e-09
	1.000000000000000e+00,0.000000000000000e+00
	0.000000000000000e+00,0.000000000000000e+00
	8.167664230848157e-04,-6.035145272638346e-13
	4.275027802657387e-22,1.032936636127881e-12
	8.167664136173036e-12,-1.233143101606705e-14
	-8.167664312524798e-04,-4.170906778479791e-13
	-8.167664230848156e-04,6.035145272638346e-13
	-4.275027802657387e-22,-1.032936636127881e-12
	-8.167664230848156e-04,6.035145272638346e-13
7		1.174897554939529e+00,0.000000000000000e+00
	-8.167664230848155e+00,6.175721864887140e-09
	1.000000000000000e+00,0.000000000000000e+00
	0.000000000000000e+00,0.000000000000000e+00
	8.167664230848157e-04,-6.175721864887141e-13
	4.476503655873856e-22,1.056996821219715e-12
	8.167664136173036e-12,-1.261866694353472e-14
	-8.167664312524798e-04,-4.268059677874666e-13
	-8.167664230848156e-04,6.175721864887141e-13
	-4.476503655873856e-22,-1.056996821219715e-12
	-8.167664230848156e-04,6.175721864887141e-13
8		1.202264434617413e+00,0.000000000000000e+00
	-8.167664230848155e+00,6.319572906614041e-09
	1.000000000000000e+00,0.000000000000000e+00
	0.000000000000000e+00,0.000000000000000e+00
	8.167664230848157e-04,-6.319572906614041e-13
	4.687474773519735e-22,1.081617440017168e-12
	8.167664136173036e-12,-1.291259345524388e-14
	-8.167664312524798e-04,-4.367475559005199e-13
	-8.167664230848156e-04,6.319572906614041e-13
	-4.687474773519735e-22,-1.081617440017168e-12
	-8.167664230848156e-04,6.319572906614041e-13
9		1.230268770812381e+00,0.000000000000000e+00
	-8.167664230848155e+00,6.466774669545464e-09
	1.000000000000000e+00,0.000000000000000e+00
	0.000000000000000e+00,0.000000000000000e+00
	8.167664230848157e-04,-6.466774669545465e-13
	4.908388653620938e-22,1.106811546698217e-12
	8.167664136173036e-12,-1.321336639492150e-14
	-8.167664312524798e-04,-4.469207133487488e-13
	-8.167664230848156e-04,6.466774669545464e-13
	-4.908388653620938e-22,-1.106811546698217e-12
	-8.167664230848156e-04,6.466774669545464e-13
10		1.258925411794167e+00,0.000000000000000e+00
	-8.167664230848155e+00,6.617405202004562e-09
	1.000000000000000e+00,0.000000000000000e+00
	0.000000000000000e+00,0.000000000000000e+00
	8.167664230848157e-04,-6.617405202004564e-13
	5.139713884135602e-22,1.132592499511708e-12
	8.167664136173036e-12,-1.352114523636115e-14
	-8.167664312524798e-04,-4.573308340748904e-13
	-8.167664230848156e-04,6.617405202004562e-13
	-5.139713884135602e-22,-1.132592499511708e-12
	-8.167664230848156e-04,6.617405202004562e-13
11		1.288249551693134e+00,0.000000000000000e+00
	-8.167664230848155e+00,6.771544370293479e-09
	1.000000000000000e+00,0.000000000000000e+00
	0.000000000000000e+00,0.000000000000000e+00
	8.167664230848157e-04,-6.771544370293479e-13
	5.381941136891964e-22,1.158973967860074e-12
	8.167664136173036e-12,-1.383609316797871e-14
	-8.167664312524798e-04,-4.679834376627477e-13
	-8.167664230848156e-04,6.771544370293479e-13
	-5.381941136891964e-22,-1.158973967860074e-12
	-8.167664230848156e-04,6.771544370293479e-13
12		1.318256738556407e+00,0.000000000000000e+00
	-8.167664230848155e+00,6.929273901039508e-09
	1.000000000000000e+00,0.000000000000000e+00
	0.000000000000000e+00,0.000000000000000e+00
	8.167664230848157e-04,-6.929273901039509e-13
	5.635584208369089e-22,1.185969939547034e-12
	8.167664136173036e-12,-1.415837717933615e-14
	-8.167664312524798e-04,-4.788841722637469e-13
	-8.167664230848156e-04,6.929273901039508e-13
	-5.635584208369089e-22,-1.185969939547034e-12
	-8.167664230848156e-04,6.929273901039508e-13
13		1.348962882591653e+00,0.000000000000000e+00
	-8.167664230848155e+00,7.090677424527654e-09
	1.000000000000000e+00,0.000000000000000e+00
	0.000000000000000e+00,0.000000000000000e+00
	8.167664230848157e-04,-7.090677424527654e-13
	5.901181109528105e-22,1.213594728194110e-12
	8.167664136173036e-12,-1.448816814968258e-14
	-8.167664312524798e-04,-4.900388175916617e-13
	-8.167664230848156e-04,7.090677424527655e-13
	-5.901181109528105e-22,-1.213594728194110e-12
	-8.167664230848156e-04,7.090677424527655e-13
14		1.380384264602885e+00,0.000000000000000e+00
	-8.167664230848155e+00,7.255840519042494e-09
	1.000000000000000e+00,0.000000000000000e+00
	0.000000000000000e+00,0.000000000000000e+00
	8.167664230848157e-04,-7.255840519042495e-13
	6.179295207005561e-22,1.241862980829899e-12
	8.167664136173036e-12,-1.482564093855523e-14
	-8.167664312524798e-04,-5.014532879870942e-13
	-8.167664230848156e-04,7.255840519042495e-13
	-6.179295207005561e-22,-1.241862980829899e-12
	-8.167664230848156e-04,7.255840519042495e-13
15		1.412537544622754e+00,0.000000000000000e+00
	-8.167664230848155e+00,7.424850756242934e-09
	1.000000000000000e+00,0.000000000000000e+00
	0.000000000000000e+00,0.000000000000000e+00
	8.167664230848157e-04,-7.424850756242934e-13
	6.470516418089616e-22,1.270789685656124e-12
	8.167664136173036e-12,-1.517097447849421e-14
	-8.167664312524798e-04,-5.131336355533364e-13
	-8.167664230848156e-04,7.424850756242934e-13
	-6.470516418089616e-22,-1.270789685656124e-12
	-8.167664230848156e-04,7.424850756242934e-13
16		1.445439770745927e+00,0.000000000000000e+00
	-8.167664230848155e+00,7.597797747593851e-09
	1.000000000000000e+00,0.000000000000000e+00
	0.000000000000000e+00,0.000000000000000e+00
	8.167664230848157e-04,-7.597797747593850e-13
	6.775462462013684e-22,1.300390179994574e-12
	8.167664136173036e-12,-1.552435186991347e-14
	-8.167664312524798e-04,-5.250860533652753e-13
	-8.167664230848156e-04,7.597797747593851e-13
	-6.775462462013684e-22,-1.300390179994574e-12
	-8.167664230848156e-04,7.597797747593851e-13
17		1.479108388168207e+00,0.000000000000000e+00
	-8.167664230848155e+00,7.774773191879284e-09
	1.000000000000000e+00,0.000000000000000e+00
	0.000000000000000e+00,0.000000000000000e+00
	8.167664230848157e-04,-7.774773191879285e-13
	7.094780170221760e-22,1.330680158419156e-12
	8.167664136173036e-12,-1.588596047818291e-14
	-8.167664312524798e-04,-5.373168787530443e-13
	-8.167664230848156e-04,7.774773191879284e-13
	-7.094780170221760e-22,-1.330680158419156e-12
	-8.167664230848156e-04,7.774773191879284e-13
18		1.513561248436208e+00,0.000000000000000e+00
	-8.167664230848155e+00,7.955870923822342e-09
	1.000000000000000e+00,0.000000000000000e+00
	0.000000000000000e+00,0.000000000000000e+00
	8.167664230848157e-04,-7.955870923822343e-13
	7.429146858384625e-22,1.361675681077366e-12
	8.167664136173036e-12,-1.625599203297357e-14
	-8.167664312524798e-04,-5.498325966621580e-13
	-8.167664230848156e-04,7.955870923822342e-13
	-7.429146858384625e-22,-1.361675681077366e-12
	-8.167664230848156e-04,7.955870923822342e-13
19		1.548816618912481e+00,0.000000000000000e+00
	-8.167664230848155e+00,8.141186963837612e-09
	1.000000000000000e+00,0.000000000000000e+00
	0.000000000000000e+00,0.000000000000000e+00
	8.167664230848157e-04,-8.141186963837613e-13
	7.779271763077194e-22,1.393393182205592e-12
	8.167664136173036e-12,-1.663464272991370e-14
	-8.167664312524798e-04,-5.626398430919166e-13
	-8.167664230848156e-04,8.141186963837613e-13
	-7.779271763077194e-22,-1.393393182205592e-12
	-8.167664230848156e-04,8.141186963837613e-13
20		1.584893192461113e+00,0.000000000000000e+00
	-8.167664230848155e+00,8.330819568942457e-09
	1.000000000000000e+00,0.000000000000000e+00
	0.000000000000000e+00,0.000000000000000e+00
	8.167664230848157e-04,-8.330819568942459e-13
	8.145897546164383e-22,1.425849478842762e-12
	8.167664136173036e-12,-1.702211333461461e-14
	-8.167664312524798e-04,-5.757454086139013e-13
	-8.167664230848156e-04,8.330819568942458e-13
	-8.145897546164383e-22,-1.425849478842762e-12
	-8.167664230848156e-04,8.330819568942458e-13
21		1.621810097358929e+00,0.000000000000000e+00
	-8.167664230848155e+00,8.524869284854191e-09
	1.000000000000000e+00,0.000000000000000e+00
	0.000000000000000e+00,0.000000000000000e+00
	8.167664230848157e-04,-8.524869284854191e-13
	8.529801870086496e-22,1.459061779746964e-12
	8.167664136173036e-12,-1.741860928912008e-14
	-8.167664312524798e-04,-5.891562419724244e-13
	-8.167664230848156e-04,8.524869284854191e-13
	-8.529801870086496e-22,-1.459061779746964e-12
	-8.167664230848156e-04,8.524869284854191e-13
22		1.659586907437560e+00,0.000000000000000e+00
	-8.167664230848155e+00,8.723438999300737e-09
	1.000000000000000e+00,0.000000000000000e+00
	0.000000000000000e+00,0.000000000000000e+00
	8.167664230848157e-04,-8.723438999300737e-13
	8.931799047385521e-22,1.493047694519753e-12
	8.167664136173036e-12,-1.782434082083309e-14
	-8.167664312524798e-04,-6.028794537688462e-13
	-8.167664230848156e-04,8.723438999300738e-13
	-8.931799047385521e-22,-1.493047694519753e-12
	-8.167664230848156e-04,8.723438999300738e-13
23		1.698243652461743e+00,0.000000000000000e+00
	-8.167664230848155e+00,8.926633996573080e-09
	1.000000000000000e+00,0.000000000000000e+00
	0.000000000000000e+00,0.000000000000000e+00
	8.167664230848157e-04,-8.926633996573080e-13
	9.352741767971210e-22,1.527825242943000e-12
	8.167664136173036e-12,-1.823952305398214e-14
	-8.167664312524798e-04,-6.169223202317094e-13
	-8.167664230848156e-04,8.926633996573081e-13
	-9.352741767971210e-22,-1.527825242943000e-12
	-8.167664230848156e-04,8.926633996573081e-13
24		1.737800828749374e+00,0.000000000000000e+00
	-8.167664230848155e+00,9.134562013348372e-09
	1.000000000000000e+00,0.000000000000000e+00
	0.000000000000000e+00,0.000000000000000e+00
	8.167664230848157e-04,-9.134562013348373e-13
	9.793522907790692e-22,1.563412864533212e-12
	8.167664136173036e-12,-1.866437612368300e-14
	-8.167664312524798e-04,-6.312922870746914e-13
	-8.167664230848156e-04,9.134562013348373e-13
	-9.793522907790692e-22,-1.563412864533212e-12
	-8.167664230848156e-04,9.134562013348373e-13
25		1.778279410038922e+00,0.000000000000000e+00
	-8.167664230848155e+00,9.347333295813364e-09
	1.000000000000000e+00,0.000000000000000e+00
	0.000000000000000e+00,0.000000000000000e+00
	8.167664230848157e-04,-9.347333295813365e-13
	1.025507742273809e-21,1.599829428318415e-12
	8.167664136173036e-12,-1.909912529265724e-14
	-8.167664312524798e-04,-6.459969734444218e-13
	-8.167664230848156e-04,9.347333295813365e-13
	-1.025507742273809e-21,-1.599829428318415e-12
	-8.167664230848156e-04,9.347333295813365e-13
26		1.819700858609982e+00,0.000000000000000e+00
	-8.167664230848155e+00,9.565060658118383e-09
	1.000000000000000e+00,0.000000000000000e+00
	0.000000000000000e+00,0.000000000000000e+00
	8.167664230848157e-04,-9.565060658118382e-13
	1.073838433182130e-21,1.637094242842759e-12
	8.167664136173036e-12,-1.954400107066820e-14
	-8.167664312524798e-04,-6.610441759602532e-13
	-8.167664230848156e-04,9.565060658118384e-13
	-1.073838433182130e-21,-1.637094242842759e-12
	-8.167664230848156e-04,9.565060658118384e-13
27		1.862087136662866e+00,0.000000000000000e+00
	-8.167664230848155e+00,9.787859542192876e-09
	1.000000000000000e+00,0.000000000000000e+00
	0.000000000000000e+00,0.000000000000000e+00
	8.167664230848157e-04,-9.787859542192876e-13
	1.124446879379256e-21,1.675227066404163e-12
	8.167664136173036e-12,-1.999923933674231e-14
	-8.167664312524798e-04,-6.764418728481328e-13
	-8.167664230848156e-04,9.787859542192878e-13
	-1.124446879379256e-21,-1.675227066404163e-12
	-8.167664230848156e-04,9.787859542192878e-13
28		1.905460717963246e+00,0.000000000000000e+00
	-8.167664230848155e+00,1.001584807895428e-08
	1.000000000000000e+00,0.000000000000000e+00
	0.000000000000000e+00,0.000000000000000e+00
	8.167664230848157e-04,-1.001584807895428e-12
	1.177440428164765e-21,1.714248117530425e-12
	8.167664136173036e-12,-2.046508146423433e-14
	-8.167664312524798e-04,-6.921982281707631e-13
	-8.167664230848156e-04,1.001584807895428e-12
	-1.177440428164765e-21,-1.714248117530425e-12
	-8.167664230848156e-04,1.001584807895428e-12
29		1.949844599758044e+00,0.000000000000000e+00
	-8.167664230848155e+00,1.024914715094257e-08
	1.000000000000000e+00,0.000000000000000e+00
	0.000000000000000e+00,0.000000000000000e+00
	8.167664230848157e-04,-1.024914715094257e-12
	1.232931485960600e-21,1.754178085699359e-12
	8.167664136173036e-12,-2.094177444880521e-14
	-8.167664312524798e-04,-7.083215961562965e-13
	-8.167664230848156e-04,1.024914715094257e-12
	-1.232931485960600e-21,-1.754178085699359e-12
	-8.167664230848156e-04,1.024914715094257e-12
30		1.995262314968878e+00,0.000000000000000e+00
	-8.167664230848155e+00,1.048788045641379e-08
	1.000000000000000e+00,0.000000000000000e+00
	0.000000000000000e+00,0.000000000000000e+00
	8.167664230848157e-04,-1.048788045641379e-12
	1.291037756740161e-21,1.795038142308622e-12
	8.167664136173036e-12,-2.142957103938673e-14
	-8.167664312524798e-04,-7.248205256278565e-13
	-8.167664230848156e-04,1.048788045641379e-12
	-1.291037756740161e-21,-1.795038142308622e-12
	-8.167664230848156e-04,1.048788045641379e-12
31		2.041737944669527e+00,0.000000000000000e+00
	-8.167664230848155e+00,1.073217457492650e-08
	1.000000000000000e+00,0.000000000000000e+00
	0.000000000000000e+00,0.000000000000000e+00
	8.167664230848157e-04,-1.073217457492651e-12
	1.351882491694215e-21,1.836849951901076e-12
	8.167664136173036e-12,-2.192872987218707e-14
	-8.167664312524798e-04,-7.417037645362382e-13
	-8.167664230848156e-04,1.073217457492650e-12
	-1.351882491694215e-21,-1.836849951901076e-12
	-8.167664230848156e-04,1.073217457492650e-12
32		2.089296130854037e+00,0.000000000000000e+00
	-8.167664230848155e+00,1.098215903445597e-08
	1.000000000000000e+00,0.000000000000000e+00
	0.000000000000000e+00,0.000000000000000e+00
	8.167664230848157e-04,-1.098215903445597e-12
	1.415594750663196e-21,1.879635683651611e-12
	8.167664136173036e-12,-2.243951560782659e-14
	-8.167664312524798e-04,-7.589802645981871e-13
	-8.167664230848156e-04,1.098215903445597e-12
	-1.415594750663196e-21,-1.879635683651611e-12
	-8.167664230848156e-04,1.098215903445597e-12
33		2.137962089502230e+00,0.000000000000000e+00
	-8.167664230848155e+00,1.123796638007157e-08
	1.000000000000000e+00,0.000000000000000e+00
	0.000000000000000e+00,0.000000000000000e+00
	8.167664230848157e-04,-1.123796638007157e-12
	1.482309675890427e-21,1.923418023121538e-12
	8.167664136173036e-12,-2.296219907166343e-14
	-8.167664312524798e-04,-7.766591860427174e-13
	-8.167664230848156e-04,1.123796638007157e-12
	-1.482309675890427e-21,-1.923418023121538e-12
	-8.167664230848156e-04,1.123796638007157e-12
34		2.187761623949550e+00,0.000000000000000e+00
	-8.167664230848155e+00,1.149973224421395e-08
	1.000000000000000e+00,0.000000000000000e+00
	0.000000000000000e+00,0.000000000000000e+00
	8.167664230848157e-04,-1.149973224421395e-12
	1.552168778676942e-21,1.968220184286771e-12
	8.167664136173036e-12,-2.349705739738914e-14
	-8.167664312524798e-04,-7.947499024679871e-13
	-8.167664230848156e-04,1.149973224421395e-12
	-1.552168778676942e-21,-1.968220184286771e-12
	-8.167664230848156e-04,1.149973224421395e-12
35		2.238721138568337e+00,0.000000000000000e+00
	-8.167664230848155e+00,1.176759541860916e-08
	1.000000000000000e+00,0.000000000000000e+00
	0.000000000000000e+00,0.000000000000000e+00
	8.167664230848157e-04,-1.176759541860917e-12
	1.625320239545924e-21,2.014065921846188e-12
	8.167664136173036e-12,-2.404437417396672e-14
	-8.167664312524798e-04,-8.132620058113040e-13
	-8.167664230848156e-04,1.176759541860917e-12
	-1.625320239545924e-21,-2.014065921846188e-12
	-8.167664230848156e-04,1.176759541860917e-12
36		2.290867652767770e+00,0.000000000000000e+00
	-8.167664230848155e+00,1.204169792785787e-08
	1.000000000000000e+00,0.000000000000000e+00
	0.000000000000000e+00,0.000000000000000e+00
	8.167664230848157e-04,-1.204169792785787e-12
	1.701919222553464e-21,2.060979543816680e-12
	8.167664136173036e-12,-2.460443959599636e-14
	-8.167664312524798e-04,-8.322053114348974e-13
	-8.167664230848156e-04,1.204169792785787e-12
	-1.701919222553464e-21,-2.060979543816680e-12
	-8.167664230848156e-04,1.204169792785787e-12
37		2.344228815319919e+00,0.000000000000000e+00
	-8.167664230848155e+00,1.232218510473863e-08
	1.000000000000000e+00,0.000000000000000e+00
	0.000000000000000e+00,0.000000000000000e+00
	8.167664230848157e-04,-1.232218510473863e-12
	1.782128204412324e-21,2.108985924421595e-12
	8.167664136173036e-12,-2.517755061757868e-14
	-8.167664312524798e-04,-8.515898633301529e-13
	-8.167664230848156e-04,1.232218510473863e-12
	-1.782128204412324e-21,-2.108985924421595e-12
	-8.167664230848156e-04,1.232218510473863e-12
38		2.398832919019488e+00,0.000000000000000e+00
	-8.167664230848155e+00,1.260920566726533e-08
	1.000000000000000e+00,0.000000000000000e+00
