Title: * GA CMOS Amp | W=1.8056602890479793e-05 L=9.082689514684641e-07 Vbias=1.4236177854222876
Date: Sat Sep  6 22:12:53 2025
Plotname: AC Analysis
Flags: complex forward log
No. Variables: 13
No. Points:          901
Offset:    0.0000000000000000e+00
Command: Linear Technology Corporation LTspice
Variables:
	0	frequency	frequency
	1	V(out)	voltage
	2	V(g)	voltage
	3	V(vdd)	voltage
	4	V(m1#dbody)	voltage
	5	V(m1#sbody)	voltage
	6	Id(M1)	device_current
	7	Ig(M1)	device_current
	8	Ib(M1)	device_current
	9	Is(M1)	device_current
	10	I(Rload)	device_current
	11	I(Vg)	device_current
	12	I(Vdd)	device_current
Values:
0		1.000000000000000e+00,0.000000000000000e+00
	2.296622087948043e-02,1.147288345855543e-09
	1.000000000000000e+00,0.000000000000000e+00
	0.000000000000000e+00,0.000000000000000e+00
	3.519941289390419e-04,1.337326218560685e-13
	3.519941287650106e-04,1.241594433471556e-13
	-2.296622087948049e-06,-1.147288345855543e-13
	2.258231441951408e-04,4.247287203064019e-12
	-1.877302021615426e-04,-6.695242657433078e-14
	-3.579631994565010e-05,-4.065605941904133e-12
	2.296622087948043e-06,1.147288345855543e-13
	-2.258231441951697e-04,-4.247287203064018e-12
	2.296622087948043e-06,1.147288345855543e-13
1		1.023292992280754e+00,0.000000000000000e+00
	2.296622087948043e-02,1.174012124439355e-09
	1.000000000000000e+00,0.000000000000000e+00
	0.000000000000000e+00,0.000000000000000e+00
	3.519941289390419e-04,1.368476547846469e-13
	3.519941287650106e-04,1.270514883026236e-13
	-2.296622087948049e-06,-1.174012124439357e-13
	2.258231441951408e-04,4.346219231099134e-12
	-1.877302021615426e-04,-6.851194892970443e-14
	-3.579631994565010e-05,-4.160306069725494e-12
	2.296622087948043e-06,1.174012124439355e-13
	-2.258231441951697e-04,-4.346219231099135e-12
	2.296622087948043e-06,1.174012124439355e-13
2		1.047128548050899e+00,0.000000000000000e+00
	2.296622087948043e-02,1.201358379791433e-09
	1.000000000000000e+00,0.000000000000000e+00
	0.000000000000000e+00,0.000000000000000e+00
	3.519941289390419e-04,1.400352461511850e-13
	3.519941287650106e-04,1.300108976389150e-13
	-2.296622087948042e-06,-1.201358379791427e-13
	2.258231441951408e-04,4.447455682099590e-12
	-1.877302021615426e-04,-7.010779722726346e-14
	-3.579631994565011e-05,-4.257212046893184e-12
	2.296622087948043e-06,1.201358379791433e-13
	-2.258231441951697e-04,-4.447455682099591e-12
	2.296622087948043e-06,1.201358379791433e-13
3		1.071519305237606e+00,0.000000000000000e+00
	2.296622087948043e-02,1.229341611258334e-09
	1.000000000000000e+00,0.000000000000000e+00
	0.000000000000000e+00,0.000000000000000e+00
	3.519941289390419e-04,1.432970860588181e-13
	3.519941287650106e-04,1.330392404740321e-13
	-2.296622087948042e-06,-1.229341611258334e-13
	2.258231441951408e-04,4.551050232971733e-12
	-1.877302021615426e-04,-7.174081760689879e-14
	-3.579631994565011e-05,-4.356375254239000e-12
	2.296622087948043e-06,1.229341611258334e-13
	-2.258231441951697e-04,-4.551050232971733e-12
	2.296622087948043e-06,1.229341611258334e-13
4		1.096478196143185e+00,0.000000000000000e+00
	2.296622087948043e-02,1.257976655919783e-09
	1.000000000000000e+00,0.000000000000000e+00
	0.000000000000000e+00,0.000000000000000e+00
	3.519941289390419e-04,1.466349039782406e-13
	3.519941287650106e-04,1.361381224754311e-13
	-2.296622087948049e-06,-1.257976655919781e-13
	2.258231441951408e-04,4.657057810917666e-12
	-1.877302021615426e-04,-7.341187591763124e-14
	-3.579631994565011e-05,-4.457848269408057e-12
	2.296622087948043e-06,1.257976655919784e-13
	-2.258231441951697e-04,-4.657057810917666e-12
	2.296622087948043e-06,1.257976655919784e-13
5		1.122018454301963e+00,0.000000000000000e+00
	2.296622087948043e-02,1.287278696455492e-09
	1.000000000000000e+00,0.000000000000000e+00
	0.000000000000000e+00,0.000000000000000e+00
	3.519941289390419e-04,1.500504696646950e-13
	3.519941287650106e-04,1.393091867113677e-13
	-2.296622087948049e-06,-1.287278696455496e-13
	2.258231441951408e-04,4.765534622558398e-12
	-1.877302021615426e-04,-7.512185817669633e-14
	-3.579631994565011e-05,-4.561684894736152e-12
	2.296622087948043e-06,1.287278696455492e-13
	-2.258231441951697e-04,-4.765534622558398e-12
	2.296622087948043e-06,1.287278696455492e-13
6		1.148153621496882e+00,0.000000000000000e+00
	2.296622087948043e-02,1.317263269195209e-09
	1.000000000000000e+00,0.000000000000000e+00
	0.000000000000000e+00,0.000000000000000e+00
	3.519941289390419e-04,1.535455940963182e-13
	3.519941287650106e-04,1.425541145220737e-13
	-2.296622087948049e-06,-1.317263269195205e-13
	2.258231441951408e-04,4.876538183735317e-12
	-1.877302021615426e-04,-7.687167103932199e-14
	-3.579631994565011e-05,-4.667940185776474e-12
	2.296622087948043e-06,1.317263269195209e-13
	-2.258231441951697e-04,-4.876538183735317e-12
	2.296622087948043e-06,1.317263269195209e-13
7		1.174897554939529e+00,0.000000000000000e+00
	2.296622087948043e-02,1.347946272356294e-09
	1.000000000000000e+00,0.000000000000000e+00
	0.000000000000000e+00,0.000000000000000e+00
	3.519941289390419e-04,1.571221304343475e-13
	3.519941287650106e-04,1.458746264112260e-13
	-2.296622087948049e-06,-1.347946272356296e-13
	2.258231441951408e-04,4.990127350005866e-12
	-1.877302021615426e-04,-7.866224227944959e-14
	-3.579631994565011e-05,-4.776670480490787e-12
	2.296622087948043e-06,1.347946272356294e-13
	-2.258231441951697e-04,-4.990127350005866e-12
	2.296622087948043e-06,1.347946272356294e-13
8		1.202264434617413e+00,0.000000000000000e+00
	2.296622087948043e-02,1.379343974473160e-09
	1.000000000000000e+00,0.000000000000000e+00
	0.000000000000000e+00,0.000000000000000e+00
	3.519941289390419e-04,1.607819750056905e-13
	3.519941287650106e-04,1.492724829581807e-13
	-2.296622087948049e-06,-1.379343974473159e-13
	2.258231441951408e-04,5.106362347849533e-12
	-1.877302021615426e-04,-8.049452128165165e-14
	-3.579631994565011e-05,-4.887933429120565e-12
	2.296622087948043e-06,1.379343974473160e-13
	-2.258231441951697e-04,-5.106362347849533e-12
	2.296622087948043e-06,1.379343974473160e-13
9		1.230268770812381e+00,0.000000000000000e+00
	2.296622087948043e-02,1.411473023023069e-09
	1.000000000000000e+00,0.000000000000000e+00
	0.000000000000000e+00,0.000000000000000e+00
	3.519941289390419e-04,1.645270683083824e-13
	3.519941287650106e-04,1.527494857514546e-13
	-2.296622087948049e-06,-1.411473023023059e-13
	2.258231441951408e-04,5.225304806600725e-12
	-1.877302021615426e-04,-8.236947954450814e-14
	-3.579631994565011e-05,-5.001788024753911e-12
	2.296622087948043e-06,1.411473023023068e-13
	-2.258231441951697e-04,-5.225304806600726e-12
	2.296622087948043e-06,1.411473023023068e-13
10		1.258925411794167e+00,0.000000000000000e+00
	2.296622087948043e-02,1.444350453252837e-09
	1.000000000000000e+00,0.000000000000000e+00
	0.000000000000000e+00,0.000000000000000e+00
	3.519941289390419e-04,1.683593960404647e-13
	3.519941287650106e-04,1.563074783439524e-13
	-2.296622087948049e-06,-1.444350453252842e-13
	2.258231441951408e-04,5.347017791125463e-12
	-1.877302021615426e-04,-8.428811119570812e-14
	-3.579631994565011e-05,-5.118294634604471e-12
	2.296622087948043e-06,1.444350453252837e-13
	-2.258231441951697e-04,-5.347017791125464e-12
	2.296622087948043e-06,1.444350453252837e-13
11		1.288249551693134e+00,0.000000000000000e+00
	2.296622087948043e-02,1.477993697211160e-09
	1.000000000000000e+00,0.000000000000000e+00
	0.000000000000000e+00,0.000000000000000e+00
	3.519941289390419e-04,1.722809901528277e-13
	3.519941287650106e-04,1.599483472304422e-13
	-2.296622087948049e-06,-1.477993697211162e-13
	2.258231441951408e-04,5.471565835259205e-12
	-1.877302021615426e-04,-8.625143351914910e-14
	-3.579631994565011e-05,-5.237515032018940e-12
	2.296622087948043e-06,1.477993697211160e-13
	-2.258231441951697e-04,-5.471565835259204e-12
	2.296622087948043e-06,1.477993697211160e-13
12		1.318256738556407e+00,0.000000000000000e+00
	2.296622087948043e-02,1.512420592991302e-09
	1.000000000000000e+00,0.000000000000000e+00
	0.000000000000000e+00,0.000000000000000e+00
	3.519941289390419e-04,1.762939299265781e-13
	3.519941287650106e-04,1.636740228478003e-13
	-2.296622087948049e-06,-1.512420592991302e-13
	2.258231441951408e-04,5.599014976023535e-12
	-1.877302021615426e-04,-8.826048749431461e-14
	-3.579631994565011e-05,-5.359512429230090e-12
	2.296622087948043e-06,1.512420592991303e-13
	-2.258231441951697e-04,-5.599014976023535e-12
	2.296622087948043e-06,1.512420592991303e-13
13		1.348962882591653e+00,0.000000000000000e+00
	2.296622087948043e-02,1.547649394189103e-09
	1.000000000000000e+00,0.000000000000000e+00
	0.000000000000000e+00,0.000000000000000e+00
	3.519941289390419e-04,1.804003430755017e-13
	3.519941287650106e-04,1.674864805985541e-13
	-2.296622087948049e-06,-1.547649394189092e-13
	2.258231441951408e-04,5.729432788639877e-12
	-1.877302021615426e-04,-9.031633834821527e-14
	-3.579631994565011e-05,-5.484351510872753e-12
	2.296622087948043e-06,1.547649394189103e-13
	-2.258231441951697e-04,-5.729432788639879e-12
	2.296622087948043e-06,1.547649394189103e-13
14		1.380384264602885e+00,0.000000000000000e+00
	2.296622087948043e-02,1.583698779581263e-09
	1.000000000000000e+00,0.000000000000000e+00
	0.000000000000000e+00,0.000000000000000e+00
	3.519941289390419e-04,1.846024068742048e-13
	3.519941287650106e-04,1.713877418982669e-13
	-2.296622087948049e-06,-1.583698779581261e-13
	2.258231441951408e-04,5.862888422358767e-12
	-1.877302021615426e-04,-9.242007612018624e-14
	-3.579631994565011e-05,-5.612098468280454e-12
	2.296622087948043e-06,1.583698779581263e-13
	-2.258231441951697e-04,-5.862888422358768e-12
	2.296622087948043e-06,1.583698779581263e-13
15		1.412537544622754e+00,0.000000000000000e+00
	2.296622087948043e-02,1.620587863029089e-09
	1.000000000000000e+00,0.000000000000000e+00
	0.000000000000000e+00,0.000000000000000e+00
	3.519941289390419e-04,1.889023493125343e-13
	3.519941287650106e-04,1.753798752473191e-13
	-2.296622087948049e-06,-1.620587863029088e-13
	2.258231441951408e-04,5.999452637123692e-12
	-1.877302021615426e-04,-9.457281623984047e-14
	-3.579631994565011e-05,-5.742821034580942e-12
	2.296622087948043e-06,1.620587863029089e-13
	-2.258231441951697e-04,-5.999452637123694e-12
	2.296622087948043e-06,1.620587863029089e-13
16		1.445439770745927e+00,0.000000000000000e+00
	2.296622087948043e-02,1.658336203612909e-09
	1.000000000000000e+00,0.000000000000000e+00
	0.000000000000000e+00,0.000000000000000e+00
	3.519941289390419e-04,1.933024502768874e-13
	3.519941287650106e-04,1.794649973276545e-13
	-2.296622087948049e-06,-1.658336203612903e-13
	2.258231441951408e-04,6.139197841088963e-12
	-1.877302021615426e-04,-9.677570011848420e-14
	-3.579631994565011e-05,-5.876588520609188e-12
	2.296622087948043e-06,1.658336203612909e-13
	-2.258231441951697e-04,-6.139197841088963e-12
	2.296622087948043e-06,1.658336203612909e-13
17		1.479108388168207e+00,0.000000000000000e+00
	2.296622087948043e-02,1.696963816002560e-09
	1.000000000000000e+00,0.000000000000000e+00
	0.000000000000000e+00,0.000000000000000e+00
	3.519941289390419e-04,1.978050427590378e-13
	3.519941287650106e-04,1.836452741250731e-13
	-2.296622087948049e-06,-1.696963816002554e-13
	2.258231441951408e-04,6.282198129011469e-12
	-1.877302021615426e-04,-9.902989575430864e-14
	-3.579631994565011e-05,-6.013471851656905e-12
	2.296622087948043e-06,1.696963816002560e-13
	-2.258231441951697e-04,-6.282198129011470e-12
	2.296622087948043e-06,1.696963816002560e-13
18		1.513561248436208e+00,0.000000000000000e+00
	2.296622087948043e-02,1.736491181069426e-09
	1.000000000000000e+00,0.000000000000000e+00
	0.000000000000000e+00,0.000000000000000e+00
	3.519941289390419e-04,2.024125140931183e-13
	3.519941287650106e-04,1.879229220776654e-13
	-2.296622087948049e-06,-1.736491181069425e-13
	2.258231441951408e-04,6.428529321536704e-12
	-1.877302021615426e-04,-1.013365983516776e-13
	-3.579631994565011e-05,-6.153543605078083e-12
	2.296622087948043e-06,1.736491181069426e-13
	-2.258231441951697e-04,-6.428529321536704e-12
	2.296622087948043e-06,1.736491181069426e-13
19		1.548816618912481e+00,0.000000000000000e+00
	2.296622087948043e-02,1.776939256745674e-09
	1.000000000000000e+00,0.000000000000000e+00
	0.000000000000000e+00,0.000000000000000e+00
	3.519941289390419e-04,2.071273072214173e-13
	3.519941287650106e-04,1.923002092509972e-13
	-2.296622087948049e-06,-1.776939256745667e-13
	2.258231441951408e-04,6.578269005399857e-12
	-1.877302021615426e-04,-1.036970309548411e-13
	-3.579631994565011e-05,-6.296878048770450e-12
	2.296622087948043e-06,1.776939256745674e-13
	-2.258231441951697e-04,-6.578269005399860e-12
	2.296622087948043e-06,1.776939256745674e-13
20		1.584893192461113e+00,0.000000000000000e+00
	2.296622087948043e-02,1.818329489136420e-09
	1.000000000000000e+00,0.000000000000000e+00
	0.000000000000000e+00,0.000000000000000e+00
	3.519941289390419e-04,2.119519219896592e-13
	3.519941287650106e-04,1.967794565406681e-13
	-2.296622087948049e-06,-1.818329489136424e-13
	2.258231441951408e-04,6.731496574563361e-12
	-1.877302021615426e-04,-1.061124450964094e-13
	-3.579631994565011e-05,-6.443551180553309e-12
	2.296622087948043e-06,1.818329489136420e-13
	-2.258231441951697e-04,-6.731496574563362e-12
	2.296622087948043e-06,1.818329489136420e-13
21		1.621810097358929e+00,0.000000000000000e+00
	2.296622087948043e-02,1.860683823890742e-09
	1.000000000000000e+00,0.000000000000000e+00
	0.000000000000000e+00,0.000000000000000e+00
	3.519941289390419e-04,2.168889164724553e-13
	3.519941287650106e-04,2.013630389028808e-13
	-2.296622087948049e-06,-1.860683823890741e-13
	2.258231441951408e-04,6.888293272312589e-12
	-1.877302021615426e-04,-1.085841214609320e-13
	-3.579631994565011e-05,-6.593640768462582e-12
	2.296622087948043e-06,1.860683823890742e-13
	-2.258231441951697e-04,-6.888293272312588e-12
	2.296622087948043e-06,1.860683823890742e-13
22		1.659586907437560e+00,0.000000000000000e+00
	2.296622087948043e-02,1.904024717837554e-09
	1.000000000000000e+00,0.000000000000000e+00
	0.000000000000000e+00,0.000000000000000e+00
	3.519941289390419e-04,2.219409083296294e-13
	3.519941287650106e-04,2.060533866136748e-13
	-2.296622087948049e-06,-1.904024717837549e-13
	2.258231441951408e-04,7.048742234332136e-12
	-1.877302021615426e-04,-1.111133705639339e-13
	-3.579631994565011e-05,-6.747226391984448e-12
	2.296622087948043e-06,1.904024717837554e-13
	-2.258231441951697e-04,-7.048742234332136e-12
	2.296622087948043e-06,1.904024717837554e-13
23		1.698243652461743e+00,0.000000000000000e+00
	2.296622087948043e-02,1.948375150892509e-09
	1.000000000000000e+00,0.000000000000000e+00
	0.000000000000000e+00,0.000000000000000e+00
	3.519941289390419e-04,2.271105761941350e-13
	3.519941287650106e-04,2.108529865574904e-13
	-2.296622087948049e-06,-1.948375150892508e-13
	2.258231441951408e-04,7.212928532785461e-12
	-1.877302021615426e-04,-1.137015334467682e-13
	-3.579631994565011e-05,-6.904389484249442e-12
	2.296622087948043e-06,1.948375150892509e-13
	-2.258231441951697e-04,-7.212928532785459e-12
	2.296622087948043e-06,1.948375150892509e-13
24		1.737800828749374e+00,0.000000000000000e+00
	2.296622087948043e-02,1.993758638242261e-09
	1.000000000000000e+00,0.000000000000000e+00
	0.000000000000000e+00,0.000000000000000e+00
	3.519941289390419e-04,2.324006610923026e-13
	3.519941287650106e-04,2.157643835457479e-13
	-2.296622087948049e-06,-1.993758638242260e-13
	2.258231441951408e-04,7.380939221421263e-12
	-1.877302021615426e-04,-1.163499823876537e-13
	-3.579631994565011e-05,-7.065213375209383e-12
	2.296622087948043e-06,1.993758638242261e-13
	-2.258231441951697e-04,-7.380939221421263e-12
	2.296622087948043e-06,1.993758638242261e-13
25		1.778279410038922e+00,0.000000000000000e+00
	2.296622087948043e-02,2.040199242812524e-09
	1.000000000000000e+00,0.000000000000000e+00
	0.000000000000000e+00,0.000000000000000e+00
	3.519941289390419e-04,2.378139678971677e-13
	3.519941287650106e-04,2.207901816661408e-13
	-2.296622087948049e-06,-2.040199242812521e-13
	2.258231441951408e-04,7.552863381730544e-12
	-1.877302021615426e-04,-1.190601216292752e-13
	-3.579631994565011e-05,-7.229783335820016e-12
	2.296622087948043e-06,2.040199242812525e-13
	-2.258231441951697e-04,-7.552863381730544e-12
	2.296622087948043e-06,2.040199242812525e-13
26		1.819700858609982e+00,0.000000000000000e+00
	2.296622087948044e-02,2.087721588026557e-09
	1.000000000000000e+00,0.000000000000000e+00
	0.000000000000000e+00,0.000000000000000e+00
	3.519941289390419e-04,2.433533668156520e-13
	3.519941287650106e-04,2.259330456633565e-13
	-2.296622087948042e-06,-2.087721588026555e-13
	2.258231441951408e-04,7.728792170178781e-12
	-1.877302021615426e-04,-1.218333881233316e-13
	-3.579631994565012e-05,-7.398186623252795e-12
	2.296622087948044e-06,2.087721588026558e-13
	-2.258231441951697e-04,-7.728792170178783e-12
	2.296622087948044e-06,2.087721588026558e-13
27		1.862087136662866e+00,0.000000000000000e+00
	2.296622087948044e-02,2.136350870860823e-09
	1.000000000000000e+00,0.000000000000000e+00
	0.000000000000000e+00,0.000000000000000e+00
	3.519941289390419e-04,2.490217949103845e-13
	3.519941287650106e-04,2.311957023519603e-13
	-2.296622087948042e-06,-2.136350870860812e-13
	2.258231441951408e-04,7.908818866538310e-12
	-1.877302021615426e-04,-1.246712522924264e-13
	-3.579631994565012e-05,-7.570512527159801e-12
	2.296622087948044e-06,2.136350870860823e-13
	-2.258231441951697e-04,-7.908818866538310e-12
	2.296622087948044e-06,2.136350870860823e-13
28		1.905460717963246e+00,0.000000000000000e+00
	2.296622087948044e-02,2.186112875204767e-09
	1.000000000000000e+00,0.000000000000000e+00
	0.000000000000000e+00,0.000000000000000e+00
	3.519941289390419e-04,2.548222576569716e-13
	3.519941287650106e-04,2.365809420621880e-13
	-2.296622087948049e-06,-2.186112875204771e-13
	2.258231441951408e-04,8.093038923346466e-12
	-1.877302021615426e-04,-1.275752188097059e-13
	-3.579631994565012e-05,-7.746852417016284e-12
	2.296622087948044e-06,2.186112875204767e-13
	-2.258231441951697e-04,-8.093038923346468e-12
	2.296622087948044e-06,2.186112875204767e-13
29		1.949844599758044e+00,0.000000000000000e+00
	2.296622087948044e-02,2.237033985531769e-09
	1.000000000000000e+00,0.000000000000000e+00
	0.000000000000000e+00,0.000000000000000e+00
	3.519941289390419e-04,2.607578305375398e-13
	3.519941287650106e-04,2.420916201194161e-13
	-2.296622087948049e-06,-2.237033985531762e-13
	2.258231441951408e-04,8.281550016515822e-12
	-1.877302021615426e-04,-1.305468273966559e-13
	-3.579631994565012e-05,-7.927299790565990e-12
	2.296622087948044e-06,2.237033985531769e-13
	-2.258231441951697e-04,-8.281550016515822e-12
	2.296622087948044e-06,2.237033985531769e-13
30		1.995262314968878e+00,0.000000000000000e+00
	2.296622087948044e-02,2.289141200888544e-09
	1.000000000000000e+00,0.000000000000000e+00
	0.000000000000000e+00,0.000000000000000e+00
	3.519941289390419e-04,2.668316606713969e-13
	3.519941287650106e-04,2.477306583580930e-13
	-2.296622087948049e-06,-2.289141200888547e-13
	2.258231441951408e-04,8.474452097123204e-12
	-1.877302021615426e-04,-1.335876536394831e-13
	-3.579631994565012e-05,-8.111950323394865e-12
	2.296622087948044e-06,2.289141200888545e-13
	-2.258231441951697e-04,-8.474452097123204e-12
	2.296622087948044e-06,2.289141200888545e-13
31		2.041737944669527e+00,0.000000000000000e+00
	2.296622087948044e-02,2.342462149210397e-09
	1.000000000000000e+00,0.000000000000000e+00
	0.000000000000000e+00,0.000000000000000e+00
	3.519941289390419e-04,2.730469684836764e-13
	3.519941287650106e-04,2.535010466709341e-13
	-2.296622087948049e-06,-2.342462149210393e-13
	2.258231441951408e-04,8.671847444405115e-12
	-1.877302021615426e-04,-1.366993098245116e-13
	-3.579631994565012e-05,-8.300901919659563e-12
	2.296622087948044e-06,2.342462149210397e-13
	-2.258231441951697e-04,-8.671847444405113e-12
	2.296622087948044e-06,2.342462149210397e-13
32		2.089296130854037e+00,0.000000000000000e+00
	2.296622087948044e-02,2.397025101969914e-09
	1.000000000000000e+00,0.000000000000000e+00
	0.000000000000000e+00,0.000000000000000e+00
	3.519941289390419e-04,2.794070494128500e-13
	3.519941287650106e-04,2.594058445942032e-13
