LTspice 24.0.9 for Windows
Circuit: * GA CMOS Amp | W=1.8617040899553504e-05 L=5.753557964958086e-07 Vbias=0.5769684730026553
Start Time: Sat Sep  6 22:34:20 2025
solver = Normal
Maximum thread count: 2
tnom = 27
temp = 27
method = modified trap
AsciiRawFile = 1
Direct Newton iteration for .op point succeeded.
Semiconductor Device Operating Points:
                        --- BSIM4 MOSFETS ---
Name:      m1
Model:      n
Id:      1.72e-04
Vgs:     5.77e-01
Vds:     7.98e-02
Vbs:     0.00e+00
Vth:     2.47e-01
Vdsat:   2.61e-01
Gm:      3.43e-04
Gds:     1.76e-03
Gmb      2.29e-04
Cbd:     9.08e-15
Cbs:     1.49e-14


.measure op idd find i(vdd)
  Error: FIND can not be evaluated over an interval.

gain_db: MAX(db(v(out)/v(g)))=(29.8244dB,118.293°) FROM 1 TO 1e+09
gain_lin: MAX(mag(v(out)/v(g)))=(-5.08267dB,0°) FROM 1 TO 1e+09

Measurement "fc" FAIL'ed

Total elapsed time: 0.710 seconds.

