Title: * GA CMOS Amp | W=4.6271220780242976e-05 L=6.599815647112036e-07 Vbias=0.6538662504861429
Date: Sat Sep  6 22:33:40 2025
Plotname: AC Analysis
Flags: complex forward log
No. Variables: 13
No. Points:          901
Offset:    0.0000000000000000e+00
Command: Linear Technology Corporation LTspice
Variables:
	0	frequency	frequency
	1	V(out)	voltage
	2	V(g)	voltage
	3	V(vdd)	voltage
	4	V(m1#dbody)	voltage
	5	V(m1#sbody)	voltage
	6	Id(M1)	device_current
	7	Ig(M1)	device_current
	8	Ib(M1)	device_current
	9	Is(M1)	device_current
	10	I(Rload)	device_current
	11	I(Vg)	device_current
	12	I(Vdd)	device_current
Values:
0		1.000000000000000e+00,0.000000000000000e+00
	-3.252921517691452e-02,6.768182098240116e-10
	1.000000000000000e+00,0.000000000000000e+00
	0.000000000000000e+00,0.000000000000000e+00
	2.479131510392078e-08,-1.266936060856477e-14
	2.479158832507052e-08,2.244783707585740e-14
	3.252921517691475e-06,-6.768182098240094e-14
	2.377120652816082e-06,7.593218077690619e-12
	-1.322216223529991e-08,-9.631050565463087e-15
	-5.616820008272257e-06,-7.515905206142755e-12
	-3.252921517691452e-06,6.768182098240116e-14
	-2.377120652818920e-06,-7.593218077690622e-12
	-3.252921517691452e-06,6.768182098240116e-14
1		1.023292992280754e+00,0.000000000000000e+00
	-3.252921517691452e-02,6.925833311609162e-10
	1.000000000000000e+00,0.000000000000000e+00
	0.000000000000000e+00,0.000000000000000e+00
	2.479131510392058e-08,-1.296446792742210e-14
	2.479158832507036e-08,2.297071437158503e-14
	3.252921517691475e-06,-6.925833311609209e-14
	2.377120652816082e-06,7.770086847760351e-12
	-1.322216223529982e-08,-9.855386551940004e-15
	-5.616820008272257e-06,-7.690973128092318e-12
	-3.252921517691452e-06,6.925833311609163e-14
	-2.377120652818920e-06,-7.770086847760351e-12
	-3.252921517691452e-06,6.925833311609163e-14
2		1.047128548050899e+00,0.000000000000000e+00
	-3.252921517691452e-02,7.087156693474264e-10
	1.000000000000000e+00,0.000000000000000e+00
	0.000000000000000e+00,0.000000000000000e+00
	2.479131510392038e-08,-1.326644917877970e-14
	2.479158832507019e-08,2.350577104412570e-14
	3.252921517691475e-06,-7.087156693474202e-14
	2.377120652816082e-06,7.951075420726018e-12
	-1.322216223529973e-08,-1.008494799481815e-14
	-5.616820008272257e-06,-7.870118905796457e-12
	-3.252921517691452e-06,7.087156693474264e-14
	-2.377120652818920e-06,-7.951075420726021e-12
	-3.252921517691452e-06,7.087156693474264e-14
3		1.071519305237606e+00,0.000000000000000e+00
	-3.252921517691452e-02,7.252237779627854e-10
	1.000000000000000e+00,0.000000000000000e+00
	0.000000000000000e+00,0.000000000000000e+00
	2.479131510392016e-08,-1.357546447709407e-14
	2.479158832507002e-08,2.405329078760965e-14
	3.252921517691475e-06,-7.252237779627834e-14
	2.377120652816082e-06,8.136279759124683e-12
	-1.322216223529964e-08,-1.031985661061323e-14
	-5.616820008272257e-06,-8.053437524717791e-12
	-3.252921517691452e-06,7.252237779627854e-14
	-2.377120652818920e-06,-8.136279759124684e-12
	-3.252921517691452e-06,7.252237779627854e-14
4		1.096478196143185e+00,0.000000000000000e+00
	-3.252921517691452e-02,7.421164098246916e-10
	1.000000000000000e+00,0.000000000000000e+00
	0.000000000000000e+00,0.000000000000000e+00
	2.479131510391995e-08,-1.389167766636661e-14
	2.479158832506983e-08,2.461356390425224e-14
	3.252921517691475e-06,-7.421164098246964e-14
	2.377120652816082e-06,8.325798060748029e-12
	-1.322216223529954e-08,-1.056023695098277e-14
	-5.616820008272257e-06,-8.241026182814576e-12
	-3.252921517691452e-06,7.421164098246917e-14
	-2.377120652818920e-06,-8.325798060748031e-12
	-3.252921517691452e-06,7.421164098246917e-14
5		1.122018454301963e+00,0.000000000000000e+00
	-3.252921517691452e-02,7.594025216301591e-10
	1.000000000000000e+00,0.000000000000000e+00
	0.000000000000000e+00,0.000000000000000e+00
	2.479131510391971e-08,-1.421525640701603e-14
	2.479158832506964e-08,2.518688745827582e-14
	3.252921517691475e-06,-7.594025216301785e-14
	2.377120652816082e-06,8.519730810708153e-12
	-1.322216223529943e-08,-1.080621646876494e-14
	-5.616820008272257e-06,-8.432984342076370e-12
	-3.252921517691452e-06,7.594025216301592e-14
	-2.377120652818920e-06,-8.519730810708153e-12
	-3.252921517691452e-06,7.594025216301592e-14
6		1.148153621496882e+00,0.000000000000000e+00
	-3.252921517691452e-02,7.770912787044757e-10
	1.000000000000000e+00,0.000000000000000e+00
	0.000000000000000e+00,0.000000000000000e+00
	2.479131510391947e-08,-1.454637226477357e-14
	2.479158832506944e-08,2.577356543341768e-14
	3.252921517691475e-06,-7.770912787044797e-14
	2.377120652816082e-06,8.718180834716080e-12
	-1.322216223529932e-08,-1.105792558555605e-14
	-5.616820008272257e-06,-8.629413781260076e-12
	-3.252921517691452e-06,7.770912787044757e-14
	-2.377120652818920e-06,-8.718180834716082e-12
	-3.252921517691452e-06,7.770912787044757e-14
7		1.174897554939529e+00,0.000000000000000e+00
	-3.252921517691452e-02,7.951920598607805e-10
	1.000000000000000e+00,0.000000000000000e+00
	0.000000000000000e+00,0.000000000000000e+00
	2.479131510391921e-08,-1.488520080164995e-14
	2.479158832506923e-08,2.637390889410574e-14
	3.252921517691475e-06,-7.951920598607909e-14
	2.377120652816082e-06,8.921253353601341e-12
	-1.322216223529921e-08,-1.131549776086154e-14
	-5.616820008272257e-06,-8.830418649854401e-12
	-3.252921517691452e-06,7.951920598607806e-14
	-2.377120652818920e-06,-8.921253353601342e-12
	-3.252921517691452e-06,7.951920598607806e-14
8		1.202264434617413e+00,0.000000000000000e+00
	-3.252921517691452e-02,8.137144623728346e-10
	1.000000000000000e+00,0.000000000000000e+00
	0.000000000000000e+00,0.000000000000000e+00
	2.479131510391894e-08,-1.523192166902025e-14
	2.479158832506901e-08,2.698823615038948e-14
	3.252921517691475e-06,-8.137144623728354e-14
	2.377120652816082e-06,9.129056039101428e-12
	-1.322216223529909e-08,-1.157906956285819e-14
	-5.616820008272257e-06,-9.036105523301286e-12
	-3.252921517691452e-06,8.137144623728346e-14
	-2.377120652818920e-06,-9.129056039101430e-12
	-3.252921517691452e-06,8.137144623728346e-14
9		1.230268770812381e+00,0.000000000000000e+00
	-3.252921517691452e-02,8.326683070636230e-10
	1.000000000000000e+00,0.000000000000000e+00
	0.000000000000000e+00,0.000000000000000e+00
	2.479131510391866e-08,-1.558671870287782e-14
	2.479158832506878e-08,2.761687292671165e-14
	3.252921517691475e-06,-8.326683070636371e-14
	2.377120652816081e-06,9.341699070950787e-12
	-1.322216223529896e-08,-1.184878074080414e-14
	-5.616820008272257e-06,-9.246583459503621e-12
	-3.252921517691452e-06,8.326683070636230e-14
	-2.377120652818920e-06,-9.341699070950792e-12
	-3.252921517691452e-06,8.326683070636230e-14
10		1.258925411794167e+00,0.000000000000000e+00
	-3.252921517691452e-02,8.520636435124846e-10
	1.000000000000000e+00,0.000000000000000e+00
	0.000000000000000e+00,0.000000000000000e+00
	2.479131510391837e-08,-1.594978002130623e-14
	2.479158832506854e-08,2.826015253461211e-14
	3.252921517691475e-06,-8.520636435125012e-14
	2.377120652816081e-06,9.559295195299574e-12
	-1.322216223529883e-08,-1.212477429913604e-14
	-5.616820008272257e-06,-9.461964056649188e-12
	-3.252921517691452e-06,8.520636435124847e-14
	-2.377120652818920e-06,-9.559295195299578e-12
	-3.252921517691452e-06,8.520636435124847e-14
11		1.288249551693134e+00,0.000000000000000e+00
	-3.252921517691452e-02,8.719107553835323e-10
	1.000000000000000e+00,0.000000000000000e+00
	0.000000000000000e+00,0.000000000000000e+00
	2.479131510391806e-08,-1.632129812422226e-14
	2.479158832506828e-08,2.891841604945376e-14
	3.252921517691475e-06,-8.719107553835440e-14
	2.377120652816081e-06,9.781959784493139e-12
	-1.322216223529869e-08,-1.240719657329170e-14
	-5.616820008272257e-06,-9.682361512381493e-12
	-3.252921517691452e-06,8.719107553835323e-14
	-2.377120652818920e-06,-9.781959784493142e-12
	-3.252921517691452e-06,8.719107553835323e-14
12		1.318256738556407e+00,0.000000000000000e+00
	-3.252921517691452e-02,8.922201658781873e-10
	1.000000000000000e+00,0.000000000000000e+00
	0.000000000000000e+00,0.000000000000000e+00
	2.479131510391774e-08,-1.670146999544158e-14
	2.479158832506802e-08,2.959201249126539e-14
	3.252921517691475e-06,-8.922201658781940e-14
	2.377120652816081e-06,1.000981089824398e-11
	-1.322216223529854e-08,-1.269619730729922e-14
	-5.616820008272257e-06,-9.907892684348867e-12
	-3.252921517691452e-06,8.922201658781873e-14
	-2.377120652818920e-06,-1.000981089824399e-11
	-3.252921517691452e-06,8.922201658781873e-14
13		1.348962882591653e+00,0.000000000000000e+00
	-3.252921517691452e-02,9.130026433147212e-10
	1.000000000000000e+00,0.000000000000000e+00
	0.000000000000000e+00,0.000000000000000e+00
	2.479131510391740e-08,-1.709049720712271e-14
	2.479158832506774e-08,3.028129900979636e-14
	3.252921517691475e-06,-9.130026433147277e-14
	2.377120652816081e-06,1.024296934622859e-11
	-1.322216223529839e-08,-1.299192973317305e-14
	-5.616820008272257e-06,-1.013867715216394e-11
	-3.252921517691452e-06,9.130026433147212e-14
	-2.377120652818920e-06,-1.024296934622859e-11
	-3.252921517691452e-06,9.130026433147212e-14
14		1.380384264602885e+00,0.000000000000000e+00
	-3.252921517691452e-02,9.342692068377589e-10
	1.000000000000000e+00,0.000000000000000e+00
	0.000000000000000e+00,0.000000000000000e+00
	2.479131510391705e-08,-1.748858602664239e-14
	2.479158832506745e-08,3.098664107388285e-14
	3.252921517691475e-06,-9.342692068377699e-14
	2.377120652816081e-06,1.048155875214229e-11
	-1.322216223529823e-08,-1.329455065215999e-14
	-5.616820008272257e-06,-1.037483728080636e-11
	-3.252921517691452e-06,9.342692068377590e-14
	-2.377120652818920e-06,-1.048155875214230e-11
	-3.252921517691452e-06,9.342692068377590e-14
15		1.412537544622754e+00,0.000000000000000e+00
	-3.252921517691452e-02,9.560311322607772e-10
	1.000000000000000e+00,0.000000000000000e+00
	0.000000000000000e+00,0.000000000000000e+00
	2.479131510391667e-08,-1.789594752596238e-14
	2.479158832506714e-08,3.170841266522317e-14
	3.252921517691475e-06,-9.560311322607828e-14
	2.377120652816080e-06,1.072570561924622e-11
	-1.322216223529806e-08,-1.360422051787678e-14
	-5.616820008272257e-06,-1.061649828550226e-11
	-3.252921517691452e-06,9.560311322607772e-14
	-2.377120652818920e-06,-1.072570561924622e-11
	-3.252921517691452e-06,9.560311322607772e-14
16		1.445439770745927e+00,0.000000000000000e+00
	-3.252921517691452e-02,9.782999580446880e-10
	1.000000000000000e+00,0.000000000000000e+00
	0.000000000000000e+00,0.000000000000000e+00
	2.479131510391629e-08,-1.831279769354132e-14
	2.479158832506683e-08,3.244699647666926e-14
	3.252921517691475e-06,-9.782999580447066e-14
	2.377120652816080e-06,1.097553939744096e-11
	-1.322216223529789e-08,-1.392110352138540e-14
	-5.616820008272257e-06,-1.086378829811510e-11
	-3.252921517691452e-06,9.782999580446881e-14
	-2.377120652818920e-06,-1.097553939744096e-11
	-3.252921517691452e-06,9.782999580446881e-14
17		1.479108388168207e+00,0.000000000000000e+00
	-3.252921517691452e-02,1.001087491415685e-09
	1.000000000000000e+00,0.000000000000000e+00
	0.000000000000000e+00,0.000000000000000e+00
	2.479131510391588e-08,-1.873935754885601e-14
	2.479158832506649e-08,3.320278411513395e-14
	3.252921517691475e-06,-1.001087491415713e-13
	2.377120652816080e-06,1.123119255190266e-11
	-1.322216223529771e-08,-1.424536767824860e-14
	-5.616820008272257e-06,-1.111683843508284e-11
	-3.252921517691452e-06,1.001087491415685e-13
	-2.377120652818920e-06,-1.123119255190266e-11
	-3.252921517691452e-06,1.001087491415685e-13
18		1.513561248436208e+00,0.000000000000000e+00
	-3.252921517691452e-02,1.024405814625590e-09
	1.000000000000000e+00,0.000000000000000e+00
	0.000000000000000e+00,0.000000000000000e+00
	2.479131510391546e-08,-1.917585325958775e-14
	2.479158832506614e-08,3.397617630922737e-14
	3.252921517691475e-06,-1.024405814625594e-13
	2.377120652816080e-06,1.149280063331779e-11
	-1.322216223529752e-08,-1.457718491761458e-14
	-5.616820008272257e-06,-1.137578286693762e-11
	-3.252921517691452e-06,1.024405814625590e-13
	-2.377120652818920e-06,-1.149280063331780e-11
	-3.252921517691452e-06,1.024405814625590e-13
19		1.548816618912481e+00,0.000000000000000e+00
	-3.252921517691452e-02,1.048267291358024e-09
	1.000000000000000e+00,0.000000000000000e+00
	0.000000000000000e+00,0.000000000000000e+00
	2.479131510391501e-08,-1.962251626154031e-14
	2.479158832506578e-08,3.476758312172764e-14
	3.252921517691475e-06,-1.048267291358031e-13
	2.377120652816079e-06,1.176050234975391e-11
	-1.322216223529732e-08,-1.491673117337565e-14
	-5.616820008272257e-06,-1.164075888944473e-11
	-3.252921517691452e-06,1.048267291358024e-13
	-2.377120652818920e-06,-1.176050234975391e-11
	-3.252921517691452e-06,1.048267291358024e-13
20		1.584893192461113e+00,0.000000000000000e+00
	-3.252921517691452e-02,1.072684573283793e-09
	1.000000000000000e+00,0.000000000000000e+00
	0.000000000000000e+00,0.000000000000000e+00
	2.479131510391455e-08,-2.007958338134926e-14
	2.479158832506540e-08,3.557742416700260e-14
	3.252921517691475e-06,-1.072684573283785e-13
	2.377120652816079e-06,1.203443964020452e-11
	-1.322216223529711e-08,-1.526418647745122e-14
	-5.616820008272257e-06,-1.191190699639869e-11
	-3.252921517691452e-06,1.072684573283793e-13
	-2.377120652818920e-06,-1.203443964020452e-11
	-3.252921517691452e-06,1.072684573283793e-13
21		1.621810097358929e+00,0.000000000000000e+00
	-3.252921517691452e-02,1.097670606768976e-09
	1.000000000000000e+00,0.000000000000000e+00
	0.000000000000000e+00,0.000000000000000e+00
	2.479131510391406e-08,-2.054729696205190e-14
	2.479158832506499e-08,3.640612883349359e-14
	3.252921517691475e-06,-1.097670606768981e-13
	2.377120652816079e-06,1.231475774984700e-11
	-1.322216223529689e-08,-1.561973505524242e-14
	-5.616820008272257e-06,-1.218937095411486e-11
	-3.252921517691452e-06,1.097670606768976e-13
	-2.377120652818920e-06,-1.231475774984701e-11
	-3.252921517691452e-06,1.097670606768976e-13
22		1.659586907437560e+00,0.000000000000000e+00
	-3.252921517691452e-02,1.123238639739257e-09
	1.000000000000000e+00,0.000000000000000e+00
	0.000000000000000e+00,0.000000000000000e+00
	2.479131510391355e-08,-2.102590499157927e-14
	2.479158832506458e-08,3.725413651138437e-14
	3.252921517691475e-06,-1.123238639739263e-13
	2.377120652816079e-06,1.260160530705354e-11
	-1.322216223529666e-08,-1.598356542331164e-14
	-5.616820008272257e-06,-1.247329787765631e-11
	-3.252921517691452e-06,1.123238639739257e-13
	-2.377120652818920e-06,-1.260160530705355e-11
	-3.252921517691452e-06,1.123238639739257e-13
23		1.698243652461743e+00,0.000000000000000e+00
	-3.252921517691452e-02,1.149402228704148e-09
	1.000000000000000e+00,0.000000000000000e+00
	0.000000000000000e+00,0.000000000000000e+00
	2.479131510391301e-08,-2.151566123424400e-14
	2.479158832506413e-08,3.812189682557018e-14
	3.252921517691475e-06,-1.149402228704151e-13
	2.377120652816079e-06,1.289513440219585e-11
	-1.322216223529642e-08,-1.635587048933575e-14
	-5.616820008272257e-06,-1.276383830883610e-11
	-3.252921517691452e-06,1.149402228704148e-13
	-2.377120652818920e-06,-1.289513440219586e-11
	-3.252921517691452e-06,1.149402228704148e-13
24		1.737800828749374e+00,0.000000000000000e+00
	-3.252921517691452e-02,1.176175245944835e-09
	1.000000000000000e+00,0.000000000000000e+00
	0.000000000000000e+00,0.000000000000000e+00
	2.479131510391245e-08,-2.201682536528858e-14
	2.479158832506367e-08,3.900986987405588e-14
	3.252921517691475e-06,-1.176175245944850e-13
	2.377120652816079e-06,1.319550066828549e-11
	-1.322216223529616e-08,-1.673684765438886e-14
	-5.616820008272257e-06,-1.306114629603661e-11
	-3.252921517691452e-06,1.176175245944835e-13
	-2.377120652818920e-06,-1.319550066828549e-11
	-3.252921517691452e-06,1.176175245944835e-13
25		1.778279410038922e+00,0.000000000000000e+00
	-3.252921517691452e-02,1.203571886869442e-09
	1.000000000000000e+00,0.000000000000000e+00
	0.000000000000000e+00,0.000000000000000e+00
	2.479131510391187e-08,-2.252966310856886e-14
	2.479158832506319e-08,3.991852647190559e-14
	3.252921517691475e-06,-1.203571886869461e-13
	2.377120652816078e-06,1.350286336349255e-11
	-1.322216223529590e-08,-1.712669891760676e-14
	-5.616820008272257e-06,-1.336537947588800e-11
	-3.252921517691452e-06,1.203571886869442e-13
	-2.377120652818920e-06,-1.350286336349255e-11
	-3.252921517691452e-06,1.203571886869442e-13
26		1.819700858609982e+00,0.000000000000000e+00
	-3.252921517691452e-02,1.231606677539625e-09
	1.000000000000000e+00,0.000000000000000e+00
	0.000000000000000e+00,0.000000000000000e+00
	2.479131510391126e-08,-2.305444637744479e-14
	2.479158832506269e-08,4.084834840087473e-14
	3.252921517691475e-06,-1.231606677539641e-13
	2.377120652816078e-06,1.381738545558646e-11
	-1.322216223529563e-08,-1.752563098328934e-14
	-5.616820008272257e-06,-1.367669915684920e-11
	-3.252921517691452e-06,1.231606677539625e-13
	-2.377120652818920e-06,-1.381738545558646e-11
	-3.252921517691452e-06,1.231606677539625e-13
27		1.862087136662866e+00,0.000000000000000e+00
	-3.252921517691452e-02,1.260294482372481e-09
	1.000000000000000e+00,0.000000000000000e+00
	0.000000000000000e+00,0.000000000000000e+00
	2.479131510391061e-08,-2.359145341895167e-14
	2.479158832506216e-08,4.179982866485785e-14
	3.252921517691475e-06,-1.260294482372491e-13
	2.377120652816078e-06,1.413923370834364e-11
	-1.322216223529533e-08,-1.793385537049844e-14
	-5.616820008272257e-06,-1.399527040473589e-11
	-3.252921517691452e-06,1.260294482372481e-13
	-2.377120652818920e-06,-1.413923370834364e-11
	-3.252921517691452e-06,1.260294482372481e-13
28		1.905460717963246e+00,0.000000000000000e+00
	-3.252921517691452e-02,1.289650512021860e-09
	1.000000000000000e+00,0.000000000000000e+00
	0.000000000000000e+00,0.000000000000000e+00
	2.479131510390994e-08,-2.414096896133116e-14
	2.479158832506160e-08,4.277347175128515e-14
	3.252921517691475e-06,-1.289650512021866e-13
	2.377120652816077e-06,1.446857876996786e-11
	-1.322216223529503e-08,-1.835158852520759e-14
	-5.616820008272257e-06,-1.432126213024047e-11
	-3.252921517691452e-06,1.289650512021860e-13
	-2.377120652818920e-06,-1.446857876996786e-11
	-3.252921517691452e-06,1.289650512021860e-13
29		1.949844599758044e+00,0.000000000000000e+00
	-3.252921517691452e-02,1.319690331443256e-09
	1.000000000000000e+00,0.000000000000000e+00
	0.000000000000000e+00,0.000000000000000e+00
	2.479131510390923e-08,-2.470328436499726e-14
	2.479158832506102e-08,4.376979389860899e-14
	3.252921517691475e-06,-1.319690331443255e-13
	2.377120652816077e-06,1.480559526357021e-11
	-1.322216223529471e-08,-1.877905193506488e-14
	-5.616820008272257e-06,-1.465484717849082e-11
	-3.252921517691452e-06,1.319690331443256e-13
	-2.377120652818920e-06,-1.480559526357022e-11
	-3.252921517691452e-06,1.319690331443256e-13
30		1.995262314968878e+00,0.000000000000000e+00
	-3.252921517691452e-02,1.350429868146549e-09
	1.000000000000000e+00,0.000000000000000e+00
	0.000000000000000e+00,0.000000000000000e+00
	2.479131510390850e-08,-2.527869777702039e-14
	2.479158832506042e-08,4.478932337001949e-14
	3.252921517691475e-06,-1.350429868146549e-13
	2.377120652816076e-06,1.515046187975651e-11
	-1.322216223529438e-08,-1.921647224682823e-14
	-5.616820008272257e-06,-1.499620242069503e-11
	-3.252921517691452e-06,1.350429868146549e-13
	-2.377120652818920e-06,-1.515046187975652e-11
	-3.252921517691452e-06,1.350429868146549e-13
31		2.041737944669527e+00,0.000000000000000e+00
	-3.252921517691452e-02,1.381885420640986e-09
	1.000000000000000e+00,0.000000000000000e+00
	0.000000000000000e+00,0.000000000000000e+00
	2.479131510390772e-08,-2.586751428920819e-14
	2.479158832505978e-08,4.583260073353741e-14
	3.252921517691475e-06,-1.381885420640989e-13
	2.377120652816076e-06,1.550336147137154e-11
	-1.322216223529403e-08,-1.966408138653684e-14
	-5.616820008272257e-06,-1.534550884792091e-11
	-3.252921517691452e-06,1.381885420640986e-13
	-2.377120652818920e-06,-1.550336147137155e-11
	-3.252921517691452e-06,1.381885420640986e-13
32		2.089296130854037e+00,0.000000000000000e+00
	-3.252921517691452e-02,1.414073667076864e-09
	1.000000000000000e+00,0.000000000000000e+00
	0.000000000000000e+00,0.000000000000000e+00
