Title: * GA CMOS Amp | W=5.120340923682238e-06 L=8.780646051670982e-07 Vbias=0.5
Date: Mon Sep  8 18:46:18 2025
Plotname: AC Analysis
Flags: complex forward log
No. Variables: 11
No. Points:          901
Offset:    0.0000000000000000e+00
Command: Linear Technology Corporation LTspice
Variables:
	0	frequency	frequency
	1	V(out)	voltage
	2	V(g)	voltage
	3	V(vdd)	voltage
	4	Id(M1)	device_current
	5	Ig(M1)	device_current
	6	Ib(M1)	device_current
	7	Is(M1)	device_current
	8	I(Rload)	device_current
	9	I(Vg)	device_current
	10	I(Vdd)	device_current
Values:
0		1.000000000000000e+00,0.000000000000000e+00
	-6.944574858783404e-04,6.438861447986436e-11
	1.000000000000000e+00,0.000000000000000e+00
	0.000000000000000e+00,0.000000000000000e+00
	6.944574858783403e-08,-6.438861447986437e-15
	4.143027559628930e-25,3.939554428992844e-14
	6.944574848005345e-16,-1.412456898921591e-15
	-6.944574928229152e-08,-3.154422594302041e-14
	-6.944574858783405e-08,6.438861447986437e-15
	-4.143027559628930e-25,-3.939554428992844e-14
	-6.944574858783405e-08,6.438861447986437e-15
1		1.023292992280754e+00,0.000000000000000e+00
	-6.944574858783404e-04,6.588841797991230e-11
	1.000000000000000e+00,0.000000000000000e+00
	0.000000000000000e+00,0.000000000000000e+00
	6.944574858783403e-08,-6.588841797991230e-15
	4.338282433049103e-25,4.031318439896985e-14
	6.944574848005345e-16,-1.445357246565066e-15
	-6.944574928229152e-08,-3.227898535441355e-14
	-6.944574858783405e-08,6.588841797991231e-15
	-4.338282433049103e-25,-4.031318439896985e-14
	-6.944574858783405e-08,6.588841797991231e-15
2		1.047128548050899e+00,0.000000000000000e+00
	-6.944574858783404e-04,6.742315639130948e-11
	1.000000000000000e+00,0.000000000000000e+00
	0.000000000000000e+00,0.000000000000000e+00
	6.944574858783403e-08,-6.742315639130948e-15
	4.542739385153429e-25,4.125219909198767e-14
	6.944574848005345e-16,-1.479023941752232e-15
	-6.944574928229152e-08,-3.303085951110448e-14
	-6.944574858783405e-08,6.742315639130948e-15
	-4.542739385153429e-25,-4.125219909198767e-14
	-6.944574858783405e-08,6.742315639130948e-15
3		1.071519305237606e+00,0.000000000000000e+00
	-6.944574858783404e-04,6.899364345267634e-11
	1.000000000000000e+00,0.000000000000000e+00
	0.000000000000000e+00,0.000000000000000e+00
	6.944574858783403e-08,-6.899364345267634e-15
	4.756832096549347e-25,4.221308624700146e-14
	6.944574848005345e-16,-1.513474835010521e-15
	-6.944574928229152e-08,-3.380024706672331e-14
	-6.944574858783405e-08,6.899364345267634e-15
	-4.756832096549347e-25,-4.221308624700146e-14
	-6.944574858783405e-08,6.899364345267634e-15
4		1.096478196143185e+00,0.000000000000000e+00
	-6.944574858783404e-04,7.060071185704062e-11
	1.000000000000000e+00,0.000000000000000e+00
	0.000000000000000e+00,0.000000000000000e+00
	6.944574858783403e-08,-7.060071185704062e-15
	4.981014686581632e-25,4.319635533909967e-14
	6.944574848005345e-16,-1.548728192659537e-15
	-6.944574928229152e-08,-3.458755596073607e-14
	-6.944574858783405e-08,7.060071185704062e-15
	-4.981014686581632e-25,-4.319635533909967e-14
	-6.944574858783405e-08,7.060071185704062e-15
5		1.122018454301963e+00,0.000000000000000e+00
	-6.944574858783404e-04,7.224521369334243e-11
	1.000000000000000e+00,0.000000000000000e+00
	0.000000000000000e+00,0.000000000000000e+00
	6.944574858783403e-08,-7.224521369334242e-15
	5.215762676580433e-25,4.420252771057004e-14
	6.944574848005345e-16,-1.584802706496146e-15
	-6.944574928229152e-08,-3.539320363473965e-14
	-6.944574858783405e-08,7.224521369334244e-15
	-5.215762676580433e-25,-4.420252771057004e-14
	-6.944574858783405e-08,7.224521369334244e-15
6		1.148153621496882e+00,0.000000000000000e+00
	-6.944574858783404e-04,7.392802089822288e-11
	1.000000000000000e+00,0.000000000000000e+00
	0.000000000000000e+00,0.000000000000000e+00
	6.944574858783403e-08,-7.392802089822288e-15
	5.461573998505742e-25,4.523213684732216e-14
	6.944574848005345e-16,-1.621717503705069e-15
	-6.944574928229152e-08,-3.621761725379481e-14
	-6.944574858783405e-08,7.392802089822288e-15
	-5.461573998505742e-25,-4.523213684732216e-14
	-6.944574858783405e-08,7.392802089822288e-15
7		1.174897554939529e+00,0.000000000000000e+00
	-6.944574858783404e-04,7.565002571833661e-11
	1.000000000000000e+00,0.000000000000000e+00
	0.000000000000000e+00,0.000000000000000e+00
	6.944574858783403e-08,-7.565002571833660e-15
	5.718970051127862e-25,4.628572866174885e-14
	6.944574848005345e-16,-1.659492157000442e-15
	-6.944574928229152e-08,-3.706123393291475e-14
	-6.944574858783405e-08,7.565002571833661e-15
	-5.718970051127862e-25,-4.628572866174885e-14
	-6.944574858783405e-08,7.565002571833661e-15
8		1.202264434617413e+00,0.000000000000000e+00
	-6.944574858783404e-04,7.741214118343267e-11
	1.000000000000000e+00,0.000000000000000e+00
	0.000000000000000e+00,0.000000000000000e+00
	6.944574858783403e-08,-7.741214118343267e-15
	5.988496805984097e-25,4.736386178217605e-14
	6.944574848005345e-16,-1.698146695003424e-15
	-6.944574928229152e-08,-3.792450096882936e-14
	-6.944574858783405e-08,7.741214118343267e-15
	-5.988496805984097e-25,-4.736386178217605e-14
	-6.944574858783405e-08,7.741214118343267e-15
9		1.230268770812381e+00,0.000000000000000e+00
	-6.944574858783404e-04,7.921530159045502e-11
	1.000000000000000e+00,0.000000000000000e+00
	0.000000000000000e+00,0.000000000000000e+00
	6.944574858783403e-08,-7.921530159045502e-15
	6.270725965457577e-25,4.846710784905498e-14
	6.944574848005345e-16,-1.737701612861722e-15
	-6.944574928229152e-08,-3.880787607714775e-14
	-6.944574858783405e-08,7.921530159045502e-15
	-6.270725965457577e-25,-4.846710784905498e-14
	-6.944574858783405e-08,7.921530159045502e-15
10		1.258925411794167e+00,0.000000000000000e+00
	-6.944574858783404e-04,8.106046299891911e-11
	1.000000000000000e+00,0.000000000000000e+00
	0.000000000000000e+00,0.000000000000000e+00
	6.944574858783403e-08,-8.106046299891910e-15
	6.566256175434669e-25,4.959605181805350e-14
	6.944574848005345e-16,-1.778177883116374e-15
	-6.944574928229152e-08,-3.971182763504522e-14
	-6.944574858783405e-08,8.106046299891912e-15
	-6.566256175434669e-25,-4.959605181805350e-14
	-6.944574858783405e-08,8.106046299891912e-15
11		1.288249551693134e+00,0.000000000000000e+00
	-6.944574858783404e-04,8.294860373782729e-11
	1.000000000000000e+00,0.000000000000000e+00
	0.000000000000000e+00,0.000000000000000e+00
	6.944574858783403e-08,-8.294860373782728e-15
	6.875714295113157e-25,5.075129227020731e-14
	6.944574848005345e-16,-1.819596966821612e-15
	-6.944574928229152e-08,-4.063683492960297e-14
	-6.944574858783405e-08,8.294860373782729e-15
	-6.875714295113157e-25,-5.075129227020731e-14
	-6.944574858783405e-08,8.294860373782729e-15
12		1.318256738556407e+00,0.000000000000000e+00
	-6.944574858783404e-04,8.488072492439183e-11
	1.000000000000000e+00,0.000000000000000e+00
	0.000000000000000e+00,0.000000000000000e+00
	6.944574858783403e-08,-8.488072492439183e-15
	7.199756726654655e-25,5.193344172929554e-14
	6.944574848005345e-16,-1.861980824923867e-15
	-6.944574928229152e-08,-4.158338841193249e-14
	-6.944574858783405e-08,8.488072492439183e-15
	-7.199756726654655e-25,-5.193344172929554e-14
	-6.944574858783405e-08,8.488072492439183e-15
13		1.348962882591653e+00,0.000000000000000e+00
	-6.944574858783404e-04,8.685785099484052e-11
	1.000000000000000e+00,0.000000000000000e+00
	0.000000000000000e+00,0.000000000000000e+00
	6.944574858783403e-08,-8.685785099484049e-15
	7.539070807501586e-25,5.314312698660902e-14
	6.944574848005345e-16,-1.905351929905733e-15
	-6.944574928229152e-08,-4.255198995721923e-14
	-6.944574858783405e-08,8.685785099484052e-15
	-7.539070807501586e-25,-5.314312698660902e-14
	-6.944574858783405e-08,8.685785099484052e-15
14		1.380384264602885e+00,0.000000000000000e+00
	-6.944574858783404e-04,8.888103024758623e-11
	1.000000000000000e+00,0.000000000000000e+00
	0.000000000000000e+00,0.000000000000000e+00
	6.944574858783403e-08,-8.888103024758622e-15
	7.894376268312059e-25,5.438098943328324e-14
	6.944574848005345e-16,-1.949733277701150e-15
	-6.944574928229152e-08,-4.354315313082347e-14
	-6.944574858783405e-08,8.888103024758623e-15
	-7.894376268312059e-25,-5.438098943328324e-14
	-6.944574858783405e-08,8.888103024758623e-15
15		1.412537544622754e+00,0.000000000000000e+00
	-6.944574858783404e-04,9.095133539904872e-11
	1.000000000000000e+00,0.000000000000000e+00
	0.000000000000000e+00,0.000000000000000e+00
	6.944574858783403e-08,-9.095133539904872e-15
	8.266426759605084e-25,5.564768540037248e-14
	6.944574848005345e-16,-1.995148399888165e-15
	-6.944574928229152e-08,-4.455740346057944e-14
	-6.944574858783405e-08,9.095133539904872e-15
	-8.266426759605084e-25,-5.564768540037248e-14
	-6.944574858783405e-08,9.095133539904872e-15
16		1.445439770745927e+00,0.000000000000000e+00
	-6.944574858783404e-04,9.306986415242303e-11
	1.000000000000000e+00,0.000000000000000e+00
	0.000000000000000e+00,0.000000000000000e+00
	6.944574858783403e-08,-9.306986415242303e-15
	8.656011450354371e-25,5.694388650684518e-14
	6.944574848005345e-16,-2.041621376165729e-15
	-6.944574928229152e-08,-4.559527871543715e-14
	-6.944574858783405e-08,9.306986415242303e-15
	-8.656011450354371e-25,-5.694388650684518e-14
	-6.944574858783405e-08,9.306986415242303e-15
17		1.479108388168207e+00,0.000000000000000e+00
	-6.944574858783404e-04,9.523773977969625e-11
	1.000000000000000e+00,0.000000000000000e+00
	0.000000000000000e+00,0.000000000000000e+00
	6.944574858783403e-08,-9.523773977969624e-15
	9.063956701921533e-25,5.827028001568526e-14
	6.944574848005345e-16,-2.089176847120974e-15
	-6.944574928229152e-08,-4.665732919059466e-14
	-6.944574858783405e-08,9.523773977969626e-15
	-9.063956701921533e-25,-5.827028001568526e-14
	-6.944574858783405e-08,9.523773977969626e-15
18		1.513561248436208e+00,0.000000000000000e+00
	-6.944574858783404e-04,9.745611171722120e-11
	1.000000000000000e+00,0.000000000000000e+00
	0.000000000000000e+00,0.000000000000000e+00
	6.944574858783403e-08,-9.745611171722119e-15
	9.491127820879316e-25,5.962756919828800e-14
	6.944574848005345e-16,-2.137840027294095e-15
	-6.944574928229152e-08,-4.774411799927178e-14
	-6.944574858783405e-08,9.745611171722120e-15
	-9.491127820879316e-25,-5.962756919828800e-14
	-6.944574858783405e-08,9.745611171722120e-15
19		1.548816618912481e+00,0.000000000000000e+00
	-6.944574858783404e-04,9.972615617516271e-11
	1.000000000000000e+00,0.000000000000000e+00
	0.000000000000000e+00,0.000000000000000e+00
	6.944574858783403e-08,-9.972615617516271e-15
	9.938430894442852e-25,6.101647370734384e-14
	6.944574848005345e-16,-2.187636718547336e-15
	-6.944574928229152e-08,-4.885622137128024e-14
	-6.944574858783405e-08,9.972615617516271e-15
	-9.938430894442852e-25,-6.101647370734384e-14
	-6.944574858783405e-08,9.972615617516271e-15
20		1.584893192461113e+00,0.000000000000000e+00
	-6.944574858783404e-04,1.020490767611401e-10
	1.000000000000000e+00,0.000000000000000e+00
	0.000000000000000e+00,0.000000000000000e+00
	6.944574858783403e-08,-1.020490767611401e-14
	1.040681471240215e-24,6.243772995840785e-14
	6.944574848005345e-16,-2.238593323745560e-15
	-6.944574928229152e-08,-4.999422895854828e-14
	-6.944574858783405e-08,1.020490767611401e-14
	-1.040681471240215e-24,-6.243772995840785e-14
	-6.944574858783405e-08,1.020490767611401e-14
21		1.621810097358929e+00,0.000000000000000e+00
	-6.944574858783404e-04,1.044261051183954e-10
	1.000000000000000e+00,0.000000000000000e+00
	0.000000000000000e+00,0.000000000000000e+00
	6.944574858783403e-08,-1.044261051183954e-14
	1.089727277963240e-24,6.389209152035685e-14
	6.944574848005345e-16,-2.290736860755317e-15
	-6.944574928229152e-08,-5.115874414776200e-14
	-6.944574858783405e-08,1.044261051183954e-14
	-1.089727277963240e-24,-6.389209152035685e-14
	-6.944574858783405e-08,1.044261051183954e-14
22		1.659586907437560e+00,0.000000000000000e+00
	-6.944574858783404e-04,1.068585015788274e-10
	1.000000000000000e+00,0.000000000000000e+00
	0.000000000000000e+00,0.000000000000000e+00
	6.944574858783403e-08,-1.068585015788274e-14
	1.141084542345107e-24,6.538032951494176e-14
	6.944574848005345e-16,-2.344094976770125e-15
	-6.944574928229152e-08,-5.235038438028890e-14
	-6.944574858783405e-08,1.068585015788274e-14
	-1.141084542345107e-24,-6.538032951494176e-14
	-6.944574858783405e-08,1.068585015788274e-14
23		1.698243652461743e+00,0.000000000000000e+00
	-6.944574858783404e-04,1.093475558312360e-10
	1.000000000000000e+00,0.000000000000000e+00
	0.000000000000000e+00,0.000000000000000e+00
	6.944574858783403e-08,-1.093475558312360e-14
	1.194862200029156e-24,6.690323302564646e-14
	6.944574848005345e-16,-2.398695962969388e-15
	-6.944574928229152e-08,-5.356978147955348e-14
	-6.944574858783405e-08,1.093475558312360e-14
	-1.194862200029156e-24,-6.690323302564646e-14
	-6.944574858783405e-08,1.093475558312360e-14
24		1.737800828749374e+00,0.000000000000000e+00
	-6.944574858783404e-04,1.118945876051323e-10
	1.000000000000000e+00,0.000000000000000e+00
	0.000000000000000e+00,0.000000000000000e+00
	6.944574858783403e-08,-1.118945876051323e-14
	1.251174320637434e-24,6.846160951607033e-14
	6.944574848005345e-16,-2.454568769518712e-15
	-6.944574928229152e-08,-5.481758198603839e-14
	-6.944574858783405e-08,1.118945876051323e-14
	-1.251174320637434e-24,-6.846160951607033e-14
	-6.944574858783405e-08,1.118945876051323e-14
25		1.778279410038922e+00,0.000000000000000e+00
	-6.944574858783404e-04,1.145009473704768e-10
	1.000000000000000e+00,0.000000000000000e+00
	0.000000000000000e+00,0.000000000000000e+00
	6.944574858783403e-08,-1.145009473704768e-14
	1.310140349727647e-24,7.005628525805616e-14
	6.944574848005345e-16,-2.511743020919681e-15
	-6.944574928229152e-08,-5.609444750008880e-14
	-6.944574858783405e-08,1.145009473704768e-14
	-1.310140349727647e-24,-7.005628525805616e-14
	-6.944574858783405e-08,1.145009473704768e-14
26		1.819700858609982e+00,0.000000000000000e+00
	-6.944574858783404e-04,1.171680170537163e-10
	1.000000000000000e+00,0.000000000000000e+00
	0.000000000000000e+00,0.000000000000000e+00
	6.944574858783403e-08,-1.171680170537163e-14
	1.371885362153208e-24,7.168810576979037e-14
	6.944574848005345e-16,-2.570249031717213e-15
	-6.944574928229152e-08,-5.740105503270152e-14
	-6.944574858783405e-08,1.171680170537163e-14
	-1.371885362153208e-24,-7.168810576979037e-14
	-6.944574858783405e-08,1.171680170537163e-14
27		1.862087136662866e+00,0.000000000000000e+00
	-6.944574858783404e-04,1.198972107704998e-10
	1.000000000000000e+00,0.000000000000000e+00
	0.000000000000000e+00,0.000000000000000e+00
	6.944574858783403e-08,-1.198972107704998e-14
	1.436540327363772e-24,7.335793626410798e-14
	6.944574848005345e-16,-2.630117822572622e-15
	-6.944574928229152e-08,-5.873809736448537e-14
	-6.944574858783405e-08,1.198972107704998e-14
	-1.436540327363772e-24,-7.335793626410798e-14
	-6.944574858783405e-08,1.198972107704998e-14
28		1.905460717963246e+00,0.000000000000000e+00
	-6.944574858783404e-04,1.226899755754610e-10
	1.000000000000000e+00,0.000000000000000e+00
	0.000000000000000e+00,0.000000000000000e+00
	6.944574858783403e-08,-1.226899755754610e-14
	1.504242387208990e-24,7.506666210723989e-14
	6.944574848005345e-16,-2.691381136711277e-15
	-6.944574928229152e-08,-6.010628341298252e-14
	-6.944574858783405e-08,1.226899755754610e-14
	-1.504242387208990e-24,-7.506666210723989e-14
	-6.944574858783405e-08,1.226899755754610e-14
29		1.949844599758044e+00,0.000000000000000e+00
	-6.944574858783404e-04,1.255477922294661e-10
	1.000000000000000e+00,0.000000000000000e+00
	0.000000000000000e+00,0.000000000000000e+00
	6.944574858783403e-08,-1.255477922294661e-14
	1.575135146834769e-24,7.681518928824581e-14
	6.944574848005345e-16,-2.754071456753252e-15
	-6.944574928229152e-08,-6.150633860854594e-14
	-6.944574858783405e-08,1.255477922294661e-14
	-1.575135146834769e-24,-7.681518928824581e-14
	-6.944574858783405e-08,1.255477922294661e-14
30		1.995262314968878e+00,0.000000000000000e+00
	-6.944574858783404e-04,1.284721759847328e-10
	1.000000000000000e+00,0.000000000000000e+00
	0.000000000000000e+00,0.000000000000000e+00
	6.944574858783403e-08,-1.284721759847328e-14
	1.649368979289031e-24,7.860444489938158e-14
	6.944574848005345e-16,-2.818222021936042e-15
	-6.944574928229152e-08,-6.293900527897226e-14
	-6.944574858783405e-08,1.284721759847328e-14
	-1.649368979289031e-24,-7.860444489938158e-14
	-6.944574858783405e-08,1.284721759847328e-14
31		2.041737944669527e+00,0.000000000000000e+00
	-6.944574858783404e-04,1.314646773882368e-10
	1.000000000000000e+00,0.000000000000000e+00
	0.000000000000000e+00,0.000000000000000e+00
	6.944574858783403e-08,-1.314646773882368e-14
	1.727101344483117e-24,8.043537762765583e-14
	6.944574848005345e-16,-2.883866845738454e-15
	-6.944574928229152e-08,-6.440504304309369e-14
	-6.944574858783405e-08,1.314646773882368e-14
	-1.727101344483117e-24,-8.043537762765583e-14
	-6.944574858783405e-08,1.314646773882368e-14
32		2.089296130854037e+00,0.000000000000000e+00
	-6.944574858783404e-04,1.345268831038329e-10
	1.000000000000000e+00,0.000000000000000e+00
	0.000000000000000e+00,0.000000000000000e+00
	6.944574858783403e-08,-1.345268831038329e-14
	1.808497123185363e-24,8.230895825783636e-14
	6.944574848005345e-16,-2.951040733914965e-15
	-6.944574928229152e-08,-6.590522921353811e-14
	-6.944574858783405e-08,1.345268831038329e-14
	-1.808497123185363e-24,-8.230895825783636e-14
	-6.944574858783405e-08,1.345268831038329e-14
33		2.137962089502230e+00,0.000000000000000e+00
	-6.944574858783404e-04,1.376604167535244e-10
	1.000000000000000e+00,0.000000000000000e+00
	0.000000000000000e+00,0.000000000000000e+00
	6.944574858783403e-08,-1.376604167535244e-14
	1.893728966755318e-24,8.422618018717306e-14
	6.944574848005345e-16,-3.019779302950240e-15
	-6.944574928229152e-08,-6.744035920887038e-14
	-6.944574858783405e-08,1.376604167535244e-14
	-1.893728966755318e-24,-8.422618018717306e-14
	-6.944574858783405e-08,1.376604167535244e-14
34		2.187761623949550e+00,0.000000000000000e+00
	-6.944574858783404e-04,1.408669397783296e-10
	1.000000000000000e+00,0.000000000000000e+00
	0.000000000000000e+00,0.000000000000000e+00
	6.944574858783403e-08,-1.408669397783296e-14
	1.982977663360426e-24,8.618805995211028e-14
	6.944574848005345e-16,-3.090118998943438e-15
	-6.944574928229152e-08,-6.901124697533388e-14
	-6.944574858783405e-08,1.408669397783296e-14
	-1.982977663360426e-24,-8.618805995211028e-14
	-6.944574858783405e-08,1.408669397783296e-14
35		2.238721138568337e+00,0.000000000000000e+00
	-6.944574858783404e-04,1.441481523191997e-10
	1.000000000000000e+00,0.000000000000000e+00
	0.000000000000000e+00,0.000000000000000e+00
	6.944574858783403e-08,-1.441481523191997e-14
	2.076432521451968e-24,8.819563776726795e-14
	6.944574848005345e-16,-3.162097116932436e-15
	-6.944574928229152e-08,-7.061872541841555e-14
	-6.944574858783405e-08,1.441481523191997e-14
	-2.076432521451968e-24,-8.819563776726795e-14
	-6.944574858783405e-08,1.441481523191997e-14
36		2.290867652767770e+00,0.000000000000000e+00
	-6.944574858783404e-04,1.475057941184558e-10
	1.000000000000000e+00,0.000000000000000e+00
	0.000000000000000e+00,0.000000000000000e+00
	6.944574858783403e-08,-1.475057941184557e-14
	2.174291771313667e-24,9.024997807697711e-14
	6.944574848005345e-16,-3.235751820668142e-15
	-6.944574928229152e-08,-7.226364684446339e-14
	-6.944574858783405e-08,1.475057941184558e-14
	-2.174291771313667e-24,-9.024997807697711e-14
	-6.944574858783405e-08,1.475057941184558e-14
37		2.344228815319919e+00,0.000000000000000e+00
	-6.944574858783404e-04,1.509416454422235e-10
	1.000000000000000e+00,0.000000000000000e+00
	0.000000000000000e+00,0.000000000000000e+00
	6.944574858783403e-08,-1.509416454422234e-14
	2.276762985534699e-24,9.235217011966235e-14
	6.944574848005345e-16,-3.311122162849385e-15
	-6.944574928229152e-08,-7.394688341259063e-14
	-6.944574858783405e-08,1.509416454422235e-14
	-2.276762985534699e-24,-9.235217011966235e-14
	-6.944574858783405e-08,1.509416454422235e-14
38		2.398832919019488e+00,0.000000000000000e+00
	-6.944574858783404e-04,1.544575280243535e-10
	1.000000000000000e+00,0.000000000000000e+00
	0.000000000000000e+00,0.000000000000000e+00
