Title: * GA CMOS Amp | W=4.2206753228899616e-06 L=6.485120389669682e-07 Vbias=1.256225709056904
Date: Sat Sep  6 22:06:35 2025
Plotname: AC Analysis
Flags: complex forward log
No. Variables: 13
No. Points:          901
Offset:    0.0000000000000000e+00
Command: Linear Technology Corporation LTspice
Variables:
	0	frequency	frequency
	1	V(out)	voltage
	2	V(g)	voltage
	3	V(vdd)	voltage
	4	V(m1#dbody)	voltage
	5	V(m1#sbody)	voltage
	6	Id(M1)	device_current
	7	Ig(M1)	device_current
	8	Ib(M1)	device_current
	9	Is(M1)	device_current
	10	I(Rload)	device_current
	11	I(Vg)	device_current
	12	I(Vdd)	device_current
Values:
0		1.000000000000000e+00,0.000000000000000e+00
	-3.627717319584050e-02,6.862607157445445e-10
	1.000000000000000e+00,0.000000000000000e+00
	0.000000000000000e+00,0.000000000000000e+00
	1.483534443189162e-05,5.579848902745655e-14
	1.483534470396947e-05,5.910783805702995e-14
	3.627717319584051e-06,-6.862607157445443e-14
	1.083432152873625e-05,6.944912873297781e-13
	-7.912183829957975e-06,-3.130450126697128e-14
	-6.549855018362329e-06,-5.945607144883524e-13
	-3.627717319584050e-06,6.862607157445446e-14
	-1.083432152881869e-05,-6.944912873297782e-13
	-3.627717319584050e-06,6.862607157445446e-14
1		1.023292992280754e+00,0.000000000000000e+00
	-3.627717319584050e-02,7.022457812989670e-10
	1.000000000000000e+00,0.000000000000000e+00
	0.000000000000000e+00,0.000000000000000e+00
	1.483534443189162e-05,5.709820280165084e-14
	1.483534470396947e-05,6.048463647262441e-14
	3.627717319584051e-06,-7.022457812989674e-14
	1.083432152873625e-05,7.106680675246017e-13
	-7.912183829957975e-06,-3.203367677333570e-14
	-6.549855018362329e-06,-6.084098126213693e-13
	-3.627717319584050e-06,7.022457812989670e-14
	-1.083432152881869e-05,-7.106680675246016e-13
	-3.627717319584050e-06,7.022457812989670e-14
2		1.047128548050899e+00,0.000000000000000e+00
	-3.627717319584050e-02,7.186031868619559e-10
	1.000000000000000e+00,0.000000000000000e+00
	0.000000000000000e+00,0.000000000000000e+00
	1.483534443189162e-05,5.842819079875460e-14
	1.483534470396947e-05,6.189350464308545e-14
	3.627717319584051e-06,-7.186031868619551e-14
	1.083432152873625e-05,7.272216533356305e-13
	-7.912183829957975e-06,-3.277983695914117e-14
	-6.549855018362329e-06,-6.225814976902938e-13
	-3.627717319584050e-06,7.186031868619558e-14
	-1.083432152881869e-05,-7.272216533356306e-13
	-3.627717319584050e-06,7.186031868619558e-14
3		1.071519305237606e+00,0.000000000000000e+00
	-3.627717319584050e-02,7.353416053464567e-10
	1.000000000000000e+00,0.000000000000000e+00
	0.000000000000000e+00,0.000000000000000e+00
	1.483534443189162e-05,5.978915819600842e-14
	1.483534470396947e-05,6.333518956896566e-14
	3.627717319584051e-06,-7.353416053464564e-14
	1.083432152873625e-05,7.441608216931747e-13
	-7.912183829957975e-06,-3.354337744839482e-14
	-6.549855018362329e-06,-6.370832837101342e-13
	-3.627717319584050e-06,7.353416053464568e-14
	-1.083432152881869e-05,-7.441608216931746e-13
	-3.627717319584050e-06,7.353416053464568e-14
4		1.096478196143185e+00,0.000000000000000e+00
	-3.627717319584050e-02,7.524699116835089e-10
	1.000000000000000e+00,0.000000000000000e+00
	0.000000000000000e+00,0.000000000000000e+00
	1.483534443189162e-05,6.118182659634082e-14
	1.483534470396947e-05,6.481045565069566e-14
	3.627717319584051e-06,-7.524699116835092e-14
	1.083432152873625e-05,7.614945539685134e-13
	-7.912183829957975e-06,-3.432470308037071e-14
	-6.549855018362329e-06,-6.519228597197918e-13
	-3.627717319584050e-06,7.524699116835089e-14
	-1.083432152881869e-05,-7.614945539685132e-13
	-3.627717319584050e-06,7.524699116835089e-14
5		1.122018454301963e+00,0.000000000000000e+00
	-3.627717319584050e-02,7.699971875278527e-10
	1.000000000000000e+00,0.000000000000000e+00
	0.000000000000000e+00,0.000000000000000e+00
	1.483534443189162e-05,6.260693441097184e-14
	1.483534470396947e-05,6.632008509387949e-14
	3.627717319584051e-06,-7.699971875278529e-14
	1.083432152873625e-05,7.792320407359383e-13
	-7.912183829957975e-06,-3.512422812426096e-14
	-6.549855018362329e-06,-6.671080938588921e-13
	-3.627717319584050e-06,7.699971875278527e-14
	-1.083432152881869e-05,-7.792320407359381e-13
	-3.627717319584050e-06,7.699971875278527e-14
6		1.148153621496882e+00,0.000000000000000e+00
	-3.627717319584050e-02,7.879327260731413e-10
	1.000000000000000e+00,0.000000000000000e+00
	0.000000000000000e+00,0.000000000000000e+00
	1.483534443189162e-05,6.406523725092829e-14
	1.483534470396947e-05,6.786487832403018e-14
	3.627717319584051e-06,-7.879327260731412e-14
	1.083432152873625e-05,7.973826866457168e-13
	-7.912183829957975e-06,-3.594237649882681e-14
	-6.549855018362329e-06,-6.826470375395759e-13
	-3.627717319584050e-06,7.879327260731414e-14
	-1.083432152881869e-05,-7.973826866457168e-13
	-3.627717319584050e-06,7.879327260731414e-14
7		1.174897554939529e+00,0.000000000000000e+00
	-3.627717319584050e-02,8.062860369793166e-10
	1.000000000000000e+00,0.000000000000000e+00
	0.000000000000000e+00,0.000000000000000e+00
	1.483534443189162e-05,6.555750832767883e-14
	1.483534470396947e-05,6.944565441096611e-14
	3.627717319584051e-06,-8.062860369793161e-14
	1.083432152873625e-05,8.159561154105623e-13
	-7.912183829957975e-06,-3.677958199716594e-14
	-6.549855018362329e-06,-6.985479297154648e-13
	-3.627717319584050e-06,8.062860369793166e-14
	-1.083432152881869e-05,-8.159561154105624e-13
	-3.627717319584050e-06,8.062860369793166e-14
8		1.202264434617413e+00,0.000000000000000e+00
	-3.627717319584050e-02,8.250668514147557e-10
	1.000000000000000e+00,0.000000000000000e+00
	0.000000000000000e+00,0.000000000000000e+00
	1.483534443189162e-05,6.708453886310096e-14
	1.483534470396947e-05,7.106325150309270e-14
	3.627717319584051e-06,-8.250668514147561e-14
	1.083432152873625e-05,8.349621749082550e-13
	-7.912183829957975e-06,-3.763628851671531e-14
	-6.549855018362329e-06,-7.148192012500641e-13
	-3.627717319584050e-06,8.250668514147557e-14
	-1.083432152881869e-05,-8.349621749082547e-13
	-3.627717319584050e-06,8.250668514147557e-14
9		1.230268770812381e+00,0.000000000000000e+00
	-3.627717319584050e-02,8.442851272158656e-10
	1.000000000000000e+00,0.000000000000000e+00
	0.000000000000000e+00,0.000000000000000e+00
	1.483534443189162e-05,6.864713850899710e-14
	1.483534470396947e-05,7.271852727179951e-14
	3.627717319584051e-06,-8.442851272158658e-14
	1.083432152873625e-05,8.544109424031144e-13
	-7.912183829957975e-06,-3.851295029461139e-14
	-6.549855018362329e-06,-7.314694793869164e-13
	-3.627717319584050e-06,8.442851272158656e-14
	-1.083432152881869e-05,-8.544109424031145e-13
	-3.627717319584050e-06,8.442851272158656e-14
10		1.258925411794167e+00,0.000000000000000e+00
	-3.627717319584050e-02,8.639510541668604e-10
	1.000000000000000e+00,0.000000000000000e+00
	0.000000000000000e+00,0.000000000000000e+00
	1.483534443189162e-05,7.024613577638304e-14
	1.483534470396947e-05,7.441235936620934e-14
	3.627717319584051e-06,-8.639510541668608e-14
	1.083432152873625e-05,8.743127298891021e-13
	-7.912183829957975e-06,-3.941003214853283e-14
	-6.549855018362329e-06,-7.485075923238832e-13
	-3.627717319584050e-06,8.639510541668604e-14
	-1.083432152881869e-05,-8.743127298891021e-13
	-3.627717319584050e-06,8.639510541668604e-14
11		1.288249551693134e+00,0.000000000000000e+00
	-3.627717319584050e-02,8.840750594025186e-10
	1.000000000000000e+00,0.000000000000000e+00
	0.000000000000000e+00,0.000000000000000e+00
	1.483534443189162e-05,7.188237847477513e-14
	1.483534470396947e-05,7.614564587851915e-14
	3.627717319584051e-06,-8.840750594025186e-14
	1.083432152873625e-05,8.946780895573742e-13
	-7.912183829957975e-06,-4.032800972315288e-14
	-6.549855018362329e-06,-7.659425738939694e-13
	-3.627717319584050e-06,8.840750594025186e-14
	-1.083432152881869e-05,-8.946780895573741e-13
	-3.627717319584050e-06,8.840750594025186e-14
12		1.318256738556407e+00,0.000000000000000e+00
	-3.627717319584050e-02,9.046678129367886e-10
	1.000000000000000e+00,0.000000000000000e+00
	0.000000000000000e+00,0.000000000000000e+00
	1.483534443189162e-05,7.355673416171033e-14
	1.483534470396947e-05,7.791930582018055e-14
	3.627717319584051e-06,-9.046678129367884e-14
	1.083432152873625e-05,9.155178193911937e-13
	-7.912183829957975e-06,-4.126736974233247e-14
	-6.549855018362329e-06,-7.837836683551824e-13
	-3.627717319584050e-06,9.046678129367886e-14
	-1.083432152881869e-05,-9.155178193911935e-13
	-3.627717319584050e-06,9.046678129367886e-14
13		1.348962882591653e+00,0.000000000000000e+00
	-3.627717319584050e-02,9.257402333201720e-10
	1.000000000000000e+00,0.000000000000000e+00
	0.000000000000000e+00,0.000000000000000e+00
	1.483534443189162e-05,7.527009060273651e-14
	1.483534470396947e-05,7.973427960917173e-14
	3.627717319584051e-06,-9.257402333201718e-14
	1.083432152873625e-05,9.368429688911657e-13
	-7.912183829957975e-06,-4.222861026718763e-14
	-6.549855018362329e-06,-8.020403352919610e-13
	-3.627717319584050e-06,9.257402333201721e-14
	-1.083432152881869e-05,-9.368429688911657e-13
	-3.627717319584050e-06,9.257402333201721e-14
14		1.380384264602885e+00,0.000000000000000e+00
	-3.627717319584050e-02,9.473034934288823e-10
	1.000000000000000e+00,0.000000000000000e+00
	0.000000000000000e+00,0.000000000000000e+00
	1.483534443189162e-05,7.702335624211772e-14
	1.483534470396947e-05,8.159152956861967e-14
	3.627717319584051e-06,-9.473034934288825e-14
	1.083432152873625e-05,9.586648449338268e-13
	-7.912183829957975e-06,-4.321224096016822e-14
	-6.549855018362329e-06,-8.207222546307702e-13
	-3.627717319584050e-06,9.473034934288824e-14
	-1.083432152881869e-05,-9.586648449338264e-13
	-3.627717319584050e-06,9.473034934288824e-14
15		1.412537544622754e+00,0.000000000000000e+00
	-3.627717319584050e-02,9.693690263888526e-10
	1.000000000000000e+00,0.000000000000000e+00
	0.000000000000000e+00,0.000000000000000e+00
	1.483534443189162e-05,7.881746068450315e-14
	1.483534470396947e-05,8.349204043703646e-14
	3.627717319584051e-06,-9.693690263888530e-14
	1.083432152873625e-05,9.809950177667005e-13
	-7.912183829957975e-06,-4.421878335528751e-14
	-6.549855018362329e-06,-8.398393317725277e-13
	-3.627717319584050e-06,9.693690263888526e-14
	-1.083432152881869e-05,-9.809950177667005e-13
	-3.627717319584050e-06,9.693690263888526e-14
16		1.445439770745927e+00,0.000000000000000e+00
	-3.627717319584050e-02,9.919485316377301e-10
	1.000000000000000e+00,0.000000000000000e+00
	0.000000000000000e+00,0.000000000000000e+00
	1.483534443189162e-05,8.065335518781591e-14
	1.483534470396947e-05,8.543681989044073e-14
	3.627717319584051e-06,-9.919485316377301e-14
	1.083432152873625e-05,1.003845327142998e-12
	-7.912183829957975e-06,-4.524877113464654e-14
	-6.549855018362329e-06,-8.594017028445787e-13
	-3.627717319584050e-06,9.919485316377301e-14
	-1.083432152881869e-05,-1.003845327142998e-12
	-3.627717319584050e-06,9.919485316377301e-14
17		1.479108388168207e+00,0.000000000000000e+00
	-3.627717319584050e-02,1.015053981128073e-09
	1.000000000000000e+00,0.000000000000000e+00
	0.000000000000000e+00,0.000000000000000e+00
	1.483534443189162e-05,8.253201316762264e-14
	1.483534470396947e-05,8.742689907664095e-14
	3.627717319584051e-06,-1.015053981128072e-13
	1.083432152873625e-05,1.027227888599211e-12
	-7.912183829957975e-06,-4.630275041139948e-14
	-6.549855018362329e-06,-8.794197400750046e-13
	-3.627717319584050e-06,1.015053981128073e-13
	-1.083432152881869e-05,-1.027227888599211e-12
	-3.627717319584050e-06,1.015053981128073e-13
18		1.513561248436208e+00,0.000000000000000e+00
	-3.627717319584050e-02,1.038697625675038e-09
	1.000000000000000e+00,0.000000000000000e+00
	0.000000000000000e+00,0.000000000000000e+00
	1.483534443189162e-05,8.445443071325117e-14
	1.483534470396947e-05,8.946333316196341e-14
	3.627717319584051e-06,-1.038697625675037e-13
	1.083432152873625e-05,1.051155099878928e-12
	-7.912183829957975e-06,-4.738128001930989e-14
	-6.549855018362329e-06,-8.999040572921144e-13
	-3.627717319584050e-06,1.038697625675038e-13
	-1.083432152881869e-05,-1.051155099878928e-12
	-3.627717319584050e-06,1.038697625675038e-13
19		1.548816618912481e+00,0.000000000000000e+00
	-3.627717319584050e-02,1.062892001451924e-09
	1.000000000000000e+00,0.000000000000000e+00
	0.000000000000000e+00,0.000000000000000e+00
	1.483534443189162e-05,8.642162711593038e-14
	1.483534470396947e-05,9.154720189071555e-14
	3.627717319584051e-06,-1.062892001451924e-13
	1.083432152873625e-05,1.075639647506283e-12
	-7.912183829957975e-06,-4.848493180905192e-14
	-6.549855018362329e-06,-9.208655155520389e-13
	-3.627717319584050e-06,1.062892001451924e-13
	-1.083432152881869e-05,-1.075639647506283e-12
	-3.627717319584050e-06,1.062892001451924e-13
20		1.584893192461113e+00,0.000000000000000e+00
	-3.627717319584050e-02,1.087649936637019e-09
	1.000000000000000e+00,0.000000000000000e+00
	0.000000000000000e+00,0.000000000000000e+00
	1.483534443189162e-05,8.843464540923196e-14
	1.483534470396947e-05,9.367961015768063e-14
	3.627717319584051e-06,-1.087649936637019e-13
	1.083432152873625e-05,1.100694513512520e-12
	-7.912183829957975e-06,-4.961429095141305e-14
	-6.549855018362329e-06,-9.423152288974053e-13
	-3.627717319584050e-06,1.087649936637019e-13
	-1.083432152881869e-05,-1.100694513512520e-12
	-3.627717319584050e-06,1.087649936637019e-13
21		1.621810097358929e+00,0.000000000000000e+00
	-3.627717319584050e-02,1.112984558215268e-09
	1.000000000000000e+00,0.000000000000000e+00
	0.000000000000000e+00,0.000000000000000e+00
	1.483534443189162e-05,9.049455292210042e-14
	1.483534470396947e-05,9.586168859394753e-14
	3.627717319584051e-06,-1.112984558215268e-13
	1.083432152873625e-05,1.126332982319236e-12
	-7.912183829957975e-06,-5.076995624755940e-14
	-6.549855018362329e-06,-9.642645702501494e-13
	-3.627717319584050e-06,1.112984558215268e-13
	-1.083432152881869e-05,-1.126332982319236e-12
	-3.627717319584050e-06,1.112984558215268e-13
22		1.659586907437560e+00,0.000000000000000e+00
	-3.627717319584050e-02,1.138909298938375e-09
	1.000000000000000e+00,0.000000000000000e+00
	0.000000000000000e+00,0.000000000000000e+00
	1.483534443189162e-05,9.260244184476522e-14
	1.483534470396947e-05,9.809459416638642e-14
	3.627717319584051e-06,-1.138909298938375e-13
	1.083432152873625e-05,1.152568647781956e-12
	-7.912183829957975e-06,-5.195254044652804e-14
	-6.549855018362329e-06,-9.867251774415908e-13
	-3.627717319584050e-06,1.138909298938375e-13
	-1.083432152881869e-05,-1.152568647781956e-12
	-3.627717319584050e-06,1.138909298938375e-13
23		1.698243652461743e+00,0.000000000000000e+00
	-3.627717319584050e-02,1.165437904447026e-09
	1.000000000000000e+00,0.000000000000000e+00
	0.000000000000000e+00,0.000000000000000e+00
	1.483534443189162e-05,9.475942980783430e-14
	1.483534470396947e-05,1.003795107910877e-13
	3.627717319584051e-06,-1.165437904447023e-13
	1.083432152873625e-05,1.179415420397781e-12
	-7.912183829957975e-06,-5.316267057011457e-14
	-6.549855018362329e-06,-1.009708959382964e-12
	-3.627717319584050e-06,1.165437904447026e-13
	-1.083432152881869e-05,-1.179415420397781e-12
	-3.627717319584050e-06,1.165437904447026e-13
24		1.737800828749374e+00,0.000000000000000e+00
	-3.627717319584050e-02,1.192584440559008e-09
	1.000000000000000e+00,0.000000000000000e+00
	0.000000000000000e+00,0.000000000000000e+00
	1.483534443189162e-05,9.696666047487686e-14
	1.483534470396947e-05,1.027176499610904e-13
	3.627717319584051e-06,-1.192584440559009e-13
	1.083432152873625e-05,1.206887534680909e-12
	-7.912183829957975e-06,-5.440098824532852e-14
	-6.549855018362329e-06,-1.033228102379679e-12
	-3.627717319584050e-06,1.192584440559008e-13
	-1.083432152881869e-05,-1.206887534680908e-12
	-3.627717319584050e-06,1.192584440559008e-13
25		1.778279410038922e+00,0.000000000000000e+00
	-3.627717319584050e-02,1.220363300727097e-09
	1.000000000000000e+00,0.000000000000000e+00
	0.000000000000000e+00,0.000000000000000e+00
	1.483534443189162e-05,9.922530414880866e-14
	1.483534470396947e-05,1.051102513887313e-13
	3.627717319584051e-06,-1.220363300727096e-13
	1.083432152873625e-05,1.234999556709969e-12
	-7.912183829957975e-06,-5.566815004459235e-14
	-6.549855018362329e-06,-1.057295076592667e-12
	-3.627717319584050e-06,1.220363300727097e-13
	-1.083432152881869e-05,-1.234999556709969e-12
	-3.627717319584050e-06,1.220363300727097e-13
26		1.819700858609982e+00,0.000000000000000e+00
	-3.627717319584050e-02,1.248789213670648e-09
	1.000000000000000e+00,0.000000000000000e+00
	0.000000000000000e+00,0.000000000000000e+00
	1.483534443189162e-05,1.015365583924023e-13
	1.483534470396947e-05,1.075585836629571e-13
	3.627717319584051e-06,-1.248789213670649e-13
	1.083432152873625e-05,1.263766391851149e-12
	-7.912183829957975e-06,-5.696482783386490e-14
	-6.549855018362329e-06,-1.081922642650219e-12
	-3.627717319584050e-06,1.248789213670649e-13
	-1.083432152881869e-05,-1.263766391851149e-12
	-3.627717319584050e-06,1.248789213670649e-13
27		1.862087136662866e+00,0.000000000000000e+00
	-3.627717319584050e-02,1.277877251184968e-09
	1.000000000000000e+00,0.000000000000000e+00
	0.000000000000000e+00,0.000000000000000e+00
	1.483534443189162e-05,1.039016486632509e-13
	1.483534470396947e-05,1.100639449219473e-13
	3.627717319584051e-06,-1.277877251184967e-13
	1.083432152873625e-05,1.293203292661215e-12
	-7.912183829957975e-06,-5.829170912887362e-14
	-6.549855018362329e-06,-1.107123858413844e-12
	-3.627717319584050e-06,1.277877251184968e-13
	-1.083432152881869e-05,-1.293203292661214e-12
	-3.627717319584050e-06,1.277877251184968e-13
28		1.905460717963246e+00,0.000000000000000e+00
	-3.627717319584050e-02,1.307642836132570e-09
	1.000000000000000e+00,0.000000000000000e+00
	0.000000000000000e+00,0.000000000000000e+00
	1.483534443189162e-05,1.063218289635216e-13
	1.483534470396947e-05,1.126276635414035e-13
	3.627717319584051e-06,-1.307642836132572e-13
	1.083432152873625e-05,1.323325866974618e-12
	-7.912183829957975e-06,-5.964949745964442e-14
	-6.549855018362329e-06,-1.132912085901716e-12
	-3.627717319584050e-06,1.307642836132570e-13
	-1.083432152881869e-05,-1.323325866974618e-12
	-3.627717319584050e-06,1.307642836132570e-13
29		1.949844599758044e+00,0.000000000000000e+00
	-3.627717319584050e-02,1.338101750620590e-09
	1.000000000000000e+00,0.000000000000000e+00
	0.000000000000000e+00,0.000000000000000e+00
	1.483534443189162e-05,1.087983825048446e-13
	1.483534470396947e-05,1.152510988388728e-13
	3.627717319584051e-06,-1.338101750620591e-13
	1.083432152873625e-05,1.354150086178980e-12
	-7.912183829957975e-06,-6.103891274352278e-14
	-6.549855018362329e-06,-1.159300998373398e-12
	-3.627717319584050e-06,1.338101750620590e-13
	-1.083432152881869e-05,-1.354150086178980e-12
	-3.627717319584050e-06,1.338101750620590e-13
30		1.995262314968878e+00,0.000000000000000e+00
	-3.627717319584050e-02,1.369270144368659e-09
	1.000000000000000e+00,0.000000000000000e+00
	0.000000000000000e+00,0.000000000000000e+00
	1.483534443189162e-05,1.113326223886885e-13
	1.483534470396947e-05,1.179356417944751e-13
	3.627717319584051e-06,-1.369270144368659e-13
	1.083432152873625e-05,1.385692293683329e-12
	-7.912183829957973e-06,-6.246069166688330e-14
	-6.549855018362329e-06,-1.186304587579580e-12
	-3.627717319584050e-06,1.369270144368659e-13
	-1.083432152881869e-05,-1.385692293683329e-12
	-3.627717319584050e-06,1.369270144368659e-13
31		2.041737944669527e+00,0.000000000000000e+00
	-3.627717319584050e-02,1.401164543271705e-09
	1.000000000000000e+00,0.000000000000000e+00
	0.000000000000000e+00,0.000000000000000e+00
	1.483534443189162e-05,1.139258923025843e-13
	1.483534470396947e-05,1.206827157884196e-13
	3.627717319584051e-06,-1.401164543271705e-13
	1.083432152873625e-05,1.417969213583596e-12
	-7.912183829957973e-06,-6.391558807573055e-14
	-6.549855018362329e-06,-1.213937171180695e-12
	-3.627717319584050e-06,1.401164543271705e-13
	-1.083432152881869e-05,-1.417969213583596e-12
	-3.627717319584050e-06,1.401164543271705e-13
32		2.089296130854037e+00,0.000000000000000e+00
	-3.627717319584050e-02,1.433801858162199e-09
	1.000000000000000e+00,0.000000000000000e+00
	0.000000000000000e+00,0.000000000000000e+00
	1.483534443189162e-05,1.165795672325664e-13
