Title: * GA CMOS Amp | W=2.11230052432854e-05 L=1e-06 Vbias=0.5702074416735265
Date: Sat Sep  6 22:37:08 2025
Plotname: AC Analysis
Flags: complex forward log
No. Variables: 13
No. Points:          901
Offset:    0.0000000000000000e+00
Command: Linear Technology Corporation LTspice
Variables:
	0	frequency	frequency
	1	V(out)	voltage
	2	V(g)	voltage
	3	V(vdd)	voltage
	4	V(m1#dbody)	voltage
	5	V(m1#sbody)	voltage
	6	Id(M1)	device_current
	7	Ig(M1)	device_current
	8	Ib(M1)	device_current
	9	Is(M1)	device_current
	10	I(Rload)	device_current
	11	I(Vg)	device_current
	12	I(Vdd)	device_current
Values:
0		1.000000000000000e+00,0.000000000000000e+00
	-3.930292634564773e-01,2.398071124629511e-09
	1.000000000000000e+00,0.000000000000000e+00
	0.000000000000000e+00,0.000000000000000e+00
	3.939580525996766e-09,1.630592029327355e-13
	3.942536256244290e-09,3.510344987280117e-13
	3.930292634564761e-05,-2.398071124629511e-13
	1.015628997048202e-06,4.856649423262123e-12
	-2.102488956236729e-09,-1.746867143138244e-13
	-4.031645285373957e-05,-4.442155596485348e-12
	-3.930292634564773e-05,2.398071124629511e-13
	-1.015628997069751e-06,-4.856649423262123e-12
	-3.930292634564773e-05,2.398071124629511e-13
1		1.023292992280754e+00,0.000000000000000e+00
	-3.930292634564773e-01,2.453929376824206e-09
	1.000000000000000e+00,0.000000000000000e+00
	0.000000000000000e+00,0.000000000000000e+00
	3.939580525996584e-09,1.668573396879537e-13
	3.942536256244162e-09,3.592111425971616e-13
	3.930292634564761e-05,-2.453929376824203e-13
	1.015628997048202e-06,4.969775320788497e-12
	-2.102488956236657e-09,-1.787556906018866e-13
	-4.031645285373957e-05,-4.545626692504190e-12
	-3.930292634564773e-05,2.453929376824206e-13
	-1.015628997069751e-06,-4.969775320788497e-12
	-3.930292634564773e-05,2.453929376824206e-13
2		1.047128548050899e+00,0.000000000000000e+00
	-3.930292634564773e-01,2.511088734856088e-09
	1.000000000000000e+00,0.000000000000000e+00
	0.000000000000000e+00,0.000000000000000e+00
	3.939580525996393e-09,1.707439464132924e-13
	3.942536256244027e-09,3.675782449688382e-13
	3.930292634564761e-05,-2.511088734856093e-13
	1.015628997048202e-06,5.085536258972705e-12
	-2.102488956236581e-09,-1.829194455232172e-13
	-4.031645285373957e-05,-4.651507939963878e-12
	-3.930292634564773e-05,2.511088734856088e-13
	-1.015628997069751e-06,-5.085536258972705e-12
	-3.930292634564773e-05,2.511088734856088e-13
3		1.071519305237606e+00,0.000000000000000e+00
	-3.930292634564773e-01,2.569579505373379e-09
	1.000000000000000e+00,0.000000000000000e+00
	0.000000000000000e+00,0.000000000000000e+00
	3.939580525996193e-09,1.747210838390826e-13
	3.942536256243887e-09,3.761402421914703e-13
	3.930292634564761e-05,-2.569579505373380e-13
	1.015628997048202e-06,5.203993615796451e-12
	-2.102488956236503e-09,-1.871801867557893e-13
	-4.031645285373957e-05,-4.759855478503324e-12
	-3.930292634564773e-05,2.569579505373379e-13
	-1.015628997069751e-06,-5.203993615796449e-12
	-3.930292634564773e-05,2.569579505373379e-13
4		1.096478196143185e+00,0.000000000000000e+00
	-3.930292634564773e-01,2.629432700956824e-09
	1.000000000000000e+00,0.000000000000000e+00
	0.000000000000000e+00,0.000000000000000e+00
	3.939580525995986e-09,1.787908606962313e-13
	3.942536256243742e-09,3.849016739493172e-13
	3.930292634564761e-05,-2.629432700956817e-13
	1.015628997048202e-06,5.325210198918289e-12
	-2.102488956236421e-09,-1.915401734010019e-13
	-4.031645285373957e-05,-4.870726755421606e-12
	-3.930292634564773e-05,2.629432700956825e-13
	-1.015628997069751e-06,-5.325210198918289e-12
	-3.930292634564773e-05,2.629432700956825e-13
5		1.122018454301963e+00,0.000000000000000e+00
	-3.930292634564773e-01,2.690680056562975e-09
	1.000000000000000e+00,0.000000000000000e+00
	0.000000000000000e+00,0.000000000000000e+00
	3.939580525995767e-09,1.829554348342983e-13
	3.942536256243588e-09,3.938671856694683e-13
	3.930292634564761e-05,-2.690680056562976e-13
	1.015628997048202e-06,5.449250278975089e-12
	-2.102488956236335e-09,-1.960017171814859e-13
	-4.031645285373957e-05,-4.984180556137305e-12
	-3.930292634564773e-05,2.690680056562975e-13
	-1.015628997069751e-06,-5.449250278975089e-12
	-3.930292634564773e-05,2.690680056562975e-13
6		1.148153621496882e+00,0.000000000000000e+00
	-3.930292634564773e-01,2.753354046350475e-09
	1.000000000000000e+00,0.000000000000000e+00
	0.000000000000000e+00,0.000000000000000e+00
	3.939580525995537e-09,1.872170143656154e-13
	3.942536256243426e-09,4.030415309849094e-13
	3.930292634564761e-05,-2.753354046350477e-13
	1.015628997048202e-06,5.576179623659151e-12
	-2.102488956236244e-09,-2.005671836668087e-13
	-4.031645285373957e-05,-5.100277035357295e-12
	-3.930292634564773e-05,2.753354046350475e-13
	-1.015628997069751e-06,-5.576179623659150e-12
	-3.930292634564773e-05,2.753354046350475e-13
7		1.174897554939529e+00,0.000000000000000e+00
	-3.930292634564773e-01,2.817487900898300e-09
	1.000000000000000e+00,0.000000000000000e+00
	0.000000000000000e+00,0.000000000000000e+00
	3.939580525995298e-09,1.915778588360596e-13
	3.942536256243258e-09,4.124295742549642e-13
	3.930292634564761e-05,-2.817487900898292e-13
	1.015628997048202e-06,5.706065532589142e-12
	-2.102488956236149e-09,-2.052389935277323e-13
	-4.031645285373957e-05,-5.219077748971580e-12
	-3.930292634564773e-05,2.817487900898300e-13
	-1.015628997069751e-06,-5.706065532589143e-12
	-3.930292634564773e-05,2.817487900898300e-13
8		1.202264434617413e+00,0.000000000000000e+00
	-3.930292634564773e-01,2.883115624825042e-09
	1.000000000000000e+00,0.000000000000000e+00
	0.000000000000000e+00,0.000000000000000e+00
	3.939580525995045e-09,1.960402804230912e-13
	3.942536256243080e-09,4.220362931444397e-13
	3.930292634564761e-05,-2.883115624825041e-13
	1.015628997048202e-06,5.838976872993219e-12
	-2.102488956236050e-09,-2.100196238196835e-13
	-4.031645285373957e-05,-5.340645686691031e-12
	-3.930292634564773e-05,2.883115624825042e-13
	-1.015628997069751e-06,-5.838976872993218e-12
	-3.930292634564773e-05,2.883115624825042e-13
9		1.230268770812381e+00,0.000000000000000e+00
	-3.930292634564773e-01,2.950272014818613e-09
	1.000000000000000e+00,0.000000000000000e+00
	0.000000000000000e+00,0.000000000000000e+00
	3.939580525994783e-09,2.006066451617030e-13
	3.942536256242897e-09,4.318667812628512e-13
	3.930292634564761e-05,-2.950272014818612e-13
	1.015628997048201e-06,5.974984116223352e-12
	-2.102488956235946e-09,-2.149116092961222e-13
	-4.031645285373957e-05,-5.465045305445368e-12
	-3.930292634564773e-05,2.950272014818614e-13
	-1.015628997069751e-06,-5.974984116223352e-12
	-3.930292634564773e-05,2.950272014818614e-13
10		1.258925411794167e+00,0.000000000000000e+00
	-3.930292634564773e-01,3.018992678085909e-09
	1.000000000000000e+00,0.000000000000000e+00
	0.000000000000000e+00,0.000000000000000e+00
	3.939580525994506e-09,2.052793741989228e-13
	3.942536256242702e-09,4.419262508651211e-13
	3.930292634564761e-05,-3.018992678085909e-13
	1.015628997048201e-06,6.114159375120172e-12
	-2.102488956235837e-09,-2.199175437525014e-13
	-4.031645285373957e-05,-5.592342563559080e-12
	-3.930292634564773e-05,3.018992678085909e-13
	-1.015628997069751e-06,-6.114159375120171e-12
	-3.930292634564773e-05,3.018992678085909e-13
11		1.288249551693134e+00,0.000000000000000e+00
	-3.930292634564773e-01,3.089314051232217e-09
	1.000000000000000e+00,0.000000000000000e+00
	0.000000000000000e+00,0.000000000000000e+00
	3.939580525994218e-09,2.100609450775362e-13
	3.942536256242499e-09,4.522200356151848e-13
	3.930292634564761e-05,-3.089314051232215e-13
	1.015628997048201e-06,6.256576442248146e-12
	-2.102488956235723e-09,-2.250400814015307e-13
	-4.031645285373957e-05,-5.722604955723394e-12
	-3.930292634564773e-05,3.089314051232217e-13
	-1.015628997069751e-06,-6.256576442248146e-12
	-3.930292634564773e-05,3.089314051232217e-13
12		1.318256738556407e+00,0.000000000000000e+00
	-3.930292634564773e-01,3.161273419580393e-09
	1.000000000000000e+00,0.000000000000000e+00
	0.000000000000000e+00,0.000000000000000e+00
	3.939580525993915e-09,2.149538930497153e-13
	3.942536256242287e-09,4.627535934139717e-13
	3.930292634564761e-05,-3.161273419580397e-13
	1.015628997048201e-06,6.402310829021379e-12
	-2.102488956235603e-09,-2.302819382804768e-13
	-4.031645285373957e-05,-5.855901548782863e-12
	-3.930292634564773e-05,3.161273419580393e-13
	-1.015628997069751e-06,-6.402310829021379e-12
	-3.930292634564773e-05,3.161273419580393e-13
13		1.348962882591653e+00,0.000000000000000e+00
	-3.930292634564773e-01,3.234908936940034e-09
	1.000000000000000e+00,0.000000000000000e+00
	0.000000000000000e+00,0.000000000000000e+00
	3.939580525993599e-09,2.199608124212403e-13
	3.942536256242064e-09,4.735325092932547e-13
	3.930292634564761e-05,-3.234908936940031e-13
	1.015628997048201e-06,6.551439805740764e-12
	-2.102488956235479e-09,-2.356458936912411e-13
	-4.031645285373957e-05,-5.992303018355520e-12
	-3.930292634564773e-05,3.234908936940034e-13
	-1.015628997069751e-06,-6.551439805740762e-12
	-3.930292634564773e-05,3.234908936940034e-13
14		1.380384264602885e+00,0.000000000000000e+00
	-3.930292634564773e-01,3.310259645837121e-09
	1.000000000000000e+00,0.000000000000000e+00
	0.000000000000000e+00,0.000000000000000e+00
	3.939580525993269e-09,2.250843579270369e-13
	3.942536256241832e-09,4.845624983769089e-13
	3.930292634564761e-05,-3.310259645837117e-13
	1.015628997048201e-06,6.704042442563709e-12
	-2.102488956235349e-09,-2.411347916739827e-13
	-4.031645285373957e-05,-6.131881686306015e-12
	-3.930292634564773e-05,3.310259645837121e-13
	-1.015628997069751e-06,-6.704042442563708e-12
	-3.930292634564773e-05,3.310259645837121e-13
15		1.412537544622754e+00,0.000000000000000e+00
	-3.930292634564773e-01,3.387365498214897e-09
	1.000000000000000e+00,0.000000000000000e+00
	0.000000000000000e+00,0.000000000000000e+00
	3.939580525992922e-09,2.303272461387497e-13
	3.942536256241588e-09,4.958494089111449e-13
	3.930292634564761e-05,-3.387365498214888e-13
	1.015628997048201e-06,6.860199651428193e-12
	-2.102488956235211e-09,-2.467515425150660e-13
	-4.031645285373957e-05,-6.274711559091638e-12
	-3.930292634564773e-05,3.387365498214897e-13
	-1.015628997069751e-06,-6.860199651428194e-12
	-3.930292634564773e-05,3.387365498214897e-13
16		1.445439770745927e+00,0.000000000000000e+00
	-3.930292634564773e-01,3.466267376616908e-09
	1.000000000000000e+00,0.000000000000000e+00
	0.000000000000000e+00,0.000000000000000e+00
	3.939580525992559e-09,2.356922569051069e-13
	3.942536256241333e-09,5.073992253653286e-13
	3.930292634564761e-05,-3.466267376616906e-13
	1.015628997048201e-06,7.019994228953341e-12
	-2.102488956235068e-09,-2.524991242901335e-13
	-4.031645285373957e-05,-6.420868367001517e-12
	-3.930292634564773e-05,3.466267376616908e-13
	-1.015628997069751e-06,-7.019994228953340e-12
	-3.930292634564773e-05,3.466267376616908e-13
17		1.479108388168207e+00,0.000000000000000e+00
	-3.930292634564773e-01,3.547007115863475e-09
	1.000000000000000e+00,0.000000000000000e+00
	0.000000000000000e+00,0.000000000000000e+00
	3.939580525992180e-09,2.411822348258311e-13
	3.942536256241067e-09,5.192180716050240e-13
	3.930292634564761e-05,-3.547007115863472e-13
	1.015628997048200e-06,7.183510900339290e-12
	-2.102488956234918e-09,-2.583805844431208e-13
	-4.031645285373957e-05,-6.570429604309821e-12
	-3.930292634564773e-05,3.547007115863476e-13
	-1.015628997069751e-06,-7.183510900339288e-12
	-3.930292634564773e-05,3.547007115863476e-13
18		1.513561248436208e+00,0.000000000000000e+00
	-3.930292634564773e-01,3.629627525233064e-09
	1.000000000000000e+00,0.000000000000000e+00
	0.000000000000000e+00,0.000000000000000e+00
	3.939580525991781e-09,2.468000907598842e-13
	3.942536256240786e-09,5.313122141389478e-13
	3.930292634564761e-05,-3.629627525233063e-13
	1.015628997048200e-06,7.350836364289607e-12
	-2.102488956234761e-09,-2.643990414020512e-13
	-4.031645285373957e-05,-6.723474570364250e-12
	-3.930292634564773e-05,3.629627525233064e-13
	-1.015628997069751e-06,-7.350836364289605e-12
	-3.930292634564773e-05,3.629627525233064e-13
19		1.548816618912481e+00,0.000000000000000e+00
	-3.930292634564773e-01,3.714172411160329e-09
	1.000000000000000e+00,0.000000000000000e+00
	0.000000000000000e+00,0.000000000000000e+00
	3.939580525991363e-09,2.525488033688435e-13
	3.942536256240492e-09,5.436880654415564e-13
	3.930292634564761e-05,-3.714172411160330e-13
	1.015628997048200e-06,7.522059338980090e-12
	-2.102488956234596e-09,-2.705576862324678e-13
	-4.031645285373957e-05,-6.880084411631589e-12
	-3.930292634564773e-05,3.714172411160329e-13
	-1.015628997069751e-06,-7.522059338980090e-12
	-3.930292634564773e-05,3.714172411160329e-13
20		1.584893192461113e+00,0.000000000000000e+00
	-3.930292634564773e-01,3.800686600462877e-09
	1.000000000000000e+00,0.000000000000000e+00
	0.000000000000000e+00,0.000000000000000e+00
	3.939580525990929e-09,2.584314206962276e-13
	3.942536256240187e-09,5.563521873530247e-13
	3.930292634564761e-05,-3.800686600462879e-13
	1.015628997048200e-06,7.697270609098329e-12
	-2.102488956234425e-09,-2.768597843293794e-13
	-4.031645285373957e-05,-7.040342164722662e-12
	-3.930292634564773e-05,3.800686600462877e-13
	-1.015628997069751e-06,-7.697270609098329e-12
	-3.930292634564773e-05,3.800686600462877e-13
21		1.621810097358929e+00,0.000000000000000e+00
	-3.930292634564773e-01,3.889215964109024e-09
	1.000000000000000e+00,0.000000000000000e+00
	0.000000000000000e+00,0.000000000000000e+00
	3.939580525990471e-09,2.644510617836092e-13
	3.942536256239865e-09,5.693112945584195e-13
	3.930292634564761e-05,-3.889215964109021e-13
	1.015628997048200e-06,7.876563073978931e-12
	-2.102488956234243e-09,-2.833086771486149e-13
	-4.031645285373957e-05,-7.204332800419413e-12
	-3.930292634564773e-05,3.889215964109024e-13
	-1.015628997069751e-06,-7.876563073978931e-12
	-3.930292634564773e-05,3.889215964109024e-13
22		1.659586907437560e+00,0.000000000000000e+00
	-3.930292634564773e-01,3.979807441539202e-09
	1.000000000000000e+00,0.000000000000000e+00
	0.000000000000000e+00,0.000000000000000e+00
	3.939580525989992e-09,2.706109183243722e-13
	3.942536256239528e-09,5.825722581479150e-13
	3.930292634564761e-05,-3.979807441539199e-13
	1.015628997048199e-06,8.060031796859995e-12
	-2.102488956234055e-09,-2.899077839785084e-13
	-4.031645285373957e-05,-7.372143268727567e-12
	-3.930292634564773e-05,3.979807441539202e-13
	-1.015628997069751e-06,-8.060031796859995e-12
	-3.930292634564773e-05,3.979807441539202e-13
23		1.698243652461743e+00,0.000000000000000e+00
	-3.930292634564773e-01,4.072509065553862e-09
	1.000000000000000e+00,0.000000000000000e+00
	0.000000000000000e+00,0.000000000000000e+00
	3.939580525989491e-09,2.769142563559896e-13
	3.942536256239176e-09,5.961421092599361e-13
	3.930292634564761e-05,-4.072509065553858e-13
	1.015628997048199e-06,8.247774055286886e-12
	-2.102488956233857e-09,-2.966606037528503e-13
	-4.031645285373957e-05,-7.543862544978651e-12
	-3.930292634564773e-05,4.072509065553862e-13
	-1.015628997069751e-06,-8.247774055286888e-12
	-3.930292634564773e-05,4.072509065553862e-13
24		1.737800828749374e+00,0.000000000000000e+00
	-3.930292634564773e-01,4.167369987781109e-09
	1.000000000000000e+00,0.000000000000000e+00
	0.000000000000000e+00,0.000000000000000e+00
	3.939580525988965e-09,2.833644179917203e-13
	3.942536256238807e-09,6.100280428091600e-13
	3.930292634564761e-05,-4.167369987781104e-13
	1.015628997048199e-06,8.439889392690088e-12
	-2.102488956233650e-09,-3.035707169060692e-13
	-4.031645285373957e-05,-7.719581677005908e-12
	-3.930292634564773e-05,4.167369987781109e-13
	-1.015628997069751e-06,-8.439889392690087e-12
	-3.930292634564773e-05,4.167369987781109e-13
25		1.778279410038922e+00,0.000000000000000e+00
	-3.930292634564773e-01,4.264440504737540e-09
	1.000000000000000e+00,0.000000000000000e+00
	0.000000000000000e+00,0.000000000000000e+00
	3.939580525988415e-09,2.899648231926419e-13
	3.942536256238420e-09,6.242374213013572e-13
	3.930292634564761e-05,-4.264440504737542e-13
	1.015628997048199e-06,8.636479671164438e-12
	-2.102488956233433e-09,-3.106417872716253e-13
	-4.031645285373957e-05,-7.899393833419059e-12
	-3.930292634564773e-05,4.264440504737541e-13
	-1.015628997069751e-06,-8.636479671164436e-12
	-3.930292634564773e-05,4.264440504737541e-13
26		1.819700858609982e+00,0.000000000000000e+00
	-3.930292634564773e-01,4.363772084496127e-09
	1.000000000000000e+00,0.000000000000000e+00
	0.000000000000000e+00,0.000000000000000e+00
	3.939580525987840e-09,2.967189715809584e-13
	3.942536256238015e-09,6.387777787370877e-13
	3.930292634564761e-05,-4.363772084496130e-13
	1.015628997048199e-06,8.837649125477759e-12
	-2.102488956233205e-09,-3.178775640246229e-13
	-4.031645285373957e-05,-8.083394353003524e-12
	-3.930292634564773e-05,4.363772084496127e-13
	-1.015628997069751e-06,-8.837649125477759e-12
	-3.930292634564773e-05,4.363772084496127e-13
27		1.862087136662866e+00,0.000000000000000e+00
	-3.930292634564773e-01,4.465417393975265e-09
	1.000000000000000e+00,0.000000000000000e+00
	0.000000000000000e+00,0.000000000000000e+00
	3.939580525987237e-09,3.036304442955470e-13
	3.942536256237592e-09,6.536568246063279e-13
	3.930292634564761e-05,-4.465417393975257e-13
	1.015628997048198e-06,9.043504418337525e-12
	-2.102488956232968e-09,-3.252818836696734e-13
	-4.031645285373957e-05,-8.271680795270327e-12
	-3.930292634564773e-05,4.465417393975266e-13
	-1.015628997069751e-06,-9.043504418337525e-12
	-3.930292634564773e-05,4.465417393975266e-13
28		1.905460717963246e+00,0.000000000000000e+00
	-3.930292634564773e-01,4.569430326863476e-09
	1.000000000000000e+00,0.000000000000000e+00
	0.000000000000000e+00,0.000000000000000e+00
	3.939580525986607e-09,3.107029058907248e-13
	3.942536256237149e-09,6.688824479761451e-13
	3.930292634564761e-05,-4.569430326863472e-13
	1.015628997048198e-06,9.254154696944829e-12
	-2.102488956232719e-09,-3.328586720750601e-13
	-4.031645285373957e-05,-8.464352992183421e-12
	-3.930292634564773e-05,4.569430326863476e-13
	-1.015628997069751e-06,-9.254154696944827e-12
	-3.930292634564773e-05,4.569430326863476e-13
29		1.949844599758044e+00,0.000000000000000e+00
	-3.930292634564773e-01,4.675866032194552e-09
	1.000000000000000e+00,0.000000000000000e+00
	0.000000000000000e+00,0.000000000000000e+00
	3.939580525985945e-09,3.179401062792453e-13
	3.942536256236684e-09,6.844627216735853e-13
	3.930292634564761e-05,-4.675866032194553e-13
	1.015628997048198e-06,9.469711650865669e-12
	-2.102488956232458e-09,-3.406119465542866e-13
	-4.031645285373957e-05,-8.661513101091927e-12
	-3.930292634564773e-05,4.675866032194552e-13
	-1.015628997069751e-06,-9.469711650865669e-12
	-3.930292634564773e-05,4.675866032194552e-13
30		1.995262314968878e+00,0.000000000000000e+00
	-3.930292634564773e-01,4.784780943588300e-09
	1.000000000000000e+00,0.000000000000000e+00
	0.000000000000000e+00,0.000000000000000e+00
	3.939580525985254e-09,3.253458827205500e-13
	3.942536256236198e-09,7.004059065659922e-13
	3.930292634564761e-05,-4.784780943588293e-13
	1.015628997048198e-06,9.690289571250251e-12
	-2.102488956232185e-09,-3.485458179961082e-13
	-4.031645285373957e-05,-8.863265658895312e-12
	-3.930292634564773e-05,4.784780943588300e-13
	-1.015628997069751e-06,-9.690289571250249e-12
	-3.930292634564773e-05,4.784780943588300e-13
31		2.041737944669527e+00,0.000000000000000e+00
	-3.930292634564773e-01,4.896232809172400e-09
	1.000000000000000e+00,0.000000000000000e+00
	0.000000000000000e+00,0.000000000000000e+00
	3.939580525984528e-09,3.329241618553351e-13
	3.942536256235687e-09,7.167204559410285e-13
	3.930292634564761e-05,-4.896232809172397e-13
	1.015628997048197e-06,9.916005411431651e-12
	-2.102488956231898e-09,-3.566644930441807e-13
	-4.031645285373957e-05,-9.069717637470231e-12
	-3.930292634564773e-05,4.896232809172400e-13
	-1.015628997069751e-06,-9.916005411431651e-12
	-3.930292634564773e-05,4.896232809172400e-13
32		2.089296130854037e+00,0.000000000000000e+00
	-3.930292634564773e-01,5.010280722201228e-09
	1.000000000000000e+00,0.000000000000000e+00
	0.000000000000000e+00,0.000000000000000e+00
	3.939580525983769e-09,3.406789617875080e-13
