LTspice 24.0.9 for Windows
Circuit: * GA CMOS Amp | W=2.303329955342475e-06 L=9.600785199451401e-07 Vbias=1.4609172633325669
Start Time: Sat Sep  6 22:15:44 2025
solver = Normal
Maximum thread count: 2
tnom = 27
temp = 27
method = modified trap
AsciiRawFile = 1
Direct Newton iteration for .op point succeeded.
Semiconductor Device Operating Points:
                        --- BSIM4 MOSFETS ---
Name:      m1
Model:      n
Id:      9.80e-05
Vgs:     1.46e+00
Vds:     8.20e-01
Vbs:     0.00e+00
Vth:     2.36e-01
Vdsat:   8.45e-01
Gm:      4.35e-05
Gds:     1.97e-05
Gmb      5.40e-05
Cbd:     9.45e-16
Cbs:     1.84e-15


.measure op idd find i(vdd)
  Error: FIND can not be evaluated over an interval.

gain_db: MAX(db(v(out)/v(g)))=(29.184dB,108.575°) FROM 1 TO 1e+09
gain_lin: MAX(mag(v(out)/v(g)))=(2.86614dB,0°) FROM 1 TO 1e+09
fc: mag(v(out)/v(g))=1 AT 6.86603e+08

Total elapsed time: 0.781 seconds.

