LTspice 24.0.9 for Windows
Circuit: * GA CMOS Amp | W=2.4259875572679773e-06 L=6.920488763502754e-07 Vbias=1.4845072957184264
Start Time: Sat Sep  6 22:15:51 2025
solver = Normal
Maximum thread count: 2
tnom = 27
temp = 27
method = modified trap
AsciiRawFile = 1
Direct Newton iteration for .op point succeeded.
Semiconductor Device Operating Points:
                        --- BSIM4 MOSFETS ---
Name:      m1
Model:      n
Id:      1.25e-04
Vgs:     1.48e+00
Vds:     5.54e-01
Vbs:     0.00e+00
Vth:     2.42e-01
Vdsat:   8.58e-01
Gm:      2.13e-05
Gds:     1.19e-04
Gmb      6.32e-05
Cbd:     1.05e-15
Cbs:     1.94e-15


.measure op idd find i(vdd)
  Error: FIND can not be evaluated over an interval.

gain_db: MAX(db(v(out)/v(g)))=(30.7383dB,127.571°) FROM 1 TO 1e+09
gain_lin: MAX(mag(v(out)/v(g)))=(-3.56973dB,0°) FROM 1 TO 1e+09

Measurement "fc" FAIL'ed

Total elapsed time: 1.501 seconds.

