LTspice 24.0.9 for Windows
Circuit: * GA CMOS Amp | W=4.097711103473026e-05 L=1.2679583432991237e-07 Vbias=1.2581991252261115
Start Time: Sat Sep  6 22:08:21 2025
solver = Normal
Maximum thread count: 2
tnom = 27
temp = 27
method = modified trap
AsciiRawFile = 1
Direct Newton iteration for .op point succeeded.
Semiconductor Device Operating Points:
                        --- BSIM4 MOSFETS ---
Name:      m1
Model:      n
Id:      1.79e-04
Vgs:     1.26e+00
Vds:     6.49e-03
Vbs:     0.00e+00
Vth:     3.36e-01
Vdsat:   6.65e-01
Gm:      8.58e-06
Gds:     2.76e-02
Gmb      8.92e-05
Cbd:     2.04e-14
Cbs:     3.28e-14


.measure op idd find i(vdd)
  Error: FIND can not be evaluated over an interval.

gain_db: MAX(db(v(out)/v(g)))=(37.8682dB,159.587°) FROM 1 TO 1e+09
gain_lin: MAX(mag(v(out)/v(g)))=(-30.9641dB,0°) FROM 1 TO 1e+09

Measurement "fc" FAIL'ed

Total elapsed time: 0.725 seconds.

