LTspice 24.0.9 for Windows
Circuit: * GA CMOS Amp | W=3.5320554929438856e-06 L=4.6120585378186417e-07 Vbias=1.0324069887197416
Start Time: Mon Sep  8 18:45:34 2025
solver = Normal
Maximum thread count: 2
tnom = 27
temp = 27
method = modified trap
AsciiRawFile = 1
Instance "m1": Length shorter than recommended for a level 3 MOSFET.
Direct Newton iteration for .op point succeeded.
Semiconductor Device Operating Points:
                        --- MOSFET Transistors ---
Name:          m1
Model:        n_1u
Id:          6.06e-05
Vgs:         1.03e+00
Vds:         1.19e+00
Vbs:         0.00e+00
Vth:         7.43e-01
Vdsat:       2.01e-01
Gm:          2.62e-04
Gds:         5.65e-05
Gmb:         4.53e-05
Cbd:         0.00e+00
Cbs:         0.00e+00
Cgsov:       7.06e-16
Cgdov:       7.06e-16
Cgbov:       2.61e-17
Cgs:         1.06e-15
Cgd:         0.00e+00
Cgb:         0.00e+00



gain_db: MAX(db(v(out)/v(g)))=(28.8347dB,80.6799°) FROM 1 TO 1e+09
gain_lin: MAX(mag(v(out)/v(g)))=(4.47834dB,0°) FROM 1 TO 1e+09

Measurement "fc" FAIL'ed

Total elapsed time: 0.479 seconds.

