Title: * GA CMOS Amp | W=1e-06 L=4.346766966102945e-07 Vbias=1.5
Date: Sat Sep  6 22:07:19 2025
Plotname: AC Analysis
Flags: complex forward log
No. Variables: 13
No. Points:          901
Offset:    0.0000000000000000e+00
Command: Linear Technology Corporation LTspice
Variables:
	0	frequency	frequency
	1	V(out)	voltage
	2	V(g)	voltage
	3	V(vdd)	voltage
	4	V(m1#dbody)	voltage
	5	V(m1#sbody)	voltage
	6	Id(M1)	device_current
	7	Ig(M1)	device_current
	8	Ib(M1)	device_current
	9	Is(M1)	device_current
	10	I(Rload)	device_current
	11	I(Vg)	device_current
	12	I(Vdd)	device_current
Values:
0		1.000000000000000e+00,0.000000000000000e+00
	-3.591338536378374e-01,3.212204802922685e-10
	1.000000000000000e+00,0.000000000000000e+00
	0.000000000000000e+00,0.000000000000000e+00
	1.386248162804385e-05,2.510413870816481e-14
	1.386248432154730e-05,3.199865008094377e-14
	3.591338536378374e-05,-3.212204802922686e-14
	8.305981346177489e-06,1.025491995834752e-13
	-7.393324797511755e-06,-1.660652167198485e-14
	-3.682604191244948e-05,-5.382062988226351e-14
	-3.591338536378374e-05,3.212204802922685e-14
	-8.305981346268254e-06,-1.025491995834752e-13
	-3.591338536378374e-05,3.212204802922685e-14
1		1.023292992280754e+00,0.000000000000000e+00
	-3.591338536378374e-01,3.287026664601365e-10
	1.000000000000000e+00,0.000000000000000e+00
	0.000000000000000e+00,0.000000000000000e+00
	1.386248162804385e-05,2.568888921730909e-14
	1.386248432154730e-05,3.274399439027375e-14
	3.591338536378374e-05,-3.287026664601365e-14
	8.305981346177489e-06,1.049378772977706e-13
	-7.393324797511755e-06,-1.699333725310057e-14
	-3.682604191244948e-05,-5.507427339865641e-14
	-3.591338536378374e-05,3.287026664601365e-14
	-8.305981346268254e-06,-1.049378772977706e-13
	-3.591338536378374e-05,3.287026664601365e-14
2		1.047128548050899e+00,0.000000000000000e+00
	-3.591338536378374e-01,3.363591351326557e-10
	1.000000000000000e+00,0.000000000000000e+00
	0.000000000000000e+00,0.000000000000000e+00
	1.386248162804385e-05,2.628726031554900e-14
	1.386248432154730e-05,3.350669999884744e-14
	3.591338536378374e-05,-3.363591351326558e-14
	8.305981346177489e-06,1.073821944636263e-13
	-7.393324797511755e-06,-1.738916292656129e-14
	-3.682604191244948e-05,-5.635711802379945e-14
	-3.591338536378374e-05,3.363591351326558e-14
	-8.305981346268254e-06,-1.073821944636263e-13
	-3.591338536378374e-05,3.363591351326558e-14
3		1.071519305237606e+00,0.000000000000000e+00
	-3.591338536378374e-01,3.441939458708618e-10
	1.000000000000000e+00,0.000000000000000e+00
	0.000000000000000e+00,0.000000000000000e+00
	1.386248162804385e-05,2.689956926716125e-14
	1.386248432154730e-05,3.428717130327414e-14
	3.591338536378374e-05,-3.441939458708617e-14
	8.305981346177489e-06,1.098834470903580e-13
	-7.393324797511755e-06,-1.779420856437846e-14
	-3.682604191244948e-05,-5.766984393889336e-14
	-3.591338536378374e-05,3.441939458708618e-14
	-8.305981346268254e-06,-1.098834470903580e-13
	-3.591338536378374e-05,3.441939458708618e-14
4		1.096478196143185e+00,0.000000000000000e+00
	-3.591338536378374e-01,3.522112527951140e-10
	1.000000000000000e+00,0.000000000000000e+00
	0.000000000000000e+00,0.000000000000000e+00
	1.386248162804385e-05,2.752614072645686e-14
	1.386248432154730e-05,3.508582211977020e-14
	3.591338536378374e-05,-3.522112527951139e-14
	8.305981346177489e-06,1.124429613752163e-13
	-7.393324797511755e-06,-1.820868892711065e-14
	-3.682604191244948e-05,-5.901314716859428e-14
	-3.591338536378374e-05,3.522112527951140e-14
	-8.305981346268254e-06,-1.124429613752163e-13
	-3.591338536378374e-05,3.522112527951140e-14
5		1.122018454301963e+00,0.000000000000000e+00
	-3.591338536378374e-01,3.604153067876654e-10
	1.000000000000000e+00,0.000000000000000e+00
	0.000000000000000e+00,0.000000000000000e+00
	1.386248162804385e-05,2.816730690991717e-14
	1.386248432154730e-05,3.590307590356993e-14
	3.591338536378374e-05,-3.604153067876654e-14
	8.305981346177489e-06,1.150620944065544e-13
	-7.393324797511755e-06,-1.863282377773249e-14
	-3.682604191244948e-05,-6.038773995005537e-14
	-3.591338536378374e-05,3.604153067876654e-14
	-8.305981346268254e-06,-1.150620944065544e-13
	-3.591338536378374e-05,3.604153067876654e-14
6		1.148153621496882e+00,0.000000000000000e+00
	-3.591338536378374e-01,3.688104577465360e-10
	1.000000000000000e+00,0.000000000000000e+00
	0.000000000000000e+00,0.000000000000000e+00
	1.386248162804385e-05,2.882340777233950e-14
	1.386248432154730e-05,3.673936597344712e-14
	3.591338536378374e-05,-3.688104577465361e-14
	8.305981346177489e-06,1.177422348833737e-13
	-7.393324797511755e-06,-1.906683799815588e-14
	-3.682604191244948e-05,-6.179435111056420e-14
	-3.591338536378374e-05,3.688104577465361e-14
	-8.305981346268254e-06,-1.177422348833737e-13
	-3.591338536378374e-05,3.688104577465361e-14
7		1.174897554939529e+00,0.000000000000000e+00
	-3.591338536378374e-01,3.774011568918875e-10
	1.000000000000000e+00,0.000000000000000e+00
	0.000000000000000e+00,0.000000000000000e+00
	1.386248162804385e-05,2.949479118708562e-14
	1.386248432154730e-05,3.759513574146640e-14
	3.591338536378374e-05,-3.774011568918875e-14
	8.305981346177489e-06,1.204848038516308e-13
	-7.393324797511755e-06,-1.951096170846530e-14
	-3.682604191244948e-05,-6.323372645397676e-14
	-3.591338536378374e-05,3.774011568918875e-14
	-8.305981346268254e-06,-1.204848038516308e-13
	-3.591338536378374e-05,3.774011568918875e-14
8		1.202264434617413e+00,0.000000000000000e+00
	-3.591338536378374e-01,3.861919591261179e-10
	1.000000000000000e+00,0.000000000000000e+00
	0.000000000000000e+00,0.000000000000000e+00
	1.386248162804385e-05,3.018181313052888e-14
	1.386248432154730e-05,3.847083894808629e-14
	3.591338536378374e-05,-3.861919591261180e-14
	8.305981346177489e-06,1.232912554576951e-13
	-7.393324797511755e-06,-1.996543038893067e-14
	-3.682604191244948e-05,-6.470662915615257e-14
	-3.591338536378374e-05,3.861919591261180e-14
	-8.305981346268254e-06,-1.232912554576950e-13
	-3.591338536378374e-05,3.861919591261180e-14
9		1.230268770812381e+00,0.000000000000000e+00
	-3.591338536378374e-01,3.951875254489319e-10
	1.000000000000000e+00,0.000000000000000e+00
	0.000000000000000e+00,0.000000000000000e+00
	1.386248162804385e-05,3.088483787079745e-14
	1.386248432154730e-05,3.936693990273820e-14
	3.591338536378374e-05,-3.951875254489319e-14
	8.305981346177489e-06,1.261630777193556e-13
	-7.393324797511755e-06,-2.043048500486197e-14
	-3.682604191244948e-05,-6.621384016960044e-14
	-3.591338536378374e-05,3.951875254489319e-14
	-8.305981346268254e-06,-1.261630777193556e-13
	-3.591338536378374e-05,3.951875254489319e-14
10		1.258925411794167e+00,0.000000000000000e+00
	-3.591338536378374e-01,4.043926254286643e-10
	1.000000000000000e+00,0.000000000000000e+00
	0.000000000000000e+00,0.000000000000000e+00
	1.386248162804385e-05,3.160423816091429e-14
	1.386248432154730e-05,4.028391373000961e-14
	3.591338536378374e-05,-4.043926254286642e-14
	8.305981346177489e-06,1.291017933147887e-13
	-7.393324797511755e-06,-2.090637213437229e-14
	-3.682604191244948e-05,-6.775615863755004e-14
	-3.591338536378374e-05,4.043926254286643e-14
	-8.305981346268254e-06,-1.291017933147887e-13
	-3.591338536378374e-05,4.043926254286643e-14
11		1.288249551693134e+00,0.000000000000000e+00
	-3.591338536378374e-01,4.138121397311681e-10
	1.000000000000000e+00,0.000000000000000e+00
	0.000000000000000e+00,0.000000000000000e+00
	1.386248162804385e-05,3.234039543643557e-14
	1.386248432154730e-05,4.122224662156128e-14
	3.591338536378374e-05,-4.138121397311680e-14
	8.305981346177489e-06,1.321089603899016e-13
	-7.393324797511755e-06,-2.139334409911679e-14
	-3.682604191244948e-05,-6.933440231766806e-14
	-3.591338536378374e-05,4.138121397311681e-14
	-8.305981346268254e-06,-1.321089603899016e-13
	-3.591338536378374e-05,4.138121397311681e-14
12		1.318256738556407e+00,0.000000000000000e+00
	-3.591338536378374e-01,4.234510627076085e-10
	1.000000000000000e+00,0.000000000000000e+00
	0.000000000000000e+00,0.000000000000000e+00
	1.386248162804385e-05,3.309370001769300e-14
	1.386248432154730e-05,4.218243609391265e-14
	3.591338536378374e-05,-4.234510627076084e-14
	8.305981346177489e-06,1.351861733844821e-13
	-7.393324797511755e-06,-2.189165909807704e-14
	-3.682604191244948e-05,-7.094940801564418e-14
	-3.591338536378374e-05,4.234510627076086e-14
	-8.305981346268254e-06,-1.351861733844821e-13
	-3.591338536378374e-05,4.234510627076086e-14
13		1.348962882591653e+00,0.000000000000000e+00
	-3.591338536378374e-01,4.333145050425340e-10
	1.000000000000000e+00,0.000000000000000e+00
	0.000000000000000e+00,0.000000000000000e+00
	1.386248162804385e-05,3.386455131674671e-14
	1.386248432154730e-05,4.316499125223156e-14
	3.591338536378374e-05,-4.333145050425338e-14
	8.305981346177489e-06,1.383350638775915e-13
	-7.393324797511755e-06,-2.240158134446145e-14
	-3.682604191244948e-05,-7.260203202887668e-14
	-3.591338536378374e-05,4.333145050425340e-14
	-8.305981346268254e-06,-1.383350638775915e-13
	-3.591338536378374e-05,4.333145050425340e-14
14		1.380384264602885e+00,0.000000000000000e+00
	-3.591338536378374e-01,4.434076964636285e-10
	1.000000000000000e+00,0.000000000000000e+00
	0.000000000000000e+00,0.000000000000000e+00
	1.386248162804385e-05,3.465335804915890e-14
	1.386248432154730e-05,4.417043306026861e-14
	3.591338536378374e-05,-4.434076964636285e-14
	8.305981346177489e-06,1.415573014526499e-13
	-7.393324797511755e-06,-2.292338120579467e-14
	-3.682604191244948e-05,-7.429315060049236e-14
	-3.591338536378374e-05,4.434076964636285e-14
	-8.305981346268254e-06,-1.415573014526499e-13
	-3.591338536378374e-05,4.434076964636285e-14
15		1.412537544622754e+00,0.000000000000000e+00
	-3.591338536378374e-01,4.537359885145828e-10
	1.000000000000000e+00,0.000000000000000e+00
	0.000000000000000e+00,0.000000000000000e+00
	1.386248162804385e-05,3.546053845070016e-14
	1.386248432154730e-05,4.519929461657902e-14
	3.591338536378374e-05,-4.537359885145828e-14
	8.305981346177489e-06,1.448545945826708e-13
	-7.393324797511755e-06,-2.345733534727003e-14
	-3.682604191244948e-05,-7.602366038394253e-14
	-3.591338536378374e-05,4.537359885145828e-14
	-8.305981346268254e-06,-1.448545945826708e-13
	-3.591338536378374e-05,4.537359885145828e-14
16		1.445439770745927e+00,0.000000000000000e+00
	-3.591338536378374e-01,4.643048573925532e-10
	1.000000000000000e+00,0.000000000000000e+00
	0.000000000000000e+00,0.000000000000000e+00
	1.386248162804385e-05,3.628652049910370e-14
	1.386248432154730e-05,4.625212143717850e-14
	3.591338536378374e-05,-4.643048573925532e-14
	8.305981346177489e-06,1.482286915361167e-13
	-7.393324797511755e-06,-2.400372687844104e-14
	-3.682604191244948e-05,-7.779447891842038e-14
	-3.591338536378374e-05,4.643048573925532e-14
	-8.305981346268254e-06,-1.482286915361167e-13
	-3.591338536378374e-05,4.643048573925532e-14
17		1.479108388168207e+00,0.000000000000000e+00
	-3.591338536378374e-01,4.751199068517145e-10
	1.000000000000000e+00,0.000000000000000e+00
	0.000000000000000e+00,0.000000000000000e+00
	1.386248162804385e-05,3.713174214098475e-14
	1.386248432154730e-05,4.732947174478321e-14
	3.591338536378374e-05,-4.751199068517146e-14
	8.305981346177489e-06,1.516813813038538e-13
	-7.393324797511755e-06,-2.456284550332991e-14
	-3.682604191244948e-05,-7.960654511535240e-14
	-3.591338536378374e-05,4.751199068517146e-14
	-8.305981346268254e-06,-1.516813813038538e-13
	-3.591338536378374e-05,4.751199068517146e-14
18		1.513561248436208e+00,0.000000000000000e+00
	-3.591338536378374e-01,4.861868711744440e-10
	1.000000000000000e+00,0.000000000000000e+00
	0.000000000000000e+00,0.000000000000000e+00
	1.386248162804385e-05,3.799665152404566e-14
	1.386248432154730e-05,4.843191676478662e-14
	3.591338536378374e-05,-4.861868711744441e-14
	8.305981346177489e-06,1.552144945476985e-13
	-7.393324797511755e-06,-2.513498767403232e-14
	-3.682604191244948e-05,-8.146081975622182e-14
	-3.591338536378374e-05,4.861868711744441e-14
	-8.305981346268254e-06,-1.552144945476985e-13
	-3.591338536378374e-05,4.861868711744441e-14
19		1.548816618912481e+00,0.000000000000000e+00
	-3.591338536378374e-01,4.975116182117145e-10
	1.000000000000000e+00,0.000000000000000e+00
	0.000000000000000e+00,0.000000000000000e+00
	1.386248162804385e-05,3.888170723468976e-14
	1.386248432154730e-05,4.956004102813092e-14
	3.591338536378374e-05,-4.975116182117145e-14
	8.305981346177489e-06,1.588299045710593e-13
	-7.393324797511755e-06,-2.572045674790041e-14
	-3.682604191244948e-05,-8.335828600198740e-14
	-3.591338536378374e-05,4.975116182117145e-14
	-8.305981346268254e-06,-1.588299045710592e-13
	-3.591338536378374e-05,4.975116182117145e-14
20		1.584893192461113e+00,0.000000000000000e+00
	-3.591338536378374e-01,5.091001524943054e-10
	1.000000000000000e+00,0.000000000000000e+00
	0.000000000000000e+00,0.000000000000000e+00
	1.386248162804385e-05,3.978737854116992e-14
	1.386248432154730e-05,5.071444268123303e-14
	3.591338536378374e-05,-5.091001524943055e-14
	8.305981346177489e-06,1.625295283121858e-13
	-7.393324797511755e-06,-2.631956314838672e-14
	-3.682604191244948e-05,-8.529994991436858e-14
	-3.591338536378374e-05,5.091001524943055e-14
	-8.305981346268254e-06,-1.625295283121859e-13
	-3.591338536378374e-05,5.091001524943055e-14
21		1.621810097358929e+00,0.000000000000000e+00
	-3.591338536378374e-01,5.209586184164859e-10
	1.000000000000000e+00,0.000000000000000e+00
	0.000000000000000e+00,0.000000000000000e+00
	1.386248162804385e-05,4.071414564240085e-14
	1.386248432154730e-05,5.189573380312974e-14
	3.591338536378374e-05,-5.209586184164861e-14
	8.305981346177489e-06,1.663153273605562e-13
	-7.393324797511755e-06,-2.693262452963492e-14
	-3.682604191244948e-05,-8.728684098927268e-14
	-3.591338536378374e-05,5.209586184164860e-14
	-8.305981346268254e-06,-1.663153273605562e-13
	-3.591338536378374e-05,5.209586184164860e-14
22		1.659586907437560e+00,0.000000000000000e+00
	-3.591338536378374e-01,5.330933034938534e-10
	1.000000000000000e+00,0.000000000000000e+00
	0.000000000000000e+00,0.000000000000000e+00
	1.386248162804385e-05,4.166249992256678e-14
	1.386248432154730e-05,5.310454073001010e-14
	3.591338536378374e-05,-5.330933034938536e-14
	8.305981346177489e-06,1.701893089969367e-13
	-7.393324797511755e-06,-2.755996594490415e-14
	-3.682604191244948e-05,-8.932001270264722e-14
	-3.591338536378374e-05,5.330933034938534e-14
	-8.305981346268254e-06,-1.701893089969368e-13
	-3.591338536378374e-05,5.330933034938534e-14
23		1.698243652461743e+00,0.000000000000000e+00
	-3.591338536378374e-01,5.455106416970576e-10
	1.000000000000000e+00,0.000000000000000e+00
	0.000000000000000e+00,0.000000000000000e+00
	1.386248162804385e-05,4.263294421166004e-14
	1.386248432154730e-05,5.434150438730722e-14
	3.591338536378374e-05,-5.455106416970576e-14
	8.305981346177489e-06,1.741535272576693e-13
	-7.393324797511755e-06,-2.820192001891665e-14
	-3.682604191244948e-05,-9.140054306904685e-14
	-3.591338536378374e-05,5.455106416970576e-14
	-8.305981346268254e-06,-1.741535272576693e-13
	-3.591338536378374e-05,5.455106416970576e-14
24		1.737800828749374e+00,0.000000000000000e+00
	-3.591338536378374e-01,5.582172168631763e-10
	1.000000000000000e+00,0.000000000000000e+00
	0.000000000000000e+00,0.000000000000000e+00
	1.386248162804385e-05,4.362599305208805e-14
	1.386248432154730e-05,5.560728062952532e-14
	3.591338536378374e-05,-5.582172168631764e-14
	8.305981346177489e-06,1.782100840237483e-13
	-7.393324797511755e-06,-2.885882712421972e-14
	-3.682604191244948e-05,-9.352953521321090e-14
	-3.591338536378374e-05,5.582172168631764e-14
	-8.305981346268254e-06,-1.782100840237482e-13
	-3.591338536378374e-05,5.582172168631764e-14
25		1.778279410038922e+00,0.000000000000000e+00
	-3.591338536378374e-01,5.712197661865543e-10
	1.000000000000000e+00,0.000000000000000e+00
	0.000000000000000e+00,0.000000000000000e+00
	1.386248162804385e-05,4.464217297149060e-14
	1.386248432154730e-05,5.690254058798261e-14
	3.591338536378374e-05,-5.712197661865544e-14
	8.305981346177489e-06,1.823611301352660e-13
	-7.393324797511755e-06,-2.953103556165580e-14
	-3.682604191244948e-05,-9.570811795495473e-14
	-3.591338536378374e-05,5.712197661865543e-14
	-8.305981346268254e-06,-1.823611301352659e-13
	-3.591338536378374e-05,5.712197661865543e-14
26		1.819700858609982e+00,0.000000000000000e+00
	-3.591338536378374e-01,5.845251837909520e-10
	1.000000000000000e+00,0.000000000000000e+00
	0.000000000000000e+00,0.000000000000000e+00
	1.386248162804385e-05,4.568202276191159e-14
	1.386248432154730e-05,5.822797102665376e-14
	3.591338536378374e-05,-5.845251837909519e-14
	8.305981346177489e-06,1.866088665318163e-13
	-7.393324797511755e-06,-3.021890174503610e-14
	-3.682604191244948e-05,-9.793744640768498e-14
	-3.591338536378374e-05,5.845251837909521e-14
	-8.305981346268254e-06,-1.866088665318163e-13
	-3.591338536378374e-05,5.845251837909521e-14
27		1.862087136662866e+00,0.000000000000000e+00
	-3.591338536378374e-01,5.981405243849010e-10
	1.000000000000000e+00,0.000000000000000e+00
	0.000000000000000e+00,0.000000000000000e+00
	1.386248162804385e-05,4.674609376547404e-14
	1.386248432154730e-05,5.958427470630157e-14
	3.591338536378374e-05,-5.981405243849009e-14
	8.305981346177489e-06,1.909555454194621e-13
	-7.393324797511755e-06,-3.092279039011610e-14
	-3.682604191244948e-05,-1.002187025908560e-13
	-3.591338536378374e-05,5.981405243849010e-14
	-8.305981346268254e-06,-1.909555454194621e-13
	-3.591338536378374e-05,5.981405243849010e-14
28		1.905460717963246e+00,0.000000000000000e+00
	-3.591338536378374e-01,6.120730070022046e-10
	1.000000000000000e+00,0.000000000000000e+00
	0.000000000000000e+00,0.000000000000000e+00
	1.386248162804385e-05,4.783495016670863e-14
	1.386248432154730e-05,6.097217075708980e-14
	3.591338536378374e-05,-6.120730070022046e-14
	8.305981346177489e-06,1.954034714648849e-13
	-7.393324797511755e-06,-3.164307470797245e-14
	-3.682604191244948e-05,-1.025530960566920e-13
	-3.591338536378374e-05,6.120730070022046e-14
	-8.305981346268254e-06,-1.954034714648848e-13
	-3.591338536378374e-05,6.120730070022046e-14
29		1.949844599758044e+00,0.000000000000000e+00
	-3.591338536378374e-01,6.263300188295649e-10
	1.000000000000000e+00,0.000000000000000e+00
	0.000000000000000e+00,0.000000000000000e+00
	1.386248162804385e-05,4.894916929169204e-14
	1.386248432154730e-05,6.239239505987552e-14
	3.591338536378374e-05,-6.263300188295651e-14
	8.305981346177489e-06,1.999550030173490e-13
	-7.393324797511755e-06,-3.238013660288458e-14
	-3.682604191244948e-05,-1.049418645315079e-13
	-3.591338536378374e-05,6.263300188295649e-14
	-8.305981346268254e-06,-1.999550030173490e-13
	-3.591338536378374e-05,6.263300188295649e-14
30		1.995262314968878e+00,0.000000000000000e+00
	-3.591338536378374e-01,6.409191191233664e-10
	1.000000000000000e+00,0.000000000000000e+00
	0.000000000000000e+00,0.000000000000000e+00
	1.386248162804385e-05,5.008934191415276e-14
	1.386248432154730e-05,6.384570063638296e-14
	3.591338536378374e-05,-6.409191191233664e-14
	8.305981346177489e-06,2.046125533591303e-13
	-7.393324797511755e-06,-3.313436687482534e-14
	-3.682604191244948e-05,-1.073862745719683e-13
	-3.591338536378374e-05,6.409191191233664e-14
	-8.305981346268254e-06,-2.046125533591302e-13
	-3.591338536378374e-05,6.409191191233664e-14
31		2.041737944669527e+00,0.000000000000000e+00
	-3.591338536378374e-01,6.558480432176947e-10
	1.000000000000000e+00,0.000000000000000e+00
	0.000000000000000e+00,0.000000000000000e+00
	1.386248162804385e-05,5.125607256870714e-14
	1.386248432154730e-05,6.533285804846554e-14
	3.591338536378374e-05,-6.558480432176947e-14
	8.305981346177489e-06,2.093785919850699e-13
	-7.393324797511755e-06,-3.390616542666830e-14
	-3.682604191244948e-05,-1.098876222366321e-13
	-3.591338536378374e-05,6.558480432176947e-14
	-8.305981346268254e-06,-2.093785919850699e-13
	-3.591338536378374e-05,6.558480432176947e-14
32		2.089296130854037e+00,0.000000000000000e+00
	-3.591338536378374e-01,6.711247066257124e-10
	1.000000000000000e+00,0.000000000000000e+00
	0.000000000000000e+00,0.000000000000000e+00
	1.386248162804385e-05,5.244997987139184e-14
	1.386248432154730e-05,6.685465580666807e-14
