LTspice 24.0.9 for Windows
Circuit: * GA CMOS Amp | W=1.4934649771968862e-05 L=4.4166428973870966e-07 Vbias=0.7485119082200092
Start Time: Sat Sep  6 22:04:00 2025
solver = Normal
Maximum thread count: 2
tnom = 27
temp = 27
method = modified trap
AsciiRawFile = 1
Direct Newton iteration for .op point succeeded.
Semiconductor Device Operating Points:
                        --- BSIM4 MOSFETS ---
Name:      m1
Model:      n
Id:      1.74e-04
Vgs:     7.49e-01
Vds:     6.20e-02
Vbs:     0.00e+00
Vth:     2.55e-01
Vdsat:   3.71e-01
Gm:      1.31e-04
Gds:     2.55e-03
Gmb      1.63e-04
Cbd:     7.32e-15
Cbs:     1.19e-14


.measure op idd find i(vdd)
  Error: FIND can not be evaluated over an interval.

gain_db: MAX(db(v(out)/v(g)))=(31.5414dB,133.731°) FROM 1 TO 1e+09
gain_lin: MAX(mag(v(out)/v(g)))=(-10.6889dB,0°) FROM 1 TO 1e+09

Measurement "fc" FAIL'ed

Total elapsed time: 2.124 seconds.

