Title: * GA CMOS Amp | W=1.9960023713416036e-05 L=9.524415937938707e-07 Vbias=1.0739793772876982
Date: Mon Sep  8 18:42:51 2025
Plotname: AC Analysis
Flags: complex forward log
No. Variables: 11
No. Points:          901
Offset:    0.0000000000000000e+00
Command: Linear Technology Corporation LTspice
Variables:
	0	frequency	frequency
	1	V(out)	voltage
	2	V(g)	voltage
	3	V(vdd)	voltage
	4	Id(M1)	device_current
	5	Ig(M1)	device_current
	6	Ib(M1)	device_current
	7	Is(M1)	device_current
	8	I(Rload)	device_current
	9	I(Vg)	device_current
	10	I(Vdd)	device_current
Values:
0		1.000000000000000e+00,0.000000000000000e+00
	-5.182631634816770e+00,5.521628228886036e-09
	1.000000000000000e+00,0.000000000000000e+00
	0.000000000000000e+00,0.000000000000000e+00
	5.182631634816771e-04,-5.521628228886035e-13
	4.427060886442369e-22,6.209270257040343e-13
	5.182631559151607e-12,2.317761556822104e-14
	-5.182631686643087e-04,-9.194181838365183e-14
	-5.182631634816771e-04,5.521628228886036e-13
	-4.427060886442369e-22,-6.209270257040343e-13
	-5.182631634816771e-04,5.521628228886036e-13
1		1.023292992280754e+00,0.000000000000000e+00
	-5.182631634816770e+00,5.650243472598672e-09
	1.000000000000000e+00,0.000000000000000e+00
	0.000000000000000e+00,0.000000000000000e+00
	5.182631634816771e-04,-5.650243472598671e-13
	4.635701838153326e-22,6.353902741206698e-13
	5.182631559151607e-12,2.371749158873810e-14
	-5.182631686643087e-04,-9.408341844954073e-14
	-5.182631634816771e-04,5.650243472598672e-13
	-4.635701838153326e-22,-6.353902741206698e-13
	-5.182631634816771e-04,5.650243472598672e-13
2		1.047128548050899e+00,0.000000000000000e+00
	-5.182631634816770e+00,5.781854550190294e-09
	1.000000000000000e+00,0.000000000000000e+00
	0.000000000000000e+00,0.000000000000000e+00
	5.182631634816771e-04,-5.781854550190294e-13
	4.854175734982377e-22,6.501904148710287e-13
	5.182631559151607e-12,2.426994293723348e-14
	-5.182631686643087e-04,-9.627490278923283e-14
	-5.182631634816771e-04,5.781854550190294e-13
	-4.854175734982377e-22,-6.501904148710287e-13
	-5.182631634816771e-04,5.781854550190294e-13
3		1.071519305237606e+00,0.000000000000000e+00
	-5.182631634816770e+00,5.916531243596317e-09
	1.000000000000000e+00,0.000000000000000e+00
	0.000000000000000e+00,0.000000000000000e+00
	5.182631634816771e-04,-5.916531243596318e-13
	5.082945989356002e-22,6.653352951856400e-13
	5.182631559151607e-12,2.483526253072465e-14
	-5.182631686643087e-04,-9.851743335673277e-14
	-5.182631634816771e-04,5.916531243596317e-13
	-5.082945989356002e-22,-6.653352951856400e-13
	-5.182631634816771e-04,5.916531243596317e-13
4		1.096478196143185e+00,0.000000000000000e+00
	-5.182631634816770e+00,6.054344960182247e-09
	1.000000000000000e+00,0.000000000000000e+00
	0.000000000000000e+00,0.000000000000000e+00
	5.182631634816771e-04,-6.054344960182245e-13
	5.322497853655492e-22,6.808329450805122e-13
	5.182631559151607e-12,2.541375010914314e-14
	-5.182631686643087e-04,-1.008121991714309e-13
	-5.182631634816771e-04,6.054344960182247e-13
	-5.322497853655492e-22,-6.808329450805122e-13
	-5.182631634816771e-04,6.054344960182247e-13
5		1.122018454301963e+00,0.000000000000000e+00
	-5.182631634816770e+00,6.195368770604796e-09
	1.000000000000000e+00,0.000000000000000e+00
	0.000000000000000e+00,0.000000000000000e+00
	5.182631634816771e-04,-6.195368770604795e-13
	5.573339449502308e-22,6.966915816147558e-13
	5.182631559151607e-12,2.600571239426048e-14
	-5.182631686643087e-04,-1.031604169485368e-13
	-5.182631634816771e-04,6.195368770604797e-13
	-5.573339449502308e-22,-6.966915816147558e-13
	-5.182631634816771e-04,6.195368770604797e-13
6		1.148153621496882e+00,0.000000000000000e+00
	-5.182631634816770e+00,6.339677447554918e-09
	1.000000000000000e+00,0.000000000000000e+00
	0.000000000000000e+00,0.000000000000000e+00
	5.182631634816771e-04,-6.339677447554918e-13
	5.836002845552150e-22,7.129196132473746e-13
	5.182631559151607e-12,2.661146325231578e-14
	-5.182631686643087e-04,-1.055633317441985e-13
	-5.182631634816771e-04,6.339677447554918e-13
	-5.836002845552150e-22,-7.129196132473746e-13
	-5.182631634816771e-04,6.339677447554918e-13
7		1.174897554939529e+00,0.000000000000000e+00
	-5.182631634816770e+00,6.487347505403286e-09
	1.000000000000000e+00,0.000000000000000e+00
	0.000000000000000e+00,0.000000000000000e+00
	5.182631634816771e-04,-6.487347505403285e-13
	6.111045186083941e-22,7.295256442955439e-13
	5.182631559151607e-12,2.723132386043131e-14
	-5.182631686643087e-04,-1.080222176156468e-13
	-5.182631634816771e-04,6.487347505403286e-13
	-6.111045186083941e-22,-7.295256442955439e-13
	-5.182631634816771e-04,6.487347505403286e-13
8		1.202264434617413e+00,0.000000000000000e+00
	-5.182631634816770e+00,6.638457240769214e-09
	1.000000000000000e+00,0.000000000000000e+00
	0.000000000000000e+00,0.000000000000000e+00
	5.182631634816771e-04,-6.638457240769214e-13
	6.399049872777516e-22,7.465184794967322e-13
	5.182631559151607e-12,2.786562287690713e-14
	-5.182631686643087e-04,-1.105383782967180e-13
	-5.182631634816771e-04,6.638457240769215e-13
	-6.399049872777516e-22,-7.465184794967322e-13
	-5.182631634816771e-04,6.638457240769215e-13
9		1.230268770812381e+00,0.000000000000000e+00
	-5.182631634816770e+00,6.793086774034568e-09
	1.000000000000000e+00,0.000000000000000e+00
	0.000000000000000e+00,0.000000000000000e+00
	5.182631634816771e-04,-6.793086774034567e-13
	6.700627802186813e-22,7.639071286770899e-13
	5.182631559151607e-12,2.851469661547726e-14
	-5.182631686643087e-04,-1.131131478891105e-13
	-5.182631634816771e-04,6.793086774034568e-13
	-6.700627802186813e-22,-7.639071286770899e-13
	-5.182631634816771e-04,6.793086774034568e-13
10		1.258925411794167e+00,0.000000000000000e+00
	-5.182631634816770e+00,6.951318091824649e-09
	1.000000000000000e+00,0.000000000000000e+00
	0.000000000000000e+00,0.000000000000000e+00
	5.182631634816771e-04,-6.951318091824646e-13
	7.016418661533369e-22,7.817008115285784e-13
	5.182631559151607e-12,2.917888922362957e-14
	-5.182631686643087e-04,-1.157478915697434e-13
	-5.182631634816771e-04,6.951318091824649e-13
	-7.016418661533369e-22,-7.817008115285784e-13
	-5.182631634816771e-04,6.951318091824649e-13
11		1.288249551693134e+00,0.000000000000000e+00
	-5.182631634816770e+00,7.113235090478588e-09
	1.000000000000000e+00,0.000000000000000e+00
	0.000000000000000e+00,0.000000000000000e+00
	5.182631634816771e-04,-7.113235090478586e-13
	7.347092285568675e-22,7.999089624973730e-13
	5.182631559151607e-12,2.985855286507658e-14
	-5.182631686643087e-04,-1.184440063145910e-13
	-5.182631634816771e-04,7.113235090478588e-13
	-7.347092285568675e-22,-7.999089624973730e-13
	-5.182631634816771e-04,7.113235090478588e-13
12		1.318256738556407e+00,0.000000000000000e+00
	-5.182631634816770e+00,7.278923620532294e-09
	1.000000000000000e+00,0.000000000000000e+00
	0.000000000000000e+00,0.000000000000000e+00
	5.182631634816771e-04,-7.278923620532294e-13
	7.693350077383489e-22,8.185412357861302e-13
	5.182631559151607e-12,3.055404790647748e-14
	-5.182631686643087e-04,-1.212029216393783e-13
	-5.182631634816771e-04,7.278923620532294e-13
	-7.693350077383489e-22,-8.185412357861302e-13
	-5.182631634816771e-04,7.278923620532294e-13
13		1.348962882591653e+00,0.000000000000000e+00
	-5.182631634816770e+00,7.448471532237552e-09
	1.000000000000000e+00,0.000000000000000e+00
	0.000000000000000e+00,0.000000000000000e+00
	5.182631634816771e-04,-7.448471532237552e-13
	8.055926496177849e-22,8.376075104727756e-13
	5.182631559151607e-12,3.126574310850881e-14
	-5.182631686643087e-04,-1.240261003575292e-13
	-5.182631634816771e-04,7.448471532237552e-13
	-8.055926496177849e-22,-8.376075104727756e-13
	-5.182631634816771e-04,7.448471532237552e-13
14		1.380384264602885e+00,0.000000000000000e+00
	-5.182631634816770e+00,7.621968722141379e-09
	1.000000000000000e+00,0.000000000000000e+00
	0.000000000000000e+00,0.000000000000000e+00
	5.182631634816771e-04,-7.621968722141378e-13
	8.435590615147483e-22,8.571178957485196e-13
	5.182631559151607e-12,3.199401582138738e-14
	-5.182631686643087e-04,-1.269150393557692e-13
	-5.182631634816771e-04,7.621968722141379e-13
	-8.435590615147483e-22,-8.571178957485196e-13
	-5.182631634816771e-04,7.621968722141379e-13
15		1.412537544622754e+00,0.000000000000000e+00
	-5.182631634816770e+00,7.799507180750366e-09
	1.000000000000000e+00,0.000000000000000e+00
	0.000000000000000e+00,0.000000000000000e+00
	5.182631634816771e-04,-7.799507180750365e-13
	8.833147752791177e-22,8.770827362778862e-13
	5.182631559151607e-12,3.273925218494507e-14
	-5.182631686643087e-04,-1.298712703877947e-13
	-5.182631634816771e-04,7.799507180750366e-13
	-8.833147752791177e-22,-8.770827362778862e-13
	-5.182631634816771e-04,7.799507180750366e-13
16		1.445439770745927e+00,0.000000000000000e+00
	-5.182631634816770e+00,7.981181041305269e-09
	1.000000000000000e+00,0.000000000000000e+00
	0.000000000000000e+00,0.000000000000000e+00
	5.182631634816771e-04,-7.981181041305269e-13
	9.249441181099287e-22,8.975126176835895e-13
	5.182631559151607e-12,3.350184733336677e-14
	-5.182631686643087e-04,-1.328963608864293e-13
	-5.182631634816771e-04,7.981181041305269e-13
	-9.249441181099287e-22,-8.975126176835895e-13
	-5.182631634816771e-04,7.981181041305269e-13
17		1.479108388168207e+00,0.000000000000000e+00
	-5.182631634816770e+00,8.167086629691692e-09
	1.000000000000000e+00,0.000000000000000e+00
	0.000000000000000e+00,0.000000000000000e+00
	5.182631634816771e-04,-8.167086629691692e-13
	9.685353914246692e-22,9.184183721591727e-13
	5.182631559151607e-12,3.428220560469370e-14
	-5.182631686643087e-04,-1.359919147946972e-13
	-5.182631634816771e-04,8.167086629691692e-13
	-9.685353914246692e-22,-9.184183721591727e-13
	-5.182631634816771e-04,8.167086629691692e-13
18		1.513561248436208e+00,0.000000000000000e+00
	-5.182631634816770e+00,8.357322515513354e-09
	1.000000000000000e+00,0.000000000000000e+00
	0.000000000000000e+00,0.000000000000000e+00
	5.182631634816771e-04,-8.357322515513352e-13
	1.014181058158424e-21,9.398110842123792e-13
	5.182631559151607e-12,3.508074075521118e-14
	-5.182631686643087e-04,-1.391595734162551e-13
	-5.182631634816771e-04,8.357322515513354e-13
	-1.014181058158424e-21,-9.398110842123792e-13
	-5.182631634816771e-04,8.357322515513354e-13
19		1.548816618912481e+00,0.000000000000000e+00
	-5.182631634816770e+00,8.551989564354977e-09
	1.000000000000000e+00,0.000000000000000e+00
	0.000000000000000e+00,0.000000000000000e+00
	5.182631634816771e-04,-8.551989564354977e-13
	1.061977938890155e-21,9.617020965423051e-13
	5.182631559151607e-12,3.589787617882554e-14
	-5.182631686643087e-04,-1.424010162856330e-13
	-5.182631634816771e-04,8.551989564354977e-13
	-1.061977938890155e-21,-9.617020965423051e-13
	-5.182631634816771e-04,8.551989564354977e-13
20		1.584893192461113e+00,0.000000000000000e+00
	-5.182631634816770e+00,8.751190991262589e-09
	1.000000000000000e+00,0.000000000000000e+00
	0.000000000000000e+00,0.000000000000000e+00
	5.182631634816771e-04,-8.751190991262588e-13
	1.112027417212135e-21,9.841030160534501e-13
	5.182631559151607e-12,3.673404513155439e-14
	-5.182631686643087e-04,-1.457179620587457e-13
	-5.182631634816771e-04,8.751190991262589e-13
	-1.112027417212135e-21,-9.841030160534501e-13
	-5.182631634816771e-04,8.751190991262589e-13
21		1.621810097358929e+00,0.000000000000000e+00
	-5.182631634816770e+00,8.955032415469472e-09
	1.000000000000000e+00,0.000000000000000e+00
	0.000000000000000e+00,0.000000000000000e+00
	5.182631634816771e-04,-8.955032415469469e-13
	1.164435654778135e-21,1.007025720009850e-12
	5.182631559151607e-12,3.758969096124434e-14
	-5.182631686643087e-04,-1.491121694241473e-13
	-5.182631634816771e-04,8.955032415469472e-13
	-1.164435654778135e-21,-1.007025720009850e-12
	-5.182631634816771e-04,8.955032415469472e-13
22		1.659586907437560e+00,0.000000000000000e+00
	-5.182631634816770e+00,9.163621916396906e-09
	1.000000000000000e+00,0.000000000000000e+00
	0.000000000000000e+00,0.000000000000000e+00
	5.182631634816771e-04,-9.163621916396904e-13
	1.219313816486527e-21,1.030482362332560e-12
	5.182631559151607e-12,3.846526734264057e-14
	-5.182631686643087e-04,-1.525854380355105e-13
	-5.182631634816771e-04,9.163621916396906e-13
	-1.219313816486527e-21,-1.030482362332560e-12
	-5.182631634816771e-04,9.163621916396906e-13
23		1.698243652461743e+00,0.000000000000000e+00
	-5.182631634816770e+00,9.377070090959288e-09
	1.000000000000000e+00,0.000000000000000e+00
	0.000000000000000e+00,0.000000000000000e+00
	5.182631634816771e-04,-9.377070090959288e-13
	1.276778306275938e-21,1.054485380043826e-12
	5.182631559151607e-12,3.936123851793001e-14
	-5.182631686643087e-04,-1.561396094658271e-13
	-5.182631634816771e-04,9.377070090959288e-13
	-1.276778306275938e-21,-1.054485380043826e-12
	-5.182631634816771e-04,9.377070090959288e-13
24		1.737800828749374e+00,0.000000000000000e+00
	-5.182631634816770e+00,9.595490112204090e-09
	1.000000000000000e+00,0.000000000000000e+00
	0.000000000000000e+00,0.000000000000000e+00
	5.182631634816771e-04,-9.595490112204091e-13
	1.336951014033609e-21,1.079047499861355e-12
	5.182631559151607e-12,4.027807954288906e-14
	-5.182631686643087e-04,-1.597765681838346e-13
	-5.182631634816771e-04,9.595490112204091e-13
	-1.336951014033609e-21,-1.079047499861355e-12
	-5.182631634816771e-04,9.595490112204091e-13
25		1.778279410038922e+00,0.000000000000000e+00
	-5.182631634816770e+00,9.818997789317716e-09
	1.000000000000000e+00,0.000000000000000e+00
	0.000000000000000e+00,0.000000000000000e+00
	5.182631634816771e-04,-9.818997789317714e-13
	1.399959574140191e-21,1.104181744946192e-12
	5.182631559151607e-12,4.121627653876513e-14
	-5.182631686643087e-04,-1.634982425531861e-13
	-5.182631634816771e-04,9.818997789317716e-13
	-1.399959574140191e-21,-1.104181744946192e-12
	-5.182631634816771e-04,9.818997789317716e-13
26		1.819700858609982e+00,0.000000000000000e+00
	-5.182631634816770e+00,1.004771162902903e-08
	1.000000000000000e+00,0.000000000000000e+00
	0.000000000000000e+00,0.000000000000000e+00
	5.182631634816771e-04,-1.004771162902903e-12
	1.465937636199373e-21,1.129901441807774e-12
	5.182631559151607e-12,4.217632695002380e-14
	-5.182631686643087e-04,-1.673066058548942e-13
	-5.182631634816771e-04,1.004771162902903e-12
	-1.465937636199373e-21,-1.129901441807774e-12
	-5.182631634816771e-04,1.004771162902903e-12
27		1.862087136662866e+00,0.000000000000000e+00
	-5.182631634816770e+00,1.028175289844325e-08
	1.000000000000000e+00,0.000000000000000e+00
	0.000000000000000e+00,0.000000000000000e+00
	5.182631634816771e-04,-1.028175289844325e-12
	1.535025148526617e-21,1.156220227369815e-12
	5.182631559151607e-12,4.315873980810136e-14
	-5.182631686643087e-04,-1.712036773335914e-13
	-5.182631634816771e-04,1.028175289844325e-12
	-1.535025148526617e-21,-1.156220227369815e-12
	-5.182631634816771e-04,1.028175289844325e-12
28		1.905460717963246e+00,0.000000000000000e+00
	-5.182631634816770e+00,1.052124568933931e-08
	1.000000000000000e+00,0.000000000000000e+00
	0.000000000000000e+00,0.000000000000000e+00
	5.182631634816771e-04,-1.052124568933931e-12
	1.607368654998293e-21,1.183152056200792e-12
	5.182631559151607e-12,4.416403600129857e-14
	-5.182631686643087e-04,-1.751915232681595e-13
	-5.182631634816771e-04,1.052124568933931e-12
	-1.607368654998293e-21,-1.183152056200792e-12
	-5.182631634816771e-04,1.052124568933931e-12
29		1.949844599758044e+00,0.000000000000000e+00
	-5.182631634816770e+00,1.076631698396501e-08
	1.000000000000000e+00,0.000000000000000e+00
	0.000000000000000e+00,0.000000000000000e+00
	5.182631634816771e-04,-1.076631698396501e-12
	1.683121605890890e-21,1.210711207912835e-12
	5.182631559151607e-12,4.519274855096405e-14
	-5.182631686643087e-04,-1.792722580672984e-13
	-5.182631634816771e-04,1.076631698396501e-12
	-1.683121605890890e-21,-1.210711207912835e-12
	-5.182631634816771e-04,1.076631698396501e-12
30		1.995262314968878e+00,0.000000000000000e+00
	-5.182631634816770e+00,1.101709672236465e-08
	1.000000000000000e+00,0.000000000000000e+00
	0.000000000000000e+00,0.000000000000000e+00
	5.182631634816771e-04,-1.101709672236465e-12
	1.762444683369626e-21,1.238912294732971e-12
	5.182631559151607e-12,4.624542289410733e-14
	-5.182631686643087e-04,-1.834480453906132e-13
	-5.182631634816771e-04,1.101709672236465e-12
	-1.762444683369626e-21,-1.238912294732971e-12
	-5.182631634816771e-04,1.101709672236465e-12
31		2.041737944669527e+00,0.000000000000000e+00
	-5.182631634816770e+00,1.127371787127502e-08
	1.000000000000000e+00,0.000000000000000e+00
	0.000000000000000e+00,0.000000000000000e+00
	5.182631634816771e-04,-1.127371787127501e-12
	1.845506142316863e-21,1.267770269250717e-12
	5.182631559151607e-12,4.732261717260024e-14
	-5.182631686643087e-04,-1.877210992958162e-13
	-5.182631634816771e-04,1.127371787127502e-12
	-1.845506142316863e-21,-1.267770269250717e-12
	-5.182631634816771e-04,1.127371787127502e-12
32		2.089296130854037e+00,0.000000000000000e+00
	-5.182631634816770e+00,1.153631649462603e-08
	1.000000000000000e+00,0.000000000000000e+00
	0.000000000000000e+00,0.000000000000000e+00
	5.182631634816771e-04,-1.153631649462602e-12
	1.932482167223274e-21,1.297300432346144e-12
	5.182631559151607e-12,4.842490252910665e-14
	-5.182631686643087e-04,-1.920936854126484e-13
	-5.182631634816771e-04,1.153631649462603e-12
	-1.932482167223274e-21,-1.297300432346144e-12
	-5.182631634816771e-04,1.153631649462603e-12
33		2.137962089502230e+00,0.000000000000000e+00
	-5.182631634816770e+00,1.180503182568368e-08
	1.000000000000000e+00,0.000000000000000e+00
	0.000000000000000e+00,0.000000000000000e+00
	5.182631634816771e-04,-1.180503182568368e-12
	2.023557245898762e-21,1.327518441302602e-12
	5.182631559151607e-12,4.955286340991358e-14
	-5.182631686643087e-04,-1.965681221441467e-13
	-5.182631634816771e-04,1.180503182568368e-12
	-2.023557245898762e-21,-1.327518441302602e-12
	-5.182631634816771e-04,1.180503182568368e-12
34		2.187761623949550e+00,0.000000000000000e+00
	-5.182631634816770e+00,1.208000634087339e-08
	1.000000000000000e+00,0.000000000000000e+00
	0.000000000000000e+00,0.000000000000000e+00
	5.182631634816771e-04,-1.208000634087339e-12
	2.118924560795848e-21,1.358440318108422e-12
	5.182631559151607e-12,5.070709787480967e-14
	-5.182631686643087e-04,-2.011467818958927e-13
	-5.182631634816771e-04,1.208000634087339e-12
	-2.118924560795848e-21,-1.358440318108422e-12
	-5.182631634816771e-04,1.208000634087339e-12
35		2.238721138568337e+00,0.000000000000000e+00
	-5.182631634816770e+00,1.236138583532282e-08
	1.000000000000000e+00,0.000000000000000e+00
	0.000000000000000e+00,0.000000000000000e+00
	5.182631634816771e-04,-1.236138583532282e-12
	2.218786398775546e-21,1.390082457951987e-12
	5.182631559151607e-12,5.188821791418698e-14
	-5.182631686643087e-04,-2.058320923338923e-13
	-5.182631634816771e-04,1.236138583532282e-12
	-2.218786398775546e-21,-1.390082457951987e-12
	-5.182631634816771e-04,1.236138583532282e-12
36		2.290867652767770e+00,0.000000000000000e+00
	-5.182631634816770e+00,1.264931950016442e-08
	1.000000000000000e+00,0.000000000000000e+00
	0.000000000000000e+00,0.000000000000000e+00
	5.182631634816771e-04,-1.264931950016441e-12
	2.323354580184922e-21,1.422461637914674e-12
	5.182631559151607e-12,5.309684977352442e-14
	-5.182631686643087e-04,-2.106265376717572e-13
	-5.182631634816771e-04,1.264931950016442e-12
	-2.323354580184922e-21,-1.422461637914674e-12
	-5.182631634816771e-04,1.264931950016442e-12
37		2.344228815319919e+00,0.000000000000000e+00
	-5.182631634816770e+00,1.294396000163853e-08
	1.000000000000000e+00,0.000000000000000e+00
	0.000000000000000e+00,0.000000000000000e+00
	5.182631634816771e-04,-1.294396000163853e-12
	2.432850908156444e-21,1.455595025866289e-12
	5.182631559151607e-12,5.433363428543145e-14
	-5.182631686643087e-04,-2.155326599878673e-13
	-5.182631634816771e-04,1.294396000163854e-12
	-2.432850908156444e-21,-1.455595025866289e-12
	-5.182631634816771e-04,1.294396000163854e-12
38		2.398832919019488e+00,0.000000000000000e+00
	-5.182631634816770e+00,1.324546356203909e-08
	1.000000000000000e+00,0.000000000000000e+00
	0.000000000000000e+00,0.000000000000000e+00
