Title: * GA CMOS Amp | W=2.366279279107536e-05 L=8.799684450436383e-07 Vbias=1.2672926171580907
Date: Sat Sep  6 22:37:16 2025
Plotname: AC Analysis
Flags: complex forward log
No. Variables: 13
No. Points:          901
Offset:    0.0000000000000000e+00
Command: Linear Technology Corporation LTspice
Variables:
	0	frequency	frequency
	1	V(out)	voltage
	2	V(g)	voltage
	3	V(vdd)	voltage
	4	V(m1#dbody)	voltage
	5	V(m1#sbody)	voltage
	6	Id(M1)	device_current
	7	Ig(M1)	device_current
	8	Ib(M1)	device_current
	9	Is(M1)	device_current
	10	I(Rload)	device_current
	11	I(Vg)	device_current
	12	I(Vdd)	device_current
Values:
0		1.000000000000000e+00,0.000000000000000e+00
	1.148002627092116e-02,1.059106999111969e-09
	1.000000000000000e+00,0.000000000000000e+00
	0.000000000000000e+00,0.000000000000000e+00
	1.313443060627784e-04,1.181042766217731e-13
	1.313443059743154e-04,1.117979817718518e-13
	-1.148002627092120e-06,-1.059106999111971e-13
	9.652619431525185e-05,5.421430315095014e-12
	-7.005029657850386e-05,-6.009287732075517e-14
	-2.532789510965587e-05,-5.255426737863061e-12
	1.148002627092116e-06,1.059106999111969e-13
	-9.652619431521625e-05,-5.421430315095011e-12
	1.148002627092116e-06,1.059106999111969e-13
1		1.023292992280754e+00,0.000000000000000e+00
	1.148002627092116e-02,1.083776770266777e-09
	1.000000000000000e+00,0.000000000000000e+00
	0.000000000000000e+00,0.000000000000000e+00
	1.313443060627784e-04,1.208552786254481e-13
	1.313443059743154e-04,1.144020912982674e-13
	-1.148002627092120e-06,-1.083776770266780e-13
	9.652619431525185e-05,5.547711649575167e-12
	-7.005029657850386e-05,-6.149262024831581e-14
	-2.532789510965587e-05,-5.377841352300173e-12
	1.148002627092116e-06,1.083776770266777e-13
	-9.652619431521625e-05,-5.547711649575168e-12
	1.148002627092116e-06,1.083776770266777e-13
2		1.047128548050899e+00,0.000000000000000e+00
	1.148002627092116e-02,1.109021174210661e-09
	1.000000000000000e+00,0.000000000000000e+00
	0.000000000000000e+00,0.000000000000000e+00
	1.313443060627784e-04,1.236703596975590e-13
	1.313443059743154e-04,1.170668583277801e-13
	-1.148002627092120e-06,-1.109021174210666e-13
	9.652619431525185e-05,5.676934454204571e-12
	-7.005029657850386e-05,-6.292496737708316e-14
	-2.532789510965587e-05,-5.503107369406421e-12
	1.148002627092116e-06,1.109021174210661e-13
	-9.652619431521625e-05,-5.676934454204571e-12
	1.148002627092116e-06,1.109021174210661e-13
3		1.071519305237606e+00,0.000000000000000e+00
	1.148002627092116e-02,1.134853595860743e-09
	1.000000000000000e+00,0.000000000000000e+00
	0.000000000000000e+00,0.000000000000000e+00
	1.313443060627784e-04,1.265510124313523e-13
	1.313443059743154e-04,1.197936957551412e-13
	-1.148002627092120e-06,-1.134853595860740e-13
	9.652619431525185e-05,5.809167244624705e-12
	-7.005029657850386e-05,-6.439067815646426e-14
	-2.532789510965588e-05,-5.631291206882167e-12
	1.148002627092116e-06,1.134853595860743e-13
	-9.652619431521625e-05,-5.809167244624704e-12
	1.148002627092116e-06,1.134853595860743e-13
4		1.096478196143185e+00,0.000000000000000e+00
	1.148002627092116e-02,1.161287731908913e-09
	1.000000000000000e+00,0.000000000000000e+00
	0.000000000000000e+00,0.000000000000000e+00
	1.313443060627784e-04,1.294987641870374e-13
	1.313443059743154e-04,1.225840493856487e-13
	-1.148002627092120e-06,-1.161287731908921e-13
	9.652619431525185e-05,5.944480132411357e-12
	-7.005029657850386e-05,-6.589052972571530e-14
	-2.532789510965588e-05,-5.762460829494749e-12
	1.148002627092116e-06,1.161287731908913e-13
	-9.652619431521625e-05,-5.944480132411357e-12
	1.148002627092116e-06,1.161287731908913e-13
5		1.122018454301963e+00,0.000000000000000e+00
	1.148002627092116e-02,1.188337598084002e-09
	1.000000000000000e+00,0.000000000000000e+00
	0.000000000000000e+00,0.000000000000000e+00
	1.313443060627784e-04,1.325151779016133e-13
	1.313443059743154e-04,1.254393987017322e-13
	-1.148002627092120e-06,-1.188337598083999e-13
	9.652619431525185e-05,6.082944862248711e-12
	-7.005029657850386e-05,-6.742531732599119e-14
	-2.532789510965588e-05,-5.896685785114319e-12
	1.148002627092116e-06,1.188337598084002e-13
	-9.652619431521625e-05,-6.082944862248711e-12
	1.148002627092116e-06,1.188337598084002e-13
6		1.148153621496882e+00,0.000000000000000e+00
	1.148002627092116e-02,1.216017536583102e-09
	1.000000000000000e+00,0.000000000000000e+00
	0.000000000000000e+00,0.000000000000000e+00
	1.313443060627784e-04,1.356018529175583e-13
	1.313443059743154e-04,1.283612576473941e-13
	-1.148002627092120e-06,-1.216017536583105e-13
	9.652619431525185e-05,6.224634849969322e-12
	-7.005029657850386e-05,-6.899585472199290e-14
	-2.532789510965588e-05,-6.034037241589019e-12
	1.148002627092116e-06,1.216017536583102e-13
	-9.652619431521625e-05,-6.224634849969323e-12
	1.148002627092116e-06,1.216017536583102e-13
7		1.174897554939529e+00,0.000000000000000e+00
	1.148002627092116e-02,1.244342223675994e-09
	1.000000000000000e+00,0.000000000000000e+00
	0.000000000000000e+00,0.000000000000000e+00
	1.313443060627784e-04,1.387604258308229e-13
	1.313443059743154e-04,1.313511754309227e-13
	-1.148002627092120e-06,-1.244342223676000e-13
	9.652619431525185e-05,6.369625221480170e-12
	-7.005029657850386e-05,-7.060297463343630e-14
	-2.532789510965588e-05,-6.174588024479134e-12
	1.148002627092116e-06,1.244342223675994e-13
	-9.652619431521625e-05,-6.369625221480170e-12
	1.148002627092116e-06,1.244342223675994e-13
8		1.202264434617413e+00,0.000000000000000e+00
	1.148002627092116e-02,1.273326677486696e-09
	1.000000000000000e+00,0.000000000000000e+00
	0.000000000000000e+00,0.000000000000000e+00
	1.313443060627784e-04,1.419925713585745e-13
	1.313443059743154e-04,1.344107373463032e-13
	-1.148002627092120e-06,-1.273326677486693e-13
	9.652619431525185e-05,6.517992852595405e-12
	-7.005029657850386e-05,-7.224752917657122e-14
	-2.532789510965588e-05,-6.318412655670165e-12
	1.148002627092116e-06,1.273326677486696e-13
	-9.652619431521625e-05,-6.517992852595405e-12
	1.148002627092116e-06,1.273326677486696e-13
9		1.230268770812381e+00,0.000000000000000e+00
	1.148002627092116e-02,1.302986265956272e-09
	1.000000000000000e+00,0.000000000000000e+00
	0.000000000000000e+00,0.000000000000000e+00
	1.313443060627784e-04,1.453000032271542e-13
	1.313443059743154e-04,1.375415656137611e-13
	-1.148002627092123e-06,-1.302986265956273e-13
	9.652619431525185e-05,6.669816409796921e-12
	-7.005029657850386e-05,-7.393039031598465e-14
	-2.532789510965588e-05,-6.465587392885309e-12
	1.148002627092116e-06,1.302986265956272e-13
	-9.652619431521625e-05,-6.669816409796920e-12
	1.148002627092116e-06,1.302986265956272e-13
10		1.258925411794167e+00,0.000000000000000e+00
	1.148002627092116e-02,1.333336714991120e-09
	1.000000000000000e+00,0.000000000000000e+00
	0.000000000000000e+00,0.000000000000000e+00
	1.313443060627784e-04,1.486844750807179e-13
	1.313443059743154e-04,1.407453202398853e-13
	-1.148002627092123e-06,-1.333336714991122e-13
	9.652619431525185e-05,6.825176391944369e-12
	-7.005029657850386e-05,-7.565245032692803e-14
	-2.532789510965588e-05,-6.616190270118328e-12
	1.148002627092116e-06,1.333336714991120e-13
	-9.652619431521625e-05,-6.825176391944369e-12
	1.148002627092116e-06,1.333336714991120e-13
11		1.288249551693134e+00,0.000000000000000e+00
	1.148002627092116e-02,1.364394116801054e-09
	1.000000000000000e+00,0.000000000000000e+00
	0.000000000000000e+00,0.000000000000000e+00
	1.313443060627784e-04,1.521477814110410e-13
	1.313443059743154e-04,1.440236998977852e-13
	-1.148002627092123e-06,-1.364394116801059e-13
	9.652619431525185e-05,6.984155172956714e-12
	-7.005029657850386e-05,-7.741462226841330e-14
	-2.532789510965588e-05,-6.770301139008195e-12
	1.148002627092116e-06,1.364394116801054e-13
	-9.652619431521625e-05,-6.984155172956714e-12
	1.148002627092116e-06,1.364394116801054e-13
12		1.318256738556407e+00,0.000000000000000e+00
	1.148002627092116e-02,1.396174938431607e-09
	1.000000000000000e+00,0.000000000000000e+00
	0.000000000000000e+00,0.000000000000000e+00
	1.313443060627784e-04,1.556917585089823e-13
	1.313443059743154e-04,1.473784428277499e-13
	-1.148002627092123e-06,-1.396174938431613e-13
	9.652619431525185e-05,7.146837045487984e-12
	-7.005029657850386e-05,-7.921784046732895e-14
	-2.532789510965588e-05,-6.928001711177493e-12
	1.148002627092116e-06,1.396174938431607e-13
	-9.652619431521625e-05,-7.146837045487984e-12
	1.148002627092116e-06,1.396174938431607e-13
13		1.348962882591653e+00,0.000000000000000e+00
	1.148002627092116e-02,1.428696030495077e-09
	1.000000000000000e+00,0.000000000000000e+00
	0.000000000000000e+00,0.000000000000000e+00
	1.313443060627784e-04,1.593182854381090e-13
	1.313443059743154e-04,1.508113277588863e-13
	-1.148002627092123e-06,-1.428696030495075e-13
	9.652619431525185e-05,7.313308265620343e-12
	-7.005029657850386e-05,-8.106306101383245e-14
	-2.532789510965588e-05,-7.089375601557004e-12
	1.148002627092116e-06,1.428696030495077e-13
	-9.652619431521625e-05,-7.313308265620343e-12
	1.148002627092116e-06,1.428696030495077e-13
14		1.380384264602885e+00,0.000000000000000e+00
	1.148002627092116e-02,1.461974636104943e-09
	1.000000000000000e+00,0.000000000000000e+00
	0.000000000000000e+00,0.000000000000000e+00
	1.313443060627784e-04,1.630292850310019e-13
	1.313443059743154e-04,1.543241748522243e-13
	-1.148002627092123e-06,-1.461974636104949e-13
	9.652619431525185e-05,7.483657098598214e-12
	-7.005029657850386e-05,-8.295126226828195e-14
	-2.532789510965588e-05,-7.254508372719437e-12
	1.148002627092116e-06,1.461974636104943e-13
	-9.652619431521625e-05,-7.483657098598214e-12
	1.148002627092116e-06,1.461974636104943e-13
15		1.412537544622754e+00,0.000000000000000e+00
	1.148002627092116e-02,1.496028400018394e-09
	1.000000000000000e+00,0.000000000000000e+00
	0.000000000000000e+00,0.000000000000000e+00
	1.313443060627784e-04,1.668267249087659e-13
	1.313443059743154e-04,1.579188466657910e-13
	-1.148002627092117e-06,-1.496028400018406e-13
	9.652619431525185e-05,7.657973865627674e-12
	-7.005029657850386e-05,-8.488344537997588e-14
	-2.532789510965588e-05,-7.423487580245856e-12
	1.148002627092116e-06,1.496028400018394e-13
	-9.652619431521625e-05,-7.657973865627672e-12
	1.148002627092116e-06,1.496028400018394e-13
16		1.445439770745927e+00,0.000000000000000e+00
	1.148002627092116e-02,1.530875377991811e-09
	1.000000000000000e+00,0.000000000000000e+00
	0.000000000000000e+00,0.000000000000000e+00
	1.313443060627784e-04,1.707126185242892e-13
	1.313443059743154e-04,1.615972491421628e-13
	-1.148002627092117e-06,-1.530875377991816e-13
	9.652619431525185e-05,7.836350991765954e-12
	-7.005029657850386e-05,-8.686063481797543e-14
	-2.532789510965588e-05,-7.596402819148798e-12
	1.148002627092116e-06,1.530875377991811e-13
	-9.652619431521625e-05,-7.836350991765954e-12
	1.148002627092116e-06,1.530875377991811e-13
17		1.479108388168207e+00,0.000000000000000e+00
	1.148002627092116e-02,1.566534046354171e-09
	1.000000000000000e+00,0.000000000000000e+00
	0.000000000000000e+00,0.000000000000000e+00
	1.313443060627784e-04,1.746890262298028e-13
	1.313443059743154e-04,1.653613326190223e-13
	-1.148002627092117e-06,-1.566534046354164e-13
	9.652619431525185e-05,8.018883054926437e-12
	-7.005029657850386e-05,-8.888387891429194e-14
	-2.532789510965588e-05,-7.773345771376729e-12
	1.148002627092116e-06,1.566534046354171e-13
	-9.652619431521625e-05,-8.018883054926437e-12
	1.148002627092116e-06,1.566534046354171e-13
18		1.513561248436208e+00,0.000000000000000e+00
	1.148002627092116e-02,1.603023311803437e-09
	1.000000000000000e+00,0.000000000000000e+00
	0.000000000000000e+00,0.000000000000000e+00
	1.313443060627784e-04,1.787580563693060e-13
	1.313443059743154e-04,1.692130928632524e-13
	-1.148002627092117e-06,-1.603023311803439e-13
	9.652619431525185e-05,8.205666836025111e-12
	-7.005029657850386e-05,-9.095425041972604e-14
	-2.532789510965588e-05,-7.954410254425040e-12
	1.148002627092116e-06,1.603023311803437e-13
	-9.652619431521625e-05,-8.205666836025106e-12
	1.148002627092116e-06,1.603023311803437e-13
19		1.548816618912481e+00,0.000000000000000e+00
	1.148002627092116e-02,1.640362521431143e-09
	1.000000000000000e+00,0.000000000000000e+00
	0.000000000000000e+00,0.000000000000000e+00
	1.313443060627784e-04,1.829218663964389e-13
	1.313443059743154e-04,1.731545721291186e-13
	-1.148002627092117e-06,-1.640362521431147e-13
	9.652619431525185e-05,8.396801370295080e-12
	-7.005029657850386e-05,-9.307284707265449e-14
	-2.532789510965588e-05,-8.139692271079311e-12
	1.148002627092116e-06,1.640362521431143e-13
	-9.652619431521625e-05,-8.396801370295081e-12
	1.148002627092116e-06,1.640362521431143e-13
20		1.584893192461113e+00,0.000000000000000e+00
	1.148002627092116e-02,1.678571472980477e-09
	1.000000000000000e+00,0.000000000000000e+00
	0.000000000000000e+00,0.000000000000000e+00
	1.313443060627784e-04,1.871826640183923e-13
	1.313443059743154e-04,1.771878602410995e-13
	-1.148002627092120e-06,-1.678571472980485e-13
	9.652619431525187e-05,8.592387999796391e-12
	-7.005029657850386e-05,-9.524079218106563e-14
	-2.532789510965588e-05,-8.329290060317276e-12
	1.148002627092116e-06,1.678571472980477e-13
	-9.652619431521625e-05,-8.592387999796392e-12
	1.148002627092116e-06,1.678571472980477e-13
21		1.621810097358929e+00,0.000000000000000e+00
	1.148002627092116e-02,1.717670425343305e-09
	1.000000000000000e+00,0.000000000000000e+00
	0.000000000000000e+00,0.000000000000000e+00
	1.313443060627784e-04,1.915427083664637e-13
	1.313443059743154e-04,1.813150957019388e-13
	-1.148002627092120e-06,-1.717670425343308e-13
	9.652619431525187e-05,8.792530427148890e-12
	-7.005029657850386e-05,-9.745923521815211e-14
	-2.532789510965588e-05,-8.523304149396408e-12
	1.148002627092116e-06,1.717670425343305e-13
	-9.652619431521625e-05,-8.792530427148893e-12
	1.148002627092116e-06,1.717670425343305e-13
22		1.659586907437560e+00,0.000000000000000e+00
	1.148002627092116e-02,1.757680109301707e-09
	1.000000000000000e+00,0.000000000000000e+00
	0.000000000000000e+00,0.000000000000000e+00
	1.313443060627784e-04,1.960043111938785e-13
	1.313443059743154e-04,1.855384668265082e-13
	-1.148002627092120e-06,-1.757680109301702e-13
	9.652619431525187e-05,8.997334770516767e-12
	-7.005029657850386e-05,-9.972935243177672e-14
	-2.532789510965588e-05,-8.721837407154819e-12
	1.148002627092116e-06,1.757680109301707e-13
	-9.652619431521625e-05,-8.997334770516767e-12
	1.148002627092116e-06,1.757680109301707e-13
23		1.698243652461743e+00,0.000000000000000e+00
	1.148002627092116e-02,1.798621738519706e-09
	1.000000000000000e+00,0.000000000000000e+00
	0.000000000000000e+00,0.000000000000000e+00
	1.313443060627784e-04,2.005698381015120e-13
	1.313443059743154e-04,1.898602129020810e-13
	-1.148002627092120e-06,-1.798621738519727e-13
	9.652619431525187e-05,9.206909619873776e-12
	-7.005029657850386e-05,-1.020523474681347e-13
	-2.532789510965588e-05,-8.924995098553669e-12
	1.148002627092116e-06,1.798621738519706e-13
	-9.652619431521625e-05,-9.206909619873776e-12
	1.148002627092116e-06,1.798621738519706e-13
24		1.737800828749374e+00,0.000000000000000e+00
	1.148002627092116e-02,1.840517020791042e-09
	1.000000000000000e+00,0.000000000000000e+00
	0.000000000000000e+00,0.000000000000000e+00
	1.313443060627784e-04,2.052417097921626e-13
	1.313443059743154e-04,1.942826253756315e-13
	-1.148002627092120e-06,-1.840517020791039e-13
	9.652619431525187e-05,9.421366094579096e-12
	-7.005029657850386e-05,-1.044294520099428e-13
	-2.532789510965588e-05,-9.132884940490048e-12
	1.148002627092116e-06,1.840517020791043e-13
	-9.652619431521625e-05,-9.421366094579095e-12
	1.148002627092116e-06,1.840517020791043e-13
25		1.778279410038922e+00,0.000000000000000e+00
	1.148002627092116e-02,1.883388169548925e-09
	1.000000000000000e+00,0.000000000000000e+00
	0.000000000000000e+00,0.000000000000000e+00
	1.313443060627784e-04,2.100224033540402e-13
	1.313443059743154e-04,1.988080490687907e-13
	-1.148002627092120e-06,-1.883388169548944e-13
	9.652619431525187e-05,9.640817902294284e-12
	-7.005029657850386e-05,-1.068619264294938e-13
	-2.532789510965588e-05,-9.345617158909897e-12
	1.148002627092116e-06,1.883388169548925e-13
	-9.652619431521625e-05,-9.640817902294283e-12
	1.148002627092116e-06,1.883388169548925e-13
26		1.819700858609982e+00,0.000000000000000e+00
	1.148002627092116e-02,1.927257915643891e-09
	1.000000000000000e+00,0.000000000000000e+00
	0.000000000000000e+00,0.000000000000000e+00
	1.313443060627784e-04,2.149144535741513e-13
	1.313443059743154e-04,2.034388834211018e-13
	-1.148002627092117e-06,-1.927257915643892e-13
	9.652619431525187e-05,9.865381399272579e-12
	-7.005029657850386e-05,-1.093510604569225e-13
	-2.532789510965589e-05,-9.563304547251268e-12
	1.148002627092116e-06,1.927257915643891e-13
	-9.652619431521625e-05,-9.865381399272580e-12
	1.148002627092116e-06,1.927257915643891e-13
27		1.862087136662866e+00,0.000000000000000e+00
	1.148002627092116e-02,1.972149519396007e-09
	1.000000000000000e+00,0.000000000000000e+00
	0.000000000000000e+00,0.000000000000000e+00
	1.313443060627784e-04,2.199204542822765e-13
	1.313443059743154e-04,2.081775837622348e-13
	-1.148002627092117e-06,-1.972149519395993e-13
	9.652619431525185e-05,1.009517565205253e-11
	-7.005029657850384e-05,-1.118981738640379e-13
	-2.532789510965589e-05,-9.786062526248894e-12
	1.148002627092116e-06,1.972149519396007e-13
	-9.652619431521625e-05,-1.009517565205253e-11
	1.148002627092116e-06,1.972149519396007e-13
28		1.905460717963246e+00,0.000000000000000e+00
	1.148002627092116e-02,2.018086782927791e-09
	1.000000000000000e+00,0.000000000000000e+00
	0.000000000000000e+00,0.000000000000000e+00
	1.313443060627784e-04,2.250430597262535e-13
	1.313443059743154e-04,2.130266626138346e-13
	-1.148002627092120e-06,-2.018086782927802e-13
	9.652619431525185e-05,1.033032250058865e-11
	-7.005029657850384e-05,-1.145046171640834e-13
	-2.532789510965589e-05,-1.001400920513178e-11
	1.148002627092116e-06,2.018086782927791e-13
	-9.652619431521625e-05,-1.033032250058865e-11
	1.148002627092116e-06,2.018086782927791e-13
29		1.949844599758044e+00,0.000000000000000e+00
	1.148002627092116e-02,2.065094062784420e-09
	1.000000000000000e+00,0.000000000000000e+00
	0.000000000000000e+00,0.000000000000000e+00
	1.313443060627784e-04,2.302849859792944e-13
	1.313443059743154e-04,2.179886910216935e-13
	-1.148002627092120e-06,-2.065094062784428e-13
	9.652619431525185e-05,1.057094662285256e-11
	-7.005029657850384e-05,-1.171717723277971e-13
	-2.532789510965589e-05,-1.024726544424632e-11
	1.148002627092116e-06,2.065094062784420e-13
	-9.652619431521625e-05,-1.057094662285256e-11
	1.148002627092116e-06,2.065094062784420e-13
30		1.995262314968878e+00,0.000000000000000e+00
	1.148002627092116e-02,2.113196282847889e-09
	1.000000000000000e+00,0.000000000000000e+00
	0.000000000000000e+00,0.000000000000000e+00
	1.313443060627784e-04,2.356490123800836e-13
	1.313443059743154e-04,2.230662999189534e-13
	-1.148002627092120e-06,-2.113196282847893e-13
	9.652619431525185e-05,1.081717560093893e-11
	-7.005029657850384e-05,-1.199010535161507e-13
	-2.532789510965589e-05,-1.048595491913799e-11
	1.148002627092116e-06,2.113196282847889e-13
	-9.652619431521625e-05,-1.081717560093892e-11
	1.148002627092116e-06,2.113196282847889e-13
31		2.041737944669527e+00,0.000000000000000e+00
	1.148002627092116e-02,2.162418947551982e-09
	1.000000000000000e+00,0.000000000000000e+00
	0.000000000000000e+00,0.000000000000000e+00
	1.313443060627784e-04,2.411379830064203e-13
	1.313443059743154e-04,2.282621815210620e-13
	-1.148002627092120e-06,-2.162418947551997e-13
	9.652619431525185e-05,1.106913998871116e-11
	-7.005029657850384e-05,-1.226939078301567e-13
	-2.532789510965589e-05,-1.073020418612580e-11
	1.148002627092116e-06,2.162418947551982e-13
	-9.652619431521625e-05,-1.106913998871116e-11
	1.148002627092116e-06,2.162418947551982e-13
32		2.089296130854037e+00,0.000000000000000e+00
	1.148002627092116e-02,2.212788155405067e-09
	1.000000000000000e+00,0.000000000000000e+00
	0.000000000000000e+00,0.000000000000000e+00
	1.313443060627784e-04,2.467548081831854e-13
	1.313443059743154e-04,2.335790907532202e-13
