Title: * GA CMOS Amp | W=3.315946935802477e-05 L=7.800934176081105e-07 Vbias=0.5568223227033814
Date: Sat Sep  6 22:03:51 2025
Plotname: AC Analysis
Flags: complex forward log
No. Variables: 13
No. Points:          901
Offset:    0.0000000000000000e+00
Command: Linear Technology Corporation LTspice
Variables:
	0	frequency	frequency
	1	V(out)	voltage
	2	V(g)	voltage
	3	V(vdd)	voltage
	4	V(m1#dbody)	voltage
	5	V(m1#sbody)	voltage
	6	Id(M1)	device_current
	7	Ig(M1)	device_current
	8	Ib(M1)	device_current
	9	Is(M1)	device_current
	10	I(Rload)	device_current
	11	I(Vg)	device_current
	12	I(Vdd)	device_current
Values:
0		1.000000000000000e+00,0.000000000000000e+00
	-1.309396139050744e-01,1.187343119600439e-09
	1.000000000000000e+00,0.000000000000000e+00
	0.000000000000000e+00,0.000000000000000e+00
	3.425729649107947e-09,-8.231841165037337e-14
	3.426750491150094e-09,1.806785402036730e-14
	1.309396139050756e-05,-1.187343119600436e-13
	1.158013137533264e-06,6.188174310369642e-12
	-1.827532207192902e-09,-2.943772810218602e-15
	-1.425014699583363e-05,-6.066496225599380e-12
	-1.309396139050744e-05,1.187343119600439e-13
	-1.158013137547709e-06,-6.188174310369642e-12
	-1.309396139050744e-05,1.187343119600439e-13
1		1.023292992280754e+00,0.000000000000000e+00
	-1.309396139050744e-01,1.214999893719899e-09
	1.000000000000000e+00,0.000000000000000e+00
	0.000000000000000e+00,0.000000000000000e+00
	3.425729649107737e-09,-8.423585377750947e-14
	3.426750491149927e-09,1.848870840459351e-14
	1.309396139050756e-05,-1.214999893719903e-13
	1.158013137533264e-06,6.332315406813044e-12
	-1.827532207192810e-09,-3.012342087563317e-15
	-1.425014699583363e-05,-6.207803075353490e-12
	-1.309396139050744e-05,1.214999893719899e-13
	-1.158013137547709e-06,-6.332315406813044e-12
	-1.309396139050744e-05,1.214999893719899e-13
2		1.047128548050899e+00,0.000000000000000e+00
	-1.309396139050744e-01,1.243300876865433e-09
	1.000000000000000e+00,0.000000000000000e+00
	0.000000000000000e+00,0.000000000000000e+00
	3.425729649107517e-09,-8.619795886931190e-14
	3.426750491149752e-09,1.891936574674262e-14
	1.309396139050756e-05,-1.243300876865440e-13
	1.158013137533264e-06,6.479813980703241e-12
	-1.827532207192714e-09,-3.082508548555816e-15
	-1.425014699583363e-05,-6.352401384468141e-12
	-1.309396139050744e-05,1.243300876865433e-13
	-1.158013137547709e-06,-6.479813980703239e-12
	-1.309396139050744e-05,1.243300876865433e-13
3		1.071519305237606e+00,0.000000000000000e+00
	-1.309396139050744e-01,1.272261074592914e-09
	1.000000000000000e+00,0.000000000000000e+00
	0.000000000000000e+00,0.000000000000000e+00
	3.425729649107287e-09,-8.820576725987144e-14
	3.426750491149569e-09,1.936005438703837e-14
	1.309396139050756e-05,-1.272261074592920e-13
	1.158013137533264e-06,6.630748237736483e-12
	-1.827532207192613e-09,-3.154309396382741e-15
	-1.425014699583363e-05,-6.500367820880809e-12
	-1.309396139050744e-05,1.272261074592915e-13
	-1.158013137547709e-06,-6.630748237736482e-12
	-1.309396139050744e-05,1.272261074592915e-13
4		1.096478196143185e+00,0.000000000000000e+00
	-1.309396139050744e-01,1.301895841982511e-09
	1.000000000000000e+00,0.000000000000000e+00
	0.000000000000000e+00,0.000000000000000e+00
	3.425729649107047e-09,-9.026034351577362e-14
	3.426750491149378e-09,1.981100798443064e-14
	1.309396139050756e-05,-1.301895841982513e-13
	1.158013137533264e-06,6.785198205253701e-12
	-1.827532207192508e-09,-3.227782700803795e-15
	-1.425014699583363e-05,-6.651780838354646e-12
	-1.309396139050744e-05,1.301895841982511e-13
	-1.158013137547709e-06,-6.785198205253701e-12
	-1.309396139050744e-05,1.301895841982511e-13
5		1.122018454301963e+00,0.000000000000000e+00
	-1.309396139050744e-01,1.332220891780156e-09
	1.000000000000000e+00,0.000000000000000e+00
	0.000000000000000e+00,0.000000000000000e+00
	3.425729649106795e-09,-9.236277700054470e-14
	3.426750491149178e-09,2.027246564048599e-14
	1.309396139050756e-05,-1.332220891780155e-13
	1.158013137533264e-06,6.943245774672064e-12
	-1.827532207192398e-09,-3.302967418337595e-15
	-1.425014699583363e-05,-6.806720718075711e-12
	-1.309396139050744e-05,1.332220891780156e-13
	-1.158013137547709e-06,-6.943245774672063e-12
	-1.309396139050744e-05,1.332220891780156e-13
6		1.148153621496882e+00,0.000000000000000e+00
	-1.309396139050744e-01,1.363252302728650e-09
	1.000000000000000e+00,0.000000000000000e+00
	0.000000000000000e+00,0.000000000000000e+00
	3.425729649106531e-09,-9.451418245224762e-14
	3.426750491148968e-09,2.074467202616146e-14
	1.309396139050756e-05,-1.363252302728654e-13
	1.158013137533264e-06,7.104974744904879e-12
	-1.827532207192282e-09,-3.379903412916401e-15
	-1.425014699583363e-05,-6.965269611219097e-12
	-1.309396139050744e-05,1.363252302728650e-13
	-1.158013137547709e-06,-7.104974744904878e-12
	-1.309396139050744e-05,1.363252302728650e-13
7		1.174897554939529e+00,0.000000000000000e+00
	-1.309396139050744e-01,1.395006528092829e-09
	1.000000000000000e+00,0.000000000000000e+00
	0.000000000000000e+00,0.000000000000000e+00
	3.425729649106256e-09,-9.671570057452932e-14
	3.426750491148749e-09,2.122787751153387e-14
	1.309396139050756e-05,-1.395006528092834e-13
	1.158013137533264e-06,7.270470866792899e-12
	-1.827532207192161e-09,-3.458631477023295e-15
	-1.425014699583363e-05,-7.127511582506592e-12
	-1.309396139050744e-05,1.395006528092829e-13
	-1.158013137547709e-06,-7.270470866792899e-12
	-1.309396139050744e-05,1.395006528092829e-13
8		1.202264434617413e+00,0.000000000000000e+00
	-1.309396139050744e-01,1.427500404383297e-09
	1.000000000000000e+00,0.000000000000000e+00
	0.000000000000000e+00,0.000000000000000e+00
	3.425729649105966e-09,-9.896849864143973e-14
	3.426750491148518e-09,2.172233829854669e-14
	1.309396139050756e-05,-1.427500404383297e-13
	1.158013137533263e-06,7.439821888570556e-12
	-1.827532207192035e-09,-3.539193353319498e-15
	-1.425014699583363e-05,-7.293532654778907e-12
	-1.309396139050744e-05,1.427500404383297e-13
	-1.158013137547709e-06,-7.439821888570554e-12
	-1.309396139050744e-05,1.427500404383297e-13
9		1.230268770812381e+00,0.000000000000000e+00
	-1.309396139050744e-01,1.460751160283370e-09
	1.000000000000000e+00,0.000000000000000e+00
	0.000000000000000e+00,0.000000000000000e+00
	3.425729649105663e-09,-1.012737711163326e-13
	3.426750491148277e-09,2.222831655685465e-14
	1.309396139050756e-05,-1.460751160283374e-13
	1.158013137533263e-06,7.613117602391214e-12
	-1.827532207191902e-09,-3.621631756778457e-15
	-1.425014699583363e-05,-7.463420854606098e-12
	-1.309396139050744e-05,1.460751160283370e-13
	-1.158013137547709e-06,-7.613117602391213e-12
	-1.309396139050744e-05,1.460751160283370e-13
10		1.258925411794167e+00,0.000000000000000e+00
	-1.309396139050744e-01,1.494776425783954e-09
	1.000000000000000e+00,0.000000000000000e+00
	0.000000000000000e+00,0.000000000000000e+00
	3.425729649105345e-09,-1.036327402851882e-13
	3.426750491148024e-09,2.274608056282765e-14
	1.309396139050756e-05,-1.494776425783959e-13
	1.158013137533263e-06,7.790449891936187e-12
	-1.827532207191763e-09,-3.705990397332846e-15
	-1.425014699583363e-05,-7.637266258960457e-12
	-1.309396139050744e-05,1.494776425783954e-13
	-1.158013137547709e-06,-7.790449891936187e-12
	-1.309396139050744e-05,1.494776425783954e-13
11		1.288249551693134e+00,0.000000000000000e+00
	-1.309396139050744e-01,1.529594241531193e-09
	1.000000000000000e+00,0.000000000000000e+00
	0.000000000000000e+00,0.000000000000000e+00
	3.425729649105014e-09,-1.060466569046844e-13
	3.426750491147761e-09,2.327590484179507e-14
	1.309396139050756e-05,-1.529594241531204e-13
	1.158013137533263e-06,7.971912781132660e-12
	-1.827532207191618e-09,-3.792314003050502e-15
	-1.425014699583363e-05,-7.815161042976489e-12
	-1.309396139050744e-05,1.529594241531193e-13
	-1.158013137547709e-06,-7.971912781132657e-12
	-1.309396139050744e-05,1.529594241531193e-13
12		1.318256738556407e+00,0.000000000000000e+00
	-1.309396139050744e-01,1.565223068391865e-09
	1.000000000000000e+00,0.000000000000000e+00
	0.000000000000000e+00,0.000000000000000e+00
	3.425729649104666e-09,-1.085168008653651e-13
	3.426750491147484e-09,2.381807031360249e-14
	1.309396139050756e-05,-1.565223068391866e-13
	1.158013137533263e-06,8.157602484006425e-12
	-1.827532207191465e-09,-3.880648343849709e-15
	-1.425014699583363e-05,-7.997199528823390e-12
	-1.309396139050744e-05,1.565223068391865e-13
	-1.158013137547709e-06,-8.157602484006427e-12
	-1.309396139050744e-05,1.565223068391865e-13
13		1.348962882591653e+00,0.000000000000000e+00
	-1.309396139050744e-01,1.601681797241575e-09
	1.000000000000000e+00,0.000000000000000e+00
	0.000000000000000e+00,0.000000000000000e+00
	3.425729649104302e-09,-1.110444818702542e-13
	3.426750491147195e-09,2.437286444155969e-14
	1.309396139050756e-05,-1.601681797241576e-13
	1.158013137533263e-06,8.347617455695851e-12
	-1.827532207191306e-09,-3.971040255767318e-15
	-1.425014699583363e-05,-8.183478235715926e-12
	-1.309396139050744e-05,1.601681797241575e-13
	-1.158013137547709e-06,-8.347617455695849e-12
	-1.309396139050744e-05,1.601681797241575e-13
14		1.380384264602885e+00,0.000000000000000e+00
	-1.309396139050744e-01,1.638989758980948e-09
	1.000000000000000e+00,0.000000000000000e+00
	0.000000000000000e+00,0.000000000000000e+00
	3.425729649103920e-09,-1.136310401292785e-13
	3.426750491146892e-09,2.494058138485671e-14
	1.309396139050756e-05,-1.638989758980947e-13
	1.158013137533263e-06,8.542058444654062e-12
	-1.827532207191139e-09,-4.063537665791419e-15
	-1.425014699583363e-05,-8.374095931090176e-12
	-1.309396139050744e-05,1.638989758980948e-13
	-1.158013137547709e-06,-8.542058444654061e-12
	-1.309396139050744e-05,1.638989758980948e-13
15		1.412537544622754e+00,0.000000000000000e+00
	-1.309396139050744e-01,1.677166734785125e-09
	1.000000000000000e+00,0.000000000000000e+00
	0.000000000000000e+00,0.000000000000000e+00
	3.425729649103521e-09,-1.162778470698638e-13
	3.426750491146574e-09,2.552152215453172e-14
	1.309396139050756e-05,-1.677166734785133e-13
	1.158013137533262e-06,8.741028546067139e-12
	-1.827532207190964e-09,-4.158189617273267e-15
	-1.425014699583363e-05,-8.569153682971352e-12
	-1.309396139050744e-05,1.677166734785125e-13
	-1.158013137547709e-06,-8.741028546067139e-12
	-1.309396139050744e-05,1.677166734785125e-13
16		1.445439770745927e+00,0.000000000000000e+00
	-1.309396139050744e-01,1.716232966592013e-09
	1.000000000000000e+00,0.000000000000000e+00
	0.000000000000000e+00,0.000000000000000e+00
	3.425729649103103e-09,-1.189863060640846e-13
	3.426750491146241e-09,2.611599477307055e-14
	1.309396139050756e-05,-1.716232966592012e-13
	1.158013137533262e-06,8.944633256516532e-12
	-1.827532207190781e-09,-4.255046295930444e-15
	-1.425014699583363e-05,-8.768754913561399e-12
	-1.309396139050744e-05,1.716232966592013e-13
	-1.158013137547709e-06,-8.944633256516532e-12
	-1.309396139050744e-05,1.716232966592013e-13
17		1.479108388168207e+00,0.000000000000000e+00
	-1.309396139050744e-01,1.756209167834816e-09
	1.000000000000000e+00,0.000000000000000e+00
	0.000000000000000e+00,0.000000000000000e+00
	3.425729649102665e-09,-1.217578531727509e-13
	3.426750491145893e-09,2.672431443772374e-14
	1.309396139050756e-05,-1.756209167834810e-13
	1.158013137533262e-06,9.152980529914745e-12
	-1.827532207190590e-09,-4.354159056455721e-15
	-1.425014699583363e-05,-8.973005454074809e-12
	-1.309396139050744e-05,1.756209167834816e-13
	-1.158013137547709e-06,-9.152980529914746e-12
	-1.309396139050744e-05,1.756209167834816e-13
18		1.513561248436208e+00,0.000000000000000e+00
	-1.309396139050744e-01,1.797116534424582e-09
	1.000000000000000e+00,0.000000000000000e+00
	0.000000000000000e+00,0.000000000000000e+00
	3.425729649102206e-09,-1.245939579068250e-13
	3.426750491145528e-09,2.734680368763005e-14
	1.309396139050756e-05,-1.797116534424579e-13
	1.158013137533262e-06,9.366180834743944e-12
	-1.827532207190389e-09,-4.455580449746905e-15
	-1.425014699583363e-05,-9.182013600851739e-12
	-1.309396139050744e-05,1.797116534424582e-13
	-1.158013137547709e-06,-9.366180834743943e-12
	-1.309396139050744e-05,1.797116534424582e-13
19		1.548816618912481e+00,0.000000000000000e+00
	-1.309396139050744e-01,1.838976755988549e-09
	1.000000000000000e+00,0.000000000000000e+00
	0.000000000000000e+00,0.000000000000000e+00
	3.425729649101726e-09,-1.274961240065771e-13
	3.426750491145147e-09,2.798379257482948e-14
	1.309396139050756e-05,-1.838976755988561e-13
	1.158013137533262e-06,9.584347212627784e-12
	-1.827532207190179e-09,-4.559364250769225e-15
	-1.425014699583363e-05,-9.395890172778159e-12
	-1.309396139050744e-05,1.838976755988550e-13
	-1.158013137547709e-06,-9.584347212627781e-12
	-1.309396139050744e-05,1.838976755988550e-13
20		1.584893192461113e+00,0.000000000000000e+00
	-1.309396139050744e-01,1.881812027370277e-09
	1.000000000000000e+00,0.000000000000000e+00
	0.000000000000000e+00,0.000000000000000e+00
	3.425729649101223e-09,-1.304658902388887e-13
	3.426750491144747e-09,2.863561883926094e-14
	1.309396139050756e-05,-1.881812027370284e-13
	1.158013137533262e-06,9.807595338267586e-12
	-1.827532207189958e-09,-4.665565487067393e-15
	-1.425014699583363e-05,-9.614748570043490e-12
	-1.309396139050744e-05,1.881812027370277e-13
	-1.158013137547709e-06,-9.807595338267584e-12
	-1.309396139050744e-05,1.881812027370277e-13
21		1.621810097358929e+00,0.000000000000000e+00
	-1.309396139050744e-01,1.925645060397642e-09
	1.000000000000000e+00,0.000000000000000e+00
	0.000000000000000e+00,0.000000000000000e+00
	3.425729649100697e-09,-1.335048312131245e-13
	3.426750491144328e-09,2.930262808783872e-14
	1.309396139050756e-05,-1.925645060397662e-13
	1.158013137533261e-06,1.003604358077461e-11
	-1.827532207189728e-09,-4.774240467943151e-15
	-1.425014699583363e-05,-9.838704834266904e-12
	-1.309396139050744e-05,1.925645060397642e-13
	-1.158013137547709e-06,-1.003604358077461e-11
	-1.309396139050744e-05,1.925645060397642e-13
22		1.659586907437560e+00,0.000000000000000e+00
	-1.309396139050744e-01,1.970499095924957e-09
	1.000000000000000e+00,0.000000000000000e+00
	0.000000000000000e+00,0.000000000000000e+00
	3.425729649100146e-09,-1.366145582160151e-13
	3.426750491143890e-09,2.998517397769468e-14
	1.309396139050756e-05,-1.970499095924975e-13
	1.158013137533261e-06,1.026981306643091e-11
	-1.827532207189486e-09,-4.885446814309476e-15
	-1.425014699583363e-05,-1.006787771002410e-11
	-1.309396139050744e-05,1.970499095924957e-13
	-1.158013137547709e-06,-1.026981306643091e-11
	-1.309396139050744e-05,1.970499095924957e-13
23		1.698243652461743e+00,0.000000000000000e+00
	-1.309396139050744e-01,2.016397916155571e-09
	1.000000000000000e+00,0.000000000000000e+00
	0.000000000000000e+00,0.000000000000000e+00
	3.425729649099569e-09,-1.397967200659796e-13
	3.426750491143431e-09,3.068361840369402e-14
	1.309396139050756e-05,-2.016397916155582e-13
	1.158013137533261e-06,1.050902774291207e-11
	-1.827532207189234e-09,-4.999243489243130e-15
	-1.425014699583363e-05,-1.030238870780727e-11
	-1.309396139050744e-05,2.016397916155571e-13
	-1.158013137547709e-06,-1.050902774291207e-11
	-1.309396139050744e-05,2.016397916155571e-13
24		1.737800828749374e+00,0.000000000000000e+00
	-1.309396139050744e-01,2.063365857251511e-09
	1.000000000000000e+00,0.000000000000000e+00
	0.000000000000000e+00,0.000000000000000e+00
	3.425729649098964e-09,-1.430530039873510e-13
	3.426750491142950e-09,3.139833169031693e-14
	1.309396139050756e-05,-2.063365857251521e-13
	1.158013137533260e-06,1.075381444500595e-11
	-1.827532207188969e-09,-5.115690829247721e-15
	-1.425014699583363e-05,-1.054236216845155e-11
	-1.309396139050744e-05,2.063365857251511e-13
	-1.158013137547709e-06,-1.075381444500595e-11
	-1.309396139050744e-05,2.063365857251511e-13
25		1.778279410038922e+00,0.000000000000000e+00
	-1.309396139050744e-01,2.111427822236842e-09
	1.000000000000000e+00,0.000000000000000e+00
	0.000000000000000e+00,0.000000000000000e+00
	3.425729649098332e-09,-1.463851365049673e-13
	3.426750491142447e-09,3.212969278800792e-14
	1.309396139050756e-05,-2.111427822236849e-13
	1.158013137533260e-06,1.100430296186214e-11
	-1.827532207188692e-09,-5.234850576244042e-15
	-1.425014699583363e-05,-1.078792532906221e-11
	-1.309396139050744e-05,2.111427822236842e-13
	-1.158013137547709e-06,-1.100430296186214e-11
	-1.309396139050744e-05,2.111427822236842e-13
26		1.819700858609982e+00,0.000000000000000e+00
	-1.309396139050744e-01,2.160609294201574e-09
	1.000000000000000e+00,0.000000000000000e+00
	0.000000000000000e+00,0.000000000000000e+00
	3.425729649097670e-09,-1.497948843595945e-13
	3.426750491141921e-09,3.287808947410206e-14
	1.309396139050756e-05,-2.160609294201571e-13
	1.158013137533260e-06,1.126062610580787e-11
	-1.827532207188403e-09,-5.356785910307435e-15
	-1.425014699583363e-05,-1.103920839047741e-11
	-1.309396139050744e-05,2.160609294201574e-13
	-1.158013137547709e-06,-1.126062610580787e-11
	-1.309396139050744e-05,2.160609294201574e-13
27		1.862087136662866e+00,0.000000000000000e+00
	-1.309396139050744e-01,2.210936349813137e-09
	1.000000000000000e+00,0.000000000000000e+00
	0.000000000000000e+00,0.000000000000000e+00
	3.425729649096975e-09,-1.532840554446789e-13
	3.426750491141368e-09,3.364391855842835e-14
	1.309396139050756e-05,-2.210936349813137e-13
	1.158013137533260e-06,1.152291978276691e-11
	-1.827532207188098e-09,-5.481561483165922e-15
	-1.425014699583363e-05,-1.129634458630243e-11
	-1.309396139050744e-05,2.210936349813137e-13
	-1.158013137547709e-06,-1.152291978276691e-11
	-1.309396139050744e-05,2.210936349813137e-13
28		1.905460717963246e+00,0.000000000000000e+00
	-1.309396139050744e-01,2.262435673142573e-09
	1.000000000000000e+00,0.000000000000000e+00
	0.000000000000000e+00,0.000000000000000e+00
	3.425729649096249e-09,-1.568544997649146e-13
	3.426750491140790e-09,3.442758609370408e-14
	1.309396139050756e-05,-2.262435673142579e-13
	1.158013137533259e-06,1.179132306431865e-11
	-1.827532207187780e-09,-5.609243452479752e-15
	-1.425014699583363e-05,-1.155947025355191e-11
	-1.309396139050744e-05,2.262435673142573e-13
	-1.158013137547709e-06,-1.179132306431865e-11
	-1.309396139050744e-05,2.262435673142573e-13
29		1.949844599758044e+00,0.000000000000000e+00
	-1.309396139050744e-01,2.315134569812785e-09
	1.000000000000000e+00,0.000000000000000e+00
	0.000000000000000e+00,0.000000000000000e+00
	3.425729649095488e-09,-1.605081104171403e-13
	3.426750491140185e-09,3.522950759082971e-14
	1.309396139050756e-05,-2.315134569812808e-13
	1.158013137533259e-06,1.206597826143571e-11
	-1.827532207187447e-09,-5.739899516919219e-15
	-1.425014699583363e-05,-1.182872490493751e-11
	-1.309396139050744e-05,2.315134569812786e-13
	-1.158013137547709e-06,-1.206597826143570e-11
	-1.309396139050744e-05,2.315134569812786e-13
30		1.995262314968878e+00,0.000000000000000e+00
	-1.309396139050744e-01,2.369060981476342e-09
	1.000000000000000e+00,0.000000000000000e+00
	0.000000000000000e+00,0.000000000000000e+00
	3.425729649094691e-09,-1.642468245940852e-13
	3.426750491139551e-09,3.605010823919767e-14
	1.309396139050756e-05,-2.369060981476347e-13
	1.158013137533259e-06,1.234703099993907e-11
	-1.827532207187098e-09,-5.873598952059132e-15
	-1.425014699583363e-05,-1.210425130283938e-11
	-1.309396139050744e-05,2.369060981476342e-13
	-1.158013137547709e-06,-1.234703099993907e-11
	-1.309396139050744e-05,2.369060981476342e-13
31		2.041737944669527e+00,0.000000000000000e+00
	-1.309396139050744e-01,2.424243500630506e-09
	1.000000000000000e+00,0.000000000000000e+00
	0.000000000000000e+00,0.000000000000000e+00
	3.425729649093857e-09,-1.680726246114936e-13
	3.426750491138888e-09,3.688982313213357e-14
	1.309396139050756e-05,-2.424243500630501e-13
	1.158013137533258e-06,1.263463029771088e-11
	-1.827532207186733e-09,-6.010412647109645e-15
	-1.425014699583363e-05,-1.238619553500072e-11
	-1.309396139050744e-05,2.424243500630506e-13
	-1.158013137547709e-06,-1.263463029771089e-11
	-1.309396139050744e-05,2.424243500630506e-13
32		2.089296130854037e+00,0.000000000000000e+00
	-1.309396139050744e-01,2.480711385777361e-09
	1.000000000000000e+00,0.000000000000000e+00
	0.000000000000000e+00,0.000000000000000e+00
