Title: * GA CMOS Amp | W=3.729429345422421e-05 L=1e-06 Vbias=0.8191332287156282
Date: Mon Sep  8 18:44:00 2025
Plotname: AC Analysis
Flags: complex forward log
No. Variables: 11
No. Points:          901
Offset:    0.0000000000000000e+00
Command: Linear Technology Corporation LTspice
Variables:
	0	frequency	frequency
	1	V(out)	voltage
	2	V(g)	voltage
	3	V(vdd)	voltage
	4	Id(M1)	device_current
	5	Ig(M1)	device_current
	6	Ib(M1)	device_current
	7	Is(M1)	device_current
	8	I(Rload)	device_current
	9	I(Vg)	device_current
	10	I(Vdd)	device_current
Values:
0		1.000000000000000e+00,0.000000000000000e+00
	-3.289621224714601e+00,1.996229682586757e-09
	1.000000000000000e+00,0.000000000000000e+00
	0.000000000000000e+00,0.000000000000000e+00
	3.289621224714601e-04,-1.996229682586757e-13
	9.355408526826269e-23,4.726566895803985e-13
	3.289621233835277e-12,-8.979275525300395e-15
	-3.289621257610813e-04,-2.640544457964224e-13
	-3.289621224714601e-04,1.996229682586757e-13
	-9.355408526826269e-23,-4.726566895803985e-13
	-3.289621224714601e-04,1.996229682586757e-13
1		1.023292992280754e+00,0.000000000000000e+00
	-3.289621224714601e+00,2.042727845173862e-09
	1.000000000000000e+00,0.000000000000000e+00
	0.000000000000000e+00,0.000000000000000e+00
	3.289621224714601e-04,-2.042727845173863e-13
	9.796315347118596e-23,4.836662782022415e-13
	3.289621233835277e-12,-9.188429720797969e-15
	-3.289621257610813e-04,-2.702050639640573e-13
	-3.289621224714601e-04,2.042727845173863e-13
	-9.796315347118596e-23,-4.836662782022415e-13
	-3.289621224714601e-04,2.042727845173863e-13
2		1.047128548050899e+00,0.000000000000000e+00
	-3.289621224714601e+00,2.090309089103179e-09
	1.000000000000000e+00,0.000000000000000e+00
	0.000000000000000e+00,0.000000000000000e+00
	3.289621224714601e-04,-2.090309089103179e-13
	1.025800146567704e-22,4.949323130868673e-13
	3.289621233835277e-12,-9.402455743356741e-15
	-3.289621257610813e-04,-2.764989484331927e-13
	-3.289621224714601e-04,2.090309089103179e-13
	-1.025800146567704e-22,-4.949323130868673e-13
	-3.289621224714601e-04,2.090309089103179e-13
3		1.071519305237606e+00,0.000000000000000e+00
	-3.289621224714601e+00,2.138998642580049e-09
	1.000000000000000e+00,0.000000000000000e+00
	0.000000000000000e+00,0.000000000000000e+00
	3.289621224714601e-04,-2.138998642580049e-13
	1.074144618065839e-22,5.064607676350955e-13
	3.289621233835277e-12,-9.621467072406988e-15
	-3.289621257610813e-04,-2.829394363046837e-13
	-3.289621224714601e-04,2.138998642580049e-13
	-1.074144618065839e-22,-5.064607676350955e-13
	-3.289621224714601e-04,2.138998642580049e-13
4		1.096478196143185e+00,0.000000000000000e+00
	-3.289621224714601e+00,2.188822321450209e-09
	1.000000000000000e+00,0.000000000000000e+00
	0.000000000000000e+00,0.000000000000000e+00
	3.289621224714601e-04,-2.188822321450209e-13
	1.124767494311970e-22,5.182577543861245e-13
	3.289621233835277e-12,-9.845579830654022e-15
	-3.289621257610813e-04,-2.895299424104496e-13
	-3.289621224714601e-04,2.188822321450209e-13
	-1.124767494311970e-22,-5.182577543861245e-13
	-3.289621224714601e-04,2.188822321450209e-13
5		1.122018454301963e+00,0.000000000000000e+00
	-3.289621224714601e+00,2.239806542887691e-09
	1.000000000000000e+00,0.000000000000000e+00
	0.000000000000000e+00,0.000000000000000e+00
	3.289621224714601e-04,-2.239806542887692e-13
	1.177776153213742e-22,5.303295282584815e-13
	3.289621233835277e-12,-1.007491284564895e-14
	-3.289621257610813e-04,-2.962739611240634e-13
	-3.289621224714601e-04,2.239806542887692e-13
	-1.177776153213742e-22,-5.303295282584815e-13
	-3.289621224714601e-04,2.239806542887692e-13
6		1.148153621496882e+00,0.000000000000000e+00
	-3.289621224714601e+00,2.291978339401557e-09
	1.000000000000000e+00,0.000000000000000e+00
	0.000000000000000e+00,0.000000000000000e+00
	3.289621224714601e-04,-2.291978339401557e-13
	1.233283033243679e-22,5.426824898664622e-13
	3.289621233835277e-12,-1.030958771279191e-14
	-3.289621257610813e-04,-3.031750682135146e-13
	-3.289621224714601e-04,2.291978339401557e-13
	-1.233283033243679e-22,-5.426824898664622e-13
	-3.289621224714601e-04,2.291978339401557e-13
7		1.174897554939529e+00,0.000000000000000e+00
	-3.289621224714601e+00,2.345365373168893e-09
	1.000000000000000e+00,0.000000000000000e+00
	0.000000000000000e+00,0.000000000000000e+00
	3.289621224714601e-04,-2.345365373168893e-13
	1.291405871936263e-22,5.553231889138221e-13
	3.289621233835277e-12,-1.054972885980385e-14
	-3.289621257610813e-04,-3.102369227371290e-13
	-3.289621224714601e-04,2.345365373168893e-13
	-1.291405871936263e-22,-5.553231889138221e-13
	-3.289621224714601e-04,2.345365373168893e-13
8		1.202264434617413e+00,0.000000000000000e+00
	-3.289621224714601e+00,2.399995950701664e-09
	1.000000000000000e+00,0.000000000000000e+00
	0.000000000000000e+00,0.000000000000000e+00
	3.289621224714601e-04,-2.399995950701664e-13
	1.352267955625025e-22,5.682583276665156e-13
	3.289621233835277e-12,-1.079546361269926e-14
	-3.289621257610813e-04,-3.174632689836500e-13
	-3.289621224714601e-04,2.399995950701664e-13
	-1.352267955625025e-22,-5.682583276665156e-13
	-3.289621224714601e-04,2.399995950701664e-13
9		1.230268770812381e+00,0.000000000000000e+00
	-3.289621224714601e+00,2.455899037855199e-09
	1.000000000000000e+00,0.000000000000000e+00
	0.000000000000000e+00,0.000000000000000e+00
	3.289621224714601e-04,-2.455899037855199e-13
	1.415998380949390e-22,5.814947645063260e-13
	3.289621233835277e-12,-1.104692226329701e-14
	-3.289621257610813e-04,-3.248579384575091e-13
	-3.289621224714601e-04,2.455899037855199e-13
	-1.415998380949390e-22,-5.814947645063260e-13
	-3.289621224714601e-04,2.455899037855199e-13
10		1.258925411794167e+00,0.000000000000000e+00
	-3.289621224714601e+00,2.513104275186272e-09
	1.000000000000000e+00,0.000000000000000e+00
	0.000000000000000e+00,0.000000000000000e+00
	3.289621224714601e-04,-2.513104275186272e-13
	1.482732328685960e-22,5.950395175672708e-13
	3.289621233835277e-12,-1.130423813830210e-14
	-3.289621257610813e-04,-3.324248519103415e-13
	-3.289621224714601e-04,2.513104275186272e-13
	-1.482732328685960e-22,-5.950395175672708e-13
	-3.289621224714601e-04,2.513104275186272e-13
11		1.288249551693134e+00,0.000000000000000e+00
	-3.289621224714601e+00,2.571641993668916e-09
	1.000000000000000e+00,0.000000000000000e+00
	0.000000000000000e+00,0.000000000000000e+00
	3.289621224714601e-04,-2.571641993668916e-13
	1.552611350485059e-22,6.088997684567090e-13
	3.289621233835277e-12,-1.156754766999733e-14
	-3.289621257610813e-04,-3.401680214198200e-13
	-3.289621224714601e-04,2.571641993668916e-13
	-1.552611350485059e-22,-6.088997684567090e-13
	-3.289621224714601e-04,2.571641993668916e-13
12		1.318256738556407e+00,0.000000000000000e+00
	-3.289621224714601e+00,2.631543230776309e-09
	1.000000000000000e+00,0.000000000000000e+00
	0.000000000000000e+00,0.000000000000000e+00
	3.289621224714601e-04,-2.631543230776310e-13
	1.625783669120766e-22,6.230828660631241e-13
	3.289621233835277e-12,-1.183699046858179e-14
	-3.289621257610813e-04,-3.480915525169113e-13
	-3.289621224714601e-04,2.631543230776310e-13
	-1.625783669120766e-22,-6.230828660631241e-13
	-3.289621224714601e-04,2.631543230776310e-13
13		1.348962882591653e+00,0.000000000000000e+00
	-3.289621224714601e+00,2.692839746937252e-09
	1.000000000000000e+00,0.000000000000000e+00
	0.000000000000000e+00,0.000000000000000e+00
	3.289621224714601e-04,-2.692839746937253e-13
	1.702404492891292e-22,6.375963304526026e-13
	3.289621233835277e-12,-1.211270939619386e-14
	-3.289621257610813e-04,-3.561996463626834e-13
	-3.289621224714601e-04,2.692839746937252e-13
	-1.702404492891292e-22,-6.375963304526026e-13
	-3.289621224714601e-04,2.692839746937252e-13
14		1.380384264602885e+00,0.000000000000000e+00
	-3.289621224714601e+00,2.755564042375970e-09
	1.000000000000000e+00,0.000000000000000e+00
	0.000000000000000e+00,0.000000000000000e+00
	3.289621224714601e-04,-2.755564042375970e-13
	1.782636344836586e-22,6.524478568560723e-13
	3.289621233835277e-12,-1.239485064265843e-14
	-3.289621257610813e-04,-3.644966019758168e-13
	-3.289621224714601e-04,2.755564042375970e-13
	-1.782636344836586e-22,-6.524478568560723e-13
	-3.289621224714601e-04,2.755564042375970e-13
15		1.412537544622754e+00,0.000000000000000e+00
	-3.289621224714601e+00,2.819749374344157e-09
	1.000000000000000e+00,0.000000000000000e+00
	0.000000000000000e+00,0.000000000000000e+00
	3.289621224714601e-04,-2.819749374344158e-13
	1.866649407471497e-22,6.676453197494153e-13
	3.289621233835277e-12,-1.268356380299898e-14
	-3.289621257610813e-04,-3.729868185120006e-13
	-3.289621224714601e-04,2.819749374344157e-13
	-1.866649407471497e-22,-6.676453197494153e-13
	-3.289621224714601e-04,2.819749374344157e-13
16		1.445439770745927e+00,0.000000000000000e+00
	-3.289621224714601e+00,2.885429774754416e-09
	1.000000000000000e+00,0.000000000000000e+00
	0.000000000000000e+00,0.000000000000000e+00
	3.289621224714601e-04,-2.885429774754416e-13
	1.954621883765700e-22,6.831967770286200e-13
	3.289621233835277e-12,-1.297900195675480e-14
	-3.289621257610813e-04,-3.816747975964235e-13
	-3.289621224714601e-04,2.885429774754416e-13
	-1.954621883765700e-22,-6.831967770286200e-13
	-3.289621224714601e-04,2.885429774754416e-13
17		1.479108388168207e+00,0.000000000000000e+00
	-3.289621224714601e+00,2.952640068224429e-09
	1.000000000000000e+00,0.000000000000000e+00
	0.000000000000000e+00,0.000000000000000e+00
	3.289621224714601e-04,-2.952640068224429e-13
	2.046740375136091e-22,6.991104742821836e-13
	3.289621233835277e-12,-1.328132174914533e-14
	-3.289621257610813e-04,-3.905651457105954e-13
	-3.289621224714601e-04,2.952640068224429e-13
	-2.046740375136091e-22,-6.991104742821836e-13
	-3.289621224714601e-04,2.952640068224429e-13
18		1.513561248436208e+00,0.000000000000000e+00
	-3.289621224714601e+00,3.021415890541426e-09
	1.000000000000000e+00,0.000000000000000e+00
	0.000000000000000e+00,0.000000000000000e+00
	3.289621224714601e-04,-3.021415890541426e-13
	2.143200277253409e-22,7.153948491630328e-13
	3.289621233835277e-12,-1.359068347412624e-14
	-3.289621257610813e-04,-3.996625766347640e-13
	-3.289621224714601e-04,3.021415890541426e-13
	-2.143200277253409e-22,-7.153948491630328e-13
	-3.289621224714601e-04,3.021415890541426e-13
19		1.548816618912481e+00,0.000000000000000e+00
	-3.289621224714601e+00,3.091793707556755e-09
	1.000000000000000e+00,0.000000000000000e+00
	0.000000000000000e+00,0.000000000000000e+00
	3.289621224714601e-04,-3.091793707556755e-13
	2.244206194502647e-22,7.320585358622787e-13
	3.289621233835277e-12,-1.390725115937937e-14
	-3.289621257610813e-04,-4.089719139472238e-13
	-3.289621224714601e-04,3.091793707556755e-13
	-2.244206194502647e-22,-7.320585358622787e-13
	-3.289621224714601e-04,3.091793707556755e-13
20		1.584893192461113e+00,0.000000000000000e+00
	-3.289621224714601e+00,3.163810834520558e-09
	1.000000000000000e+00,0.000000000000000e+00
	0.000000000000000e+00,0.000000000000000e+00
	3.289621224714601e-04,-3.163810834520559e-13
	2.349972373976391e-22,7.491103696871789e-13
	3.289621233835277e-12,-1.423119265328126e-14
	-3.289621257610813e-04,-4.184980935818418e-13
	-3.289621224714601e-04,3.163810834520558e-13
	-2.349972373976391e-22,-7.491103696871789e-13
	-3.289621224714601e-04,3.163810834520558e-13
21		1.621810097358929e+00,0.000000000000000e+00
	-3.289621224714601e+00,3.237505455866812e-09
	1.000000000000000e+00,0.000000000000000e+00
	0.000000000000000e+00,0.000000000000000e+00
	3.289621224714601e-04,-3.237505455866812e-13
	2.460723159921624e-22,7.665593917457351e-13
	3.289621233835277e-12,-1.456267971390003e-14
	-3.289621257610813e-04,-4.282461664451538e-13
	-3.289621224714601e-04,3.237505455866812e-13
	-2.460723159921624e-22,-7.665593917457351e-13
	-3.289621224714601e-04,3.237505455866812e-13
22		1.659586907437560e+00,0.000000000000000e+00
	-3.289621224714601e+00,3.312916645459217e-09
	1.000000000000000e+00,0.000000000000000e+00
	0.000000000000000e+00,0.000000000000000e+00
	3.289621224714601e-04,-3.312916645459218e-13
	2.576693469603951e-22,7.844148537404082e-13
	3.289621233835277e-12,-1.490188810006304e-14
	-3.289621257610813e-04,-4.382213010944234e-13
	-3.289621224714601e-04,3.312916645459217e-13
	-2.576693469603951e-22,-7.844148537404082e-13
	-3.289621224714601e-04,3.312916645459217e-13
23		1.698243652461743e+00,0.000000000000000e+00
	-3.289621224714601e+00,3.390084387308680e-09
	1.000000000000000e+00,0.000000000000000e+00
	0.000000000000000e+00,0.000000000000000e+00
	3.289621224714601e-04,-3.390084387308681e-13
	2.698129291598620e-22,8.026862228734924e-13
	3.289621233835277e-12,-1.524899766454651e-14
	-3.289621257610813e-04,-4.484287864780779e-13
	-3.289621224714601e-04,3.390084387308681e-13
	-2.698129291598620e-22,-8.026862228734924e-13
	-3.289621224714601e-04,3.390084387308681e-13
24		1.737800828749374e+00,0.000000000000000e+00
	-3.289621224714601e+00,3.469049596773367e-09
	1.000000000000000e+00,0.000000000000000e+00
	0.000000000000000e+00,0.000000000000000e+00
	3.289621224714601e-04,-3.469049596773366e-13
	2.825288207565265e-22,8.213831868667521e-13
	3.289621233835277e-12,-1.560419244943595e-14
	-3.289621257610813e-04,-4.588740347399796e-13
	-3.289621224714601e-04,3.469049596773367e-13
	-2.825288207565265e-22,-8.213831868667521e-13
	-3.289621224714601e-04,3.469049596773367e-13
25		1.778279410038922e+00,0.000000000000000e+00
	-3.289621224714601e+00,3.549854142252562e-09
	1.000000000000000e+00,0.000000000000000e+00
	0.000000000000000e+00,0.000000000000000e+00
	3.289621224714601e-04,-3.549854142252562e-13
	2.958439938613144e-22,8.405156590979808e-13
	3.289621233835277e-12,-1.596766078370806e-14
	-3.289621257610813e-04,-4.695625840890165e-13
	-3.289621224714601e-04,3.549854142252562e-13
	-2.958439938613144e-22,-8.405156590979808e-13
	-3.289621224714601e-04,3.549854142252562e-13
26		1.819700858609982e+00,0.000000000000000e+00
	-3.289621224714601e+00,3.632540867385854e-09
	1.000000000000000e+00,0.000000000000000e+00
	0.000000000000000e+00,0.000000000000000e+00
	3.289621224714601e-04,-3.632540867385853e-13
	3.097866917415773e-22,8.600937838572028e-13
	3.289621233835277e-12,-1.633959538308463e-14
	-3.289621257610813e-04,-4.805001017355328e-13
	-3.289621224714601e-04,3.632540867385854e-13
	-3.097866917415773e-22,-8.600937838572028e-13
	-3.289621224714601e-04,3.632540867385854e-13
27		1.862087136662866e+00,0.000000000000000e+00
	-3.289621224714601e+00,3.717153613769396e-09
	1.000000000000000e+00,0.000000000000000e+00
	0.000000000000000e+00,0.000000000000000e+00
	3.289621224714601e-04,-3.717153613769396e-13
	3.243864887288494e-22,8.801279417253133e-13
	3.289621233835277e-12,-1.672019345221368e-14
	-3.289621257610813e-04,-4.916923868961600e-13
	-3.289621224714601e-04,3.717153613769397e-13
	-3.243864887288494e-22,-8.801279417253133e-13
	-3.289621224714601e-04,3.717153613769397e-13
28		1.905460717963246e+00,0.000000000000000e+00
	-3.289621224714601e+00,3.803737244201304e-09
	1.000000000000000e+00,0.000000000000000e+00
	0.000000000000000e+00,0.000000000000000e+00
	3.289621224714601e-04,-3.803737244201303e-13
	3.396743529499696e-22,9.006287550779970e-13
	3.289621233835277e-12,-1.710965678922873e-14
	-3.289621257610813e-04,-5.031453738686379e-13
	-3.289621224714601e-04,3.803737244201304e-13
	-3.396743529499696e-22,-9.006287550779970e-13
	-3.289621224714601e-04,3.803737244201304e-13
29		1.949844599758044e+00,0.000000000000000e+00
	-3.289621224714601e+00,3.892337666468501e-09
	1.000000000000000e+00,0.000000000000000e+00
	0.000000000000000e+00,0.000000000000000e+00
	3.289621224714601e-04,-3.892337666468502e-13
	3.556827120146304e-22,9.216070937178541e-13
	3.289621233835277e-12,-1.750819189274664e-14
	-3.289621257610813e-04,-5.148651351782573e-13
	-3.289621224714601e-04,3.892337666468501e-13
	-3.556827120146304e-22,-9.216070937178541e-13
	-3.289621224714601e-04,3.892337666468501e-13
30		1.995262314968878e+00,0.000000000000000e+00
	-3.289621224714601e+00,3.983001857687640e-09
	1.000000000000000e+00,0.000000000000000e+00
	0.000000000000000e+00,0.000000000000000e+00
	3.289621224714601e-04,-3.983001857687641e-13
	3.724455217986861e-22,9.430740806377121e-13
	3.289621233835277e-12,-1.791601007135426e-14
	-3.289621257610813e-04,-5.268578847975938e-13
	-3.289621224714601e-04,3.983001857687640e-13
	-3.724455217986861e-22,-9.430740806377121e-13
	-3.289621224714601e-04,3.983001857687640e-13
31		2.041737944669527e+00,0.000000000000000e+00
	-3.289621224714601e+00,4.075777889212987e-09
	1.000000000000000e+00,0.000000000000000e+00
	0.000000000000000e+00,0.000000000000000e+00
	3.289621224714601e-04,-4.075777889212987e-13
	3.899983384691177e-22,9.650410979181854e-13
	3.289621233835277e-12,-1.833332755564820e-14
	-3.289621257610813e-04,-5.391299814412385e-13
	-3.289621224714601e-04,4.075777889212987e-13
	-3.899983384691177e-22,-9.650410979181854e-13
	-3.289621224714601e-04,4.075777889212987e-13
32		2.089296130854037e+00,0.000000000000000e+00
	-3.289621224714601e+00,4.170714952124494e-09
	1.000000000000000e+00,0.000000000000000e+00
	0.000000000000000e+00,0.000000000000000e+00
	3.289621224714601e-04,-4.170714952124495e-13
	4.083783939034306e-22,9.875197927626043e-13
	3.289621233835277e-12,-1.876036561288241e-14
	-3.289621257610813e-04,-5.516879319372724e-13
	-3.289621224714601e-04,4.170714952124494e-13
	-4.083783939034306e-22,-9.875197927626043e-13
	-3.289621224714601e-04,4.170714952124494e-13
33		2.137962089502230e+00,0.000000000000000e+00
	-3.289621224714601e+00,4.267863383309557e-09
	1.000000000000000e+00,0.000000000000000e+00
	0.000000000000000e+00,0.000000000000000e+00
	3.289621224714601e-04,-4.267863383309556e-13
	4.276246746634576e-22,1.010522083672516e-12
	3.289621233835277e-12,-1.919735066428742e-14
	-3.289621257610813e-04,-5.645383946772725e-13
	-3.289621224714601e-04,4.267863383309557e-13
	-4.276246746634576e-22,-1.010522083672516e-12
	-3.289621224714601e-04,4.267863383309557e-13
34		2.187761623949550e+00,0.000000000000000e+00
	-3.289621224714601e+00,4.367274692152298e-09
	1.000000000000000e+00,0.000000000000000e+00
	0.000000000000000e+00,0.000000000000000e+00
	3.289621224714601e-04,-4.367274692152298e-13
	4.477780046910845e-22,1.034060166767031e-12
	3.289621233835277e-12,-1.964451440512159e-14
	-3.289621257610813e-04,-5.776881831466796e-13
	-3.289621224714601e-04,4.367274692152298e-13
	-4.477780046910845e-22,-1.034060166767031e-12
	-3.289621224714601e-04,4.367274692152298e-13
35		2.238721138568337e+00,0.000000000000000e+00
	-3.289621224714601e+00,4.469001587844534e-09
	1.000000000000000e+00,0.000000000000000e+00
	0.000000000000000e+00,0.000000000000000e+00
	3.289621224714601e-04,-4.469001587844535e-13
	4.688811319013042e-22,1.058146522249371e-12
	3.289621233835277e-12,-2.010209392751918e-14
	-3.289621257610813e-04,-5.911442695373981e-13
	-3.289621224714601e-04,4.469001587844535e-13
	-4.688811319013042e-22,-1.058146522249371e-12
	-3.289621224714601e-04,4.469001587844535e-13
36		2.290867652767770e+00,0.000000000000000e+00
	-3.289621224714601e+00,4.573098007332875e-09
	1.000000000000000e+00,0.000000000000000e+00
	0.000000000000000e+00,0.000000000000000e+00
	3.289621224714601e-04,-4.573098007332875e-13
	4.909788188562750e-22,1.082793921024032e-12
	3.289621233835277e-12,-2.057033184620009e-14
	-3.289621257610813e-04,-6.049137884445447e-13
	-3.289621224714601e-04,4.573098007332875e-13
	-4.909788188562750e-22,-1.082793921024032e-12
	-3.289621224714601e-04,4.573098007332875e-13
37		2.344228815319919e+00,0.000000000000000e+00
	-3.289621224714601e+00,4.679619143916811e-09
	1.000000000000000e+00,0.000000000000000e+00
	0.000000000000000e+00,0.000000000000000e+00
	3.289621224714601e-04,-4.679619143916812e-13
	5.141179377127167e-22,1.108015431468092e-12
	3.289621233835277e-12,-2.104947642710617e-14
	-3.289621257610813e-04,-6.190040406493051e-13
	-3.289621224714601e-04,4.679619143916811e-13
	-5.141179377127167e-22,-1.108015431468092e-12
	-3.289621224714601e-04,4.679619143916811e-13
38		2.398832919019488e+00,0.000000000000000e+00
	-3.289621224714601e+00,4.788621476512935e-09
	1.000000000000000e+00,0.000000000000000e+00
	0.000000000000000e+00,0.000000000000000e+00
