Title: * GA CMOS Amp | W=2.5795991436598112e-05 L=9.655901161522955e-07 Vbias=1.1148298950998692
Date: Mon Sep  8 18:47:19 2025
Plotname: AC Analysis
Flags: complex forward log
No. Variables: 11
No. Points:          901
Offset:    0.0000000000000000e+00
Command: Linear Technology Corporation LTspice
Variables:
	0	frequency	frequency
	1	V(out)	voltage
	2	V(g)	voltage
	3	V(vdd)	voltage
	4	Id(M1)	device_current
	5	Ig(M1)	device_current
	6	Ib(M1)	device_current
	7	Is(M1)	device_current
	8	I(Rload)	device_current
	9	I(Vg)	device_current
	10	I(Vdd)	device_current
Values:
0		1.000000000000000e+00,0.000000000000000e+00
	-1.186875935296959e+00,7.243033211514603e-10
	1.000000000000000e+00,0.000000000000000e+00
	0.000000000000000e+00,0.000000000000000e+00
	1.186875935296959e-04,-7.243033211514607e-14
	9.620831727093119e-23,4.366787872892490e-13
	1.187259492108073e-12,9.635548740505641e-15
	-1.186875947169554e-04,-3.738840039146086e-13
	-1.186875935296959e-04,7.243033211514603e-14
	-9.620831727093119e-23,-4.366787872892490e-13
	-1.186875935296959e-04,7.243033211514603e-14
1		1.023292992280754e+00,0.000000000000000e+00
	-1.186875935296959e+00,7.411745128199659e-10
	1.000000000000000e+00,0.000000000000000e+00
	0.000000000000000e+00,0.000000000000000e+00
	1.186875935296959e-04,-7.411745128199665e-14
	1.007424755743305e-22,4.468503429107465e-13
	1.187259492108073e-12,9.859989502939157e-15
	-1.186875947169554e-04,-3.825928811316890e-13
	-1.186875935296959e-04,7.411745128199660e-14
	-1.007424755743305e-22,-4.468503429107465e-13
	-1.186875935296959e-04,7.411745128199660e-14
2		1.047128548050899e+00,0.000000000000000e+00
	-1.186875935296959e+00,7.584386850257730e-10
	1.000000000000000e+00,0.000000000000000e+00
	0.000000000000000e+00,0.000000000000000e+00
	1.186875935296959e-04,-7.584386850257734e-14
	1.054903221752019e-22,4.572588244988188e-13
	1.187259492108073e-12,1.008965816231946e-14
	-1.186875947169554e-04,-3.915046141585609e-13
	-1.186875935296959e-04,7.584386850257731e-14
	-1.054903221752019e-22,-4.572588244988188e-13
	-1.186875935296959e-04,7.584386850257731e-14
3		1.071519305237606e+00,0.000000000000000e+00
	-1.186875935296959e+00,7.761049914615036e-10
	1.000000000000000e+00,0.000000000000000e+00
	0.000000000000000e+00,0.000000000000000e+00
	1.186875935296959e-04,-7.761049914615038e-14
	1.104619278927407e-22,4.679097507681765e-13
	1.187259492108073e-12,1.032467649200974e-14
	-1.186875947169554e-04,-4.006239281140358e-13
	-1.186875935296959e-04,7.761049914615037e-14
	-1.104619278927407e-22,-4.679097507681765e-13
	-1.186875935296959e-04,7.761049914615037e-14
4		1.096478196143185e+00,0.000000000000000e+00
	-1.186875935296959e+00,7.941827990366709e-10
	1.000000000000000e+00,0.000000000000000e+00
	0.000000000000000e+00,0.000000000000000e+00
	1.186875935296959e-04,-7.941827990366712e-14
	1.156678381692287e-22,4.788087689809091e-13
	1.187259492108073e-12,1.056516910183950e-14
	-1.186875947169554e-04,-4.099556581790814e-13
	-1.186875935296959e-04,7.941827990366709e-14
	-1.156678381692287e-22,-4.788087689809091e-13
	-1.186875935296959e-04,7.941827990366709e-14
5		1.122018454301963e+00,0.000000000000000e+00
	-1.186875935296959e+00,8.126816928441400e-10
	1.000000000000000e+00,0.000000000000000e+00
	0.000000000000000e+00,0.000000000000000e+00
	1.186875935296959e-04,-8.126816928441398e-14
	1.211190954383309e-22,4.899616579407389e-13
	1.187259492108073e-12,1.081126350417339e-14
	-1.186875947169554e-04,-4.195047521604983e-13
	-1.186875935296959e-04,8.126816928441400e-14
	-1.211190954383309e-22,-4.899616579407389e-13
	-1.186875935296959e-04,8.126816928441400e-14
6		1.148153621496882e+00,0.000000000000000e+00
	-1.186875935296959e+00,8.316114812422687e-10
	1.000000000000000e+00,0.000000000000000e+00
	0.000000000000000e+00,0.000000000000000e+00
	1.186875935296959e-04,-8.316114812422693e-14
	1.268272625475777e-22,5.013743310570180e-13
	1.187259492108073e-12,1.106309018152130e-14
	-1.186875947169554e-04,-4.292762731143124e-13
	-1.186875935296959e-04,8.316114812422688e-14
	-1.268272625475777e-22,-5.013743310570180e-13
	-1.186875935296959e-04,8.316114812422688e-14
7		1.174897554939529e+00,0.000000000000000e+00
	-1.186875935296959e+00,8.509822010554311e-10
	1.000000000000000e+00,0.000000000000000e+00
	0.000000000000000e+00,0.000000000000000e+00
	1.186875935296959e-04,-8.509822010554328e-14
	1.328044472847152e-22,5.130528394800974e-13
	1.187259492108073e-12,1.132078265572084e-14
	-1.186875947169554e-04,-4.392754020302749e-13
	-1.186875935296959e-04,8.509822010554312e-14
	-1.328044472847152e-22,-5.130528394800974e-13
	-1.186875935296959e-04,8.509822010554312e-14
8		1.202264434617413e+00,0.000000000000000e+00
	-1.186875935296959e+00,8.708041228956745e-10
	1.000000000000000e+00,0.000000000000000e+00
	0.000000000000000e+00,0.000000000000000e+00
	1.186875935296959e-04,-8.708041228956761e-14
	1.390633280599461e-22,5.250033753097262e-13
	1.187259492108073e-12,1.158447755873267e-14
	-1.186875947169554e-04,-4.495074405788913e-13
	-1.186875935296959e-04,8.708041228956746e-14
	-1.390633280599461e-22,-5.250033753097262e-13
	-1.186875935296959e-04,8.708041228956746e-14
9		1.230268770812381e+00,0.000000000000000e+00
	-1.186875935296959e+00,8.910877566083324e-10
	1.000000000000000e+00,0.000000000000000e+00
	0.000000000000000e+00,0.000000000000000e+00
	1.186875935296959e-04,-8.910877566083326e-14
	1.456171807985373e-22,5.372322748781856e-13
	1.187259492108073e-12,1.185431470508470e-14
	-1.186875947169554e-04,-4.599778139224370e-13
	-1.186875935296959e-04,8.910877566083325e-14
	-1.456171807985373e-22,-5.372322748781856e-13
	-1.186875935296959e-04,8.910877566083325e-14
10		1.258925411794167e+00,0.000000000000000e+00
	-1.186875935296959e+00,9.118438568444849e-10
	1.000000000000000e+00,0.000000000000000e+00
	0.000000000000000e+00,0.000000000000000e+00
	1.186875935296959e-04,-9.118438568444855e-14
	1.524799071008377e-22,5.497460221098951e-13
	1.187259492108073e-12,1.213043716600394e-14
	-1.186875947169554e-04,-4.706920735914505e-13
	-1.186875935296959e-04,9.118438568444850e-14
	-1.524799071008377e-22,-5.497460221098951e-13
	-1.186875935296959e-04,9.118438568444850e-14
11		1.288249551693134e+00,0.000000000000000e+00
	-1.186875935296959e+00,9.330834287632165e-10
	1.000000000000000e+00,0.000000000000000e+00
	0.000000000000000e+00,0.000000000000000e+00
	1.186875935296959e-04,-9.330834287632172e-14
	1.596660637294363e-22,5.625512519592762e-13
	1.187259492108073e-12,1.241299134527378e-14
	-1.186875947169554e-04,-4.816559004282283e-13
	-1.186875935296959e-04,9.330834287632165e-14
	-1.596660637294363e-22,-5.625512519592762e-13
	-1.186875935296959e-04,9.330834287632165e-14
12		1.318256738556407e+00,0.000000000000000e+00
	-1.186875935296959e+00,9.548177338666978e-10
	1.000000000000000e+00,0.000000000000000e+00
	0.000000000000000e+00,0.000000000000000e+00
	1.186875935296959e-04,-9.548177338666982e-14
	1.671908934860070e-22,5.756547539286922e-13
	1.187259492108073e-12,1.270212705686043e-14
	-1.186875947169554e-04,-4.928751075988828e-13
	-1.186875935296959e-04,9.548177338666978e-14
	-1.671908934860070e-22,-5.756547539286922e-13
	-1.186875935296959e-04,9.548177338666978e-14
13		1.348962882591653e+00,0.000000000000000e+00
	-1.186875935296959e+00,9.770582959711819e-10
	1.000000000000000e+00,0.000000000000000e+00
	0.000000000000000e+00,0.000000000000000e+00
	1.186875935296959e-04,-9.770582959711826e-14
	1.750703575433351e-22,5.890634756683328e-13
	1.187259492108073e-12,1.299799760434490e-14
	-1.186875947169554e-04,-5.043556436755594e-13
	-1.186875935296959e-04,9.770582959711820e-14
	-1.750703575433351e-22,-5.890634756683328e-13
	-1.186875935296959e-04,9.770582959711820e-14
14		1.380384264602885e+00,0.000000000000000e+00
	-1.186875935296959e+00,9.998169073170856e-10
	1.000000000000000e+00,0.000000000000000e+00
	0.000000000000000e+00,0.000000000000000e+00
	1.186875935296959e-04,-9.998169073170858e-14
	1.833211693011044e-22,6.027845266599495e-13
	1.187259492108073e-12,1.330075986220811e-14
	-1.186875947169554e-04,-5.161035957904490e-13
	-1.186875935296959e-04,9.998169073170857e-14
	-1.833211693011044e-22,-6.027845266599495e-13
	-1.186875935296959e-04,9.998169073170857e-14
15		1.412537544622754e+00,0.000000000000000e+00
	-1.186875935296959e+00,1.023105634821390e-09
	1.000000000000000e+00,0.000000000000000e+00
	0.000000000000000e+00,0.000000000000000e+00
	1.186875935296959e-04,-1.023105634821390e-13
	1.919608298372586e-22,6.168251819863976e-13
	1.187259492108073e-12,1.361057435900678e-14
	-1.186875947169554e-04,-5.281251928632654e-13
	-1.186875935296959e-04,1.023105634821390e-13
	-1.919608298372586e-22,-6.168251819863976e-13
	-1.186875935296959e-04,1.023105634821390e-13
16		1.445439770745927e+00,0.000000000000000e+00
	-1.186875935296959e+00,1.046936826475680e-09
	1.000000000000000e+00,0.000000000000000e+00
	0.000000000000000e+00,0.000000000000000e+00
	1.186875935296959e-04,-1.046936826475682e-13
	2.010076650301342e-22,6.311928861889814e-13
	1.187259492108073e-12,1.392760536248781e-14
	-1.186875947169554e-04,-5.404268089039011e-13
	-1.186875935296959e-04,1.046936826475680e-13
	-2.010076650301342e-22,-6.311928861889814e-13
	-1.186875935296959e-04,1.046936826475680e-13
17		1.479108388168207e+00,0.000000000000000e+00
	-1.186875935296959e+00,1.071323117893215e-09
	1.000000000000000e+00,0.000000000000000e+00
	0.000000000000000e+00,0.000000000000000e+00
	1.186875935296959e-04,-1.071323117893216e-13
	2.104808644301060e-22,6.458952572146483e-13
	1.187259492108073e-12,1.425202096668553e-14
	-1.186875947169554e-04,-5.530149663920122e-13
	-1.186875935296959e-04,1.071323117893216e-13
	-2.104808644301060e-22,-6.458952572146483e-13
	-1.186875935296959e-04,1.071323117893216e-13
18		1.513561248436208e+00,0.000000000000000e+00
	-1.186875935296959e+00,1.096277439008495e-09
	1.000000000000000e+00,0.000000000000000e+00
	0.000000000000000e+00,0.000000000000000e+00
	1.186875935296959e-04,-1.096277439008497e-13
	2.204005219631951e-22,6.609400904551248e-13
	1.187259492108073e-12,1.458399318104767e-14
	-1.186875947169554e-04,-5.658963397353228e-13
	-1.186875935296959e-04,1.096277439008495e-13
	-2.204005219631951e-22,-6.609400904551248e-13
	-1.186875935296959e-04,1.096277439008495e-13
19		1.548816618912481e+00,0.000000000000000e+00
	-1.186875935296959e+00,1.121813020932885e-09
	1.000000000000000e+00,0.000000000000000e+00
	0.000000000000000e+00,0.000000000000000e+00
	1.186875935296959e-04,-1.121813020932888e-13
	2.307876785529809e-22,6.763353628801369e-13
	1.187259492108073e-12,1.492369802163653e-14
	-1.186875947169554e-04,-5.790777588084847e-13
	-1.186875935296959e-04,1.121813020932885e-13
	-2.307876785529809e-22,-6.763353628801369e-13
	-1.186875935296959e-04,1.121813020932885e-13
20		1.584893192461113e+00,0.000000000000000e+00
	-1.186875935296959e+00,1.147943402969924e-09
	1.000000000000000e+00,0.000000000000000e+00
	0.000000000000000e+00,0.000000000000000e+00
	1.186875935296959e-04,-1.147943402969926e-13
	2.416643667512206e-22,6.920892372669050e-13
	1.187259492108073e-12,1.527131560445473e-14
	-1.186875947169554e-04,-5.925662125743671e-13
	-1.186875935296959e-04,1.147943402969925e-13
	-2.416643667512206e-22,-6.920892372669050e-13
	-1.186875935296959e-04,1.147943402969925e-13
21		1.621810097358929e+00,0.000000000000000e+00
	-1.186875935296959e+00,1.174682439794045e-09
	1.000000000000000e+00,0.000000000000000e+00
	0.000000000000000e+00,0.000000000000000e+00
	1.186875935296959e-04,-1.174682439794047e-13
	2.530536574718457e-22,7.082100665281559e-13
	1.187259492108073e-12,1.562703024094619e-14
	-1.186875947169554e-04,-6.063688527896974e-13
	-1.186875935296959e-04,1.174682439794045e-13
	-2.530536574718457e-22,-7.082100665281559e-13
	-1.186875935296959e-04,1.174682439794045e-13
22		1.659586907437560e+00,0.000000000000000e+00
	-1.186875935296959e+00,1.202044308796506e-09
	1.000000000000000e+00,0.000000000000000e+00
	0.000000000000000e+00,0.000000000000000e+00
	1.186875935296959e-04,-1.202044308796507e-13
	2.649797089274635e-22,7.247063981409486e-13
	1.187259492108073e-12,1.599103053571985e-14
	-1.186875947169554e-04,-6.204929977970177e-13
	-1.186875935296959e-04,1.202044308796506e-13
	-2.649797089274635e-22,-7.247063981409486e-13
	-1.186875935296959e-04,1.202044308796506e-13
23		1.698243652461743e+00,0.000000000000000e+00
	-1.186875935296959e+00,1.230043517602427e-09
	1.000000000000000e+00,0.000000000000000e+00
	0.000000000000000e+00,0.000000000000000e+00
	1.186875935296959e-04,-1.230043517602428e-13
	2.774678178721648e-22,7.415869786786589e-13
	1.187259492108073e-12,1.636350948654958e-14
	-1.186875947169554e-04,-6.349461364049657e-13
	-1.186875935296959e-04,1.230043517602427e-13
	-2.774678178721648e-22,-7.415869786786589e-13
	-1.186875935296959e-04,1.230043517602427e-13
24		1.737800828749374e+00,0.000000000000000e+00
	-1.186875935296959e+00,1.258694911762932e-09
	1.000000000000000e+00,0.000000000000000e+00
	0.000000000000000e+00,0.000000000000000e+00
	1.186875935296959e-04,-1.258694911762932e-13
	2.905444732593313e-22,7.588607584485286e-13
	1.187259492108073e-12,1.674466458670572e-14
	-1.186875947169554e-04,-6.497359318589411e-13
	-1.186875935296959e-04,1.258694911762932e-13
	-2.905444732593313e-22,-7.588607584485286e-13
	-1.186875935296959e-04,1.258694911762932e-13
25		1.778279410038922e+00,0.000000000000000e+00
	-1.186875935296959e+00,1.288013682626450e-09
	1.000000000000000e+00,0.000000000000000e+00
	0.000000000000000e+00,0.000000000000000e+00
	1.186875935296959e-04,-1.288013682626451e-13
	3.042374124282570e-22,7.765368962372375e-13
	1.187259492108073e-12,1.713469792966763e-14
	-1.186875947169554e-04,-6.648702259042600e-13
	-1.186875935296959e-04,1.288013682626451e-13
	-3.042374124282570e-22,-7.765368962372375e-13
	-1.186875935296959e-04,1.288013682626451e-13
26		1.819700858609982e+00,0.000000000000000e+00
	-1.186875935296959e+00,1.318015375393374e-09
	1.000000000000000e+00,0.000000000000000e+00
	0.000000000000000e+00,0.000000000000000e+00
	1.186875935296959e-04,-1.318015375393375e-13
	3.185756799387634e-22,7.946247641670121e-13
	1.187259492108073e-12,1.753381631627652e-14
	-1.186875947169554e-04,-6.803570429439511e-13
	-1.186875935296959e-04,1.318015375393374e-13
	-3.185756799387634e-22,-7.946247641670121e-13
	-1.186875935296959e-04,1.318015375393374e-13
27		1.862087136662866e+00,0.000000000000000e+00
	-1.186875935296959e+00,1.348715897358327e-09
	1.000000000000000e+00,0.000000000000000e+00
	0.000000000000000e+00,0.000000000000000e+00
	1.186875935296959e-04,-1.348715897358329e-13
	3.335896891786053e-22,8.131339526648502e-13
	1.187259492108073e-12,1.794223136438377e-14
	-1.186875947169554e-04,-6.962045942934011e-13
	-1.186875935296959e-04,1.348715897358327e-13
	-3.335896891786053e-22,-8.131339526648502e-13
	-1.186875935296959e-04,1.348715897358327e-13
28		1.905460717963246e+00,0.000000000000000e+00
	-1.186875935296959e+00,1.380131526344425e-09
	1.000000000000000e+00,0.000000000000000e+00
	0.000000000000000e+00,0.000000000000000e+00
	1.186875935296959e-04,-1.380131526344427e-13
	3.493112868743439e-22,8.320742755474917e-13
	1.187259492108073e-12,1.836015962105395e-14
	-1.186875947169554e-04,-7.124212825341030e-13
	-1.186875935296959e-04,1.380131526344425e-13
	-3.493112868743439e-22,-8.320742755474917e-13
	-1.186875935296959e-04,1.380131526344425e-13
29		1.949844599758044e+00,0.000000000000000e+00
	-1.186875935296959e+00,1.412278919333991e-09
	1.000000000000000e+00,0.000000000000000e+00
	0.000000000000000e+00,0.000000000000000e+00
	1.186875935296959e-04,-1.412278919333992e-13
	3.657738206425230e-22,8.514557752248337e-13
	1.187259492108073e-12,1.878782267738046e-14
	-1.186875947169554e-04,-7.290157059688149e-13
	-1.186875935296959e-04,1.412278919333991e-13
	-3.657738206425230e-22,-8.514557752248337e-13
	-1.186875935296959e-04,1.412278919333991e-13
30		1.995262314968878e+00,0.000000000000000e+00
	-1.186875935296959e+00,1.445175121300309e-09
	1.000000000000000e+00,0.000000000000000e+00
	0.000000000000000e+00,0.000000000000000e+00
	1.186875935296959e-04,-1.445175121300311e-13
	3.830122097244351e-22,8.712887280245490e-13
	1.187259492108073e-12,1.922544728597700e-14
	-1.186875947169554e-04,-7.459966631804949e-13
	-1.186875935296959e-04,1.445175121300309e-13
	-3.830122097244351e-22,-8.712887280245490e-13
	-1.186875935296959e-04,1.445175121300309e-13
31		2.041737944669527e+00,0.000000000000000e+00
	-1.186875935296959e+00,1.478837574245095e-09
	1.000000000000000e+00,0.000000000000000e+00
	0.000000000000000e+00,0.000000000000000e+00
	1.186875935296959e-04,-1.478837574245098e-13
	4.010630190545142e-22,8.915836496407328e-13
	1.187259492108073e-12,1.967326548120328e-14
	-1.186875947169554e-04,-7.633731576974263e-13
	-1.186875935296959e-04,1.478837574245095e-13
	-4.010630190545142e-22,-8.915836496407328e-13
	-1.186875935296959e-04,1.478837574245095e-13
32		2.089296130854037e+00,0.000000000000000e+00
	-1.186875935296959e+00,1.513284126446475e-09
	1.000000000000000e+00,0.000000000000000e+00
	0.000000000000000e+00,0.000000000000000e+00
	1.186875935296959e-04,-1.513284126446476e-13
	4.199645368194638e-22,9.123513007094610e-13
	1.187259492108073e-12,2.013151470219400e-14
	-1.186875947169554e-04,-7.811544027670075e-13
	-1.186875935296959e-04,1.513284126446475e-13
	-4.199645368194638e-22,-9.123513007094610e-13
	-1.186875935296959e-04,1.513284126446475e-13
33		2.137962089502230e+00,0.000000000000000e+00
	-1.186875935296959e+00,1.548533041922381e-09
	1.000000000000000e+00,0.000000000000000e+00
	0.000000000000000e+00,0.000000000000000e+00
	1.186875935296959e-04,-1.548533041922382e-13
	4.397568556726337e-22,9.336026925142226e-13
	1.187259492108073e-12,2.060043791875209e-14
	-1.186875947169554e-04,-7.993498262407365e-13
	-1.186875935296959e-04,1.548533041922381e-13
	-4.397568556726337e-22,-9.336026925142226e-13
	-1.186875935296959e-04,1.548533041922381e-13
34		2.187761623949550e+00,0.000000000000000e+00
	-1.186875935296959e+00,1.584603010114371e-09
	1.000000000000000e+00,0.000000000000000e+00
	0.000000000000000e+00,0.000000000000000e+00
	1.186875935296959e-04,-1.584603010114373e-13
	4.604819577759138e-22,9.553490928242476e-13
	1.187259492108073e-12,2.108028376017379e-14
	-1.186875947169554e-04,-8.179690755729841e-13
	-1.186875935296959e-04,1.584603010114371e-13
	-4.604819577759138e-22,-9.553490928242476e-13
	-1.186875935296959e-04,1.584603010114371e-13
35		2.238721138568337e+00,0.000000000000000e+00
	-1.186875935296959e+00,1.621513155797025e-09
	1.000000000000000e+00,0.000000000000000e+00
	0.000000000000000e+00,0.000000000000000e+00
	1.186875935296959e-04,-1.621513155797027e-13
	4.821838038495282e-22,9.776020318688282e-13
	1.187259492108073e-12,2.157130664707560e-14
	-1.186875947169554e-04,-8.370220229362011e-13
	-1.186875935296959e-04,1.621513155797025e-13
	-4.821838038495282e-22,-9.776020318688282e-13
	-1.186875935296959e-04,1.621513155797025e-13
36		2.290867652767770e+00,0.000000000000000e+00
	-1.186875935296959e+00,1.659283049218147e-09
	1.000000000000000e+00,0.000000000000000e+00
	0.000000000000000e+00,0.000000000000000e+00
	1.186875935296959e-04,-1.659283049218147e-13
	5.049084264186162e-22,1.000373308450798e-12
	1.187259492108073e-12,2.207376692629170e-14
	-1.186875947169554e-04,-8.565187704552752e-13
	-1.186875935296959e-04,1.659283049218147e-13
	-5.049084264186162e-22,-1.000373308450798e-12
	-1.186875935296959e-04,1.659283049218147e-13
37		2.344228815319919e+00,0.000000000000000e+00
	-1.186875935296959e+00,1.697932716475171e-09
	1.000000000000000e+00,0.000000000000000e+00
	0.000000000000000e+00,0.000000000000000e+00
	1.186875935296959e-04,-1.697932716475173e-13
	5.287040274543899e-22,1.023674996202415e-12
	1.187259492108073e-12,2.258793100891292e-14
	-1.186875947169554e-04,-8.764696555638110e-13
	-1.186875935296959e-04,1.697932716475171e-13
	-5.287040274543899e-22,-1.023674996202415e-12
	-1.186875935296959e-04,1.697932716475171e-13
38		2.398832919019488e+00,0.000000000000000e+00
	-1.186875935296959e+00,1.737482650133267e-09
	1.000000000000000e+00,0.000000000000000e+00
	0.000000000000000e+00,0.000000000000000e+00
