LTspice 24.0.9 for Windows
Circuit: * GA CMOS Amp | W=2.6861511496581556e-05 L=9.267860234432522e-07 Vbias=1.2404315381069377
Start Time: Sat Sep  6 22:09:43 2025
solver = Normal
Maximum thread count: 2
tnom = 27
temp = 27
method = modified trap
AsciiRawFile = 1
Direct Newton iteration for .op point succeeded.
Semiconductor Device Operating Points:
                        --- BSIM4 MOSFETS ---
Name:      m1
Model:      n
Id:      1.74e-04
Vgs:     1.24e+00
Vds:     6.40e-02
Vbs:     0.00e+00
Vth:     2.37e-01
Vdsat:   7.03e-01
Gm:     -1.46e-05
Gds:     2.63e-03
Gmb      9.86e-05
Cbd:     1.32e-14
Cbs:     2.15e-14


.measure op idd find i(vdd)
  Error: FIND can not be evaluated over an interval.

gain_db: MAX(db(v(out)/v(g)))=(31.9457dB,180°) FROM 1 TO 1e+09
gain_lin: MAX(mag(v(out)/v(g)))=(-3.26584dB,0°) FROM 1 TO 1e+09

Measurement "fc" FAIL'ed

Total elapsed time: 0.997 seconds.

