Title: * GA CMOS Amp | W=7.6016677649837084e-06 L=7.12028584049526e-07 Vbias=1.2745216107515491
Date: Sat Sep  6 22:08:43 2025
Plotname: AC Analysis
Flags: complex forward log
No. Variables: 13
No. Points:          901
Offset:    0.0000000000000000e+00
Command: Linear Technology Corporation LTspice
Variables:
	0	frequency	frequency
	1	V(out)	voltage
	2	V(g)	voltage
	3	V(vdd)	voltage
	4	V(m1#dbody)	voltage
	5	V(m1#sbody)	voltage
	6	Id(M1)	device_current
	7	Ig(M1)	device_current
	8	Ib(M1)	device_current
	9	Is(M1)	device_current
	10	I(Rload)	device_current
	11	I(Vg)	device_current
	12	I(Vdd)	device_current
Values:
0		1.000000000000000e+00,0.000000000000000e+00
	4.528586149367212e-03,7.580069683408598e-10
	1.000000000000000e+00,0.000000000000000e+00
	0.000000000000000e+00,0.000000000000000e+00
	3.489887255109341e-05,5.805636429216532e-14
	3.489887251710649e-05,5.728357046963170e-14
	-4.528586149367227e-07,-7.580069683408610e-14
	2.523636497510779e-05,1.402822478829433e-12
	-1.861273202545689e-05,-3.060675767335670e-14
	-6.170774334714182e-06,-1.296415024321990e-12
	4.528586149367212e-07,7.580069683408599e-14
	-2.523636497497872e-05,-1.402822478829434e-12
	4.528586149367212e-07,7.580069683408599e-14
1		1.023292992280754e+00,0.000000000000000e+00
	4.528586149367212e-03,7.756632188031813e-10
	1.000000000000000e+00,0.000000000000000e+00
	0.000000000000000e+00,0.000000000000000e+00
	3.489887255109341e-05,5.940867073747135e-14
	3.489887251710649e-05,5.861787623439486e-14
	-4.528586149367227e-07,-7.756632188031825e-14
	2.523636497510779e-05,1.435498412000075e-12
	-1.861273202545689e-05,-3.131968064358110e-14
	-6.170774334714182e-06,-1.326612409476176e-12
	4.528586149367212e-07,7.756632188031814e-14
	-2.523636497497872e-05,-1.435498412000075e-12
	4.528586149367212e-07,7.756632188031814e-14
2		1.047128548050899e+00,0.000000000000000e+00
	4.528586149367212e-03,7.937307361712285e-10
	1.000000000000000e+00,0.000000000000000e+00
	0.000000000000000e+00,0.000000000000000e+00
	3.489887255109341e-05,6.079247644636916e-14
	3.489887251710649e-05,5.998326197303683e-14
	-4.528586149367227e-07,-7.937307361712310e-14
	2.523636497510779e-05,1.468935465429828e-12
	-1.861273202545689e-05,-3.204920972304773e-14
	-6.170774334714182e-06,-1.357513182089657e-12
	4.528586149367212e-07,7.937307361712285e-14
	-2.523636497497872e-05,-1.468935465429828e-12
	4.528586149367212e-07,7.937307361712285e-14
3		1.071519305237606e+00,0.000000000000000e+00
	4.528586149367212e-03,8.122191000818623e-10
	1.000000000000000e+00,0.000000000000000e+00
	0.000000000000000e+00,0.000000000000000e+00
	3.489887255109341e-05,6.220851513096234e-14
	3.489887251710649e-05,6.138045163114921e-14
	-4.528586149367231e-07,-8.122191000818639e-14
	2.523636497510779e-05,1.503151367887011e-12
	-1.861273202545689e-05,-3.279573171773093e-14
	-6.170774334714182e-06,-1.389133726161094e-12
	4.528586149367212e-07,8.122191000818623e-14
	-2.523636497497872e-05,-1.503151367887010e-12
	4.528586149367212e-07,8.122191000818623e-14
4		1.096478196143185e+00,0.000000000000000e+00
	4.528586149367212e-03,8.311381133103501e-10
	1.000000000000000e+00,0.000000000000000e+00
	0.000000000000000e+00,0.000000000000000e+00
	3.489887255109341e-05,6.365753759370502e-14
	3.489887251710649e-05,6.281018601718278e-14
	-4.528586149367231e-07,-8.311381133103508e-14
	2.523636497510779e-05,1.538164261096008e-12
	-1.861273202545689e-05,-3.355964244347373e-14
	-6.170774334714182e-06,-1.421490807321499e-12
	4.528586149367212e-07,8.311381133103502e-14
	-2.523636497497872e-05,-1.538164261096008e-12
	4.528586149367212e-07,8.311381133103502e-14
5		1.122018454301963e+00,0.000000000000000e+00
	4.528586149367212e-03,8.504978069679288e-10
	1.000000000000000e+00,0.000000000000000e+00
	0.000000000000000e+00,0.000000000000000e+00
	3.489887255109341e-05,6.514031212548700e-14
	3.489887251710649e-05,6.427322319523374e-14
	-4.528586149367231e-07,-8.504978069679298e-14
	2.523636497510779e-05,1.573992709356249e-12
	-1.861273202545689e-05,-3.434134693585442e-14
	-6.170774334714182e-06,-1.454601581723602e-12
	4.528586149367212e-07,8.504978069679289e-14
	-2.523636497497872e-05,-1.573992709356249e-12
	4.528586149367212e-07,8.504978069679289e-14
6		1.148153621496882e+00,0.000000000000000e+00
	4.528586149367212e-03,8.703084458204309e-10
	1.000000000000000e+00,0.000000000000000e+00
	0.000000000000000e+00,0.000000000000000e+00
	3.489887255109341e-05,6.665762491299191e-14
	3.489887251710649e-05,6.577033888697952e-14
	-4.528586149367231e-07,-8.703084458204319e-14
	2.523636497510779e-05,1.610655709385248e-12
	-1.861273202545689e-05,-3.514125966494199e-14
	-6.170774334714182e-06,-1.488483605138262e-12
	4.528586149367212e-07,8.703084458204309e-14
	-2.523636497497872e-05,-1.610655709385248e-12
	4.528586149367212e-07,8.703084458204309e-14
7		1.174897554939529e+00,0.000000000000000e+00
	4.528586149367212e-03,8.905805337308013e-10
	1.000000000000000e+00,0.000000000000000e+00
	0.000000000000000e+00,0.000000000000000e+00
	3.489887255109341e-05,6.821028045554360e-14
	3.489887251710649e-05,6.730232688297650e-14
	-4.528586149367231e-07,-8.905805337308018e-14
	2.523636497510779e-05,1.648172700390910e-12
	-1.861273202545689e-05,-3.595980475505345e-14
	-6.170774334714182e-06,-1.523154842262777e-12
	4.528586149367212e-07,8.905805337308013e-14
	-2.523636497497872e-05,-1.648172700390911e-12
	4.528586149367212e-07,8.905805337308013e-14
8		1.202264434617413e+00,0.000000000000000e+00
	4.528586149367212e-03,9.113248192283827e-10
	1.000000000000000e+00,0.000000000000000e+00
	0.000000000000000e+00,0.000000000000000e+00
	3.489887255109341e-05,6.979910199166266e-14
	3.489887251710649e-05,6.886999946353849e-14
	-4.528586149367231e-07,-9.113248192283838e-14
	2.523636497510779e-05,1.686563574378466e-12
	-1.861273202545689e-05,-3.679741620963035e-14
	-6.170774334714182e-06,-1.558633676245997e-12
	4.528586149367212e-07,9.113248192283828e-14
	-2.523636497497872e-05,-1.686563574378466e-12
	4.528586149367212e-07,9.113248192283828e-14
9		1.230268770812381e+00,0.000000000000000e+00
	4.528586149367212e-03,9.325523012079291e-10
	1.000000000000000e+00,0.000000000000000e+00
	0.000000000000000e+00,0.000000000000000e+00
	3.489887255109341e-05,7.142493193555802e-14
	3.489887251710649e-05,7.047418782941820e-14
	-4.528586149367231e-07,-9.325523012079297e-14
	2.523636497510779e-05,1.725848686697464e-12
	-1.861273202545689e-05,-3.765453814135296e-14
	-6.170774334714182e-06,-1.594938918435318e-12
	4.528586149367212e-07,9.325523012079292e-14
	-2.523636497497872e-05,-1.725848686697465e-12
	4.528586149367212e-07,9.325523012079292e-14
10		1.258925411794167e+00,0.000000000000000e+00
	4.528586149367212e-03,9.542742347613648e-10
	1.000000000000000e+00,0.000000000000000e+00
	0.000000000000000e+00,0.000000000000000e+00
	3.489887255109341e-05,7.308863232378638e-14
	3.489887251710649e-05,7.211574254252126e-14
	-4.528586149367231e-07,-9.542742347613657e-14
	2.523636497510779e-05,1.766048866834458e-12
	-1.861273202545689e-05,-3.853162500761486e-14
	-6.170774334714182e-06,-1.632089818350707e-12
	4.528586149367212e-07,9.542742347613648e-14
	-2.523636497497872e-05,-1.766048866834458e-12
	4.528586149367212e-07,9.542742347613648e-14
11		1.288249551693134e+00,0.000000000000000e+00
	4.528586149367212e-03,9.765021371453841e-10
	1.000000000000000e+00,0.000000000000000e+00
	0.000000000000000e+00,0.000000000000000e+00
	3.489887255109341e-05,7.479108527231522e-14
	3.489887251710649e-05,7.379553397688508e-14
	-4.528586149367231e-07,-9.765021371453854e-14
	2.523636497510779e-05,1.807185429457068e-12
	-1.861273202545689e-05,-3.942914185148215e-14
	-6.170774334714182e-06,-1.670106073891047e-12
	4.528586149367212e-07,9.765021371453842e-14
	-2.523636497497872e-05,-1.807185429457068e-12
	4.528586149367212e-07,9.765021371453842e-14
12		1.318256738556407e+00,0.000000000000000e+00
	4.528586149367212e-03,9.992477938880511e-10
	1.000000000000000e+00,0.000000000000000e+00
	0.000000000000000e+00,0.000000000000000e+00
	3.489887255109341e-05,7.653319344423246e-14
	3.489887251710649e-05,7.551445278016278e-14
	-4.528586149367231e-07,-9.992477938880543e-14
	2.523636497510779e-05,1.849280185715303e-12
	-1.861273202545689e-05,-4.034756454826547e-14
	-6.170774334714182e-06,-1.709007841778232e-12
	4.528586149367212e-07,9.992477938880511e-14
	-2.523636497497872e-05,-1.849280185715302e-12
	4.528586149367212e-07,9.992477938880511e-14
13		1.348962882591653e+00,0.000000000000000e+00
	4.528586149367212e-03,1.022523265037647e-09
	1.000000000000000e+00,0.000000000000000e+00
	0.000000000000000e+00,0.000000000000000e+00
	3.489887255109341e-05,7.831588052835046e-14
	3.489887251710649e-05,7.727341034585650e-14
	-4.528586149367231e-07,-1.022523265037647e-13
	2.523636497510779e-05,1.892355454806121e-12
	-1.861273202545689e-05,-4.128738005783546e-14
	-6.170774334714182e-06,-1.748815748244521e-12
	4.528586149367212e-07,1.022523265037647e-13
	-2.523636497497872e-05,-1.892355454806121e-12
	4.528586149367212e-07,1.022523265037647e-13
14		1.380384264602885e+00,0.000000000000000e+00
	4.528586149367212e-03,1.046340891557060e-09
	1.000000000000000e+00,0.000000000000000e+00
	0.000000000000000e+00,0.000000000000000e+00
	3.489887255109341e-05,8.014009172895779e-14
	3.489887251710649e-05,7.907333929655009e-14
	-4.528586149367235e-07,-1.046340891557063e-13
	2.523636497510779e-05,1.936434075807363e-12
	-1.861273202545689e-05,-4.224908668281518e-14
	-6.170774334714182e-06,-1.789550899968841e-12
	4.528586149367212e-07,1.046340891557060e-13
	-2.523636497497872e-05,-1.936434075807363e-12
	4.528586149367212e-07,1.046340891557060e-13
15		1.412537544622754e+00,0.000000000000000e+00
	4.528586149367212e-03,1.070713301867136e-09
	1.000000000000000e+00,0.000000000000000e+00
	0.000000000000000e+00,0.000000000000000e+00
	3.489887255109341e-05,8.200679426697933e-14
	3.489887251710649e-05,8.091519397839808e-14
	-4.528586149367235e-07,-1.070713301867137e-13
	2.523636497510779e-05,1.981539419787333e-12
	-1.861273202545689e-05,-4.323319433278691e-14
	-6.170774334714182e-06,-1.831234895267832e-12
	4.528586149367212e-07,1.070713301867136e-13
	-2.523636497497872e-05,-1.981539419787333e-12
	4.528586149367212e-07,1.070713301867136e-13
16		1.445439770745927e+00,0.000000000000000e+00
	4.528586149367213e-03,1.095653418542427e-09
	1.000000000000000e+00,0.000000000000000e+00
	0.000000000000000e+00,0.000000000000000e+00
	3.489887255109341e-05,8.391697789280947e-14
	3.489887251710649e-05,8.279995096713262e-14
	-4.528586149367227e-07,-1.095653418542429e-13
	2.523636497510779e-05,2.027695402196449e-12
	-1.861273202545689e-05,-4.424022479465285e-14
	-6.170774334714183e-06,-1.873889835547553e-12
	4.528586149367213e-07,1.095653418542428e-13
	-2.523636497497872e-05,-2.027695402196449e-12
	4.528586149367213e-07,1.095653418542428e-13
17		1.479108388168207e+00,0.000000000000000e+00
	4.528586149367213e-03,1.121174465162918e-09
	1.000000000000000e+00,0.000000000000000e+00
	0.000000000000000e+00,0.000000000000000e+00
	3.489887255109341e-05,8.587165541109086e-14
	3.489887251710649e-05,8.472860958585684e-14
	-4.528586149367227e-07,-1.121174465162919e-13
	2.523636497510779e-05,2.074926495547531e-12
	-1.861273202545689e-05,-4.527071200929352e-14
	-6.170774334714183e-06,-1.917538337021946e-12
	4.528586149367213e-07,1.121174465162918e-13
	-2.523636497497872e-05,-2.074926495547531e-12
	4.528586149367213e-07,1.121174465162918e-13
18		1.513561248436208e+00,0.000000000000000e+00
	4.528586149367213e-03,1.147289973325337e-09
	1.000000000000000e+00,0.000000000000000e+00
	0.000000000000000e+00,0.000000000000000e+00
	3.489887255109341e-05,8.787186321771700e-14
	3.489887251710649e-05,8.670219243489925e-14
	-4.528586149367227e-07,-1.147289973325339e-13
	2.523636497510779e-05,2.123257742391452e-12
	-1.861273202545689e-05,-4.632520235467024e-14
	-6.170774334714183e-06,-1.962203542704248e-12
	4.528586149367213e-07,1.147289973325337e-13
	-2.523636497497872e-05,-2.123257742391452e-12
	4.528586149367213e-07,1.147289973325337e-13
19		1.548816618912481e+00,0.000000000000000e+00
	4.528586149367213e-03,1.174013789817790e-09
	1.000000000000000e+00,0.000000000000000e+00
	0.000000000000000e+00,0.000000000000000e+00
	3.489887255109341e-05,8.991866184934277e-14
	3.489887251710649e-05,8.872174593400982e-14
	-4.528586149367227e-07,-1.174013789817792e-13
	2.523636497510779e-05,2.172714768595028e-12
	-1.861273202545689e-05,-4.740425493552195e-14
	-6.170774334714183e-06,-2.007909134677727e-12
	4.528586149367213e-07,1.174013789817790e-13
	-2.523636497497872e-05,-2.172714768595028e-12
	4.528586149367213e-07,1.174013789817790e-13
20		1.584893192461113e+00,0.000000000000000e+00
	4.528586149367213e-03,1.201360083961515e-09
	1.000000000000000e+00,0.000000000000000e+00
	0.000000000000000e+00,0.000000000000000e+00
	3.489887255109341e-05,9.201313654569523e-14
	3.489887251710649e-05,9.078834087718573e-14
	-4.528586149367227e-07,-1.201360083961517e-13
	2.523636497510779e-05,2.223323796928193e-12
	-1.861273202545689e-05,-4.850844187980996e-14
	-6.170774334714183e-06,-2.054679346652231e-12
	4.528586149367213e-07,1.201360083961515e-13
	-2.523636497497872e-05,-2.223323796928192e-12
	4.528586149367213e-07,1.201360083961515e-13
21		1.621810097358929e+00,0.000000000000000e+00
	4.528586149367213e-03,1.229343355123637e-09
	1.000000000000000e+00,0.000000000000000e+00
	0.000000000000000e+00,0.000000000000000e+00
	3.489887255109341e-05,9.415639782498209e-14
	3.489887251710649e-05,9.290307300042048e-14
	-4.528586149367231e-07,-1.229343355123638e-13
	2.523636497510780e-05,2.275111660967658e-12
	-1.861273202545689e-05,-4.963834864206778e-14
	-6.170774334714183e-06,-2.102538976813226e-12
	4.528586149367213e-07,1.229343355123637e-13
	-2.523636497497872e-05,-2.275111660967657e-12
	4.528586149367213e-07,1.229343355123637e-13
22		1.659586907437560e+00,0.000000000000000e+00
	4.528586149367213e-03,1.257978440404928e-09
	1.000000000000000e+00,0.000000000000000e+00
	0.000000000000000e+00,0.000000000000000e+00
	3.489887255109341e-05,9.634958207270300e-14
	3.489887251710649e-05,9.506706356267762e-14
	-4.528586149367231e-07,-1.257978440404930e-13
	2.523636497510780e-05,2.328105819324431e-12
	-1.861273202545689e-05,-5.079457431381684e-14
	-6.170774334714184e-06,-2.151513400970121e-12
	4.528586149367213e-07,1.257978440404928e-13
	-2.523636497497872e-05,-2.328105819324431e-12
	4.528586149367213e-07,1.257978440404928e-13
23		1.698243652461743e+00,0.000000000000000e+00
	4.528586149367213e-03,1.287280522506635e-09
	1.000000000000000e+00,0.000000000000000e+00
	0.000000000000000e+00,0.000000000000000e+00
	3.489887255109341e-05,9.859385214417636e-14
	3.489887251710649e-05,9.728145994039702e-14
	-4.528586149367231e-07,-1.287280522506634e-13
	2.523636497510780e-05,2.382334370202734e-12
	-1.861273202545689e-05,-5.197773194121277e-14
	-6.170774334714184e-06,-2.201628586010857e-12
	4.528586149367213e-07,1.287280522506635e-13
	-2.523636497497872e-05,-2.382334370202733e-12
	4.528586149367213e-07,1.287280522506635e-13
24		1.737800828749374e+00,0.000000000000000e+00
	4.528586149367213e-03,1.317265137780547e-09
	1.000000000000000e+00,0.000000000000000e+00
	0.000000000000000e+00,0.000000000000000e+00
	3.489887255109341e-05,1.008903979811004e-13
	3.489887251710649e-05,9.954743623584916e-14
	-4.528586149367231e-07,-1.317265137780547e-13
	2.523636497510780e-05,2.437826066298041e-12
	-1.861273202545689e-05,-5.318844885009053e-14
	-6.170774334714184e-06,-2.252911103669896e-12
	4.528586149367213e-07,1.317265137780547e-13
	-2.523636497497872e-05,-2.437826066298041e-12
	4.528586149367213e-07,1.317265137780547e-13
25		1.778279410038922e+00,0.000000000000000e+00
	4.528586149367213e-03,1.347948184466576e-09
	1.000000000000000e+00,0.000000000000000e+00
	0.000000000000000e+00,0.000000000000000e+00
	3.489887255109341e-05,1.032404372424765e-13
	3.489887251710649e-05,1.018661938996597e-13
	-4.528586149367231e-07,-1.347948184466576e-13
	2.523636497510780e-05,2.494610330042143e-12
	-1.861273202545689e-05,-5.442736697858100e-14
	-6.170774334714184e-06,-2.305388144616904e-12
	4.528586149367213e-07,1.347948184466576e-13
	-2.523636497497872e-05,-2.494610330042142e-12
	4.528586149367213e-07,1.347948184466576e-13
26		1.819700858609982e+00,0.000000000000000e+00
	4.528586149367213e-03,1.379345931122212e-09
	1.000000000000000e+00,0.000000000000000e+00
	0.000000000000000e+00,0.000000000000000e+00
	3.489887255109341e-05,1.056452159502271e-13
	3.489887251710649e-05,1.042389623678342e-13
	-4.528586149367231e-07,-1.379345931122214e-13
	2.523636497510780e-05,2.552717269203303e-12
	-1.861273202545689e-05,-5.569514321747485e-14
	-6.170774334714184e-06,-2.359087532873607e-12
	4.528586149367213e-07,1.379345931122212e-13
	-2.523636497497872e-05,-2.552717269203303e-12
	4.528586149367213e-07,1.379345931122212e-13
27		1.862087136662866e+00,0.000000000000000e+00
	4.528586149367214e-03,1.411475025248331e-09
	1.000000000000000e+00,0.000000000000000e+00
	0.000000000000000e+00,0.000000000000000e+00
	3.489887255109341e-05,1.081060091498544e-13
	3.489887251710649e-05,1.066669997136220e-13
	-4.528586149367231e-07,-1.411475025248333e-13
	2.523636497510780e-05,2.612177692849803e-12
	-1.861273202545689e-05,-5.699244975851497e-14
	-6.170774334714184e-06,-2.414037740566455e-12
	4.528586149367214e-07,1.411475025248331e-13
	-2.523636497497872e-05,-2.612177692849803e-12
	4.528586149367214e-07,1.411475025248331e-13
28		1.905460717963246e+00,0.000000000000000e+00
	4.528586149367214e-03,1.444352502115918e-09
	1.000000000000000e+00,0.000000000000000e+00
	0.000000000000000e+00,0.000000000000000e+00
	3.489887255109341e-05,1.106241215864851e-13
	3.489887251710649e-05,1.091515933145626e-13
	-4.528586149367231e-07,-1.444352502115917e-13
	2.523636497510780e-05,2.673023127685312e-12
	-1.861273202545689e-05,-5.831997445080133e-14
	-6.170774334714184e-06,-2.470267903022919e-12
	4.528586149367214e-07,1.444352502115918e-13
	-2.523636497497872e-05,-2.673023127685311e-12
	4.528586149367214e-07,1.444352502115918e-13
29		1.949844599758044e+00,0.000000000000000e+00
	4.528586149367214e-03,1.477995793798392e-09
	1.000000000000000e+00,0.000000000000000e+00
	0.000000000000000e+00,0.000000000000000e+00
	3.489887255109341e-05,1.132008883966643e-13
	3.489887251710649e-05,1.116940605350707e-13
	-4.528586149367231e-07,-1.477995793798395e-13
	2.523636497510780e-05,2.735285834764763e-12
	-1.861273202545689e-05,-5.967842116549763e-14
	-6.170774334714184e-06,-2.527807834219426e-12
	4.528586149367214e-07,1.477995793798392e-13
	-2.523636497497872e-05,-2.735285834764763e-12
	4.528586149367214e-07,1.477995793798392e-13
30		1.995262314968878e+00,0.000000000000000e+00
	4.528586149367214e-03,1.512422738414325e-09
	1.000000000000000e+00,0.000000000000000e+00
	0.000000000000000e+00,0.000000000000000e+00
	3.489887255109341e-05,1.158376758162623e-13
	3.489887251710649e-05,1.142957494249202e-13
	-4.528586149367231e-07,-1.512422738414325e-13
	2.523636497510780e-05,2.798998826599595e-12
	-1.861273202545689e-05,-6.106851016903317e-14
	-6.170774334714184e-06,-2.586688042589129e-12
	4.528586149367214e-07,1.512422738414325e-13
	-2.523636497497872e-05,-2.798998826599595e-12
	4.528586149367214e-07,1.512422738414325e-13
31		2.041737944669527e+00,0.000000000000000e+00
	4.528586149367214e-03,1.547651589585446e-09
	1.000000000000000e+00,0.000000000000000e+00
	0.000000000000000e+00,0.000000000000000e+00
	3.489887255109341e-05,1.185358819048709e-13
	3.489887251710649e-05,1.169580394339979e-13
	-4.528586149367235e-07,-1.547651589585451e-13
	2.523636497510780e-05,2.864195884661419e-12
	-1.861273202545689e-05,-6.249097850499760e-14
	-6.170774334714184e-06,-2.646939747197876e-12
	4.528586149367214e-07,1.547651589585446e-13
	-2.523636497497872e-05,-2.864195884661419e-12
	4.528586149367214e-07,1.547651589585446e-13
32		2.089296130854037e+00,0.000000000000000e+00
	4.528586149367214e-03,1.583701026114957e-09
	1.000000000000000e+00,0.000000000000000e+00
	0.000000000000000e+00,0.000000000000000e+00
	3.489887255109341e-05,1.212969372870735e-13
	3.489887251710649e-05,1.196823421437061e-13
