Title: * GA CMOS Amp | W=1.5753840922485986e-05 L=6.320155354219852e-07 Vbias=1.0165170473012761
Date: Mon Sep  8 18:47:36 2025
Plotname: AC Analysis
Flags: complex forward log
No. Variables: 11
No. Points:          901
Offset:    0.0000000000000000e+00
Command: Linear Technology Corporation LTspice
Variables:
	0	frequency	frequency
	1	V(out)	voltage
	2	V(g)	voltage
	3	V(vdd)	voltage
	4	Id(M1)	device_current
	5	Ig(M1)	device_current
	6	Ib(M1)	device_current
	7	Is(M1)	device_current
	8	I(Rload)	device_current
	9	I(Vg)	device_current
	10	I(Vdd)	device_current
Values:
0		1.000000000000000e+00,0.000000000000000e+00
	-4.334497690587857e+00,2.055219342444654e-09
	1.000000000000000e+00,0.000000000000000e+00
	0.000000000000000e+00,0.000000000000000e+00
	4.334497690587856e-04,-2.055219342444655e-13
	9.986233052773113e-23,3.224225673639842e-13
	4.334497713011365e-12,1.020921491765692e-14
	-4.334497733932833e-04,-1.271098480371756e-13
	-4.334497690587857e-04,2.055219342444655e-13
	-9.986233052773113e-23,-3.224225673639842e-13
	-4.334497690587857e-04,2.055219342444655e-13
1		1.023292992280754e+00,0.000000000000000e+00
	-4.334497690587857e+00,2.103091550723475e-09
	1.000000000000000e+00,0.000000000000000e+00
	0.000000000000000e+00,0.000000000000000e+00
	4.334497690587856e-04,-2.103091550723475e-13
	1.045686971704821e-22,3.299327537367344e-13
	4.334497713011365e-12,1.044701808192654e-14
	-4.334497733932833e-04,-1.300706167463134e-13
	-4.334497690587857e-04,2.103091550723475e-13
	-1.045686971704821e-22,-3.299327537367344e-13
	-4.334497690587857e-04,2.103091550723475e-13
2		1.047128548050899e+00,0.000000000000000e+00
	-4.334497690587857e+00,2.152078845980195e-09
	1.000000000000000e+00,0.000000000000000e+00
	0.000000000000000e+00,0.000000000000000e+00
	4.334497690587856e-04,-2.152078845980195e-13
	1.094968680397011e-22,3.376178748226921e-13
	4.334497713011365e-12,1.069036039346573e-14
	-4.334497733932833e-04,-1.331003506181383e-13
	-4.334497690587857e-04,2.152078845980195e-13
	-1.094968680397011e-22,-3.376178748226921e-13
	-4.334497690587857e-04,2.152078845980195e-13
3		1.071519305237606e+00,0.000000000000000e+00
	-4.334497690587857e+00,2.202207201927186e-09
	1.000000000000000e+00,0.000000000000000e+00
	0.000000000000000e+00,0.000000000000000e+00
	4.334497690587856e-04,-2.202207201927186e-13
	1.146572964465332e-22,3.454820053747816e-13
	4.334497713011365e-12,1.093937087558921e-14
	-4.334497733932833e-04,-1.362006560576522e-13
	-4.334497690587857e-04,2.202207201927187e-13
	-1.146572964465332e-22,-3.454820053747816e-13
	-4.334497690587857e-04,2.202207201927187e-13
4		1.096478196143185e+00,0.000000000000000e+00
	-4.334497690587857e+00,2.253503197282297e-09
	1.000000000000000e+00,0.000000000000000e+00
	0.000000000000000e+00,0.000000000000000e+00
	4.334497690587856e-04,-2.253503197282297e-13
	1.200609283514998e-22,3.535293150591158e-13
	4.334497713011365e-12,1.119418155695057e-14
	-4.334497733932833e-04,-1.393731768878367e-13
	-4.334497690587857e-04,2.253503197282297e-13
	-1.200609283514998e-22,-3.535293150591158e-13
	-4.334497690587857e-04,2.253503197282297e-13
5		1.122018454301963e+00,0.000000000000000e+00
	-4.334497690587857e+00,2.305994029861248e-09
	1.000000000000000e+00,0.000000000000000e+00
	0.000000000000000e+00,0.000000000000000e+00
	4.334497690587856e-04,-2.305994029861248e-13
	1.257192255823491e-22,3.617640706658081e-13
	4.334497713011365e-12,1.145492754154601e-14
	-4.334497733932833e-04,-1.426195952212293e-13
	-4.334497690587857e-04,2.305994029861248e-13
	-1.257192255823491e-22,-3.617640706658081e-13
	-4.334497690587857e-04,2.305994029861248e-13
6		1.148153621496882e+00,0.000000000000000e+00
	-4.334497690587857e+00,2.359707530998271e-09
	1.000000000000000e+00,0.000000000000000e+00
	0.000000000000000e+00,0.000000000000000e+00
	4.334497690587856e-04,-2.359707530998271e-13
	1.316441901461287e-22,3.701906383712810e-13
	4.334497713011365e-12,1.172174708034774e-14
	-4.334497733932833e-04,-1.459416323518016e-13
	-4.334497690587857e-04,2.359707530998271e-13
	-1.316441901461287e-22,-3.701906383712810e-13
	-4.334497690587857e-04,2.359707530998271e-13
7		1.174897554939529e+00,0.000000000000000e+00
	-4.334497690587857e+00,2.414672180302651e-09
	1.000000000000000e+00,0.000000000000000e+00
	0.000000000000000e+00,0.000000000000000e+00
	4.334497690587856e-04,-2.414672180302651e-13
	1.378483896870523e-22,3.788134860532706e-13
	4.334497713011365e-12,1.199478164460727e-14
	-4.334497733932833e-04,-1.493410496676128e-13
	-4.334497690587857e-04,2.414672180302652e-13
	-1.378483896870523e-22,-3.788134860532706e-13
	-4.334497690587857e-04,2.414672180302652e-13
8		1.202264434617413e+00,0.000000000000000e+00
	-4.334497690587857e+00,2.470917120758993e-09
	1.000000000000000e+00,0.000000000000000e+00
	0.000000000000000e+00,0.000000000000000e+00
	4.334497690587856e-04,-2.470917120758993e-13
	1.443449841441577e-22,3.876371856597550e-13
	4.334497713011365e-12,1.227417600086450e-14
	-4.334497733932833e-04,-1.528196495847203e-13
	-4.334497690587857e-04,2.470917120758993e-13
	-1.443449841441577e-22,-3.876371856597550e-13
	-4.334497690587857e-04,2.470917120758993e-13
9		1.230268770812381e+00,0.000000000000000e+00
	-4.334497690587857e+00,2.528472174179215e-09
	1.000000000000000e+00,0.000000000000000e+00
	0.000000000000000e+00,0.000000000000000e+00
	4.334497690587856e-04,-2.528472174179215e-13
	1.511477536653019e-22,3.966664156330610e-13
	4.334497713011365e-12,1.256007828770517e-14
	-4.334497733932833e-04,-1.563792765028446e-13
	-4.334497690587857e-04,2.528472174179215e-13
	-1.511477536653019e-22,-3.966664156330610e-13
	-4.334497690587857e-04,2.528472174179215e-13
10		1.258925411794167e+00,0.000000000000000e+00
	-4.334497690587857e+00,2.587367857014473e-09
	1.000000000000000e+00,0.000000000000000e+00
	0.000000000000000e+00,0.000000000000000e+00
	4.334497690587856e-04,-2.587367857014474e-13
	1.582711278367026e-22,4.059059633904363e-13
	4.334497713011365e-12,1.285264009430644e-14
	-4.334497733932833e-04,-1.600218177832954e-13
	-4.334497690587857e-04,2.587367857014474e-13
	-1.582711278367026e-22,-4.059059633904363e-13
	-4.334497690587857e-04,2.587367857014474e-13
11		1.288249551693134e+00,0.000000000000000e+00
	-4.334497690587857e+00,2.647635396535383e-09
	1.000000000000000e+00,0.000000000000000e+00
	0.000000000000000e+00,0.000000000000000e+00
	4.334497690587856e-04,-2.647635396535383e-13
	1.657302162900248e-22,4.153607278624018e-13
	4.334497713011365e-12,1.315201654081036e-14
	-4.334497733932833e-04,-1.637492047496739e-13
	-4.334497690587857e-04,2.647635396535383e-13
	-1.657302162900248e-22,-4.153607278624018e-13
	-4.334497690587857e-04,2.647635396535383e-13
12		1.318256738556407e+00,0.000000000000000e+00
	-4.334497690587857e+00,2.709306747389133e-09
	1.000000000000000e+00,0.000000000000000e+00
	0.000000000000000e+00,0.000000000000000e+00
	4.334497690587856e-04,-2.709306747389134e-13
	1.735408407519351e-22,4.250357220902292e-13
	4.334497713011365e-12,1.345836636057192e-14
	-4.334497733932833e-04,-1.675634137118877e-13
	-4.334497690587857e-04,2.709306747389133e-13
	-1.735408407519351e-22,-4.250357220902292e-13
	-4.334497690587857e-04,2.709306747389133e-13
13		1.348962882591653e+00,0.000000000000000e+00
	-4.334497690587857e+00,2.772414608542263e-09
	1.000000000000000e+00,0.000000000000000e+00
	0.000000000000000e+00,0.000000000000000e+00
	4.334497690587856e-04,-2.772414608542263e-13
	1.817195686041062e-22,4.349360758839217e-13
	4.334497713011365e-12,1.377185198432017e-14
	-4.334497733932833e-04,-1.714664670140155e-13
	-4.334497690587857e-04,2.772414608542264e-13
	-1.817195686041062e-22,-4.349360758839217e-13
	-4.334497690587857e-04,2.772414608542264e-13
14		1.380384264602885e+00,0.000000000000000e+00
	-4.334497690587857e+00,2.836992440618089e-09
	1.000000000000000e+00,0.000000000000000e+00
	0.000000000000000e+00,0.000000000000000e+00
	4.334497690587856e-04,-2.836992440618089e-13
	1.902837480248536e-22,4.450670385421074e-13
	4.334497713011365e-12,1.409263962628271e-14
	-4.334497733932833e-04,-1.754604341065812e-13
	-4.334497690587857e-04,2.836992440618089e-13
	-1.902837480248536e-22,-4.450670385421074e-13
	-4.334497690587857e-04,2.836992440618089e-13
15		1.412537544622754e+00,0.000000000000000e+00
	-4.334497690587857e+00,2.903074483637963e-09
	1.000000000000000e+00,0.000000000000000e+00
	0.000000000000000e+00,0.000000000000000e+00
	4.334497690587856e-04,-2.903074483637964e-13
	1.992515447869482e-22,4.554339816352867e-13
	4.334497713011365e-12,1.442089937231316e-14
	-4.334497733932833e-04,-1.795474326438035e-13
	-4.334497690587857e-04,2.903074483637964e-13
	-1.992515447869482e-22,-4.554339816352867e-13
	-4.334497690587857e-04,2.903074483637964e-13
16		1.445439770745927e+00,0.000000000000000e+00
	-4.334497690587857e+00,2.970695775175796e-09
	1.000000000000000e+00,0.000000000000000e+00
	0.000000000000000e+00,0.000000000000000e+00
	4.334497690587856e-04,-2.970695775175796e-13
	2.086419807896557e-22,4.660424018539104e-13
	4.334497713011365e-12,1.475680527007391e-14
	-4.334497733932833e-04,-1.837296296064048e-13
	-4.334497690587857e-04,2.970695775175797e-13
	-2.086419807896557e-22,-4.660424018539104e-13
	-4.334497690587857e-04,2.970695775175797e-13
17		1.479108388168207e+00,0.000000000000000e+00
	-4.334497690587857e+00,3.039892168935434e-09
	1.000000000000000e+00,0.000000000000000e+00
	0.000000000000000e+00,0.000000000000000e+00
	4.334497690587856e-04,-3.039892168935435e-13
	2.184749744067358e-22,4.768979239227977e-13
	4.334497713011365e-12,1.510053542131836e-14
	-4.334497733932833e-04,-1.880092424505726e-13
	-4.334497690587857e-04,3.039892168935434e-13
	-2.184749744067358e-22,-4.768979239227977e-13
	-4.334497690587857e-04,3.039892168935434e-13
18		1.513561248436208e+00,0.000000000000000e+00
	-4.334497690587857e+00,3.110700353760773e-09
	1.000000000000000e+00,0.000000000000000e+00
	0.000000000000000e+00,0.000000000000000e+00
	4.334497690587856e-04,-3.110700353760773e-13
	2.287713827359828e-22,4.880063035834392e-13
	4.334497713011365e-12,1.545227207632235e-14
	-4.334497733932833e-04,-1.923885402836842e-13
	-4.334497690587857e-04,3.110700353760773e-13
	-2.287713827359828e-22,-4.880063035834392e-13
	-4.334497690587857e-04,3.110700353760773e-13
19		1.548816618912481e+00,0.000000000000000e+00
	-4.334497690587857e+00,3.183157873088662e-09
	1.000000000000000e+00,0.000000000000000e+00
	0.000000000000000e+00,0.000000000000000e+00
	4.334497690587856e-04,-3.183157873088661e-13
	2.395530458399263e-22,4.993734306457675e-13
	4.334497713011365e-12,1.581220173051634e-14
	-4.334497733932833e-04,-1.968698450674177e-13
	-4.334497690587857e-04,3.183157873088662e-13
	-2.395530458399263e-22,-4.993734306457675e-13
	-4.334497690587857e-04,3.183157873088662e-13
20		1.584893192461113e+00,0.000000000000000e+00
	-4.334497690587857e+00,3.257303144854938e-09
	1.000000000000000e+00,0.000000000000000e+00
	0.000000000000000e+00,0.000000000000000e+00
	4.334497690587856e-04,-3.257303144854937e-13
	2.508428330715326e-22,5.110053321110130e-13
	4.334497713011365e-12,1.618051522336694e-14
	-4.334497733932833e-04,-2.014555328488863e-13
	-4.334497690587857e-04,3.257303144854938e-13
	-2.508428330715326e-22,-5.110053321110130e-13
	-4.334497690587857e-04,3.257303144854938e-13
21		1.621810097358929e+00,0.000000000000000e+00
	-4.334497690587857e+00,3.333175481864119e-09
	1.000000000000000e+00,0.000000000000000e+00
	0.000000000000000e+00,0.000000000000000e+00
	4.334497690587856e-04,-3.333175481864119e-13
	2.626646915831680e-22,5.229081753672991e-13
	4.334497713011365e-12,1.655740783956336e-14
	-4.334497733932833e-04,-2.061480350204505e-13
	-4.334497690587857e-04,3.333175481864119e-13
	-2.626646915831680e-22,-5.229081753672991e-13
	-4.334497690587857e-04,3.333175481864119e-13
22		1.659586907437560e+00,0.000000000000000e+00
	-4.334497690587857e+00,3.410815112633580e-09
	1.000000000000000e+00,0.000000000000000e+00
	0.000000000000000e+00,0.000000000000000e+00
	4.334497690587856e-04,-3.410815112633580e-13
	2.750436971217201e-22,5.350882714596728e-13
	4.334497713011365e-12,1.694307941255972e-14
	-4.334497733932833e-04,-2.109498396088746e-13
	-4.334497690587857e-04,3.410815112633580e-13
	-2.750436971217201e-22,-5.350882714596728e-13
	-4.334497690587857e-04,3.410815112633580e-13
23		1.698243652461743e+00,0.000000000000000e+00
	-4.334497690587857e+00,3.490263202723233e-09
	1.000000000000000e+00,0.000000000000000e+00
	0.000000000000000e+00,0.000000000000000e+00
	4.334497690587856e-04,-3.490263202723233e-13
	2.880061072176181e-22,5.475520784363051e-13
	4.334497713011365e-12,1.733773443052860e-14
	-4.334497733932833e-04,-2.158634925945104e-13
	-4.334497690587857e-04,3.490263202723233e-13
	-2.880061072176181e-22,-5.475520784363051e-13
	-4.334497690587857e-04,3.490263202723233e-13
24		1.737800828749374e+00,0.000000000000000e+00
	-4.334497690587857e+00,3.571561876562065e-09
	1.000000000000000e+00,0.000000000000000e+00
	0.000000000000000e+00,0.000000000000000e+00
	4.334497690587856e-04,-3.571561876562065e-13
	3.015794168805761e-22,5.603062047726327e-13
	4.334497713011365e-12,1.774158214478479e-14
	-4.334497733932833e-04,-2.208915992612110e-13
	-4.334497690587857e-04,3.571561876562065e-13
	-3.015794168805761e-22,-5.603062047726327e-13
	-4.334497690587857e-04,3.571561876562065e-13
25		1.778279410038922e+00,0.000000000000000e+00
	-4.334497690587857e+00,3.654754239783061e-09
	1.000000000000000e+00,0.000000000000000e+00
	0.000000000000000e+00,0.000000000000000e+00
	4.334497690587856e-04,-3.654754239783061e-13
	3.157924169201945e-22,5.733574128752603e-13
	4.334497713011365e-12,1.815483668073157e-14
	-4.334497733932833e-04,-2.260368255776857e-13
	-4.334497690587857e-04,3.654754239783061e-13
	-3.157924169201945e-22,-5.733574128752603e-13
	-4.334497690587857e-04,3.654754239783061e-13
26		1.819700858609982e+00,0.000000000000000e+00
	-4.334497690587857e+00,3.739884402078380e-09
	1.000000000000000e+00,0.000000000000000e+00
	0.000000000000000e+00,0.000000000000000e+00
	4.334497690587856e-04,-3.739884402078380e-13
	3.306752550151275e-22,5.867126226674768e-13
	4.334497713011365e-12,1.857771715139405e-14
	-4.334497733932833e-04,-2.313018996110329e-13
	-4.334497690587857e-04,3.739884402078380e-13
	-3.306752550151275e-22,-5.867126226674768e-13
	-4.334497690587857e-04,3.739884402078380e-13
27		1.862087136662866e+00,0.000000000000000e+00
	-4.334497690587857e+00,3.826997500586905e-09
	1.000000000000000e+00,0.000000000000000e+00
	0.000000000000000e+00,0.000000000000000e+00
	4.334497690587856e-04,-3.826997500586905e-13
	3.462594996603515e-22,6.003789152582914e-13
	4.334497713011365e-12,1.901044777359556e-14
	-4.334497733932833e-04,-2.366896129731965e-13
	-4.334497690587857e-04,3.826997500586906e-13
	-3.462594996603515e-22,-6.003789152582914e-13
	-4.334497690587857e-04,3.826997500586906e-13
28		1.905460717963246e+00,0.000000000000000e+00
	-4.334497690587857e+00,3.916139723826541e-09
	1.000000000000000e+00,0.000000000000000e+00
	0.000000000000000e+00,0.000000000000000e+00
	4.334497690587856e-04,-3.916139723826541e-13
	3.625782071281747e-22,6.143635366969303e-13
	4.334497713011365e-12,1.945325798683967e-14
	-4.334497733932833e-04,-2.422028223011158e-13
	-4.334497690587857e-04,3.916139723826541e-13
	-3.625782071281747e-22,-6.143635366969303e-13
	-4.334497690587857e-04,3.916139723826541e-13
29		1.949844599758044e+00,0.000000000000000e+00
	-4.334497690587857e+00,4.007358336183988e-09
	1.000000000000000e+00,0.000000000000000e+00
	0.000000000000000e+00,0.000000000000000e+00
	4.334497690587856e-04,-4.007358336183988e-13
	3.796659915850240e-22,6.286739018147886e-13
	4.334497713011365e-12,1.990638257496279e-14
	-4.334497733932833e-04,-2.478444507713526e-13
	-4.334497690587857e-04,4.007358336183988e-13
	-3.796659915850240e-22,-6.286739018147886e-13
	-4.334497690587857e-04,4.007358336183988e-13
30		1.995262314968878e+00,0.000000000000000e+00
	-4.334497690587857e+00,4.100701702974937e-09
	1.000000000000000e+00,0.000000000000000e+00
	0.000000000000000e+00,0.000000000000000e+00
	4.334497690587856e-04,-4.100701702974936e-13
	3.975590985127312e-22,6.433175981568720e-13
	4.334497713011365e-12,2.037006179061904e-14
	-4.334497733932833e-04,-2.536174896499975e-13
	-4.334497690587857e-04,4.100701702974937e-13
	-3.975590985127312e-22,-6.433175981568720e-13
	-4.334497690587857e-04,4.100701702974937e-13
31		2.041737944669527e+00,0.000000000000000e+00
	-4.334497690587857e+00,4.196219316088007e-09
	1.000000000000000e+00,0.000000000000000e+00
	0.000000000000000e+00,0.000000000000000e+00
	4.334497690587856e-04,-4.196219316088006e-13
	4.162954815900605e-22,6.583023900048133e-13
	4.334497713011365e-12,2.084454148266637e-14
	-4.334497733932833e-04,-2.595249998786790e-13
	-4.334497690587857e-04,4.196219316088007e-13
	-4.162954815900605e-22,-6.583023900048133e-13
	-4.334497690587857e-04,4.196219316088007e-13
32		2.089296130854037e+00,0.000000000000000e+00
	-4.334497690587857e+00,4.293961820225996e-09
	1.000000000000000e+00,0.000000000000000e+00
	0.000000000000000e+00,0.000000000000000e+00
	4.334497690587856e-04,-4.293961820225996e-13
	4.359148831975501e-22,6.736362224935975e-13
	4.334497713011365e-12,2.133007322651786e-14
	-4.334497733932833e-04,-2.655701136975158e-13
	-4.334497690587857e-04,4.293961820225996e-13
	-4.359148831975501e-22,-6.736362224935975e-13
	-4.334497690587857e-04,4.293961820225996e-13
33		2.137962089502230e+00,0.000000000000000e+00
	-4.334497690587857e+00,4.393981039758373e-09
	1.000000000000000e+00,0.000000000000000e+00
	0.000000000000000e+00,0.000000000000000e+00
	4.334497690587856e-04,-4.393981039758372e-13
	4.564589187164280e-22,6.893272258241771e-13
	4.334497713011365e-12,2.182691445753115e-14
	-4.334497733932833e-04,-2.717560363058711e-13
	-4.334497690587857e-04,4.393981039758373e-13
	-4.564589187164280e-22,-6.893272258241771e-13
	-4.334497690587857e-04,4.393981039758373e-13
34		2.187761623949550e+00,0.000000000000000e+00
	-4.334497690587857e+00,4.496330006199244e-09
	1.000000000000000e+00,0.000000000000000e+00
	0.000000000000000e+00,0.000000000000000e+00
	4.334497690587856e-04,-4.496330006199245e-13
	4.779711648004168e-22,7.053837195742133e-13
	4.334497713011365e-12,2.233532860750324e-14
	-4.334497733932833e-04,-2.780860475617921e-13
	-4.334497690587857e-04,4.496330006199245e-13
	-4.779711648004168e-22,-7.053837195742133e-13
	-4.334497690587857e-04,4.496330006199245e-13
35		2.238721138568337e+00,0.000000000000000e+00
	-4.334497690587857e+00,4.601062986325366e-09
	1.000000000000000e+00,0.000000000000000e+00
	0.000000000000000e+00,0.000000000000000e+00
	4.334497690587856e-04,-4.601062986325367e-13
	5.004972518076577e-22,7.218142171092251e-13
	4.334497713011365e-12,2.285558524434586e-14
	-4.334497733932833e-04,-2.845635037210343e-13
	-4.334497690587857e-04,4.601062986325367e-13
	-5.004972518076577e-22,-7.218142171092251e-13
	-4.334497690587857e-04,4.601062986325367e-13
36		2.290867652767770e+00,0.000000000000000e+00
	-4.334497690587857e+00,4.708235510949107e-09
	1.000000000000000e+00,0.000000000000000e+00
	0.000000000000000e+00,0.000000000000000e+00
	4.334497690587856e-04,-4.708235510949107e-13
	5.240849605888181e-22,7.386274300964887e-13
	4.334497713011365e-12,2.338796021501463e-14
	-4.334497733932833e-04,-2.911918392165927e-13
	-4.334497690587857e-04,4.708235510949108e-13
	-5.240849605888181e-22,-7.386274300964887e-13
	-4.334497690587857e-04,4.708235510949108e-13
37		2.344228815319919e+00,0.000000000000000e+00
	-4.334497690587857e+00,4.817904404361616e-09
	1.000000000000000e+00,0.000000000000000e+00
	0.000000000000000e+00,0.000000000000000e+00
	4.334497690587856e-04,-4.817904404361616e-13
	5.487843238366819e-22,7.558322731240796e-13
	4.334497713011365e-12,2.393273579176525e-14
	-4.334497733932833e-04,-2.979745684796833e-13
	-4.334497690587857e-04,4.817904404361617e-13
	-5.487843238366819e-22,-7.558322731240796e-13
	-4.334497690587857e-04,4.817904404361617e-13
38		2.398832919019488e+00,0.000000000000000e+00
	-4.334497690587857e+00,4.930127814461823e-09
	1.000000000000000e+00,0.000000000000000e+00
	0.000000000000000e+00,0.000000000000000e+00
