LTspice 24.0.9 for Windows
Circuit: * GA CMOS Amp | W=2.9019122931629446e-05 L=8.669331101240293e-07 Vbias=0.6628131480557514
Start Time: Mon Sep  8 18:47:33 2025
solver = Normal
Maximum thread count: 2
tnom = 27
temp = 27
method = modified trap
AsciiRawFile = 1
Instance "m1": Length shorter than recommended for a level 3 MOSFET.
Direct Newton iteration for .op point succeeded.
Semiconductor Device Operating Points:
                        --- MOSFET Transistors ---
Name:          m1
Model:        n_1u
Id:          6.83e-07
Vgs:         6.63e-01
Vds:         1.79e+00
Vbs:         0.00e+00
Vth:         7.97e-01
Vdsat:       4.86e-02
Gm:          1.25e-05
Gds:         4.97e-08
Gmb:         2.95e-06
Cbd:         0.00e+00
Cbs:         0.00e+00
Cgsov:       5.80e-15
Cgdov:       5.80e-15
Cgbov:       6.67e-17
Cgs:         1.37e-14
Cgd:         0.00e+00
Cgb:         6.43e-15



gain_db: MAX(db(v(out)/v(g)))=(30.2973dB,123.501°) FROM 1 TO 1e+09
gain_lin: MAX(mag(v(out)/v(g)))=(-8.82525dB,0°) FROM 1 TO 1e+09

Measurement "fc" FAIL'ed

Total elapsed time: 0.443 seconds.

