Title: * GA CMOS Amp | W=1.6795402339803253e-05 L=7.734046752164566e-07 Vbias=0.7203640681916454
Date: Mon Sep  8 18:47:29 2025
Plotname: AC Analysis
Flags: complex forward log
No. Variables: 11
No. Points:          901
Offset:    0.0000000000000000e+00
Command: Linear Technology Corporation LTspice
Variables:
	0	frequency	frequency
	1	V(out)	voltage
	2	V(g)	voltage
	3	V(vdd)	voltage
	4	Id(M1)	device_current
	5	Ig(M1)	device_current
	6	Ib(M1)	device_current
	7	Is(M1)	device_current
	8	I(Rload)	device_current
	9	I(Vg)	device_current
	10	I(Vdd)	device_current
Values:
0		1.000000000000000e+00,0.000000000000000e+00
	-2.603063143266924e-01,2.656425319658098e-10
	1.000000000000000e+00,0.000000000000000e+00
	0.000000000000000e+00,0.000000000000000e+00
	2.603063143266924e-05,-2.656425319658099e-14
	5.606578239110965e-24,1.204524562684665e-13
	2.603063130443475e-13,-3.096443753477863e-15
	-2.603063169297555e-05,-9.079175931840763e-14
	-2.603063143266924e-05,2.656425319658099e-14
	-5.606578239110965e-24,-1.204524562684665e-13
	-2.603063143266924e-05,2.656425319658099e-14
1		1.023292992280754e+00,0.000000000000000e+00
	-2.603063143266924e-01,2.718301414123295e-10
	1.000000000000000e+00,0.000000000000000e+00
	0.000000000000000e+00,0.000000000000000e+00
	2.603063143266924e-05,-2.718301414123294e-14
	5.870808131054034e-24,1.232581544025257e-13
	2.603063130443475e-13,-3.168569193925420e-15
	-2.603063169297555e-05,-9.290657106736738e-14
	-2.603063143266924e-05,2.718301414123295e-14
	-5.870808131054034e-24,-1.232581544025257e-13
	-2.603063143266924e-05,2.718301414123295e-14
2		1.047128548050899e+00,0.000000000000000e+00
	-2.603063143266924e-01,2.781618787979231e-10
	1.000000000000000e+00,0.000000000000000e+00
	0.000000000000000e+00,0.000000000000000e+00
	2.603063143266924e-05,-2.781618787979231e-14
	6.147490794156025e-24,1.261292056415638e-13
	2.603063130443475e-13,-3.242374651700554e-15
	-2.603063169297555e-05,-9.507064311007089e-14
	-2.603063143266924e-05,2.781618787979232e-14
	-6.147490794156025e-24,-1.261292056415638e-13
	-2.603063143266924e-05,2.781618787979232e-14
3		1.071519305237606e+00,0.000000000000000e+00
	-2.603063143266924e-01,2.846411012935632e-10
	1.000000000000000e+00,0.000000000000000e+00
	0.000000000000000e+00,0.000000000000000e+00
	2.603063143266924e-05,-2.846411012935632e-14
	6.437213109440868e-24,1.290671322549503e-13
	2.603063130443475e-13,-3.317899259433934e-15
	-2.603063169297555e-05,-9.728512286616009e-14
	-2.603063143266924e-05,2.846411012935632e-14
	-6.437213109440868e-24,-1.290671322549503e-13
	-2.603063143266924e-05,2.846411012935632e-14
4		1.096478196143185e+00,0.000000000000000e+00
	-2.603063143266924e-01,2.912712442687795e-10
	1.000000000000000e+00,0.000000000000000e+00
	0.000000000000000e+00,0.000000000000000e+00
	2.603063143266924e-05,-2.912712442687795e-14
	6.740589616783030e-24,1.320734919702640e-13
	2.603063130443475e-13,-3.395183061272265e-15
	-2.603063169297555e-05,-9.955118448211376e-14
	-2.603063143266924e-05,2.912712442687795e-14
	-6.740589616783030e-24,-1.320734919702640e-13
	-2.603063143266924e-05,2.912712442687795e-14
5		1.122018454301963e+00,0.000000000000000e+00
	-2.603063143266924e-01,2.980558231131378e-10
	1.000000000000000e+00,0.000000000000000e+00
	0.000000000000000e+00,0.000000000000000e+00
	2.603063143266924e-05,-2.980558231131378e-14
	7.058263818428986e-24,1.351498787992196e-13
	2.603063130443475e-13,-3.474267034110224e-15
	-2.603063169297555e-05,-1.018700294537956e-13
	-2.603063143266924e-05,2.980558231131378e-14
	-7.058263818428986e-24,-1.351498787992196e-13
	-2.603063143266924e-05,2.980558231131378e-14
6		1.148153621496882e+00,0.000000000000000e+00
	-2.603063143266924e-01,3.049984351001460e-10
	1.000000000000000e+00,0.000000000000000e+00
	0.000000000000000e+00,0.000000000000000e+00
	2.603063143266924e-05,-3.049984351001460e-14
	7.390909543951742e-24,1.382979238828347e-13
	2.603063130443475e-13,-3.555193109317025e-15
	-2.603063169297555e-05,-1.042428872635030e-13
	-2.603063143266924e-05,3.049984351001460e-14
	-7.390909543951742e-24,-1.382979238828347e-13
	-2.603063143266924e-05,3.049984351001460e-14
7		1.174897554939529e+00,0.000000000000000e+00
	-2.603063143266924e-01,3.121027612945757e-10
	1.000000000000000e+00,0.000000000000000e+00
	0.000000000000000e+00,0.000000000000000e+00
	2.603063143266924e-05,-3.121027612945757e-14
	7.739232379533723e-24,1.415192963562818e-13
	2.603063130443475e-13,-3.638004194968939e-15
	-2.603063169297555e-05,-1.066710160318553e-13
	-2.603063143266924e-05,3.121027612945757e-14
	-7.739232379533723e-24,-1.415192963562818e-13
	-2.603063143266924e-05,3.121027612945757e-14
8		1.202264434617413e+00,0.000000000000000e+00
	-2.603063143266924e-01,3.193725685042124e-10
	1.000000000000000e+00,0.000000000000000e+00
	0.000000000000000e+00,0.000000000000000e+00
	2.603063143266924e-05,-3.193725685042123e-14
	8.103971164609656e-24,1.448157042338865e-13
	2.603063130443475e-13,-3.722744198599671e-15
	-2.603063169297555e-05,-1.091557031848655e-13
	-2.603063143266924e-05,3.193725685042124e-14
	-8.103971164609656e-24,-1.448157042338865e-13
	-2.603063143266924e-05,3.193725685042124e-14
9		1.230268770812381e+00,0.000000000000000e+00
	-2.603063143266924e-01,3.268117112770655e-10
	1.000000000000000e+00,0.000000000000000e+00
	0.000000000000000e+00,0.000000000000000e+00
	2.603063143266924e-05,-3.268117112770655e-14
	8.485899559044064e-24,1.481888953147384e-13
	2.603063130443475e-13,-3.809458050480921e-15
	-2.603063169297555e-05,-1.116982661365509e-13
	-2.603063143266924e-05,3.268117112770656e-14
	-8.485899559044064e-24,-1.481888953147384e-13
	-2.603063143266924e-05,3.268117112770656e-14
10		1.258925411794167e+00,0.000000000000000e+00
	-2.603063143266924e-01,3.344241339451023e-10
	1.000000000000000e+00,0.000000000000000e+00
	0.000000000000000e+00,0.000000000000000e+00
	2.603063143266924e-05,-3.344241339451023e-14
	8.885827684167579e-24,1.516406581093980e-13
	2.603063130443475e-13,-3.898191727444592e-15
	-2.603063169297555e-05,-1.143000529874432e-13
	-2.603063143266924e-05,3.344241339451023e-14
	-8.885827684167579e-24,-1.516406581093980e-13
	-2.603063143266924e-05,3.344241339451023e-14
11		1.288249551693134e+00,0.000000000000000e+00
	-2.603063143266924e-01,3.422138727155835e-10
	1.000000000000000e+00,0.000000000000000e+00
	0.000000000000000e+00,0.000000000000000e+00
	2.603063143266924e-05,-3.422138727155835e-14
	9.304603841152888e-24,1.551728227881887e-13
	2.603063130443475e-13,-3.988992277260875e-15
	-2.603063169297555e-05,-1.169624432393695e-13
	-2.603063143266924e-05,3.422138727155836e-14
	-9.304603841152888e-24,-1.551728227881887e-13
	-2.603063143266924e-05,3.422138727155836e-14
12		1.318256738556407e+00,0.000000000000000e+00
	-2.603063143266924e-01,3.501850578111145e-10
	1.000000000000000e+00,0.000000000000000e+00
	0.000000000000000e+00,0.000000000000000e+00
	2.603063143266924e-05,-3.501850578111146e-14
	9.743116310375246e-24,1.587872621515768e-13
	2.603063130443475e-13,-4.081907843583073e-15
	-2.603063169297555e-05,-1.196868485268823e-13
	-2.603063143266924e-05,3.501850578111145e-14
	-9.743116310375246e-24,-1.587872621515768e-13
	-2.603063143266924e-05,3.501850578111145e-14
13		1.348962882591653e+00,0.000000000000000e+00
	-2.603063143266924e-01,3.583419156595443e-10
	1.000000000000000e+00,0.000000000000000e+00
	0.000000000000000e+00,0.000000000000000e+00
	2.603063143266924e-05,-3.583419156595443e-14
	1.020229523557427e-23,1.624858926231556e-13
	2.603063130443475e-13,-4.176987691474430e-15
	-2.603063169297555e-05,-1.224747133657268e-13
	-2.603063143266924e-05,3.583419156595443e-14
	-1.020229523557427e-23,-1.624858926231556e-13
	-2.603063143266924e-05,3.583419156595443e-14
14		1.380384264602885e+00,0.000000000000000e+00
	-2.603063143266924e-01,3.666887711348727e-10
	1.000000000000000e+00,0.000000000000000e+00
	0.000000000000000e+00,0.000000000000000e+00
	2.603063143266924e-05,-3.666887711348727e-14
	1.068311459681350e-23,1.662706752657582e-13
	2.603063130443475e-13,-4.274282233528768e-15
	-2.603063169297555e-05,-1.253275159187422e-13
	-2.603063143266924e-05,3.666887711348727e-14
	-1.068311459681350e-23,-1.662706752657582e-13
	-2.603063143266924e-05,3.666887711348727e-14
15		1.412537544622754e+00,0.000000000000000e+00
	-2.603063143266924e-01,3.752300498503565e-10
	1.000000000000000e+00,0.000000000000000e+00
	0.000000000000000e+00,0.000000000000000e+00
	2.603063143266924e-05,-3.752300498503565e-14
	1.118659427642268e-23,1.701436168212393e-13
	2.603063130443475e-13,-4.373843056600095e-15
	-2.603063169297555e-05,-1.282467687796036e-13
	-2.603063143266924e-05,3.752300498503565e-14
	-1.118659427642268e-23,-1.701436168212393e-13
	-2.603063143266924e-05,3.752300498503565e-14
16		1.445439770745927e+00,0.000000000000000e+00
	-2.603063143266924e-01,3.839702805050278e-10
	1.000000000000000e+00,0.000000000000000e+00
	0.000000000000000e+00,0.000000000000000e+00
	2.603063143266924e-05,-3.839702805050278e-14
	1.171380222230498e-23,1.741067707744760e-13
	2.603063130443475e-13,-4.475722949154731e-15
	-2.603063169297555e-05,-1.312340197748185e-13
	-2.603063143266924e-05,3.839702805050278e-14
	-1.171380222230498e-23,-1.741067707744760e-13
	-2.603063143266924e-05,3.839702805050278e-14
17		1.479108388168207e+00,0.000000000000000e+00
	-2.603063143266924e-01,3.929140972848703e-10
	1.000000000000000e+00,0.000000000000000e+00
	0.000000000000000e+00,0.000000000000000e+00
	2.603063143266924e-05,-3.929140972848703e-14
	1.226585671319761e-23,1.781622384421529e-13
	2.603063130443475e-13,-4.579975929260156e-15
	-2.603063169297555e-05,-1.342908527844057e-13
	-2.603063143266924e-05,3.929140972848703e-14
	-1.226585671319761e-23,-1.781622384421529e-13
	-2.603063143266924e-05,3.929140972848703e-14
18		1.513561248436208e+00,0.000000000000000e+00
	-2.603063143266924e-01,4.020662423199263e-10
	1.000000000000000e+00,0.000000000000000e+00
	0.000000000000000e+00,0.000000000000000e+00
	2.603063143266924e-05,-4.020662423199263e-14
	1.284392873069100e-23,1.823121700869078e-13
	2.603063130443475e-13,-4.686657273226492e-15
	-2.603063169297555e-05,-1.374188885816887e-13
	-2.603063143266924e-05,4.020662423199263e-14
	-1.284392873069100e-23,-1.823121700869078e-13
	-2.603063143266924e-05,4.020662423199263e-14
19		1.548816618912481e+00,0.000000000000000e+00
	-2.603063143266924e-01,4.114315681986362e-10
	1.000000000000000e+00,0.000000000000000e+00
	0.000000000000000e+00,0.000000000000000e+00
	2.603063143266924e-05,-4.114315681986362e-14
	1.344924444303770e-23,1.865587660574297e-13
	2.603063130443475e-13,-4.795823544914282e-15
	-2.603063169297555e-05,-1.406197856926518e-13
	-2.603063143266924e-05,4.114315681986363e-14
	-1.344924444303770e-23,-1.865587660574297e-13
	-2.603063143266924e-05,4.114315681986363e-14
20		1.584893192461113e+00,0.000000000000000e+00
	-2.603063143266924e-01,4.210150405407456e-10
	1.000000000000000e+00,0.000000000000000e+00
	0.000000000000000e+00,0.000000000000000e+00
	2.603063143266924e-05,-4.210150405407456e-14
	1.408308780601969e-23,1.909042779551124e-13
	2.603063130443475e-13,-4.907532625725824e-15
	-2.603063169297555e-05,-1.438952412753120e-13
	-2.603063143266924e-05,4.210150405407456e-14
	-1.408308780601969e-23,-1.909042779551124e-13
	-2.603063143266924e-05,4.210150405407456e-14
21		1.621810097358929e+00,0.000000000000000e+00
	-2.603063143266924e-01,4.308217406301425e-10
	1.000000000000000e+00,0.000000000000000e+00
	0.000000000000000e+00,0.000000000000000e+00
	2.603063143266924e-05,-4.308217406301424e-14
	1.474680328639073e-23,1.953510098278838e-13
	2.603063130443475e-13,-5.021843745294411e-15
	-2.603063169297555e-05,-1.472469920195751e-13
	-2.603063143266924e-05,4.308217406301426e-14
	-1.474680328639073e-23,-1.953510098278838e-13
	-2.603063143266924e-05,4.308217406301426e-14
22		1.659586907437560e+00,0.000000000000000e+00
	-2.603063143266924e-01,4.408568681090215e-10
	1.000000000000000e+00,0.000000000000000e+00
	0.000000000000000e+00,0.000000000000000e+00
	2.603063143266924e-05,-4.408568681090214e-14
	1.544179871367056e-23,1.999013193918422e-13
	2.603063130443475e-13,-5.138817512888692e-15
	-2.603063169297555e-05,-1.506768150680514e-13
	-2.603063143266924e-05,4.408568681090215e-14
	-1.544179871367056e-23,-1.999013193918422e-13
	-2.603063143266924e-05,4.408568681090215e-14
23		1.698243652461743e+00,0.000000000000000e+00
	-2.603063143266924e-01,4.511257437348024e-10
	1.000000000000000e+00,0.000000000000000e+00
	0.000000000000000e+00,0.000000000000000e+00
	2.603063143266924e-05,-4.511257437348024e-14
	1.616954826634010e-23,2.045576192813490e-13
	2.603063130443475e-13,-5.258515949548637e-15
	-2.603063169297555e-05,-1.541865289583201e-13
	-2.603063143266924e-05,4.511257437348024e-14
	-1.616954826634010e-23,-2.045576192813490e-13
	-2.603063143266924e-05,4.511257437348024e-14
24		1.737800828749374e+00,0.000000000000000e+00
	-2.603063143266924e-01,4.616338122012665e-10
	1.000000000000000e+00,0.000000000000000e+00
	0.000000000000000e+00,0.000000000000000e+00
	2.603063143266924e-05,-4.616338122012665e-14
	1.693159559877164e-23,2.093223783282388e-13
	2.603063130443475e-13,-5.381002520969700e-15
	-2.603063169297555e-05,-1.577779945871425e-13
	-2.603063143266924e-05,4.616338122012665e-14
	-1.693159559877164e-23,-2.093223783282388e-13
	-2.603063143266924e-05,4.616338122012665e-14
25		1.778279410038922e+00,0.000000000000000e+00
	-2.603063143266924e-01,4.723866450254057e-10
	1.000000000000000e+00,0.000000000000000e+00
	0.000000000000000e+00,0.000000000000000e+00
	2.603063143266924e-05,-4.723866450254057e-14
	1.772955711552675e-23,2.141981228708276e-13
	2.603063130443475e-13,-5.506342171153341e-15
	-2.603063169297555e-05,-1.614531161971337e-13
	-2.603063143266924e-05,4.723866450254057e-14
	-1.772955711552675e-23,-2.141981228708276e-13
	-2.603063143266924e-05,4.723866450254057e-14
26		1.819700858609982e+00,0.000000000000000e+00
	-2.603063143266924e-01,4.833899435015138e-10
	1.000000000000000e+00,0.000000000000000e+00
	0.000000000000000e+00,0.000000000000000e+00
	2.603063143266924e-05,-4.833899435015138e-14
	1.856512539996702e-23,2.191874380934098e-13
	2.603063130443475e-13,-5.634601356841194e-15
	-2.603063169297555e-05,-1.652138423864172e-13
	-2.603063143266924e-05,4.833899435015138e-14
	-1.856512539996702e-23,-2.191874380934098e-13
	-2.603063143266924e-05,4.833899435015138e-14
27		1.862087136662866e+00,0.000000000000000e+00
	-2.603063143266924e-01,4.946495417240888e-10
	1.000000000000000e+00,0.000000000000000e+00
	0.000000000000000e+00,0.000000000000000e+00
	2.603063143266924e-05,-4.946495417240887e-14
	1.944007280445034e-23,2.242929693969578e-13
	2.603063130443475e-13,-5.765848082751206e-15
	-2.603063169297555e-05,-1.690621671417977e-13
	-2.603063143266924e-05,4.946495417240888e-14
	-1.944007280445034e-23,-2.242929693969578e-13
	-2.603063143266924e-05,4.946495417240888e-14
28		1.905460717963246e+00,0.000000000000000e+00
	-2.603063143266924e-01,5.061714096811465e-10
	1.000000000000000e+00,0.000000000000000e+00
	0.000000000000000e+00,0.000000000000000e+00
	2.603063143266924e-05,-5.061714096811465e-14
	2.035625520972786e-23,2.295174238017486e-13
	2.603063130443475e-13,-5.900151937634774e-15
	-2.603063169297555e-05,-1.730001308959992e-13
	-2.603063143266924e-05,5.061714096811465e-14
	-2.035625520972786e-23,-2.295174238017486e-13
	-2.603063143266924e-05,5.061714096811465e-14
29		1.949844599758044e+00,0.000000000000000e+00
	-2.603063143266924e-01,5.179616564195879e-10
	1.000000000000000e+00,0.000000000000000e+00
	0.000000000000000e+00,0.000000000000000e+00
	2.603063143266924e-05,-5.179616564195879e-14
	2.131561596151590e-23,2.348635713826613e-13
	2.603063130443475e-13,-6.037584131173329e-15
	-2.603063169297555e-05,-1.770298216095292e-13
	-2.603063143266924e-05,5.179616564195879e-14
	-2.131561596151590e-23,-2.348635713826613e-13
	-2.603063143266924e-05,5.179616564195879e-14
30		1.995262314968878e+00,0.000000000000000e+00
	-2.603063143266924e-01,5.300265332842959e-10
	1.000000000000000e+00,0.000000000000000e+00
	0.000000000000000e+00,0.000000000000000e+00
	2.603063143266924e-05,-5.300265332842959e-14
	2.232018999259271e-23,2.403342467379080e-13
	2.603063130443475e-13,-6.178217531735187e-15
	-2.603063169297555e-05,-1.811533758777432e-13
	-2.603063143266924e-05,5.300265332842959e-14
	-2.232018999259271e-23,-2.403342467379080e-13
	-2.603063143266924e-05,5.300265332842959e-14
31		2.041737944669527e+00,0.000000000000000e+00
	-2.603063143266924e-01,5.423724372326818e-10
	1.000000000000000e+00,0.000000000000000e+00
	0.000000000000000e+00,0.000000000000000e+00
	2.603063143266924e-05,-5.423724372326818e-14
	2.337210813916382e-23,2.459323504919749e-13
	2.603063130443475e-13,-6.322126705010735e-15
	-2.603063169297555e-05,-1.853729800636960e-13
	-2.603063143266924e-05,5.423724372326818e-14
	-2.337210813916382e-23,-2.459323504919749e-13
	-2.603063143266924e-05,5.423724372326818e-14
32		2.089296130854037e+00,0.000000000000000e+00
	-2.603063143266924e-01,5.550059142264365e-10
	1.000000000000000e+00,0.000000000000000e+00
	0.000000000000000e+00,0.000000000000000e+00
	2.603063143266924e-05,-5.550059142264365e-14
	2.447360166065123e-23,2.516608508335722e-13
	2.603063130443475e-13,-6.469387953548512e-15
	-2.603063169297555e-05,-1.896908714573801e-13
	-2.603063143266924e-05,5.550059142264366e-14
	-2.447360166065123e-23,-2.516608508335722e-13
	-2.603063143266924e-05,5.550059142264366e-14
33		2.137962089502230e+00,0.000000000000000e+00
	-2.603063143266924e-01,5.679336627022857e-10
	1.000000000000000e+00,0.000000000000000e+00
	0.000000000000000e+00,0.000000000000000e+00
	2.603063143266924e-05,-5.679336627022858e-14
	2.562700697249380e-23,2.575227850894066e-13
	2.603063130443475e-13,-6.620079357211704e-15
	-2.603063169297555e-05,-1.941093394619663e-13
	-2.603063143266924e-05,5.679336627022857e-14
	-2.562700697249380e-23,-2.575227850894066e-13
	-2.603063143266924e-05,5.679336627022857e-14
34		2.187761623949550e+00,0.000000000000000e+00
	-2.603063143266924e-01,5.811625371235905e-10
	1.000000000000000e+00,0.000000000000000e+00
	0.000000000000000e+00,0.000000000000000e+00
	2.603063143266924e-05,-5.811625371235905e-14
	2.683477060199771e-23,2.635212613346124e-13
	2.603063130443475e-13,-6.774280814577195e-15
	-2.603063169297555e-05,-1.986307268076762e-13
	-2.603063143266924e-05,5.811625371235905e-14
	-2.683477060199771e-23,-2.635212613346124e-13
	-2.603063143266924e-05,5.811625371235905e-14
35		2.238721138568337e+00,0.000000000000000e+00
	-2.603063143266924e-01,5.946995516146737e-10
	1.000000000000000e+00,0.000000000000000e+00
	0.000000000000000e+00,0.000000000000000e+00
	2.603063143266924e-05,-5.946995516146738e-14
	2.809945437774882e-23,2.696594600406941e-13
	2.603063130443475e-13,-6.932074085298767e-15
	-2.603063169297555e-05,-2.032574307939280e-13
	-2.603063143266924e-05,5.946995516146737e-14
	-2.809945437774882e-23,-2.696594600406941e-13
	-2.603063143266924e-05,5.946995516146737e-14
36		2.290867652767770e+00,0.000000000000000e+00
	-2.603063143266924e-01,6.085518836798023e-10
	1.000000000000000e+00,0.000000000000000e+00
	0.000000000000000e+00,0.000000000000000e+00
	2.603063143266924e-05,-6.085518836798022e-14
	2.942374086359462e-23,2.759406357618543e-13
	2.603063130443475e-13,-7.093542833457274e-15
	-2.603063169297555e-05,-2.079919045604168e-13
	-2.603063143266924e-05,6.085518836798024e-14
	-2.942374086359462e-23,-2.759406357618543e-13
	-2.603063143266924e-05,6.085518836798024e-14
37		2.344228815319919e+00,0.000000000000000e+00
	-2.603063143266924e-01,6.227268780087942e-10
	1.000000000000000e+00,0.000000000000000e+00
	0.000000000000000e+00,0.000000000000000e+00
	2.603063143266924e-05,-6.227268780087942e-14
	3.081043904872174e-23,2.823681188606015e-13
	2.603063130443475e-13,-7.258772671920183e-15
	-2.603063169297555e-05,-2.128366583878019e-13
	-2.603063143266924e-05,6.227268780087942e-14
	-3.081043904872174e-23,-2.823681188606015e-13
	-2.603063143266924e-05,6.227268780087942e-14
38		2.398832919019488e+00,0.000000000000000e+00
	-2.603063143266924e-01,6.372320503712712e-10
	1.000000000000000e+00,0.000000000000000e+00
