LTspice 24.0.9 for Windows
Circuit: * GA CMOS Amp | W=4.012313302230079e-06 L=6.133677322247052e-07 Vbias=1.5
Start Time: Sat Sep  6 22:12:18 2025
solver = Normal
Maximum thread count: 2
tnom = 27
temp = 27
method = modified trap
AsciiRawFile = 1
Direct Newton iteration for .op point succeeded.
Semiconductor Device Operating Points:
                        --- BSIM4 MOSFETS ---
Name:      m1
Model:      n
Id:      1.50e-04
Vgs:     1.50e+00
Vds:     2.95e-01
Vbs:     0.00e+00
Vth:     2.45e-01
Vdsat:   8.66e-01
Gm:     -4.48e-06
Gds:     4.08e-04
Gmb      7.20e-05
Cbd:     1.84e-15
Cbs:     3.21e-15


.measure op idd find i(vdd)
  Error: FIND can not be evaluated over an interval.

gain_db: MAX(db(v(out)/v(g)))=(31.237dB,180°) FROM 1 TO 1e+09
gain_lin: MAX(mag(v(out)/v(g)))=(-5.98614dB,0°) FROM 1 TO 1e+09

Measurement "fc" FAIL'ed

Total elapsed time: 0.685 seconds.

