Title: * GA CMOS Amp | W=2.2157640849365302e-05 L=5.461503325312483e-07 Vbias=0.8018665321779106
Date: Mon Sep  8 18:44:51 2025
Plotname: AC Analysis
Flags: complex forward log
No. Variables: 11
No. Points:          901
Offset:    0.0000000000000000e+00
Command: Linear Technology Corporation LTspice
Variables:
	0	frequency	frequency
	1	V(out)	voltage
	2	V(g)	voltage
	3	V(vdd)	voltage
	4	Id(M1)	device_current
	5	Ig(M1)	device_current
	6	Ib(M1)	device_current
	7	Is(M1)	device_current
	8	I(Rload)	device_current
	9	I(Vg)	device_current
	10	I(Vdd)	device_current
Values:
0		1.000000000000000e+00,0.000000000000000e+00
	-6.260154120434751e+00,1.712480448770051e-09
	1.000000000000000e+00,0.000000000000000e+00
	0.000000000000000e+00,0.000000000000000e+00
	6.260154120434751e-04,-1.712480448770051e-13
	4.768249858692445e-23,2.878636939428682e-13
	6.260154178892863e-12,-2.396601347645316e-15
	-6.260154183036293e-04,-1.142190477182178e-13
	-6.260154120434751e-04,1.712480448770051e-13
	-4.768249858692445e-23,-2.878636939428683e-13
	-6.260154120434751e-04,1.712480448770051e-13
1		1.023292992280754e+00,0.000000000000000e+00
	-6.260154120434751e+00,1.752369242644195e-09
	1.000000000000000e+00,0.000000000000000e+00
	0.000000000000000e+00,0.000000000000000e+00
	6.260154120434751e-04,-1.752369242644195e-13
	4.992970551276528e-23,2.945689007437888e-13
	6.260154178892863e-12,-2.452425364336044e-15
	-6.260154183036293e-04,-1.168795511150334e-13
	-6.260154120434751e-04,1.752369242644195e-13
	-4.992970551276528e-23,-2.945689007437889e-13
	-6.260154120434751e-04,1.752369242644195e-13
2		1.047128548050899e+00,0.000000000000000e+00
	-6.260154120434751e+00,1.793187165886137e-09
	1.000000000000000e+00,0.000000000000000e+00
	0.000000000000000e+00,0.000000000000000e+00
	6.260154120434751e-04,-1.793187165886137e-13
	5.228282003819090e-23,3.014302918749641e-13
	6.260154178892863e-12,-2.509549689416626e-15
	-6.260154183036293e-04,-1.196020255969338e-13
	-6.260154120434751e-04,1.793187165886137e-13
	-5.228282003819090e-23,-3.014302918749641e-13
	-6.260154120434751e-04,1.793187165886137e-13
3		1.071519305237606e+00,0.000000000000000e+00
	-6.260154120434751e+00,1.834955860699070e-09
	1.000000000000000e+00,0.000000000000000e+00
	0.000000000000000e+00,0.000000000000000e+00
	6.260154120434751e-04,-1.834955860699070e-13
	5.474683343459730e-23,3.084515053367931e-13
	6.260154178892863e-12,-2.568004610960416e-15
	-6.260154183036293e-04,-1.223879146559257e-13
	-6.260154120434751e-04,1.834955860699070e-13
	-5.474683343459730e-23,-3.084515053367931e-13
	-6.260154120434751e-04,1.834955860699070e-13
4		1.096478196143185e+00,0.000000000000000e+00
	-6.260154120434751e+00,1.877697473397857e-09
	1.000000000000000e+00,0.000000000000000e+00
	0.000000000000000e+00,0.000000000000000e+00
	6.260154120434751e-04,-1.877697473397857e-13
	5.732697220475428e-23,3.156362638695900e-13
	6.260154178892863e-12,-2.627821122540509e-15
	-6.260154183036293e-04,-1.252386954072638e-13
	-6.260154120434751e-04,1.877697473397857e-13
	-5.732697220475428e-23,-3.156362638695900e-13
	-6.260154120434751e-04,1.877697473397857e-13
5		1.122018454301963e+00,0.000000000000000e+00
	-6.260154120434751e+00,1.921434666151306e-09
	1.000000000000000e+00,0.000000000000000e+00
	0.000000000000000e+00,0.000000000000000e+00
	6.260154120434751e-04,-1.921434666151306e-13
	6.002870916891866e-23,3.229883769274305e-13
	6.260154178892863e-12,-2.689030939662986e-15
	-6.260154183036293e-04,-1.281558793726369e-13
	-6.260154120434751e-04,1.921434666151306e-13
	-6.002870916891866e-23,-3.229883769274305e-13
	-6.260154120434751e-04,1.921434666151306e-13
6		1.148153621496882e+00,0.000000000000000e+00
	-6.260154120434751e+00,1.966190628997941e-09
	1.000000000000000e+00,0.000000000000000e+00
	0.000000000000000e+00,0.000000000000000e+00
	6.260154120434751e-04,-1.966190628997941e-13
	6.285777507341951e-23,3.305117426979744e-13
	6.260154178892863e-12,-2.751666516583258e-15
	-6.260154183036293e-04,-1.311410132815970e-13
	-6.260154120434751e-04,1.966190628997941e-13
	-6.285777507341951e-23,-3.305117426979745e-13
	-6.260154120434751e-04,1.966190628997941e-13
7		1.174897554939529e+00,0.000000000000000e+00
	-6.260154120434751e+00,2.011989092141681e-09
	1.000000000000000e+00,0.000000000000000e+00
	0.000000000000000e+00,0.000000000000000e+00
	6.260154120434751e-04,-2.011989092141681e-13
	6.582017074633979e-23,3.382103501693369e-13
	6.260154178892863e-12,-2.815761063513230e-15
	-6.260154183036293e-04,-1.341956798916555e-13
	-6.260154120434751e-04,2.011989092141681e-13
	-6.582017074633979e-23,-3.382103501693369e-13
	-6.260154120434751e-04,2.011989092141681e-13
8		1.202264434617413e+00,0.000000000000000e+00
	-6.260154120434751e+00,2.058854338533899e-09
	1.000000000000000e+00,0.000000000000000e+00
	0.000000000000000e+00,0.000000000000000e+00
	6.260154120434751e-04,-2.058854338533899e-13
	6.892217982607707e-23,3.460882812451024e-13
	6.260154178892863e-12,-2.881348564230118e-15
	-6.260154183036293e-04,-1.373214988274824e-13
	-6.260154120434751e-04,2.058854338533899e-13
	-6.892217982607707e-23,-3.460882812451025e-13
	-6.260154120434751e-04,2.058854338533899e-13
9		1.230268770812381e+00,0.000000000000000e+00
	-6.260154120434751e+00,2.106811216748566e-09
	1.000000000000000e+00,0.000000000000000e+00
	0.000000000000000e+00,0.000000000000000e+00
	6.260154120434751e-04,-2.106811216748566e-13
	7.217038208978306e-23,3.541497129086040e-13
	6.260154178892863e-12,-2.948463794094885e-15
	-6.260154183036293e-04,-1.405201274396525e-13
	-6.260154120434751e-04,2.106811216748566e-13
	-7.217038208978306e-23,-3.541497129086040e-13
	-6.260154120434751e-04,2.106811216748566e-13
10		1.258925411794167e+00,0.000000000000000e+00
	-6.260154120434751e+00,2.155885154157297e-09
	1.000000000000000e+00,0.000000000000000e+00
	0.000000000000000e+00,0.000000000000000e+00
	6.260154120434751e-04,-2.155885154157297e-13
	7.557166740995321e-23,3.623989194376155e-13
	6.260154178892863e-12,-3.017142338490817e-15
	-6.260154183036293e-04,-1.437932616833949e-13
	-6.260154120434751e-04,2.155885154157297e-13
	-7.557166740995321e-23,-3.623989194376155e-13
	-6.260154120434751e-04,2.155885154157297e-13
11		1.288249551693134e+00,0.000000000000000e+00
	-6.260154120434751e+00,2.206102170411275e-09
	1.000000000000000e+00,0.000000000000000e+00
	0.000000000000000e+00,0.000000000000000e+00
	6.260154120434751e-04,-2.206102170411275e-13
	7.913325036876979e-23,3.708402746706295e-13
	6.260154178892863e-12,-3.087420611691253e-15
	-6.260154183036293e-04,-1.471426370178107e-13
	-6.260154120434751e-04,2.206102170411275e-13
	-7.913325036876979e-23,-3.708402746706296e-13
	-6.260154120434751e-04,2.206102170411275e-13
12		1.318256738556407e+00,0.000000000000000e+00
	-6.260154120434751e+00,2.257488891237220e-09
	1.000000000000000e+00,0.000000000000000e+00
	0.000000000000000e+00,0.000000000000000e+00
	6.260154120434751e-04,-2.257488891237220e-13
	8.286268556119821e-23,3.794782543259252e-13
	6.260154178892863e-12,-3.159335876166813e-15
	-6.260154183036293e-04,-1.505700293260364e-13
	-6.260154120434751e-04,2.257488891237220e-13
	-8.286268556119821e-23,-3.794782543259252e-13
	-6.260154120434751e-04,2.257488891237220e-13
13		1.348962882591653e+00,0.000000000000000e+00
	-6.260154120434751e+00,2.310072562554697e-09
	1.000000000000000e+00,0.000000000000000e+00
	0.000000000000000e+00,0.000000000000000e+00
	6.260154120434751e-04,-2.310072562554697e-13
	8.676788361929574e-23,3.883174383746531e-13
	6.260154178892863e-12,-3.232926262342591e-15
	-6.260154183036293e-04,-1.540772558568407e-13
	-6.260154120434751e-04,2.310072562554697e-13
	-8.676788361929574e-23,-3.883174383746531e-13
	-6.260154120434751e-04,2.310072562554697e-13
14		1.380384264602885e+00,0.000000000000000e+00
	-6.260154120434751e+00,2.363881064922265e-09
	1.000000000000000e+00,0.000000000000000e+00
	0.000000000000000e+00,0.000000000000000e+00
	6.260154120434751e-04,-2.363881064922266e-13
	9.085712799172259e-23,3.973625134691960e-13
	6.260154178892863e-12,-3.308230788815609e-15
	-6.260154183036293e-04,-1.576661761881539e-13
	-6.260154120434751e-04,2.363881064922265e-13
	-9.085712799172259e-23,-3.973625134691961e-13
	-6.260154120434751e-04,2.363881064922265e-13
15		1.412537544622754e+00,0.000000000000000e+00
	-6.260154120434751e+00,2.418942928320120e-09
	1.000000000000000e+00,0.000000000000000e+00
	0.000000000000000e+00,0.000000000000000e+00
	6.260154120434751e-04,-2.418942928320121e-13
	9.513909251404719e-23,4.066182754280951e-13
	6.260154178892863e-12,-3.385289383042489e-15
	-6.260154183036293e-04,-1.613386932130405e-13
	-6.260154120434751e-04,2.418942928320120e-13
	-9.513909251404719e-23,-4.066182754280952e-13
	-6.260154120434751e-04,2.418942928320120e-13
16		1.445439770745927e+00,0.000000000000000e+00
	-6.260154120434751e+00,2.475287347277065e-09
	1.000000000000000e+00,0.000000000000000e+00
	0.000000000000000e+00,0.000000000000000e+00
	6.260154120434751e-04,-2.475287347277065e-13
	9.962285980711438e-23,4.160896317788552e-13
	6.260154178892863e-12,-3.464142902509777e-15
	-6.260154183036293e-04,-1.650967541486388e-13
	-6.260154120434751e-04,2.475287347277065e-13
	-9.962285980711438e-23,-4.160896317788552e-13
	-6.260154120434751e-04,2.475287347277065e-13
17		1.479108388168207e+00,0.000000000000000e+00
	-6.260154120434751e+00,2.532944196349838e-09
	1.000000000000000e+00,0.000000000000000e+00
	0.000000000000000e+00,0.000000000000000e+00
	6.260154120434751e-04,-2.532944196349838e-13
	1.043179405425020e-22,4.257816043599819e-13
	6.260154178892863e-12,-3.544833156397428e-15
	-6.260154183036293e-04,-1.689423515686006e-13
	-6.260154120434751e-04,2.532944196349838e-13
	-1.043179405425020e-22,-4.257816043599819e-13
	-6.260154120434751e-04,2.532944196349838e-13
18		1.513561248436208e+00,0.000000000000000e+00
	-6.260154120434751e+00,2.591944045962996e-09
	1.000000000000000e+00,0.000000000000000e+00
	0.000000000000000e+00,0.000000000000000e+00
	6.260154120434751e-04,-2.591944045962996e-13
	1.092342936159302e-22,4.356993319836261e-13
	6.260154178892863e-12,-3.627402927745970e-15
	-6.260154183036293e-04,-1.728775244595805e-13
	-6.260154120434751e-04,2.591944045962996e-13
	-1.092342936159302e-22,-4.356993319836261e-13
	-6.260154120434751e-04,2.591944045962996e-13
19		1.548816618912481e+00,0.000000000000000e+00
	-6.260154120434751e+00,2.652318178617758e-09
	1.000000000000000e+00,0.000000000000000e+00
	0.000000000000000e+00,0.000000000000000e+00
	6.260154120434751e-04,-2.652318178617759e-13
	1.143823472714146e-22,4.458480731602504e-13
	6.260154178892863e-12,-3.711895996141072e-15
	-6.260154183036293e-04,-1.769043593023334e-13
	-6.260154120434751e-04,2.652318178617758e-13
	-1.143823472714146e-22,-4.458480731602504e-13
	-6.260154120434751e-04,2.652318178617758e-13
20		1.584893192461113e+00,0.000000000000000e+00
	-6.260154120434751e+00,2.714098605478406e-09
	1.000000000000000e+00,0.000000000000000e+00
	0.000000000000000e+00,0.000000000000000e+00
	6.260154120434751e-04,-2.714098605478406e-13
	1.197730212209702e-22,4.562332088867612e-13
	6.260154178892863e-12,-3.798357160926192e-15
	-6.260154183036293e-04,-1.810249911779944e-13
	-6.260154120434751e-04,2.714098605478406e-13
	-1.197730212209702e-22,-4.562332088867612e-13
	-6.260154120434751e-04,2.714098605478406e-13
21		1.621810097358929e+00,0.000000000000000e+00
	-6.260154120434751e+00,2.777318083345020e-09
	1.000000000000000e+00,0.000000000000000e+00
	0.000000000000000e+00,0.000000000000000e+00
	6.260154120434751e-04,-2.777318083345020e-13
	1.254177498067841e-22,4.668602454995842e-13
	6.260154178892863e-12,-3.886832264955140e-15
	-6.260154183036293e-04,-1.852416049001270e-13
	-6.260154120434751e-04,2.777318083345020e-13
	-1.254177498067841e-22,-4.668602454995842e-13
	-6.260154120434751e-04,2.777318083345020e-13
22		1.659586907437560e+00,0.000000000000000e+00
	-6.260154120434751e+00,2.842010132021575e-09
	1.000000000000000e+00,0.000000000000000e+00
	0.000000000000000e+00,0.000000000000000e+00
	6.260154120434751e-04,-2.842010132021575e-13
	1.313285062549888e-22,4.777348175941970e-13
	6.260154178892863e-12,-3.977368218899403e-15
	-6.260154183036293e-04,-1.895564361731402e-13
	-6.260154120434751e-04,2.842010132021575e-13
	-1.313285062549888e-22,-4.777348175941970e-13
	-6.260154120434751e-04,2.842010132021575e-13
23		1.698243652461743e+00,0.000000000000000e+00
	-6.260154120434751e+00,2.908209052088578e-09
	1.000000000000000e+00,0.000000000000000e+00
	0.000000000000000e+00,0.000000000000000e+00
	6.260154120434751e-04,-2.908209052088578e-13
	1.375178280724799e-22,4.888626910126661e-13
	6.260154178892863e-12,-4.070013026119897e-15
	-6.260154183036293e-04,-1.939717727776884e-13
	-6.260154120434751e-04,2.908209052088578e-13
	-1.375178280724799e-22,-4.888626910126661e-13
	-6.260154120434751e-04,2.908209052088578e-13
24		1.737800828749374e+00,0.000000000000000e+00
	-6.260154120434751e+00,2.975949943089696e-09
	1.000000000000000e+00,0.000000000000000e+00
	0.000000000000000e+00,0.000000000000000e+00
	6.260154120434751e-04,-2.975949943089696e-13
	1.439988436406490e-22,5.002497659007727e-13
	6.260154178892863e-12,-4.164815808119842e-15
	-6.260154183036293e-04,-1.984899557836832e-13
	-6.260154120434751e-04,2.975949943089696e-13
	-1.439988436406490e-22,-5.002497659007727e-13
	-6.260154120434751e-04,2.975949943089696e-13
25		1.778279410038922e+00,0.000000000000000e+00
	-6.260154120434751e+00,3.045268722141995e-09
	1.000000000000000e+00,0.000000000000000e+00
	0.000000000000000e+00,0.000000000000000e+00
	6.260154120434751e-04,-3.045268722141996e-13
	1.507853000624414e-22,5.119020798363486e-13
	6.260154178892863e-12,-4.261826830589184e-15
	-6.260154183036293e-04,-2.031133807915598e-13
	-6.260154120434751e-04,3.045268722141995e-13
	-1.507853000624414e-22,-5.119020798363486e-13
	-6.260154120434751e-04,3.045268722141995e-13
26		1.819700858609982e+00,0.000000000000000e+00
	-6.260154120434751e+00,3.116202142979670e-09
	1.000000000000000e+00,0.000000000000000e+00
	0.000000000000000e+00,0.000000000000000e+00
	6.260154120434751e-04,-3.116202142979671e-13
	1.578915923218034e-22,5.238258110304785e-13
	6.260154178892863e-12,-4.361097530055980e-15
	-6.260154183036293e-04,-2.078444992024554e-13
	-6.260154120434751e-04,3.116202142979670e-13
	-1.578915923218034e-22,-5.238258110304786e-13
	-6.260154120434751e-04,3.116202142979670e-13
27		1.862087136662866e+00,0.000000000000000e+00
	-6.260154120434751e+00,3.188787815441365e-09
	1.000000000000000e+00,0.000000000000000e+00
	0.000000000000000e+00,0.000000000000000e+00
	6.260154120434751e-04,-3.188787815441366e-13
	1.653327938173745e-22,5.360272816032713e-13
	6.260154178892863e-12,-4.462680541159222e-15
	-6.260154183036293e-04,-2.126858195179755e-13
	-6.260154120434751e-04,3.188787815441365e-13
	-1.653327938173745e-22,-5.360272816032713e-13
	-6.260154120434751e-04,3.188787815441365e-13
28		1.905460717963246e+00,0.000000000000000e+00
	-6.260154120434751e+00,3.263064225411403e-09
	1.000000000000000e+00,0.000000000000000e+00
	0.000000000000000e+00,0.000000000000000e+00
	6.260154120434751e-04,-3.263064225411404e-13
	1.731246883351861e-22,5.485129609359297e-13
	6.260154178892863e-12,-4.566629724555887e-15
	-6.260154183036293e-04,-2.176399086702335e-13
	-6.260154120434751e-04,3.263064225411404e-13
	-1.731246883351861e-22,-5.485129609359298e-13
	-6.260154120434751e-04,3.263064225411404e-13
29		1.949844599758044e+00,0.000000000000000e+00
	-6.260154120434751e+00,3.339070755225516e-09
	1.000000000000000e+00,0.000000000000000e+00
	0.000000000000000e+00,0.000000000000000e+00
	6.260154120434751e-04,-3.339070755225517e-13
	1.812838035281880e-22,5.612894691009040e-13
	6.260154178892863e-12,-4.673000195479010e-15
	-6.260154183036293e-04,-2.227093933828733e-13
	-6.260154120434751e-04,3.339070755225516e-13
	-1.812838035281880e-22,-5.612894691009040e-13
	-6.260154120434751e-04,3.339070755225516e-13
30		1.995262314968878e+00,0.000000000000000e+00
	-6.260154120434751e+00,3.416847704551876e-09
	1.000000000000000e+00,0.000000000000000e+00
	0.000000000000000e+00,0.000000000000000e+00
	6.260154120434751e-04,-3.416847704551876e-13
	1.898274459736160e-22,5.743635803719399e-13
	6.260154178892863e-12,-4.781848352960377e-15
	-6.260154183036293e-04,-2.278969615637920e-13
	-6.260154120434751e-04,3.416847704551876e-13
	-1.898274459736160e-22,-5.743635803719399e-13
	-6.260154120434751e-04,3.416847704551876e-13
31		2.041737944669527e+00,0.000000000000000e+00
	-6.260154120434751e+00,3.496436311758514e-09
	1.000000000000000e+00,0.000000000000000e+00
	0.000000000000000e+00,0.000000000000000e+00
	6.260154120434751e-04,-3.496436311758515e-13
	1.987737378825630e-22,5.877422268158897e-13
	6.260154178892863e-12,-4.893231909733578e-15
	-6.260154183036293e-04,-2.332053637303047e-13
	-6.260154120434751e-04,3.496436311758514e-13
	-1.987737378825630e-22,-5.877422268158898e-13
	-6.260154120434751e-04,3.496436311758514e-13
32		2.089296130854037e+00,0.000000000000000e+00
	-6.260154120434751e+00,3.577878775778454e-09
	1.000000000000000e+00,0.000000000000000e+00
	0.000000000000000e+00,0.000000000000000e+00
	6.260154120434751e-04,-3.577878775778454e-13
	2.081416555396183e-22,6.014325019681855e-13
	6.260154178892863e-12,-5.007209922834995e-15
	-6.260154183036293e-04,-2.386374144675051e-13
	-6.260154120434751e-04,3.577878775778454e-13
	-2.081416555396183e-22,-6.014325019681856e-13
	-6.260154120434751e-04,3.577878775778454e-13
33		2.137962089502230e+00,0.000000000000000e+00
	-6.260154120434751e+00,3.661218278484136e-09
	1.000000000000000e+00,0.000000000000000e+00
	0.000000000000000e+00,0.000000000000000e+00
	6.260154120434751e-04,-3.661218278484136e-13
	2.179510695541110e-22,6.154416645939251e-13
	6.260154178892863e-12,-5.123842824915696e-15
	-6.260154183036293e-04,-2.441959939205958e-13
	-6.260154120434751e-04,3.661218278484136e-13
	-2.179510695541110e-22,-6.154416645939251e-13
	-6.260154120434751e-04,3.661218278484136e-13
34		2.187761623949550e+00,0.000000000000000e+00
	-6.260154120434751e+00,3.746499007583022e-09
	1.000000000000000e+00,0.000000000000000e+00
	0.000000000000000e+00,0.000000000000000e+00
	6.260154120434751e-04,-3.746499007583023e-13
	2.282227870083368e-22,6.297771425365658e-13
	6.260154178892863e-12,-5.243192456284081e-15
	-6.260154183036293e-04,-2.498840493219794e-13
	-6.260154120434751e-04,3.746499007583022e-13
	-2.282227870083368e-22,-6.297771425365659e-13
	-6.260154120434751e-04,3.746499007583022e-13
35		2.238721138568337e+00,0.000000000000000e+00
	-6.260154120434751e+00,3.833766180046507e-09
	1.000000000000000e+00,0.000000000000000e+00
	0.000000000000000e+00,0.000000000000000e+00
	6.260154120434751e-04,-3.833766180046507e-13
	2.389785955921694e-22,6.444465366562654e-13
	6.260154178892863e-12,-5.365322097694936e-15
	-6.260154183036293e-04,-2.557045965539198e-13
	-6.260154120434751e-04,3.833766180046507e-13
	-2.389785955921694e-22,-6.444465366562654e-13
	-6.260154120434751e-04,3.833766180046507e-13
36		2.290867652767770e+00,0.000000000000000e+00
	-6.260154120434751e+00,3.923066066084546e-09
	1.000000000000000e+00,0.000000000000000e+00
	0.000000000000000e+00,0.000000000000000e+00
	6.260154120434751e-04,-3.923066066084546e-13
	2.502413098176715e-22,6.594576248599584e-13
	6.260154178892863e-12,-5.490296503900221e-15
	-6.260154183036293e-04,-2.616607217476036e-13
	-6.260154120434751e-04,3.923066066084546e-13
	-2.502413098176715e-22,-6.594576248599585e-13
	-6.260154120434751e-04,3.923066066084546e-13
37		2.344228815319919e+00,0.000000000000000e+00
	-6.260154120434751e+00,4.014446013678742e-09
	1.000000000000000e+00,0.000000000000000e+00
	0.000000000000000e+00,0.000000000000000e+00
	6.260154120434751e-04,-4.014446013678742e-13
	2.620348194117336e-22,6.748183662253059e-13
	6.260154178892863e-12,-5.618181937984695e-15
	-6.260154183036293e-04,-2.677555829194471e-13
	-6.260154120434751e-04,4.014446013678742e-13
	-2.620348194117336e-22,-6.748183662253060e-13
	-6.260154120434751e-04,4.014446013678742e-13
38		2.398832919019488e+00,0.000000000000000e+00
	-6.260154120434751e+00,4.107954473686865e-09
	1.000000000000000e+00,0.000000000000000e+00
