Title: * GA CMOS Amp | W=3.0155279949100866e-05 L=8.363793092404888e-07 Vbias=0.5947099452016072
Date: Sat Sep  6 22:37:45 2025
Plotname: AC Analysis
Flags: complex forward log
No. Variables: 13
No. Points:          901
Offset:    0.0000000000000000e+00
Command: Linear Technology Corporation LTspice
Variables:
	0	frequency	frequency
	1	V(out)	voltage
	2	V(g)	voltage
	3	V(vdd)	voltage
	4	V(m1#dbody)	voltage
	5	V(m1#sbody)	voltage
	6	Id(M1)	device_current
	7	Ig(M1)	device_current
	8	Ib(M1)	device_current
	9	Is(M1)	device_current
	10	I(Rload)	device_current
	11	I(Vg)	device_current
	12	I(Vdd)	device_current
Values:
0		1.000000000000000e+00,0.000000000000000e+00
	-1.164880547597591e-01,1.292154363400044e-09
	1.000000000000000e+00,0.000000000000000e+00
	0.000000000000000e+00,0.000000000000000e+00
	7.167836040845190e-09,-5.985933045162844e-14
	7.168736813730168e-09,2.119908333353342e-14
	1.164880547597586e-05,-1.292154363400039e-13
	1.409126202259577e-06,6.114941654463663e-12
	-3.823266252022094e-09,-5.902286785832115e-15
	-1.305410841198341e-05,-5.979823931337826e-12
	-1.164880547597591e-05,1.292154363400044e-13
	-1.409126202250865e-06,-6.114941654463662e-12
	-1.164880547597591e-05,1.292154363400044e-13
1		1.023292992280754e+00,0.000000000000000e+00
	-1.164880547597591e-01,1.322252505012263e-09
	1.000000000000000e+00,0.000000000000000e+00
	0.000000000000000e+00,0.000000000000000e+00
	7.167836040844963e-09,-6.125363337376933e-14
	7.168736813729983e-09,2.169287341798047e-14
	1.164880547597586e-05,-1.322252505012256e-13
	1.409126202259577e-06,6.257376943218346e-12
	-3.823266252021993e-09,-6.039768706373299e-15
	-1.305410841198341e-05,-6.119111924010748e-12
	-1.164880547597591e-05,1.322252505012263e-13
	-1.409126202250865e-06,-6.257376943218347e-12
	-1.164880547597591e-05,1.322252505012263e-13
2		1.047128548050899e+00,0.000000000000000e+00
	-1.164880547597591e-01,1.353051722404722e-09
	1.000000000000000e+00,0.000000000000000e+00
	0.000000000000000e+00,0.000000000000000e+00
	7.167836040844725e-09,-6.268041378311262e-14
	7.168736813729789e-09,2.219816535105291e-14
	1.164880547597586e-05,-1.353051722404724e-13
	1.409126202259577e-06,6.403129976054501e-12
	-3.823266252021887e-09,-6.180452992228416e-15
	-1.305410841198341e-05,-6.261644350821800e-12
	-1.164880547597591e-05,1.353051722404722e-13
	-1.409126202250865e-06,-6.403129976054498e-12
	-1.164880547597591e-05,1.353051722404722e-13
3		1.071519305237606e+00,0.000000000000000e+00
	-1.164880547597591e-01,1.384568345730156e-09
	1.000000000000000e+00,0.000000000000000e+00
	0.000000000000000e+00,0.000000000000000e+00
	7.167836040844479e-09,-6.414042817751717e-14
	7.168736813729589e-09,2.271522704522183e-14
	1.164880547597586e-05,-1.384568345730149e-13
	1.409126202259577e-06,6.552278033159401e-12
	-3.823266252021777e-09,-6.324414236067927e-15
	-1.305410841198341e-05,-6.407496784350318e-12
	-1.164880547597591e-05,1.384568345730156e-13
	-1.409126202250865e-06,-6.552278033159403e-12
	-1.164880547597591e-05,1.384568345730156e-13
4		1.096478196143185e+00,0.000000000000000e+00
	-1.164880547597591e-01,1.416819085519424e-09
	1.000000000000000e+00,0.000000000000000e+00
	0.000000000000000e+00,0.000000000000000e+00
	7.167836040844218e-09,-6.563445067594036e-14
	7.168736813729378e-09,2.324433265344174e-14
	1.164880547597586e-05,-1.416819085519426e-13
	1.409126202259577e-06,6.704900194807137e-12
	-3.823266252021660e-09,-6.471728768048940e-15
	-1.305410841198341e-05,-6.556746557487146e-12
	-1.164880547597591e-05,1.416819085519424e-13
	-1.409126202250865e-06,-6.704900194807137e-12
	-1.164880547597591e-05,1.416819085519424e-13
5		1.122018454301963e+00,0.000000000000000e+00
	-1.164880547597591e-01,1.449821041541654e-09
	1.000000000000000e+00,0.000000000000000e+00
	0.000000000000000e+00,0.000000000000000e+00
	7.167836040843948e-09,-6.716327342888661e-14
	7.168736813729158e-09,2.378576271450964e-14
	1.164880547597586e-05,-1.449821041541657e-13
	1.409126202259577e-06,6.861077383288009e-12
	-3.823266252021539e-09,-6.622474696286235e-15
	-1.305410841198341e-05,-6.709472804437557e-12
	-1.164880547597591e-05,1.449821041541654e-13
	-1.409126202250865e-06,-6.861077383288007e-12
	-1.164880547597591e-05,1.449821041541654e-13
6		1.148153621496882e+00,0.000000000000000e+00
	-1.164880547597591e-01,1.483591711870758e-09
	1.000000000000000e+00,0.000000000000000e+00
	0.000000000000000e+00,0.000000000000000e+00
	7.167836040843661e-09,-6.872770703841574e-14
	7.168736813728925e-09,2.433980430181066e-14
	1.164880547597586e-05,-1.483591711870761e-13
	1.409126202259577e-06,7.020892405814591e-12
	-3.823266252021412e-09,-6.776731948266372e-15
	-1.305410841198341e-05,-6.865756502679249e-12
	-1.164880547597591e-05,1.483591711870758e-13
	-1.409126202250865e-06,-7.020892405814592e-12
	-1.164880547597591e-05,1.483591711870758e-13
7		1.174897554939529e+00,0.000000000000000e+00
	-1.164880547597591e-01,1.518149002163154e-09
	1.000000000000000e+00,0.000000000000000e+00
	0.000000000000000e+00,0.000000000000000e+00
	7.167836040843364e-09,-7.032858098793559e-14
	7.168736813728683e-09,2.490675117552768e-14
	1.164880547597586e-05,-1.518149002163161e-13
	1.409126202259576e-06,7.184429998427236e-12
	-3.823266252021279e-09,-6.934582313226017e-15
	-1.305410841198341e-05,-7.025680515897694e-12
	-1.164880547597591e-05,1.518149002163154e-13
	-1.409126202250865e-06,-7.184429998427236e-12
	-1.164880547597591e-05,1.518149002163154e-13
8		1.202264434617413e+00,0.000000000000000e+00
	-1.164880547597591e-01,1.553511235151576e-09
	1.000000000000000e+00,0.000000000000000e+00
	0.000000000000000e+00,0.000000000000000e+00
	7.167836040843052e-09,-7.196674408200393e-14
	7.168736813728430e-09,2.548690393839796e-14
	1.164880547597586e-05,-1.553511235151575e-13
	1.409126202259576e-06,7.351776870922221e-12
	-3.823266252021140e-09,-7.096109485518268e-15
	-1.305410841198341e-05,-7.189329637921545e-12
	-1.164880547597591e-05,1.553511235151576e-13
	-1.409126202250865e-06,-7.351776870922221e-12
	-1.164880547597591e-05,1.553511235151576e-13
9		1.230268770812381e+00,0.000000000000000e+00
	-1.164880547597591e-01,1.589697160360026e-09
	1.000000000000000e+00,0.000000000000000e+00
	0.000000000000000e+00,0.000000000000000e+00
	7.167836040842724e-09,-7.364306489637690e-14
	7.168736813728163e-09,2.608057019509556e-14
	1.164880547597586e-05,-1.589697160360028e-13
	1.409126202259576e-06,7.523021752826439e-12
	-3.823266252020994e-09,-7.261399108987924e-15
	-1.305410841198341e-05,-7.356790637681448e-12
	-1.164880547597591e-05,1.589697160360026e-13
	-1.409126202250865e-06,-7.523021752826439e-12
	-1.164880547597591e-05,1.589697160360026e-13
10		1.258925411794167e+00,0.000000000000000e+00
	-1.164880547597591e-01,1.626725964045029e-09
	1.000000000000000e+00,0.000000000000000e+00
	0.000000000000000e+00,0.000000000000000e+00
	7.167836040842382e-09,-7.535843223853934e-14
	7.168736813727885e-09,2.668806471532753e-14
	1.164880547597586e-05,-1.626725964045032e-13
	1.409126202259576e-06,7.698255440442971e-12
	-3.823266252020841e-09,-7.430538822381024e-15
	-1.305410841198341e-05,-7.528152305216086e-12
	-1.164880547597591e-05,1.626725964045029e-13
	-1.409126202250865e-06,-7.698255440442969e-12
	-1.164880547597591e-05,1.626725964045029e-13
11		1.288249551693134e+00,0.000000000000000e+00
	-1.164880547597591e-01,1.664617279368432e-09
	1.000000000000000e+00,0.000000000000000e+00
	0.000000000000000e+00,0.000000000000000e+00
	7.167836040842022e-09,-7.711375561896149e-14
	7.168736813727593e-09,2.730970960072980e-14
	1.164880547597586e-05,-1.664617279368436e-13
	1.409126202259576e-06,7.877570844992482e-12
	-3.823266252020681e-09,-7.603618305812525e-15
	-1.305410841198341e-05,-7.703505498749827e-12
	-1.164880547597591e-05,1.664617279368432e-13
	-1.409126202250865e-06,-7.877570844992481e-12
	-1.164880547597591e-05,1.664617279368432e-13
12		1.318256738556407e+00,0.000000000000000e+00
	-1.164880547597591e-01,1.703391196807171e-09
	1.000000000000000e+00,0.000000000000000e+00
	0.000000000000000e+00,0.000000000000000e+00
	7.167836040841647e-09,-7.890996573333409e-14
	7.168736813727288e-09,2.794583445564905e-14
	1.164880547597586e-05,-1.703391196807175e-13
	1.409126202259576e-06,8.061063041875985e-12
	-3.823266252020514e-09,-7.780729328315519e-15
	-1.305410841198341e-05,-7.882943192866952e-12
	-1.164880547597591e-05,1.703391196807171e-13
	-1.409126202250865e-06,-8.061063041875985e-12
	-1.164880547597591e-05,1.703391196807171e-13
13		1.348962882591653e+00,0.000000000000000e+00
	-1.164880547597591e-01,1.743068274805505e-09
	1.000000000000000e+00,0.000000000000000e+00
	0.000000000000000e+00,0.000000000000000e+00
	7.167836040841253e-09,-8.074801495603512e-14
	7.168736813726967e-09,2.859677656190380e-14
	1.164880547597586e-05,-1.743068274805508e-13
	1.409126202259575e-06,8.248829321085078e-12
	-3.823266252020338e-09,-7.961965796498658e-15
	-1.305410841198341e-05,-8.066560527808028e-12
	-1.164880547597591e-05,1.743068274805505e-13
	-1.409126202250865e-06,-8.248829321085076e-12
	-1.164880547597591e-05,1.743068274805505e-13
14		1.380384264602885e+00,0.000000000000000e+00
	-1.164880547597591e-01,1.783669550675377e-09
	1.000000000000000e+00,0.000000000000000e+00
	0.000000000000000e+00,0.000000000000000e+00
	7.167836040840842e-09,-8.262887784509226e-14
	7.168736813726634e-09,2.926288105761471e-14
	1.164880547597586e-05,-1.783669550675383e-13
	1.409126202259575e-06,8.440969238786369e-12
	-3.823266252020155e-09,-8.147423804336138e-15
	-1.305410841198341e-05,-8.254454859914495e-12
	-1.164880547597591e-05,1.783669550675377e-13
	-1.409126202250865e-06,-8.440969238786369e-12
	-1.164880547597591e-05,1.783669550675377e-13
15		1.412537544622754e+00,0.000000000000000e+00
	-1.164880547597591e-01,1.825216551750675e-09
	1.000000000000000e+00,0.000000000000000e+00
	0.000000000000000e+00,0.000000000000000e+00
	7.167836040840411e-09,-8.455355165890550e-14
	7.168736813726284e-09,2.994450112020223e-14
	1.164880547597586e-05,-1.825216551750669e-13
	1.409126202259575e-06,8.637584670107502e-12
	-3.823266252019963e-09,-8.337201684118508e-15
	-1.305410841198341e-05,-8.446725813248318e-12
	-1.164880547597591e-05,1.825216551750675e-13
	-1.409126202250865e-06,-8.637584670107502e-12
	-1.164880547597591e-05,1.825216551750675e-13
16		1.445439770745927e+00,0.000000000000000e+00
	-1.164880547597591e-01,1.867731306801308e-09
	1.000000000000000e+00,0.000000000000000e+00
	0.000000000000000e+00,0.000000000000000e+00
	7.167836040839959e-09,-8.652305688500651e-14
	7.168736813725916e-09,3.064199815364631e-14
	1.164880547597586e-05,-1.867731306801303e-13
	1.409126202259575e-06,8.838779863152673e-12
	-3.823266252019760e-09,-8.531400058589873e-15
	-1.305410841198341e-05,-8.643475332413953e-12
	-1.164880547597591e-05,1.867731306801308e-13
	-1.409126202250865e-06,-8.838779863152675e-12
	-1.164880547597591e-05,1.867731306801308e-13
17		1.479108388168207e+00,0.000000000000000e+00
	-1.164880547597591e-01,1.911236357713153e-09
	1.000000000000000e+00,0.000000000000000e+00
	0.000000000000000e+00,0.000000000000000e+00
	7.167836040839487e-09,-8.853843778113614e-14
	7.168736813725532e-09,3.135574198010615e-14
	1.164880547597586e-05,-1.911236357713155e-13
	1.409126202259575e-06,9.044661494276375e-12
	-3.823266252019550e-09,-8.730121894298667e-15
	-1.305410841198341e-05,-8.844807736610760e-12
	-1.164880547597591e-05,1.911236357713153e-13
	-1.409126202250865e-06,-9.044661494276375e-12
	-1.164880547597591e-05,1.911236357713153e-13
18		1.513561248436208e+00,0.000000000000000e+00
	-1.164880547597591e-01,1.955754771440062e-09
	1.000000000000000e+00,0.000000000000000e+00
	0.000000000000000e+00,0.000000000000000e+00
	7.167836040838992e-09,-9.060076292892232e-14
	7.168736813725130e-09,3.208611103600596e-14
	1.164880547597586e-05,-1.955754771440070e-13
	1.409126202259574e-06,9.255338724644589e-12
	-3.823266252019330e-09,-8.933472556192541e-15
	-1.305410841198341e-05,-9.050829774944389e-12
	-1.164880547597591e-05,1.955754771440062e-13
	-1.409126202250865e-06,-9.255338724644589e-12
	-1.164880547597591e-05,1.955754771440062e-13
19		1.548816618912481e+00,0.000000000000000e+00
	-1.164880547597591e-01,2.001310152234264e-09
	1.000000000000000e+00,0.000000000000000e+00
	0.000000000000000e+00,0.000000000000000e+00
	7.167836040838472e-09,-9.271112580045612e-14
	7.168736813724707e-09,3.283349257268708e-14
	1.164880547597586e-05,-2.001310152234260e-13
	1.409126202259574e-06,9.470923258113500e-12
	-3.823266252019098e-09,-9.141559863484272e-15
	-1.305410841198341e-05,-9.261650683026588e-12
	-1.164880547597591e-05,2.001310152234264e-13
	-1.409126202250865e-06,-9.470923258113500e-12
	-1.164880547597591e-05,2.001310152234264e-13
20		1.584893192461113e+00,0.000000000000000e+00
	-1.164880547597591e-01,2.047926654161651e-09
	1.000000000000000e+00,0.000000000000000e+00
	0.000000000000000e+00,0.000000000000000e+00
	7.167836040837930e-09,-9.487064533806623e-14
	7.168736813724266e-09,3.359828286173281e-14
	1.164880547597586e-05,-2.047926654161650e-13
	1.409126202259574e-06,9.691529400456353e-12
	-3.823266252018856e-09,-9.354494146818430e-15
	-1.305410841198341e-05,-9.477382240893369e-12
	-1.164880547597591e-05,2.047926654161651e-13
	-1.409126202250865e-06,-9.691529400456350e-12
	-1.164880547597591e-05,2.047926654161651e-13
21		1.621810097358929e+00,0.000000000000000e+00
	-1.164880547597591e-01,2.095628993908589e-09
	1.000000000000000e+00,0.000000000000000e+00
	0.000000000000000e+00,0.000000000000000e+00
	7.167836040837362e-09,-9.708046654759575e-14
	7.168736813723805e-09,3.438088740507791e-14
	1.164880547597586e-05,-2.095628993908597e-13
	1.409126202259574e-06,9.917274119969883e-12
	-3.823266252018603e-09,-9.572388306770723e-15
	-1.305410841198341e-05,-9.698138832272254e-12
	-1.164880547597591e-05,2.095628993908589e-13
	-1.409126202250865e-06,-9.917274119969883e-12
	-1.164880547597591e-05,2.095628993908589e-13
22		1.659586907437560e+00,0.000000000000000e+00
	-1.164880547597591e-01,2.144442463887027e-09
	1.000000000000000e+00,0.000000000000000e+00
	0.000000000000000e+00,0.000000000000000e+00
	7.167836040836767e-09,-9.934176110550108e-14
	7.168736813723322e-09,3.518172115000977e-14
	1.164880547597586e-05,-2.144442463887024e-13
	1.409126202259573e-06,1.014827710949247e-11
	-3.823266252018337e-09,-9.795357873708655e-15
	-1.305410841198341e-05,-9.924037505230055e-12
	-1.164880547597591e-05,2.144442463887027e-13
	-1.409126202250865e-06,-1.014827710949246e-11
	-1.164880547597591e-05,2.144442463887027e-13
23		1.698243652461743e+00,0.000000000000000e+00
	-1.164880547597591e-01,2.194392945644868e-09
	1.000000000000000e+00,0.000000000000000e+00
	0.000000000000000e+00,0.000000000000000e+00
	7.167836040836144e-09,-1.016557279800881e-13
	7.168736813722816e-09,3.600120870918053e-14
	1.164880547597586e-05,-2.194392945644869e-13
	1.409126202259573e-06,1.038466084986683e-11
	-3.823266252018060e-09,-1.002352106904815e-14
	-1.305410841198341e-05,-1.015519803423329e-11
	-1.164880547597591e-05,2.194392945644868e-13
	-1.409126202250865e-06,-1.038466084986683e-11
	-1.164880547597591e-05,2.194392945644868e-13
24		1.737800828749374e+00,0.000000000000000e+00
	-1.164880547597591e-01,2.245506923588715e-09
	1.000000000000000e+00,0.000000000000000e+00
	0.000000000000000e+00,0.000000000000000e+00
	7.167836040835491e-09,-1.040235940672225e-13
	7.168736813722285e-09,3.683978458574144e-14
	1.164880547597586e-05,-2.245506923588709e-13
	1.409126202259573e-06,1.062655067488102e-11
	-3.823266252017768e-09,-1.025699886793555e-14
	-1.305410841198341e-05,-1.039174298365422e-11
	-1.164880547597591e-05,2.245506923588715e-13
	-1.409126202250865e-06,-1.062655067488102e-11
	-1.164880547597591e-05,2.245506923588715e-13
25		1.778279410038922e+00,0.000000000000000e+00
	-1.164880547597591e-01,2.297811499026248e-09
	1.000000000000000e+00,0.000000000000000e+00
	0.000000000000000e+00,0.000000000000000e+00
	7.167836040834808e-09,-1.064466148408466e-13
	7.168736813721729e-09,3.769789340372177e-14
	1.164880547597586e-05,-2.297811499026230e-13
	1.409126202259573e-06,1.087407483772207e-11
	-3.823266252017464e-09,-1.049591506339007e-14
	-1.305410841198341e-05,-1.063379777275606e-11
	-1.164880547597591e-05,2.297811499026247e-13
	-1.409126202250865e-06,-1.087407483772207e-11
	-1.164880547597591e-05,2.297811499026247e-13
26		1.819700858609982e+00,0.000000000000000e+00
	-1.164880547597591e-01,2.351334404535693e-09
	1.000000000000000e+00,0.000000000000000e+00
	0.000000000000000e+00,0.000000000000000e+00
	7.167836040834092e-09,-1.089260750186470e-13
	7.168736813721147e-09,3.857599014377523e-14
	1.164880547597586e-05,-2.351334404535691e-13
	1.409126202259572e-06,1.112736457897747e-11
	-3.823266252017145e-09,-1.074039633194100e-14
	-1.305410841198341e-05,-1.088149074219196e-11
	-1.164880547597591e-05,2.351334404535693e-13
	-1.409126202250865e-06,-1.112736457897747e-11
	-1.164880547597591e-05,2.351334404535693e-13
27		1.862087136662866e+00,0.000000000000000e+00
	-1.164880547597591e-01,2.406104018670015e-09
	1.000000000000000e+00,0.000000000000000e+00
	0.000000000000000e+00,0.000000000000000e+00
	7.167836040833342e-09,-1.114632892432291e-13
	7.168736813720538e-09,3.947454038441674e-14
	1.164880547597586e-05,-2.406104018670015e-13
	1.409126202259572e-06,1.138655419622073e-11
	-3.823266252016810e-09,-1.099057230079321e-14
	-1.305410841198341e-05,-1.113495322205294e-11
	-1.164880547597591e-05,2.406104018670015e-13
	-1.409126202250865e-06,-1.138655419622073e-11
	-1.164880547597591e-05,2.406104018670015e-13
28		1.905460717963246e+00,0.000000000000000e+00
	-1.164880547597591e-01,2.462149381003587e-09
	1.000000000000000e+00,0.000000000000000e+00
	0.000000000000000e+00,0.000000000000000e+00
	7.167836040832558e-09,-1.140596027791592e-13
	7.168736813719901e-09,4.039402054887719e-14
	1.164880547597586e-05,-2.462149381003591e-13
	1.409126202259572e-06,1.165178111521769e-11
	-3.823266252016461e-09,-1.124657561655660e-14
	-1.305410841198341e-05,-1.139431960150077e-11
	-1.164880547597591e-05,2.462149381003587e-13
	-1.409126202250865e-06,-1.165178111521769e-11
	-1.164880547597591e-05,2.462149381003587e-13
29		1.949844599758044e+00,0.000000000000000e+00
	-1.164880547597591e-01,2.519500207529368e-09
	1.000000000000000e+00,0.000000000000000e+00
	0.000000000000000e+00,0.000000000000000e+00
	7.167836040831736e-09,-1.167163922262401e-13
	7.168736813719233e-09,4.133491815771072e-14
	1.164880547597586e-05,-2.519500207529360e-13
	1.409126202259571e-06,1.192318596279149e-11
	-3.823266252016094e-09,-1.150854201557793e-14
	-1.305410841198341e-05,-1.165972740002298e-11
	-1.164880547597591e-05,2.519500207529368e-13
	-1.409126202250865e-06,-1.192318596279149e-11
	-1.164880547597591e-05,2.519500207529368e-13
30		1.995262314968878e+00,0.000000000000000e+00
	-1.164880547597591e-01,2.578186906414707e-09
	1.000000000000000e+00,0.000000000000000e+00
	0.000000000000000e+00,0.000000000000000e+00
	7.167836040830876e-09,-1.194350662494032e-13
	7.168736813718533e-09,4.229773208728402e-14
	1.164880547597586e-05,-2.578186906414711e-13
	1.409126202259571e-06,1.220091264138479e-11
	-3.823266252015710e-09,-1.177661039590960e-14
	-1.305410841198341e-05,-1.193131734034741e-11
	-1.164880547597591e-05,2.578186906414707e-13
	-1.409126202250865e-06,-1.220091264138479e-11
	-1.164880547597591e-05,2.578186906414707e-13
31		2.041737944669527e+00,0.000000000000000e+00
	-1.164880547597591e-01,2.638240594124165e-09
	1.000000000000000e+00,0.000000000000000e+00
	0.000000000000000e+00,0.000000000000000e+00
	7.167836040829975e-09,-1.222170663256018e-13
	7.168736813717801e-09,4.328297283428664e-14
	1.164880547597586e-05,-2.638240594124178e-13
	1.409126202259570e-06,1.248510840535871e-11
	-3.823266252015308e-09,-1.205092289095502e-14
	-1.305410841198341e-05,-1.220923342305534e-11
	-1.164880547597591e-05,2.638240594124165e-13
	-1.409126202250865e-06,-1.248510840535872e-11
	-1.164880547597591e-05,2.638240594124165e-13
32		2.089296130854037e+00,0.000000000000000e+00
	-1.164880547597591e-01,2.699693111917872e-09
	1.000000000000000e+00,0.000000000000000e+00
	0.000000000000000e+00,0.000000000000000e+00
