Title: * GA CMOS Amp | W=1.3442955864973203e-05 L=4.990136255764786e-07 Vbias=1.4842485804302077
Date: Sat Sep  6 22:08:53 2025
Plotname: AC Analysis
Flags: complex forward log
No. Variables: 13
No. Points:          901
Offset:    0.0000000000000000e+00
Command: Linear Technology Corporation LTspice
Variables:
	0	frequency	frequency
	1	V(out)	voltage
	2	V(g)	voltage
	3	V(vdd)	voltage
	4	V(m1#dbody)	voltage
	5	V(m1#sbody)	voltage
	6	Id(M1)	device_current
	7	Ig(M1)	device_current
	8	Ib(M1)	device_current
	9	Is(M1)	device_current
	10	I(Rload)	device_current
	11	I(Vg)	device_current
	12	I(Vdd)	device_current
Values:
0		1.000000000000000e+00,0.000000000000000e+00
	1.381054429818870e-02,3.614643187199336e-10
	1.000000000000000e+00,0.000000000000000e+00
	0.000000000000000e+00,0.000000000000000e+00
	1.997382947821379e-04,4.332920614464381e-14
	1.997382946760371e-04,3.901469326201982e-14
	-1.381054429818873e-06,-3.614643187199323e-14
	1.257056280726059e-04,1.787084070503412e-12
	-1.065270905814887e-04,-2.113596090015027e-14
	-1.779748306129837e-05,-1.729801677731268e-12
	1.381054429818871e-06,3.614643187199336e-14
	-1.257056280726254e-04,-1.787084070503411e-12
	1.381054429818871e-06,3.614643187199336e-14
1		1.023292992280754e+00,0.000000000000000e+00
	1.381054429818870e-02,3.698839043056451e-10
	1.000000000000000e+00,0.000000000000000e+00
	0.000000000000000e+00,0.000000000000000e+00
	1.997382947821379e-04,4.433847300890220e-14
	1.997382946760371e-04,3.992346221100803e-14
	-1.381054429818873e-06,-3.698839043056430e-14
	1.257056280726059e-04,1.828710605962707e-12
	-1.065270905814887e-04,-2.162828067424379e-14
	-1.779748306129837e-05,-1.770093934857898e-12
	1.381054429818871e-06,3.698839043056451e-14
	-1.257056280726254e-04,-1.828710605962706e-12
	1.381054429818871e-06,3.698839043056451e-14
2		1.047128548050899e+00,0.000000000000000e+00
	1.381054429818870e-02,3.784996072334116e-10
	1.000000000000000e+00,0.000000000000000e+00
	0.000000000000000e+00,0.000000000000000e+00
	1.997382947821379e-04,4.537124871843897e-14
	1.997382946760371e-04,4.085339910811001e-14
	-1.381054429818873e-06,-3.784996072334122e-14
	1.257056280726059e-04,1.871306747991129e-12
	-1.065270905814887e-04,-2.213206804903493e-14
	-1.779748306129837e-05,-1.811324719218753e-12
	1.381054429818871e-06,3.784996072334116e-14
	-1.257056280726254e-04,-1.871306747991129e-12
	1.381054429818871e-06,3.784996072334116e-14
3		1.071519305237606e+00,0.000000000000000e+00
	1.381054429818870e-02,3.873159956629679e-10
	1.000000000000000e+00,0.000000000000000e+00
	0.000000000000000e+00,0.000000000000000e+00
	1.997382947821379e-04,4.642808086460574e-14
	1.997382946760371e-04,4.180499701817778e-14
	-1.381054429818873e-06,-3.873159956629653e-14
	1.257056280726059e-04,1.914895081627009e-12
	-1.065270905814887e-04,-2.264759013925822e-14
	-1.779748306129837e-05,-1.853515891921454e-12
	1.381054429818871e-06,3.873159956629679e-14
	-1.257056280726254e-04,-1.914895081627009e-12
	1.381054429818871e-06,3.873159956629679e-14
4		1.096478196143185e+00,0.000000000000000e+00
	1.381054429818870e-02,3.963377441601579e-10
	1.000000000000000e+00,0.000000000000000e+00
	0.000000000000000e+00,0.000000000000000e+00
	1.997382947821379e-04,4.750952979379522e-14
	1.997382946760371e-04,4.277876049101915e-14
	-1.381054429818873e-06,-3.963377441601580e-14
	1.257056280726059e-04,1.959498717981801e-12
	-1.065270905814887e-04,-2.317512028154965e-14
	-1.779748306129837e-05,-1.896689823284235e-12
	1.381054429818871e-06,3.963377441601579e-14
	-1.257056280726254e-04,-1.959498717981800e-12
	1.381054429818871e-06,3.963377441601579e-14
5		1.122018454301963e+00,0.000000000000000e+00
	1.381054429818870e-02,4.055696361754520e-10
	1.000000000000000e+00,0.000000000000000e+00
	0.000000000000000e+00,0.000000000000000e+00
	1.997382947821379e-04,4.861616890454437e-14
	1.997382946760371e-04,4.377520582891669e-14
	-1.381054429818873e-06,-4.055696361754529e-14
	1.257056280726059e-04,2.005141306493898e-12
	-1.065270905814887e-04,-2.371493817937334e-14
	-1.779748306129837e-05,-1.940869404696980e-12
	1.381054429818871e-06,4.055696361754520e-14
	-1.257056280726254e-04,-2.005141306493899e-12
	1.381054429818871e-06,4.055696361754520e-14
6		1.148153621496882e+00,0.000000000000000e+00
	1.381054429818870e-02,4.150165665801950e-10
	1.000000000000000e+00,0.000000000000000e+00
	0.000000000000000e+00,0.000000000000000e+00
	1.997382947821379e-04,4.974858495155775e-14
	1.997382946760371e-04,4.479486136037807e-14
	-1.381054429818873e-06,-4.150165665801968e-14
	1.257056280726059e-04,2.051847047467882e-12
	-1.065270905814887e-04,-2.426733005132404e-14
	-1.779748306129837e-05,-1.986078060758538e-12
	1.381054429818871e-06,4.150165665801950e-14
	-1.257056280726254e-04,-2.051847047467882e-12
	1.381054429818871e-06,4.150165665801950e-14
7		1.174897554939529e+00,0.000000000000000e+00
	1.381054429818870e-02,4.246835442619326e-10
	1.000000000000000e+00,0.000000000000000e+00
	0.000000000000000e+00,0.000000000000000e+00
	1.997382947821379e-04,5.090737835681282e-14
	1.997382946760371e-04,4.583826772026280e-14
	-1.381054429818873e-06,-4.246835442619295e-14
	1.257056280726059e-04,2.099640704905839e-12
	-1.065270905814887e-04,-2.483258878288404e-14
	-1.779748306129837e-05,-2.032339761696762e-12
	1.381054429818871e-06,4.246835442619327e-14
	-1.257056280726254e-04,-2.099640704905839e-12
	1.381054429818871e-06,4.246835442619327e-14
8		1.202264434617413e+00,0.000000000000000e+00
	1.381054429818870e-02,4.345756947801892e-10
	1.000000000000000e+00,0.000000000000000e+00
	0.000000000000000e+00,0.000000000000000e+00
	1.997382947821379e-04,5.209316352791150e-14
	1.997382946760371e-04,4.690597813643403e-14
	-1.381054429818873e-06,-4.345756947801861e-14
	1.257056280726059e-04,2.148547619637569e-12
	-1.065270905814887e-04,-2.541101408171490e-14
	-1.779748306129837e-05,-2.079679036077835e-12
	1.381054429818871e-06,4.345756947801892e-14
	-1.257056280726254e-04,-2.148547619637568e-12
	1.381054429818871e-06,4.345756947801892e-14
9		1.230268770812381e+00,0.000000000000000e+00
	1.381054429818870e-02,4.446982630841075e-10
	1.000000000000000e+00,0.000000000000000e+00
	0.000000000000000e+00,0.000000000000000e+00
	1.997382947821379e-04,5.330656918384720e-14
	1.997382946760371e-04,4.799855872308721e-14
	-1.381054429818873e-06,-4.446982630841051e-14
	1.257056280726059e-04,2.198593722756619e-12
	-1.065270905814887e-04,-2.600291263656643e-14
	-1.779748306129837e-05,-2.128120983811642e-12
	1.381054429818871e-06,4.446982630841075e-14
	-1.257056280726254e-04,-2.198593722756619e-12
	1.381054429818871e-06,4.446982630841075e-14
10		1.258925411794167e+00,0.000000000000000e+00
	1.381054429818870e-02,4.550566162933904e-10
	1.000000000000000e+00,0.000000000000000e+00
	0.000000000000000e+00,0.000000000000000e+00
	1.997382947821379e-04,5.454823868836005e-14
	1.997382946760371e-04,4.911658878091140e-14
	-1.381054429818873e-06,-4.550566162933909e-14
	1.257056280726059e-04,2.249805549369304e-12
	-1.065270905814887e-04,-2.660859827988709e-14
	-1.779748306129837e-05,-2.177691289460077e-12
	1.381054429818871e-06,4.550566162933904e-14
	-1.257056280726254e-04,-2.249805549369303e-12
	1.381054429818871e-06,4.550566162933904e-14
11		1.288249551693134e+00,0.000000000000000e+00
	1.381054429818870e-02,4.656562465440185e-10
	1.000000000000000e+00,0.000000000000000e+00
	0.000000000000000e+00,0.000000000000000e+00
	1.997382947821379e-04,5.581883039105676e-14
	1.997382946760371e-04,5.026066110424216e-14
	-1.381054429818873e-06,-4.656562465440145e-14
	1.257056280726059e-04,2.302210252663960e-12
	-1.065270905814887e-04,-2.722839215422219e-14
	-1.779748306129837e-05,-2.228416235855337e-12
	1.381054429818871e-06,4.656562465440185e-14
	-1.257056280726254e-04,-2.302210252663960e-12
	1.381054429818871e-06,4.656562465440185e-14
12		1.318256738556407e+00,0.000000000000000e+00
	1.381054429818870e-02,4.765027739002532e-10
	1.000000000000000e+00,0.000000000000000e+00
	0.000000000000000e+00,0.000000000000000e+00
	1.997382947821379e-04,5.711901797647636e-14
	1.997382946760371e-04,5.143138229536886e-14
	-1.381054429818873e-06,-4.765027739002535e-14
	1.257056280726059e-04,2.355835618307934e-12
	-1.065270905814887e-04,-2.786262288248784e-14
	-1.779748306129837e-05,-2.280322718035422e-12
	1.381054429818871e-06,4.765027739002532e-14
	-1.257056280726254e-04,-2.355835618307935e-12
	1.381054429818871e-06,4.765027739002532e-14
13		1.348962882591653e+00,0.000000000000000e+00
	1.381054429818870e-02,4.876019493344699e-10
	1.000000000000000e+00,0.000000000000000e+00
	0.000000000000000e+00,0.000000000000000e+00
	1.997382947821379e-04,5.844949082128668e-14
	1.997382946760371e-04,5.262937308616341e-14
	-1.381054429818873e-06,-4.876019493344645e-14
	1.257056280726059e-04,2.410710079179908e-12
	-1.065270905814887e-04,-2.851162674221119e-14
	-1.779748306129837e-05,-2.333438257504250e-12
	1.381054429818871e-06,4.876019493344699e-14
	-1.257056280726254e-04,-2.410710079179907e-12
	1.381054429818871e-06,4.876019493344699e-14
14		1.380384264602885e+00,0.000000000000000e+00
	1.381054429818870e-02,4.989596577763982e-10
	1.000000000000000e+00,0.000000000000000e+00
	0.000000000000000e+00,0.000000000000000e+00
	1.997382947821379e-04,5.981095435980091e-14
	1.997382946760371e-04,5.385526866720034e-14
	-1.381054429818873e-06,-4.989596577763968e-14
	1.257056280726059e-04,2.466862730445382e-12
	-1.065270905814887e-04,-2.917574784382925e-14
	-1.779748306129837e-05,-2.387791016823913e-12
	1.381054429818871e-06,4.989596577763983e-14
	-1.257056280726254e-04,-2.466862730445382e-12
	1.381054429818871e-06,4.989596577763983e-14
15		1.412537544622754e+00,0.000000000000000e+00
	1.381054429818870e-02,5.105819212333916e-10
	1.000000000000000e+00,0.000000000000000e+00
	0.000000000000000e+00,0.000000000000000e+00
	1.997382947821379e-04,6.120413045800831e-14
	1.997382946760371e-04,5.510971902454338e-14
	-1.381054429818873e-06,-5.105819212333878e-14
	1.257056280726059e-04,2.524323344983325e-12
	-1.065270905814887e-04,-2.985533831314080e-14
	-1.779748306129837e-05,-2.443409814546846e-12
	1.381054429818871e-06,5.105819212333916e-14
	-1.257056280726254e-04,-2.524323344983325e-12
	1.381054429818871e-06,5.105819212333916e-14
16		1.445439770745927e+00,0.000000000000000e+00
	1.381054429818870e-02,5.224749019833735e-10
	1.000000000000000e+00,0.000000000000000e+00
	0.000000000000000e+00,0.000000000000000e+00
	1.997382947821379e-04,6.262975779631695e-14
	1.997382946760371e-04,5.639338928437659e-14
	-1.381054429818873e-06,-5.224749019833714e-14
	1.257056280726059e-04,2.583122389172149e-12
	-1.065270905814887e-04,-3.055075847800809e-14
	-1.779748306129837e-05,-2.500324140495804e-12
	1.381054429818871e-06,5.224749019833735e-14
	-1.257056280726254e-04,-2.583122389172149e-12
	1.381054429818871e-06,5.224749019833735e-14
17		1.479108388168207e+00,0.000000000000000e+00
	1.381054429818870e-02,5.346449058421599e-10
	1.000000000000000e+00,0.000000000000000e+00
	0.000000000000000e+00,0.000000000000000e+00
	1.997382947821379e-04,6.408859226121205e-14
	1.997382946760371e-04,5.770696006566312e-14
	-1.381054429818873e-06,-5.346449058421624e-14
	1.257056280726059e-04,2.643291039043380e-12
	-1.065270905814887e-04,-3.126237705940751e-14
	-1.779748306129837e-05,-2.558564171399756e-12
	1.381054429818871e-06,5.346449058421599e-14
	-1.257056280726254e-04,-2.643291039043379e-12
	1.381054429818871e-06,5.346449058421599e-14
18		1.513561248436208e+00,0.000000000000000e+00
	1.381054429818870e-02,5.470983855068860e-10
	1.000000000000000e+00,0.000000000000000e+00
	0.000000000000000e+00,0.000000000000000e+00
	1.997382947821379e-04,6.558140734603687e-14
	1.997382946760371e-04,5.905112784101840e-14
	-1.381054429818873e-06,-5.470983855068819e-14
	1.257056280726059e-04,2.704861196811603e-12
	-1.065270905814887e-04,-3.199057136693031e-14
	-1.779748306129837e-05,-2.618160786893985e-12
	1.381054429818871e-06,5.470983855068860e-14
	-1.257056280726254e-04,-2.704861196811603e-12
	1.381054429818871e-06,5.470983855068860e-14
19		1.548816618912481e+00,0.000000000000000e+00
	1.381054429818870e-02,5.598419439773109e-10
	1.000000000000000e+00,0.000000000000000e+00
	0.000000000000000e+00,0.000000000000000e+00
	1.997382947821379e-04,6.710899456110907e-14
	1.997382946760371e-04,6.042660530598906e-14
	-1.381054429818873e-06,-5.598419439773102e-14
	1.257056280726059e-04,2.767865507789447e-12
	-1.065270905814887e-04,-3.273572749883713e-14
	-1.779748306129837e-05,-2.679145585892879e-12
	1.381054429818871e-06,5.598419439773109e-14
	-1.257056280726254e-04,-2.767865507789447e-12
	1.381054429818871e-06,5.598419439773109e-14
20		1.584893192461113e+00,0.000000000000000e+00
	1.381054429818870e-02,5.728823380568166e-10
	1.000000000000000e+00,0.000000000000000e+00
	0.000000000000000e+00,0.000000000000000e+00
	1.997382947821379e-04,6.867216385339019e-14
	1.997382946760371e-04,6.183412175693367e-14
	-1.381054429818873e-06,-5.728823380568158e-14
	1.257056280726059e-04,2.832337377696552e-12
	-1.065270905814887e-04,-3.349824054677242e-14
	-1.779748306129837e-05,-2.741550903344098e-12
	1.381054429818871e-06,5.728823380568166e-14
	-1.257056280726254e-04,-2.832337377696552e-12
	1.381054429818871e-06,5.728823380568166e-14
21		1.621810097358929e+00,0.000000000000000e+00
	1.381054429818870e-02,5.862264819349545e-10
	1.000000000000000e+00,0.000000000000000e+00
	0.000000000000000e+00,0.000000000000000e+00
	1.997382947821379e-04,7.027174403592985e-14
	1.997382946760371e-04,6.327442347770509e-14
	-1.381054429818873e-06,-5.862264819349542e-14
	1.257056280726059e-04,2.898310990371729e-12
	-1.065270905814887e-04,-3.427851480524722e-14
	-1.779748306129837e-05,-2.805409827372987e-12
	1.381054429818871e-06,5.862264819349546e-14
	-1.257056280726254e-04,-2.898310990371729e-12
	1.381054429818871e-06,5.862264819349546e-14
22		1.659586907437560e+00,0.000000000000000e+00
	1.381054429818870e-02,5.998814508534390e-10
	1.000000000000000e+00,0.000000000000000e+00
	0.000000000000000e+00,0.000000000000000e+00
	1.997382947821379e-04,7.190858322731391e-14
	1.997382946760371e-04,6.474827413534046e-14
	-1.381054429818873e-06,-5.998814508534372e-14
	1.257056280726059e-04,2.965821325897683e-12
	-1.065270905814887e-04,-3.507696398600157e-14
	-1.779748306129837e-05,-2.870756216826338e-12
	1.381054429818871e-06,5.998814508534390e-14
	-1.257056280726254e-04,-2.965821325897682e-12
	1.381054429818871e-06,5.998814508534390e-14
23		1.698243652461743e+00,0.000000000000000e+00
	1.381054429818870e-02,6.138544848575357e-10
	1.000000000000000e+00,0.000000000000000e+00
	0.000000000000000e+00,0.000000000000000e+00
	1.997382947821379e-04,7.358354930134772e-14
	1.997382946760371e-04,6.625645518496711e-14
	-1.381054429818873e-06,-6.138544848575340e-14
	1.257056280726059e-04,3.034904179147914e-12
	-1.065270905814887e-04,-3.589401143735980e-14
	-1.779748306129837e-05,-2.937624719224800e-12
	1.381054429818871e-06,6.138544848575358e-14
	-1.257056280726254e-04,-3.034904179147914e-12
	1.381054429818871e-06,6.138544848575358e-14
24		1.737800828749374e+00,0.000000000000000e+00
	1.381054429818870e-02,6.281529926348287e-10
	1.000000000000000e+00,0.000000000000000e+00
	0.000000000000000e+00,0.000000000000000e+00
	1.997382947821379e-04,7.529753034721450e-14
	1.997382946760371e-04,6.779976628414068e-14
	-1.381054429818873e-06,-6.281529926348234e-14
	1.257056280726059e-04,3.105596178765634e-12
	-1.065270905814887e-04,-3.673009036869552e-14
	-1.779748306129837e-05,-3.006050789133456e-12
	1.381054429818871e-06,6.281529926348287e-14
	-1.257056280726254e-04,-3.105596178765634e-12
	1.381054429818871e-06,6.281529926348287e-14
25		1.778279410038922e+00,0.000000000000000e+00
	1.381054429818870e-02,6.427845554434042e-10
	1.000000000000000e+00,0.000000000000000e+00
	0.000000000000000e+00,0.000000000000000e+00
	1.997382947821379e-04,7.705143514035200e-14
	1.997382946760371e-04,6.937902571683408e-14
	-1.381054429818873e-06,-6.427845554433994e-14
	1.257056280726059e-04,3.177934806584761e-12
	-1.065270905814887e-04,-3.758564408012494e-14
	-1.779748306129837e-05,-3.076070706960296e-12
	1.381054429818871e-06,6.427845554434043e-14
	-1.257056280726254e-04,-3.177934806584761e-12
	1.381054429818871e-06,6.427845554434043e-14
26		1.819700858609982e+00,0.000000000000000e+00
	1.381054429818870e-02,6.577569311315354e-10
	1.000000000000000e+00,0.000000000000000e+00
	0.000000000000000e+00,0.000000000000000e+00
	1.997382947821379e-04,7.884619362429725e-14
	1.997382946760371e-04,7.099507082730256e-14
	-1.381054429818873e-06,-6.577569311315321e-14
	1.257056280726059e-04,3.251958417503280e-12
	-1.065270905814887e-04,-3.846112619755046e-14
	-1.779748306129837e-05,-3.147721598192576e-12
	1.381054429818871e-06,6.577569311315354e-14
	-1.257056280726254e-04,-3.251958417503280e-12
	1.381054429818871e-06,6.577569311315354e-14
27		1.862087136662866e+00,0.000000000000000e+00
	1.381054429818870e-02,6.730780582509947e-10
	1.000000000000000e+00,0.000000000000000e+00
	0.000000000000000e+00,0.000000000000000e+00
	1.997382947821379e-04,8.068275740375483e-14
	1.997382946760371e-04,7.264875846405449e-14
	-1.381054429818873e-06,-6.730780582509956e-14
	1.257056280726059e-04,3.327706259819517e-12
	-1.065270905814887e-04,-3.935700091317911e-14
	-1.779748306129837e-05,-3.221041453081239e-12
	1.381054429818871e-06,6.730780582509947e-14
	-1.257056280726254e-04,-3.327706259819517e-12
	1.381054429818871e-06,6.730780582509947e-14
28		1.905460717963246e+00,0.000000000000000e+00
	1.381054429818870e-02,6.887560602661800e-10
	1.000000000000000e+00,0.000000000000000e+00
	0.000000000000000e+00,0.000000000000000e+00
	1.997382947821379e-04,8.256210024915045e-14
	1.997382946760371e-04,7.434096543416407e-14
	-1.381054429818873e-06,-6.887560602661771e-14
	1.257056280726059e-04,3.405218496042110e-12
	-1.065270905814887e-04,-4.027374323164342e-14
	-1.779748306129837e-05,-3.296069146783849e-12
	1.381054429818871e-06,6.887560602661801e-14
	-1.257056280726254e-04,-3.405218496042110e-12
	1.381054429818871e-06,6.887560602661801e-14
29		1.949844599758044e+00,0.000000000000000e+00
	1.381054429818870e-02,7.047992498612830e-10
	1.000000000000000e+00,0.000000000000000e+00
	0.000000000000000e+00,0.000000000000000e+00
	1.997382947821379e-04,8.448521861293677e-14
	1.997382946760371e-04,7.607258896816590e-14
	-1.381054429818873e-06,-7.047992498612784e-14
	1.257056280726059e-04,3.484536224184701e-12
	-1.065270905814887e-04,-4.121183922185518e-14
	-1.779748306129837e-05,-3.372844459976718e-12
	1.381054429818871e-06,7.047992498612830e-14
	-1.257056280726254e-04,-3.484536224184700e-12
	1.381054429818871e-06,7.047992498612830e-14
30		1.995262314968878e+00,0.000000000000000e+00
	1.381054429818870e-02,7.212161333477829e-10
	1.000000000000000e+00,0.000000000000000e+00
	0.000000000000000e+00,0.000000000000000e+00
	1.997382947821379e-04,8.645313215792573e-14
	1.997382946760371e-04,7.784454719577836e-14
	-1.381054429818873e-06,-7.212161333477834e-14
	1.257056280726059e-04,3.565701499556643e-12
	-1.065270905814887e-04,-4.217178627472552e-14
	-1.779748306129837e-05,-3.451408099947139e-12
	1.381054429818871e-06,7.212161333477830e-14
	-1.257056280726254e-04,-3.565701499556642e-12
	1.381054429818871e-06,7.212161333477830e-14
31		2.041737944669527e+00,0.000000000000000e+00
	1.381054429818870e-02,7.380154151746081e-10
	1.000000000000000e+00,0.000000000000000e+00
	0.000000000000000e+00,0.000000000000000e+00
	1.997382947821379e-04,8.846688429792729e-14
	1.997382946760371e-04,7.965777963270839e-14
	-1.381054429818873e-06,-7.380154151746036e-14
	1.257056280726059e-04,3.648757357061288e-12
	-1.065270905814887e-04,-4.315409336688831e-14
	-1.779748306129837e-05,-3.531801722176939e-12
	1.381054429818871e-06,7.380154151746081e-14
	-1.257056280726254e-04,-3.648757357061289e-12
	1.381054429818871e-06,7.380154151746081e-14
32		2.089296130854037e+00,0.000000000000000e+00
	1.381054429818870e-02,7.552060025433478e-10
	1.000000000000000e+00,0.000000000000000e+00
	0.000000000000000e+00,0.000000000000000e+00
	1.997382947821379e-04,9.052754275098128e-14
	1.997382946760371e-04,8.151324767879508e-14
