LTspice 24.0.9 for Windows
Circuit: * GA CMOS Amp | W=2.172759550948464e-05 L=6.644758077144996e-07 Vbias=0.9560240302663874
Start Time: Mon Sep  8 18:44:23 2025
solver = Normal
Maximum thread count: 2
tnom = 27
temp = 27
method = modified trap
AsciiRawFile = 1
Instance "m1": Length shorter than recommended for a level 3 MOSFET.
Direct Newton iteration for .op point succeeded.
Semiconductor Device Operating Points:
                        --- MOSFET Transistors ---
Name:          m1
Model:        n_1u
Id:          1.18e-04
Vgs:         9.56e-01
Vds:         6.19e-01
Vbs:         0.00e+00
Vth:         7.71e-01
Vdsat:       1.83e-01
Gm:          8.46e-04
Gds:         4.43e-05
Gmb:         1.63e-04
Cbd:         0.00e+00
Cbs:         0.00e+00
Cgsov:       4.35e-15
Cgdov:       4.35e-15
Cgbov:       4.64e-17
Cgs:         1.16e-14
Cgd:         0.00e+00
Cgb:         0.00e+00



gain_db: MAX(db(v(out)/v(g)))=(29.9149dB,60.6216°) FROM 1 TO 1e+09
gain_lin: MAX(mag(v(out)/v(g)))=(15.3622dB,0°) FROM 1 TO 1e+09

Measurement "fc" FAIL'ed

Total elapsed time: 0.464 seconds.

