LTspice 24.0.9 for Windows
Circuit: * GA CMOS Amp | W=1.457520871168286e-06 L=9.391759045550892e-07 Vbias=1.4805594754378135
Start Time: Sat Sep  6 22:12:28 2025
solver = Normal
Maximum thread count: 2
tnom = 27
temp = 27
method = modified trap
AsciiRawFile = 1
Direct Newton iteration for .op point succeeded.
Semiconductor Device Operating Points:
                        --- BSIM4 MOSFETS ---
Name:      m1
Model:      n
Id:      6.60e-05
Vgs:     1.48e+00
Vds:     1.14e+00
Vbs:     0.00e+00
Vth:     2.36e-01
Vdsat:   8.58e-01
Gm:      3.21e-05
Gds:     5.11e-06
Gmb      3.62e-05
Cbd:     5.67e-16
Cbs:     1.17e-15


.measure op idd find i(vdd)
  Error: FIND can not be evaluated over an interval.

gain_db: MAX(db(v(out)/v(g)))=(29.3284dB,111.207°) FROM 1 TO 1e+09
gain_lin: MAX(mag(v(out)/v(g)))=(-0.0905412dB,0°) FROM 1 TO 1e+09

Measurement "fc" FAIL'ed

Total elapsed time: 0.712 seconds.

