Title: * GA CMOS Amp | W=5e-05 L=7.754042921767139e-07 Vbias=1.233074306595556
Date: Mon Sep  8 18:43:26 2025
Plotname: AC Analysis
Flags: complex forward log
No. Variables: 11
No. Points:          901
Offset:    0.0000000000000000e+00
Command: Linear Technology Corporation LTspice
Variables:
	0	frequency	frequency
	1	V(out)	voltage
	2	V(g)	voltage
	3	V(vdd)	voltage
	4	Id(M1)	device_current
	5	Ig(M1)	device_current
	6	Ib(M1)	device_current
	7	Is(M1)	device_current
	8	I(Rload)	device_current
	9	I(Vg)	device_current
	10	I(Vdd)	device_current
Values:
0		1.000000000000000e+00,0.000000000000000e+00
	-8.044174873902055e-02,5.642959599961261e-11
	1.000000000000000e+00,0.000000000000000e+00
	0.000000000000000e+00,0.000000000000000e+00
	8.044174873902109e-06,-5.642959599961275e-15
	1.225759922745050e-23,4.555844737971388e-13
	8.754639808233877e-14,6.953506169341903e-16
	-8.044174961448507e-06,-4.506368648141117e-13
	-8.044174873902054e-06,5.642959599961262e-15
	-1.225759922745050e-23,-4.555844737971388e-13
	-8.044174873902054e-06,5.642959599961262e-15
1		1.023292992280754e+00,0.000000000000000e+00
	-8.044174873902055e-02,5.774401014363766e-11
	1.000000000000000e+00,0.000000000000000e+00
	0.000000000000000e+00,0.000000000000000e+00
	8.044174873902109e-06,-5.774401014363800e-15
	1.283528208163007e-23,4.661963994285270e-13
	8.754639808233877e-14,7.115474134868425e-16
	-8.044174961448507e-06,-4.611335458276500e-13
	-8.044174873902054e-06,5.774401014363766e-15
	-1.283528208163007e-23,-4.661963994285270e-13
	-8.044174873902054e-06,5.774401014363766e-15
2		1.047128548050899e+00,0.000000000000000e+00
	-8.044174873902055e-02,5.908904092617320e-11
	1.000000000000000e+00,0.000000000000000e+00
	0.000000000000000e+00,0.000000000000000e+00
	8.044174873902109e-06,-5.908904092617337e-15
	1.344019028996102e-23,4.770555085617309e-13
	8.754639808233877e-14,7.281214818965141e-16
	-8.044174961448507e-06,-4.718747259510101e-13
	-8.044174873902054e-06,5.908904092617320e-15
	-1.344019028996102e-23,-4.770555085617309e-13
	-8.044174873902054e-06,5.908904092617320e-15
3		1.071519305237606e+00,0.000000000000000e+00
	-8.044174873902055e-02,6.046540150034370e-11
	1.000000000000000e+00,0.000000000000000e+00
	0.000000000000000e+00,0.000000000000000e+00
	8.044174873902109e-06,-6.046540150034378e-15
	1.407360694385468e-23,4.881675588401504e-13
	8.754639808233877e-14,7.450816099538331e-16
	-8.044174961448507e-06,-4.828661003000699e-13
	-8.044174873902054e-06,6.046540150034370e-15
	-1.407360694385468e-23,-4.881675588401504e-13
	-8.044174873902054e-06,6.046540150034370e-15
4		1.096478196143185e+00,0.000000000000000e+00
	-8.044174873902055e-02,6.187382163074391e-11
	1.000000000000000e+00,0.000000000000000e+00
	0.000000000000000e+00,0.000000000000000e+00
	8.044174873902109e-06,-6.187382163074413e-15
	1.473687560495760e-23,4.995384420199286e-13
	8.754639808233877e-14,7.624367901430043e-16
	-8.044174961448507e-06,-4.941134966469972e-13
	-8.044174873902054e-06,6.187382163074392e-15
	-1.473687560495760e-23,-4.995384420199286e-13
	-8.044174873902054e-06,6.187382163074392e-15
5		1.122018454301963e+00,0.000000000000000e+00
	-8.044174873902055e-02,6.331504808036958e-11
	1.000000000000000e+00,0.000000000000000e+00
	0.000000000000000e+00,0.000000000000000e+00
	8.044174873902109e-06,-6.331504808036982e-15
	1.543140315502598e-23,5.111741870938388e-13
	8.754639808233877e-14,7.801962244104679e-16
	-8.044174961448507e-06,-5.056228785102123e-13
	-8.044174873902054e-06,6.331504808036959e-15
	-1.543140315502598e-23,-5.111741870938388e-13
	-8.044174873902054e-06,6.331504808036959e-15
6		1.148153621496882e+00,0.000000000000000e+00
	-8.044174873902055e-02,6.478984500656122e-11
	1.000000000000000e+00,0.000000000000000e+00
	0.000000000000000e+00,0.000000000000000e+00
	8.044174873902109e-06,-6.478984500656134e-15
	1.615866278011043e-23,5.230809634879364e-13
	8.754639808233877e-14,7.983693290431138e-16
	-8.044174961448507e-06,-5.174003483163233e-13
	-8.044174873902054e-06,6.478984500656123e-15
	-1.615866278011043e-23,-5.230809634879364e-13
	-8.044174873902054e-06,6.478984500656123e-15
7		1.174897554939529e+00,0.000000000000000e+00
	-8.044174873902055e-02,6.629899436617028e-11
	1.000000000000000e+00,0.000000000000000e+00
	0.000000000000000e+00,0.000000000000000e+00
	8.044174873902109e-06,-6.629899436617035e-15
	1.692019709538114e-23,5.352650843326702e-13
	8.754639808233877e-14,8.169657396616579e-16
	-8.044174961448507e-06,-5.294521506357148e-13
	-8.044174873902054e-06,6.629899436617029e-15
	-1.692019709538114e-23,-5.352650843326702e-13
	-8.044174873902054e-06,6.629899436617029e-15
8		1.202264434617413e+00,0.000000000000000e+00
	-8.044174873902055e-02,6.784329633016326e-11
	1.000000000000000e+00,0.000000000000000e+00
	0.000000000000000e+00,0.000000000000000e+00
	8.044174873902109e-06,-6.784329633016366e-15
	1.771762141722150e-23,5.477330098101884e-13
	8.754639808233877e-14,8.359953163292293e-16
	-8.044174961448507e-06,-5.417846754935013e-13
	-8.044174873902054e-06,6.784329633016326e-15
	-1.771762141722150e-23,-5.477330098101884e-13
	-8.044174873902054e-06,6.784329633016326e-15
9		1.230268770812381e+00,0.000000000000000e+00
	-8.044174873902055e-02,6.942356970788268e-11
	1.000000000000000e+00,0.000000000000000e+00
	0.000000000000000e+00,0.000000000000000e+00
	8.044174873902109e-06,-6.942356970788258e-15
	1.855262718953067e-23,5.604913505796113e-13
	8.754639808233877e-14,8.554681487792086e-16
	-8.044174961448507e-06,-5.544044617576023e-13
	-8.044174873902054e-06,6.942356970788268e-15
	-1.855262718953067e-23,-5.604913505796113e-13
	-8.044174873902054e-06,6.942356970788268e-15
10		1.258925411794167e+00,0.000000000000000e+00
	-8.044174873902055e-02,7.104065238119078e-11
	1.000000000000000e+00,0.000000000000000e+00
	0.000000000000000e+00,0.000000000000000e+00
	8.044174873902109e-06,-7.104065238119100e-15
	1.942698557150289e-23,5.735468712820917e-13
	8.754639808233877e-14,8.753945617651940e-16
	-8.044174961448507e-06,-5.673182006057378e-13
	-8.044174873902054e-06,7.104065238119077e-15
	-1.942698557150289e-23,-5.735468712820917e-13
	-8.044174873902054e-06,7.104065238119077e-15
11		1.288249551693134e+00,0.000000000000000e+00
	-8.044174873902055e-02,7.269540174872560e-11
	1.000000000000000e+00,0.000000000000000e+00
	0.000000000000000e+00,0.000000000000000e+00
	8.044174873902109e-06,-7.269540174872601e-15
	2.034255119449360e-23,5.869064941275162e-13
	8.754639808233877e-14,8.957851205349640e-16
	-8.044174961448507e-06,-5.805327390731786e-13
	-8.044174873902054e-06,7.269540174872560e-15
	-2.034255119449360e-23,-5.869064941275162e-13
	-8.044174873902054e-06,7.269540174872560e-15
12		1.318256738556407e+00,0.000000000000000e+00
	-8.044174873902055e-02,7.438869518050497e-11
	1.000000000000000e+00,0.000000000000000e+00
	0.000000000000000e+00,0.000000000000000e+00
	8.044174873902109e-06,-7.438869518050497e-15
	2.130126609594117e-23,6.005773025647529e-13
	8.754639808233877e-14,9.166506364327279e-16
	-8.044174961448507e-06,-5.940550836831351e-13
	-8.044174873902054e-06,7.438869518050497e-15
	-2.130126609594117e-23,-6.005773025647529e-13
	-8.044174873902054e-06,7.438869518050497e-15
13		1.348962882591653e+00,0.000000000000000e+00
	-8.044174873902055e-02,7.612143048311985e-11
	1.000000000000000e+00,0.000000000000000e+00
	0.000000000000000e+00,0.000000000000000e+00
	8.044174873902109e-06,-7.612143048312017e-15
	2.230516383868873e-23,6.145665450373898e-13
	8.754639808233877e-14,9.380021726313799e-16
	-8.044174961448507e-06,-6.078924041617092e-13
	-8.044174873902054e-06,7.612143048311985e-15
	-2.230516383868873e-23,-6.145665450373898e-13
	-8.044174873902054e-06,7.612143048311985e-15
14		1.380384264602885e+00,0.000000000000000e+00
	-8.044174873902055e-02,7.789452637576313e-11
	1.000000000000000e+00,0.000000000000000e+00
	0.000000000000000e+00,0.000000000000000e+00
	8.044174873902109e-06,-7.789452637576349e-15
	2.335637382444357e-23,6.288816388269555e-13
	8.754639808233877e-14,9.598510499977879e-16
	-8.044174961448507e-06,-6.220520372393769e-13
	-8.044174873902054e-06,7.789452637576313e-15
	-2.335637382444357e-23,-6.288816388269555e-13
	-8.044174873902054e-06,7.789452637576313e-15
15		1.412537544622754e+00,0.000000000000000e+00
	-8.044174873902055e-02,7.970892297734679e-11
	1.000000000000000e+00,0.000000000000000e+00
	0.000000000000000e+00,0.000000000000000e+00
	8.044174873902109e-06,-7.970892297734666e-15
	2.445712581052363e-23,6.435301739856598e-13
	8.754639808233877e-14,9.822088530960622e-16
	-8.044174961448507e-06,-6.365414905410212e-13
	-8.044174873902054e-06,7.970892297734679e-15
	-2.445712581052363e-23,-6.435301739856598e-13
	-8.044174873902054e-06,7.970892297734679e-15
16		1.445439770745927e+00,0.000000000000000e+00
	-8.044174873902055e-02,8.156558230496531e-11
	1.000000000000000e+00,0.000000000000000e+00
	0.000000000000000e+00,0.000000000000000e+00
	8.044174873902109e-06,-8.156558230496588e-15
	2.560975463947177e-23,6.585199173607399e-13
	8.754639808233877e-14,1.005087436329261e-15
	-8.044174961448507e-06,-6.513684465665726e-13
	-8.044174873902054e-06,8.156558230496532e-15
	-2.560975463947177e-23,-6.585199173607399e-13
	-8.044174873902054e-06,8.156558230496532e-15
17		1.479108388168207e+00,0.000000000000000e+00
	-8.044174873902055e-02,8.346548878397010e-11
	1.000000000000000e+00,0.000000000000000e+00
	0.000000000000000e+00,0.000000000000000e+00
	8.044174873902109e-06,-8.346548878397047e-15
	2.681670519156986e-23,6.738588167125465e-13
	8.754639808233877e-14,1.028498930225286e-15
	-8.044174961448507e-06,-6.665407667643747e-13
	-8.044174873902054e-06,8.346548878397010e-15
	-2.681670519156986e-23,-6.738588167125465e-13
	-8.044174873902054e-06,8.346548878397010e-15
18		1.513561248436208e+00,0.000000000000000e+00
	-8.044174873902055e-02,8.540964976992449e-11
	1.000000000000000e+00,0.000000000000000e+00
	0.000000000000000e+00,0.000000000000000e+00
	8.044174873902109e-06,-8.540964976992427e-15
	2.808053757075758e-23,6.895550049285500e-13
	8.754639808233877e-14,1.052455747867678e-15
	-8.044174961448507e-06,-6.820664956994252e-13
	-8.044174873902054e-06,8.540964976992449e-15
	-2.808053757075758e-23,-6.895550049285500e-13
	-8.044174873902054e-06,8.540964976992449e-15
19		1.548816618912481e+00,0.000000000000000e+00
	-8.044174873902055e-02,8.739909608271725e-11
	1.000000000000000e+00,0.000000000000000e+00
	0.000000000000000e+00,0.000000000000000e+00
	8.044174873902109e-06,-8.739909608271768e-15
	2.940393253495611e-23,7.056168043355061e-13
	8.754639808233877e-14,1.076970591478626e-15
	-8.044174961448507e-06,-6.979538653187129e-13
	-8.044174873902054e-06,8.739909608271725e-15
	-2.940393253495611e-23,-7.056168043355061e-13
	-8.044174873902054e-06,8.739909608271725e-15
20		1.584893192461113e+00,0.000000000000000e+00
	-8.044174873902055e-02,8.943488255311687e-11
	1.000000000000000e+00,0.000000000000000e+00
	0.000000000000000e+00,0.000000000000000e+00
	8.044174873902109e-06,-8.943488255311728e-15
	3.078969718231519e-23,7.220527311120634e-13
	8.754639808233877e-14,1.102056459152589e-15
	-8.044174961448507e-06,-7.142112993159043e-13
	-8.044174873902054e-06,8.943488255311687e-15
	-3.078969718231519e-23,-7.220527311120634e-13
	-8.044174873902054e-06,8.943488255311687e-15
21		1.621810097358929e+00,0.000000000000000e+00
	-8.044174873902055e-02,9.151808858205676e-11
	1.000000000000000e+00,0.000000000000000e+00
	0.000000000000000e+00,0.000000000000000e+00
	8.044174873902109e-06,-9.151808858205736e-15
	3.224077090544457e-23,7.388714998041541e-13
	8.754639808233877e-14,1.127726651748534e-15
	-8.044174961448507e-06,-7.308474175976969e-13
	-8.044174873902054e-06,9.151808858205676e-15
	-3.224077090544457e-23,-7.388714998041541e-13
	-8.044174873902054e-06,9.151808858205676e-15
22		1.659586907437560e+00,0.000000000000000e+00
	-8.044174873902055e-02,9.364981871294800e-11
	1.000000000000000e+00,0.000000000000000e+00
	0.000000000000000e+00,0.000000000000000e+00
	8.044174873902109e-06,-9.364981871294803e-15
	3.376023162625988e-23,7.560820279455615e-13
	8.754639808233877e-14,1.153994779942537e-15
	-8.044174961448507e-06,-7.478710408542092e-13
	-8.044174873902054e-06,9.364981871294800e-15
	-3.376023162625988e-23,-7.560820279455615e-13
	-8.044174873902054e-06,9.364981871294800e-15
23		1.698243652461743e+00,0.000000000000000e+00
	-8.044174873902055e-02,9.583120321732270e-11
	1.000000000000000e+00,0.000000000000000e+00
	0.000000000000000e+00,0.000000000000000e+00
	8.044174873902109e-06,-9.583120321732302e-15
	3.535130232466756e-23,7.736934407861143e-13
	8.754639808233877e-14,1.180874771443849e-15
	-8.044174961448507e-06,-7.652911952358258e-13
	-8.044174873902054e-06,9.583120321732271e-15
	-3.535130232466756e-23,-7.736934407861143e-13
	-8.044174873902054e-06,9.583120321732271e-15
24		1.737800828749374e+00,0.000000000000000e+00
	-8.044174873902055e-02,9.806339869411916e-11
	1.000000000000000e+00,0.000000000000000e+00
	0.000000000000000e+00,0.000000000000000e+00
	8.044174873902109e-06,-9.806339869412004e-15
	3.701735787493751e-23,7.917150761300153e-13
	8.754639808233877e-14,1.208380878379493e-15
	-8.044174961448507e-06,-7.831171171389828e-13
	-8.044174873902054e-06,9.806339869411916e-15
	-3.701735787493751e-23,-7.917150761300153e-13
	-8.044174873902054e-06,9.806339869411916e-15
25		1.778279410038922e+00,0.000000000000000e+00
	-8.044174873902055e-02,1.003475886829258e-10
	1.000000000000000e+00,0.000000000000000e+00
	0.000000000000000e+00,0.000000000000000e+00
	8.044174873902109e-06,-1.003475886829258e-14
	3.876193220426386e-23,8.101564892868685e-13
	8.754639808233877e-14,1.236527684851832e-15
	-8.044174961448507e-06,-8.013582581034277e-13
	-8.044174873902054e-06,1.003475886829258e-14
	-3.876193220426386e-23,-8.101564892868685e-13
	-8.044174873902054e-06,1.003475886829258e-14
26		1.819700858609982e+00,0.000000000000000e+00
	-8.044174873902055e-02,1.026849842915095e-10
	1.000000000000000e+00,0.000000000000000e+00
	0.000000000000000e+00,0.000000000000000e+00
	8.044174873902109e-06,-1.026849842915096e-14
	4.058872578869820e-23,8.290274581380303e-13
	8.754639808233877e-14,1.265330114670057e-15
	-8.044174961448507e-06,-8.200242898235494e-13
	-8.044174873902054e-06,1.026849842915095e-14
	-4.058872578869820e-23,-8.290274581380303e-13
	-8.044174873902054e-06,1.026849842915095e-14
27		1.862087136662866e+00,0.000000000000000e+00
	-8.044174873902055e-02,1.050768248379610e-10
	1.000000000000000e+00,0.000000000000000e+00
	0.000000000000000e+00,0.000000000000000e+00
	8.044174873902109e-06,-1.050768248379612e-14
	4.250161350235565e-23,8.483379883209726e-13
	8.754639808233877e-14,1.294803439263639e-15
	-8.044174961448507e-06,-8.391251092764401e-13
	-8.044174873902054e-06,1.050768248379610e-14
	-4.250161350235565e-23,-8.483379883209726e-13
	-8.044174873902054e-06,1.050768248379610e-14
28		1.905460717963246e+00,0.000000000000000e+00
	-8.044174873902055e-02,1.075243785077977e-10
	1.000000000000000e+00,0.000000000000000e+00
	0.000000000000000e+00,0.000000000000000e+00
	8.044174873902109e-06,-1.075243785077979e-14
	4.450465283654218e-23,8.680983185344034e-13
	8.754639808233877e-14,1.324963285779501e-15
	-8.044174961448507e-06,-8.586708439694031e-13
	-8.044174873902054e-06,1.075243785077977e-14
	-4.450465283654218e-23,-8.680983185344034e-13
	-8.044174873902054e-06,1.075243785077977e-14
29		1.949844599758044e+00,0.000000000000000e+00
	-8.044174873902055e-02,1.100289430263728e-10
	1.000000000000000e+00,0.000000000000000e+00
	0.000000000000000e+00,0.000000000000000e+00
	8.044174873902109e-06,-1.100289430263723e-14
	4.660209250623776e-23,8.883189259669611e-13
	8.754639808233877e-14,1.355825645367303e-15
	-8.044174961448507e-06,-8.786718573096912e-13
	-8.044174873902054e-06,1.100289430263728e-14
	-4.660209250623776e-23,-8.883189259669611e-13
	-8.044174873902054e-06,1.100289430263728e-14
30		1.995262314968878e+00,0.000000000000000e+00
	-8.044174873902055e-02,1.125918463469456e-10
	1.000000000000000e+00,0.000000000000000e+00
	0.000000000000000e+00,0.000000000000000e+00
	8.044174873902109e-06,-1.125918463469455e-14
	4.879838146219044e-23,9.090105318523572e-13
	8.754639808233877e-14,1.387406881658900e-15
	-8.044174961448507e-06,-8.991387540993216e-13
	-8.044174873902054e-06,1.125918463469456e-14
	-4.879838146219044e-23,-9.090105318523572e-13
	-8.044174873902054e-06,1.125918463469456e-14
31		2.041737944669527e+00,0.000000000000000e+00
	-8.044174873902055e-02,1.152144473547808e-10
	1.000000000000000e+00,0.000000000000000e+00
	0.000000000000000e+00,0.000000000000000e+00
	8.044174873902109e-06,-1.152144473547802e-14
	5.109817832773739e-23,9.301841071539181e-13
	8.754639808233877e-14,1.419723739443643e-15
	-8.044174961448507e-06,-9.200823861578837e-13
	-8.044174873902054e-06,1.152144473547808e-14
	-5.109817832773739e-23,-9.301841071539181e-13
	-8.044174873902054e-06,1.152144473547808e-14
32		2.089296130854037e+00,0.000000000000000e+00
	-8.044174873902055e-02,1.178981365876471e-10
	1.000000000000000e+00,0.000000000000000e+00
	0.000000000000000e+00,0.000000000000000e+00
	8.044174873902109e-06,-1.178981365876481e-14
	5.350636128036961e-23,9.518508783815347e-13
	8.754639808233877e-14,1.452793353547495e-15
	-8.044174961448507e-06,-9.415138580763174e-13
	-8.044174873902054e-06,1.178981365876471e-14
	-5.350636128036961e-23,-9.518508783815347e-13
	-8.044174873902054e-06,1.178981365876471e-14
33		2.137962089502230e+00,0.000000000000000e+00
	-8.044174873902055e-02,1.206443369730985e-10
	1.000000000000000e+00,0.000000000000000e+00
	0.000000000000000e+00,0.000000000000000e+00
	8.044174873902109e-06,-1.206443369730995e-14
	5.602803839900029e-23,9.740223335441045e-13
	8.754639808233877e-14,1.486633257917425e-15
	-8.044174961448507e-06,-9.634445331047120e-13
	-8.044174873902054e-06,1.206443369730985e-14
	-5.602803839900029e-23,-9.740223335441045e-13
	-8.044174873902054e-06,1.206443369730985e-14
34		2.187761623949550e+00,0.000000000000000e+00
	-8.044174873902055e-02,1.234545045829295e-10
	1.000000000000000e+00,0.000000000000000e+00
	0.000000000000000e+00,0.000000000000000e+00
	8.044174873902109e-06,-1.234545045829304e-14
	5.866855849888521e-23,9.967102282406297e-13
	8.754639808233877e-14,1.521261394917902e-15
	-8.044174961448507e-06,-9.858860391772546e-13
	-8.044174873902054e-06,1.234545045829295e-14
	-5.866855849888521e-23,-9.967102282406297e-13
	-8.044174873902054e-06,1.234545045829295e-14
35		2.238721138568337e+00,0.000000000000000e+00
	-8.044174873902055e-02,1.263301294052040e-10
	1.000000000000000e+00,0.000000000000000e+00
	0.000000000000000e+00,0.000000000000000e+00
	8.044174873902109e-06,-1.263301294052037e-14
	6.143352247717694e-23,1.019926591893187e-12
	8.754639808233877e-14,1.556696124846803e-15
	-8.044174961448507e-06,-1.008850275077514e-12
	-8.044174873902054e-06,1.263301294052041e-14
	-6.143352247717694e-23,-1.019926591893187e-12
	-8.044174873902054e-06,1.263301294052041e-14
36		2.290867652767770e+00,0.000000000000000e+00
	-8.044174873902055e-02,1.292727361342661e-10
	1.000000000000000e+00,0.000000000000000e+00
	0.000000000000000e+00,0.000000000000000e+00
	8.044174873902109e-06,-1.292727361342675e-14
	6.432879519317858e-23,1.043683734125091e-12
	8.754639808233877e-14,1.592956235666699e-15
	-8.044174961448507e-06,-1.032349416747331e-12
	-8.044174873902054e-06,1.292727361342661e-14
	-6.432879519317858e-23,-1.043683734125091e-12
	-8.044174873902054e-06,1.292727361342661e-14
37		2.344228815319919e+00,0.000000000000000e+00
	-8.044174873902055e-02,1.322838849791535e-10
	1.000000000000000e+00,0.000000000000000e+00
	0.000000000000000e+00,0.000000000000000e+00
	8.044174873902109e-06,-1.322838849791537e-14
	6.736051790849677e-23,1.067994251287615e-12
	8.754639808233877e-14,1.630060952967479e-15
	-8.044174961448507e-06,-1.056395923742668e-12
	-8.044174873902054e-06,1.322838849791536e-14
	-6.736051790849677e-23,-1.067994251287615e-12
	-8.044174873902054e-06,1.322838849791536e-14
38		2.398832919019488e+00,0.000000000000000e+00
	-8.044174873902055e-02,1.353651724908411e-10
	1.000000000000000e+00,0.000000000000000e+00
	0.000000000000000e+00,0.000000000000000e+00
