Title: * GA CMOS Amp | W=3.6869247232212806e-05 L=5.112029681821301e-07 Vbias=1.2331686616459705
Date: Sat Sep  6 22:01:25 2025
Plotname: AC Analysis
Flags: complex forward log
No. Variables: 13
No. Points:          901
Offset:    0.0000000000000000e+00
Command: Linear Technology Corporation LTspice
Variables:
	0	frequency	frequency
	1	V(out)	voltage
	2	V(g)	voltage
	3	V(vdd)	voltage
	4	V(m1#dbody)	voltage
	5	V(m1#sbody)	voltage
	6	Id(M1)	device_current
	7	Ig(M1)	device_current
	8	Ib(M1)	device_current
	9	Is(M1)	device_current
	10	I(Rload)	device_current
	11	I(Vg)	device_current
	12	I(Vdd)	device_current
Values:
0		1.000000000000000e+00,0.000000000000000e+00
	3.596501911625382e-03,3.624241090456260e-10
	1.000000000000000e+00,0.000000000000000e+00
	0.000000000000000e+00,0.000000000000000e+00
	7.890178037363963e-05,5.413848378284292e-14
	7.890178034283882e-05,5.099879788426631e-14
	-3.596501911625418e-07,-3.624241090456291e-14
	6.273252383564689e-05,5.028429913081600e-12
	-4.208094955006864e-05,-2.745253882527836e-14
	-2.029192409441571e-05,-4.964734963351758e-12
	3.596501911625382e-07,3.624241090456260e-14
	-6.273252383565131e-05,-5.028429913081600e-12
	3.596501911625382e-07,3.624241090456260e-14
1		1.023292992280754e+00,0.000000000000000e+00
	3.596501911625382e-03,3.708660510199850e-10
	1.000000000000000e+00,0.000000000000000e+00
	0.000000000000000e+00,0.000000000000000e+00
	7.890178037363963e-05,5.539953106768841e-14
	7.890178034283882e-05,5.218671248971227e-14
	-3.596501911625418e-07,-3.708660510199777e-14
	6.273252383564689e-05,5.145557092231322e-12
	-4.208094955006864e-05,-2.809199060022267e-14
	-2.029192409441571e-05,-5.080378496529101e-12
	3.596501911625382e-07,3.708660510199851e-14
	-6.273252383565131e-05,-5.145557092231322e-12
	3.596501911625382e-07,3.708660510199851e-14
2		1.047128548050899e+00,0.000000000000000e+00
	3.596501911625382e-03,3.795046310835872e-10
	1.000000000000000e+00,0.000000000000000e+00
	0.000000000000000e+00,0.000000000000000e+00
	7.890178037363963e-05,5.668995191720548e-14
	7.890178034283882e-05,5.340229718089306e-14
	-3.596501911625418e-07,-3.795046310835875e-14
	6.273252383564689e-05,5.265412513860846e-12
	-4.208094955006864e-05,-2.874633712042467e-14
	-2.029192409441571e-05,-5.198715713632063e-12
	3.596501911625382e-07,3.795046310835873e-14
	-6.273252383565131e-05,-5.265412513860847e-12
	3.596501911625382e-07,3.795046310835873e-14
3		1.071519305237606e+00,0.000000000000000e+00
	3.596501911625382e-03,3.883444295259277e-10
	1.000000000000000e+00,0.000000000000000e+00
	0.000000000000000e+00,0.000000000000000e+00
	7.890178037363963e-05,5.801043052960926e-14
	7.890178034283882e-05,5.464619647690215e-14
	-3.596501911625418e-07,-3.883444295259192e-14
	6.273252383564689e-05,5.388059726901193e-12
	-4.208094955006864e-05,-2.941592532907068e-14
	-2.029192409441571e-05,-5.319809358619530e-12
	3.596501911625382e-07,3.883444295259277e-14
	-6.273252383565131e-05,-5.388059726901192e-12
	3.596501911625382e-07,3.883444295259277e-14
4		1.096478196143185e+00,0.000000000000000e+00
	3.596501911625382e-03,3.973901333251488e-10
	1.000000000000000e+00,0.000000000000000e+00
	0.000000000000000e+00,0.000000000000000e+00
	7.890178037363963e-05,5.936166704013866e-14
	7.890178034283882e-05,5.591906990961119e-14
	-3.596501911625418e-07,-3.973901333251511e-14
	6.273252383564689e-05,5.513563760528142e-12
	-4.208094955006864e-05,-3.010111025069196e-14
	-2.029192409441571e-05,-5.443723636944935e-12
	3.596501911625382e-07,3.973901333251488e-14
	-6.273252383565131e-05,-5.513563760528144e-12
	3.596501911625382e-07,3.973901333251488e-14
5		1.122018454301963e+00,0.000000000000000e+00
	3.596501911625382e-03,4.066465386331394e-10
	1.000000000000000e+00,0.000000000000000e+00
	0.000000000000000e+00,0.000000000000000e+00
	7.890178037363963e-05,6.074437789227733e-14
	7.890178034283882e-05,5.722159237336272e-14
	-3.596501911625418e-07,-4.066465386331414e-14
	6.273252383564689e-05,5.641991158641571e-12
	-4.208094955006864e-05,-3.080225517940346e-14
	-2.029192409441571e-05,-5.570524249598854e-12
	3.596501911625382e-07,4.066465386331395e-14
	-6.273252383565131e-05,-5.641991158641572e-12
	3.596501911625382e-07,4.066465386331395e-14
6		1.148153621496882e+00,0.000000000000000e+00
	3.596501911625383e-03,4.161185533185166e-10
	1.000000000000000e+00,0.000000000000000e+00
	0.000000000000000e+00,0.000000000000000e+00
	7.890178037363963e-05,6.215929621762133e-14
	7.890178034283882e-05,5.855445448280791e-14
	-3.596501911625384e-07,-4.161185533185125e-14
	6.273252383564689e-05,5.773410015147893e-12
	-4.208094955006864e-05,-3.151973187152712e-14
	-2.029192409441571e-05,-5.700278427944515e-12
	3.596501911625383e-07,4.161185533185166e-14
	-6.273252383565131e-05,-5.773410015147893e-12
	3.596501911625383e-07,4.161185533185166e-14
7		1.174897554939529e+00,0.000000000000000e+00
	3.596501911625383e-03,4.258111995688432e-10
	1.000000000000000e+00,0.000000000000000e+00
	0.000000000000000e+00,0.000000000000000e+00
	7.890178037363963e-05,6.360717222459550e-14
	7.890178034283882e-05,5.991836293907973e-14
	-3.596501911625384e-07,-4.258111995688483e-14
	6.273252383564689e-05,5.907890010064360e-12
	-4.208094955006864e-05,-3.225392074270204e-14
	-2.029192409441571e-05,-5.833054969364773e-12
	3.596501911625383e-07,4.258111995688432e-14
	-6.273252383565131e-05,-5.907890010064360e-12
	3.596501911625383e-07,4.258111995688432e-14
8		1.202264434617413e+00,0.000000000000000e+00
	3.596501911625383e-03,4.357296165534590e-10
	1.000000000000000e+00,0.000000000000000e+00
	0.000000000000000e+00,0.000000000000000e+00
	7.890178037363963e-05,6.508877359622361e-14
	7.890178034283882e-05,6.131404090449513e-14
	-3.596501911625418e-07,-4.357296165534608e-14
	6.273252383564689e-05,6.045502446464335e-12
	-4.208094955006864e-05,-3.300521106958586e-14
	-2.029192409441571e-05,-5.968924273739403e-12
	3.596501911625383e-07,4.357296165534590e-14
	-6.273252383565131e-05,-6.045502446464334e-12
	3.596501911625383e-07,4.357296165534590e-14
9		1.230268770812381e+00,0.000000000000000e+00
	3.596501911625383e-03,4.458790631483347e-10
	1.000000000000000e+00,0.000000000000000e+00
	0.000000000000000e+00,0.000000000000000e+00
	7.890178037363963e-05,6.660488589716420e-14
	7.890178034283882e-05,6.274222838598538e-14
	-3.596501911625418e-07,-4.458790631483282e-14
	6.273252383564689e-05,6.186320288283109e-12
	-4.208094955006864e-05,-3.377400119625438e-14
	-2.029192409441571e-05,-6.107958380772022e-12
	3.596501911625383e-07,4.458790631483347e-14
	-6.273252383565131e-05,-6.186320288283109e-12
	3.596501911625383e-07,4.458790631483347e-14
10		1.258925411794167e+00,0.000000000000000e+00
	3.596501911625383e-03,4.562649207243987e-10
	1.000000000000000e+00,0.000000000000000e+00
	0.000000000000000e+00,0.000000000000000e+00
	7.890178037363963e-05,6.815631299022735e-14
	7.890178034283882e-05,6.420368262745746e-14
	-3.596501911625418e-07,-4.562649207244003e-14
	6.273252383564689e-05,6.330418199004360e-12
	-4.208094955006864e-05,-3.456069874540891e-14
	-2.029192409441571e-05,-6.250231008186511e-12
	3.596501911625383e-07,4.562649207243988e-14
	-6.273252383565131e-05,-6.330418199004358e-12
	3.596501911625383e-07,4.562649207243988e-14
11		1.288249551693134e+00,0.000000000000000e+00
	3.596501911625383e-03,4.668926960008111e-10
	1.000000000000000e+00,0.000000000000000e+00
	0.000000000000000e+00,0.000000000000000e+00
	7.890178037363963e-05,6.974387746259339e-14
	7.890178034283882e-05,6.569917851129482e-14
	-3.596501911625418e-07,-4.668926960008182e-14
	6.273252383564689e-05,6.477872581247715e-12
	-4.208094955006864e-05,-3.536572083450320e-14
	-2.029192409441571e-05,-6.395817590813130e-12
	3.596501911625383e-07,4.668926960008111e-14
	-6.273252383565131e-05,-6.477872581247713e-12
	3.596501911625383e-07,4.668926960008111e-14
12		1.318256738556407e+00,0.000000000000000e+00
	3.596501911625383e-03,4.777680239646985e-10
	1.000000000000000e+00,0.000000000000000e+00
	0.000000000000000e+00,0.000000000000000e+00
	7.890178037363963e-05,7.136842106195944e-14
	7.890178034283882e-05,6.722950896921029e-14
	-3.596501911625418e-07,-4.777680239646966e-14
	6.273252383564689e-05,6.628761617278425e-12
	-4.208094955006864e-05,-3.618949429690458e-14
	-2.029192409441571e-05,-6.544795320585051e-12
	3.596501911625383e-07,4.777680239646985e-14
	-6.273252383565131e-05,-6.628761617278426e-12
	3.596501911625383e-07,4.777680239646985e-14
13		1.348962882591653e+00,0.000000000000000e+00
	3.596501911625383e-03,4.888966708588994e-10
	1.000000000000000e+00,0.000000000000000e+00
	0.000000000000000e+00,0.000000000000000e+00
	7.890178037363963e-05,7.303080514284528e-14
	7.890178034283882e-05,6.879548540266901e-14
	-3.596501911625418e-07,-4.888966708589014e-14
	6.273252383564689e-05,6.783165310460653e-12
	-4.208094955006864e-05,-3.703245590820678e-14
	-2.029192409441571e-05,-6.697243187466555e-12
	3.596501911625383e-07,4.888966708588994e-14
	-6.273252383565131e-05,-6.783165310460651e-12
	3.596501911625383e-07,4.888966708588994e-14
14		1.380384264602885e+00,0.000000000000000e+00
	3.596501911625383e-03,5.002845372393021e-10
	1.000000000000000e+00,0.000000000000000e+00
	0.000000000000000e+00,0.000000000000000e+00
	7.890178037363963e-05,7.473191112329482e-14
	7.890178034283882e-05,7.039793811310409e-14
	-3.596501911625418e-07,-5.002845372393062e-14
	6.273252383564689e-05,6.941165527676292e-12
	-4.208094955006864e-05,-3.789505261781400e-14
	-2.029192409441571e-05,-6.853242021334547e-12
	3.596501911625383e-07,5.002845372393021e-14
	-6.273252383565131e-05,-6.941165527676291e-12
	3.596501911625383e-07,5.002845372393021e-14
15		1.412537544622754e+00,0.000000000000000e+00
	3.596501911625383e-03,5.119376611033978e-10
	1.000000000000000e+00,0.000000000000000e+00
	0.000000000000000e+00,0.000000000000000e+00
	7.890178037363963e-05,7.647264095221574e-14
	7.890178034283882e-05,7.203771674215366e-14
	-3.596501911625418e-07,-5.119376611033970e-14
	6.273252383564689e-05,7.102846042731892e-12
	-4.208094955006864e-05,-3.877774178591952e-14
	-2.029192409441571e-05,-7.012874534835633e-12
	3.596501911625383e-07,5.119376611033978e-14
	-6.273252383565131e-05,-7.102846042731892e-12
	3.596501911625383e-07,5.119376611033978e-14
16		1.445439770745927e+00,0.000000000000000e+00
	3.596501911625383e-03,5.238622210917065e-10
	1.000000000000000e+00,0.000000000000000e+00
	0.000000000000000e+00,0.000000000000000e+00
	7.890178037363963e-05,7.825391758760456e-14
	7.890178034283882e-05,7.371569072215177e-14
	-3.596501911625418e-07,-5.238622210917075e-14
	6.273252383564689e-05,7.268292580776629e-12
	-4.208094955006864e-05,-3.968099142600401e-14
	-2.029192409441571e-05,-7.176225367241454e-12
	3.596501911625383e-07,5.238622210917065e-14
	-6.273252383565131e-05,-7.268292580776630e-12
	3.596501911625383e-07,5.238622210917065e-14
17		1.479108388168207e+00,0.000000000000000e+00
	3.596501911625383e-03,5.360645397637742e-10
	1.000000000000000e+00,0.000000000000000e+00
	0.000000000000000e+00,0.000000000000000e+00
	7.890178037363963e-05,8.007668548591140e-14
	7.890178034283882e-05,7.543274973711330e-14
	-3.596501911625418e-07,-5.360645397637775e-14
	6.273252383564689e-05,7.437592863754922e-12
	-4.208094955006864e-05,-4.060528045298259e-14
	-2.029192409441571e-05,-7.343381129325560e-12
	3.596501911625383e-07,5.360645397637743e-14
	-6.273252383565131e-05,-7.437592863754920e-12
	3.596501911625383e-07,5.360645397637743e-14
18		1.513561248436208e+00,0.000000000000000e+00
	3.596501911625383e-03,5.485510869504780e-10
	1.000000000000000e+00,0.000000000000000e+00
	0.000000000000000e+00,0.000000000000000e+00
	7.890178037363963e-05,8.194191110280311e-14
	7.890178034283882e-05,7.718980419445594e-14
	-3.596501911625418e-07,-5.485510869504677e-14
	6.273252383564689e-05,7.610836656917755e-12
	-4.208094955006864e-05,-4.155109893713177e-14
	-2.029192409441571e-05,-7.514430449285576e-12
	3.596501911625383e-07,5.485510869504781e-14
	-6.273252383565131e-05,-7.610836656917757e-12
	3.596501911625383e-07,5.485510869504781e-14
19		1.548816618912481e+00,0.000000000000000e+00
	3.596501911625383e-03,5.613284831844147e-10
	1.000000000000000e+00,0.000000000000000e+00
	0.000000000000000e+00,0.000000000000000e+00
	7.890178037363963e-05,8.385058340559095e-14
	7.890178034283882e-05,7.898778570771032e-14
	-3.596501911625418e-07,-5.613284831844169e-14
	6.273252383564689e-05,7.788115816417423e-12
	-4.208094955006864e-05,-4.251894836393123e-14
	-2.029192409441571e-05,-7.689464019735050e-12
	3.596501911625383e-07,5.613284831844147e-14
	-6.273252383565131e-05,-7.788115816417421e-12
	3.596501911625383e-07,5.613284831844147e-14
20		1.584893192461113e+00,0.000000000000000e+00
	3.596501911625383e-03,5.744035032101966e-10
	1.000000000000000e+00,0.000000000000000e+00
	0.000000000000000e+00,0.000000000000000e+00
	7.890178037363963e-05,8.580371439759410e-14
	7.890178034283882e-05,8.082764759047386e-14
	-3.596501911625418e-07,-5.744035032101959e-14
	6.273252383564689e-05,7.969524338010852e-12
	-4.208094955006864e-05,-4.350934189995806e-14
	-2.029192409441571e-05,-7.868574645789874e-12
	3.596501911625383e-07,5.744035032101967e-14
	-6.273252383565131e-05,-7.969524338010853e-12
	3.596501911625383e-07,5.744035032101967e-14
21		1.621810097358929e+00,0.000000000000000e+00
	3.596501911625383e-03,5.877830795765099e-10
	1.000000000000000e+00,0.000000000000000e+00
	0.000000000000000e+00,0.000000000000000e+00
	7.890178037363963e-05,8.780233965471731e-14
	7.890178034283882e-05,8.271036536187031e-14
	-3.596501911625418e-07,-5.877830795764966e-14
	6.273252383564689e-05,8.155158406897419e-12
	-4.208094955006864e-05,-4.452280466497449e-14
	-2.029192409441571e-05,-8.051857294274795e-12
	3.596501911625383e-07,5.877830795765099e-14
	-6.273252383565131e-05,-8.155158406897421e-12
	3.596501911625383e-07,5.877830795765099e-14
22		1.659586907437560e+00,0.000000000000000e+00
	3.596501911625383e-03,6.014743063118436e-10
	1.000000000000000e+00,0.000000000000000e+00
	0.000000000000000e+00,0.000000000000000e+00
	7.890178037363963e-05,8.984751887452678e-14
	7.890178034283882e-05,8.463693726378270e-14
	-3.596501911625418e-07,-6.014743063118351e-14
	6.273252383564689e-05,8.345116448717611e-12
	-4.208094955006864e-05,-4.555987401035325e-14
	-2.029192409441571e-05,-8.239409144076074e-12
	3.596501911625383e-07,6.014743063118436e-14
	-6.273252383565131e-05,-8.345116448717607e-12
	3.596501911625383e-07,6.014743063118436e-14
23		1.698243652461743e+00,0.000000000000000e+00
	3.596501911625383e-03,6.154844426858371e-10
	1.000000000000000e+00,0.000000000000000e+00
	0.000000000000000e+00,0.000000000000000e+00
	7.890178037363963e-05,9.194033643811603e-14
	7.890178034283882e-05,8.660838479013467e-14
	-3.596501911625418e-07,-6.154844426858488e-14
	6.273252383564689e-05,8.539499181739586e-12
	-4.208094955006864e-05,-4.662109980398855e-14
	-2.029192409441571e-05,-8.431329637667012e-12
	3.596501911625383e-07,6.154844426858371e-14
	-6.273252383565131e-05,-8.539499181739585e-12
	3.596501911625383e-07,6.154844426858371e-14
24		1.737800828749374e+00,0.000000000000000e+00
	3.596501911625383e-03,6.298209170582424e-10
	1.000000000000000e+00,0.000000000000000e+00
	0.000000000000000e+00,0.000000000000000e+00
	7.890178037363963e-05,9.408190198505901e-14
	7.890178034283882e-05,8.862575322849983e-14
	-3.596501911625418e-07,-6.298209170582466e-14
	6.273252383564689e-05,8.738409670261350e-12
	-4.208094955006864e-05,-4.770704472184311e-14
	-2.029192409441571e-05,-8.627720533833682e-12
	3.596501911625383e-07,6.298209170582424e-14
	-6.273252383565131e-05,-8.738409670261348e-12
	3.596501911625383e-07,6.298209170582424e-14
25		1.778279410038922e+00,0.000000000000000e+00
	3.596501911625383e-03,6.444913308175376e-10
	1.000000000000000e+00,0.000000000000000e+00
	0.000000000000000e+00,0.000000000000000e+00
	7.890178037363963e-05,9.627335100175564e-14
	7.890178034283882e-05,9.069011221432729e-14
	-3.596501911625418e-07,-6.444913308175461e-14
	6.273252383564689e-05,8.941953379256813e-12
	-4.208094955006864e-05,-4.881828454628659e-14
	-2.029192409441571e-05,-8.828685961628773e-12
	3.596501911625383e-07,6.444913308175376e-14
	-6.273252383565131e-05,-8.941953379256813e-12
	3.596501911625383e-07,6.444913308175376e-14
26		1.819700858609982e+00,0.000000000000000e+00
	3.596501911625383e-03,6.595034624112834e-10
	1.000000000000000e+00,0.000000000000000e+00
	0.000000000000000e+00,0.000000000000000e+00
	7.890178037363963e-05,9.851584542348187e-14
	7.890178034283882e-05,9.280255629807636e-14
	-3.596501911625418e-07,-6.595034624112846e-14
	6.273252383564689e-05,9.150238230294705e-12
	-4.208094955006864e-05,-4.995540847138290e-14
	-2.029192409441571e-05,-9.034332475582194e-12
	3.596501911625383e-07,6.595034624112835e-14
	-6.273252383565131e-05,-9.150238230294704e-12
	3.596501911625383e-07,6.595034624112835e-14
27		1.862087136662866e+00,0.000000000000000e+00
	3.596501911625383e-03,6.748652714703600e-10
	1.000000000000000e+00,0.000000000000000e+00
	0.000000000000000e+00,0.000000000000000e+00
	7.890178037363963e-05,1.008105742504630e-13
	7.890178034283882e-05,9.496420552556169e-14
	-3.596501911625418e-07,-6.748652714703711e-14
	6.273252383564689e-05,9.363374658760019e-12
	-4.208094955006864e-05,-5.111901941528874e-14
	-2.029192409441571e-05,-9.244769112197694e-12
	3.596501911625383e-07,6.748652714703600e-14
	-6.273252383565131e-05,-9.363374658760021e-12
	3.596501911625383e-07,6.748652714703600e-14
28		1.905460717963246e+00,0.000000000000000e+00
	3.596501911625383e-03,6.905849030292682e-10
	1.000000000000000e+00,0.000000000000000e+00
	0.000000000000000e+00,0.000000000000000e+00
	7.890178037363963e-05,1.031587541782974e-13
	7.890178034283882e-05,9.717620603181655e-14
	-3.596501911625418e-07,-6.905849030292740e-14
	6.273252383564689e-05,9.581475672408327e-12
	-4.208094955006864e-05,-5.230973433992879e-14
	-2.029192409441571e-05,-9.460107447765470e-12
	3.596501911625383e-07,6.905849030292682e-14
	-6.273252383565131e-05,-9.581475672408324e-12
	3.596501911625383e-07,6.905849030292682e-14
29		1.949844599758044e+00,0.000000000000000e+00
	3.596501911625383e-03,7.066706918447344e-10
	1.000000000000000e+00,0.000000000000000e+00
	0.000000000000000e+00,0.000000000000000e+00
	7.890178037363963e-05,1.055616302430647e-13
	7.890178034283882e-05,9.943973064878863e-14
	-3.596501911625384e-07,-7.066706918447365e-14
	6.273252383564689e-05,9.804656911283969e-12
	-4.208094955006864e-05,-5.352818457811704e-14
	-2.029192409441572e-05,-9.680461657521378e-12
	3.596501911625383e-07,7.066706918447345e-14
	-6.273252383565131e-05,-9.804656911283968e-12
	3.596501911625383e-07,7.066706918447345e-14
30		1.995262314968878e+00,0.000000000000000e+00
	3.596501911625383e-03,7.231311668149088e-10
	1.000000000000000e+00,0.000000000000000e+00
	0.000000000000000e+00,0.000000000000000e+00
	7.890178037363963e-05,1.080204764814602e-13
	7.890178034283882e-05,1.017559795271911e-13
	-3.596501911625384e-07,-7.231311668149241e-14
	6.273252383564689e-05,1.003303670903395e-11
	-4.208094955006864e-05,-5.477501616829791e-14
	-2.029192409441572e-05,-9.905948576184157e-12
	3.596501911625383e-07,7.231311668149088e-14
	-6.273252383565131e-05,-1.003303670903395e-11
	3.596501911625383e-07,7.231311668149088e-14
31		2.041737944669527e+00,0.000000000000000e+00
	3.596501911625383e-03,7.399750555015011e-10
	1.000000000000000e+00,0.000000000000000e+00
	0.000000000000000e+00,0.000000000000000e+00
	7.890178037363963e-05,1.105365966063063e-13
	7.890178034283882e-05,1.041261807728385e-13
	-3.596501911625384e-07,-7.399750555015175e-14
	6.273252383564689e-05,1.026673615565000e-11
	-4.208094955006864e-05,-5.605089019708424e-14
	-2.029192409441572e-05,-1.013668775990276e-11
	3.596501911625383e-07,7.399750555015011e-14
	-6.273252383565131e-05,-1.026673615564999e-11
	3.596501911625383e-07,7.399750555015011e-14
32		2.089296130854037e+00,0.000000000000000e+00
	3.596501911625383e-03,7.572112887572482e-10
	1.000000000000000e+00,0.000000000000000e+00
	0.000000000000000e+00,0.000000000000000e+00
	7.890178037363963e-05,1.131113246977978e-13
	7.890178034283882e-05,1.065515910978047e-13
