Title: * GA CMOS Amp | W=3.241294186261277e-05 L=7.716080281439825e-07 Vbias=0.6210344455913379
Date: Sat Sep  6 22:39:35 2025
Plotname: AC Analysis
Flags: complex forward log
No. Variables: 13
No. Points:          901
Offset:    0.0000000000000000e+00
Command: Linear Technology Corporation LTspice
Variables:
	0	frequency	frequency
	1	V(out)	voltage
	2	V(g)	voltage
	3	V(vdd)	voltage
	4	V(m1#dbody)	voltage
	5	V(m1#sbody)	voltage
	6	Id(M1)	device_current
	7	Ig(M1)	device_current
	8	Ib(M1)	device_current
	9	Is(M1)	device_current
	10	I(Rload)	device_current
	11	I(Vg)	device_current
	12	I(Vdd)	device_current
Values:
0		1.000000000000000e+00,0.000000000000000e+00
	-7.667392289952327e-02,1.020201023197606e-09
	1.000000000000000e+00,0.000000000000000e+00
	0.000000000000000e+00,0.000000000000000e+00
	1.149627372751775e-08,-5.030064149144371e-14
	1.149687707148864e-08,7.260804621618526e-15
	7.667392289952278e-06,-1.020201023197598e-13
	1.621910077006751e-06,6.138383865490422e-12
	-6.131627553167152e-09,-3.500500722556581e-17
	-9.283170739405862e-06,-6.036328758163437e-12
	-7.667392289952328e-06,1.020201023197606e-13
	-1.621910076993194e-06,-6.138383865490422e-12
	-7.667392289952328e-06,1.020201023197606e-13
1		1.023292992280754e+00,0.000000000000000e+00
	-7.667392289952327e-02,1.043964557755765e-09
	1.000000000000000e+00,0.000000000000000e+00
	0.000000000000000e+00,0.000000000000000e+00
	1.149627372751755e-08,-5.147229394542101e-14
	1.149687707148848e-08,7.429930487621847e-15
	7.667392289952278e-06,-1.043964557755768e-13
	1.621910077006751e-06,6.281365193485596e-12
	-6.131627553167062e-09,-3.582037858860339e-17
	-9.283170739405862e-06,-6.176932917331431e-12
	-7.667392289952328e-06,1.043964557755765e-13
	-1.621910076993194e-06,-6.281365193485598e-12
	-7.667392289952328e-06,1.043964557755765e-13
2		1.047128548050899e+00,0.000000000000000e+00
	-7.667392289952327e-02,1.068281616140951e-09
	1.000000000000000e+00,0.000000000000000e+00
	0.000000000000000e+00,0.000000000000000e+00
	1.149627372751734e-08,-5.267123769096412e-14
	1.149687707148830e-08,7.602995801116821e-15
	7.667392289952278e-06,-1.068281616140948e-13
	1.621910077006751e-06,6.427676984450053e-12
	-6.131627553166966e-09,-3.665474239070041e-17
	-9.283170739405862e-06,-6.320812168093568e-12
	-7.667392289952328e-06,1.068281616140951e-13
	-1.621910076993194e-06,-6.427676984450053e-12
	-7.667392289952328e-06,1.068281616140951e-13
3		1.071519305237606e+00,0.000000000000000e+00
	-7.667392289952327e-02,1.093165091579394e-09
	1.000000000000000e+00,0.000000000000000e+00
	0.000000000000000e+00,0.000000000000000e+00
	1.149627372751712e-08,-5.389810842391765e-14
	1.149687707148812e-08,7.780092323622716e-15
	7.667392289952278e-06,-1.093165091579385e-13
	1.621910077006750e-06,6.577396814832029e-12
	-6.131627553166868e-09,-3.750854102219290e-17
	-9.283170739405862e-06,-6.468042797133068e-12
	-7.667392289952328e-06,1.093165091579394e-13
	-1.621910076993194e-06,-6.577396814832030e-12
	-7.667392289952328e-06,1.093165091579394e-13
4		1.096478196143185e+00,0.000000000000000e+00
	-7.667392289952327e-02,1.118628177619142e-09
	1.000000000000000e+00,0.000000000000000e+00
	0.000000000000000e+00,0.000000000000000e+00
	1.149627372751688e-08,-5.515355664738327e-14
	1.149687707148793e-08,7.961313954060344e-15
	7.667392289952278e-06,-1.118628177619139e-13
	1.621910077006750e-06,6.730604068067367e-12
	-6.131627553166764e-09,-3.838222717864848e-17
	-9.283170739405862e-06,-6.618702868078274e-12
	-7.667392289952328e-06,1.118628177619142e-13
	-1.621910076993194e-06,-6.730604068067368e-12
	-7.667392289952328e-06,1.118628177619142e-13
5		1.122018454301963e+00,0.000000000000000e+00
	-7.667392289952327e-02,1.144684375125459e-09
	1.000000000000000e+00,0.000000000000000e+00
	0.000000000000000e+00,0.000000000000000e+00
	1.149627372751664e-08,-5.643824801662693e-14
	1.149687707148773e-08,8.146756778536930e-15
	7.667392289952278e-06,-1.144684375125458e-13
	1.621910077006750e-06,6.887379976669674e-12
	-6.131627553166654e-09,-3.927626410003671e-17
	-9.283170739405862e-06,-6.772872262893028e-12
	-7.667392289952328e-06,1.144684375125459e-13
	-1.621910076993194e-06,-6.887379976669673e-12
	-7.667392289952328e-06,1.144684375125459e-13
6		1.148153621496882e+00,0.000000000000000e+00
	-7.667392289952327e-02,1.171347499439156e-09
	1.000000000000000e+00,0.000000000000000e+00
	0.000000000000000e+00,0.000000000000000e+00
	1.149627372751639e-08,-5.775286369201748e-14
	1.149687707148753e-08,8.336519121292592e-15
	7.667392289952278e-06,-1.171347499439151e-13
	1.621910077006750e-06,7.047807665300861e-12
	-6.131627553166540e-09,-4.019112581654693e-17
	-9.283170739405862e-06,-6.930632724231129e-12
	-7.667392289952328e-06,1.171347499439156e-13
	-1.621910076993194e-06,-7.047807665300860e-12
	-7.667392289952328e-06,1.171347499439156e-13
7		1.174897554939529e+00,0.000000000000000e+00
	-7.667392289952327e-02,1.198631687701673e-09
	1.000000000000000e+00,0.000000000000000e+00
	0.000000000000000e+00,0.000000000000000e+00
	1.149627372751612e-08,-5.909810070018707e-14
	1.149687707148731e-08,8.530701596833229e-15
	7.667392289952278e-06,-1.198631687701668e-13
	1.621910077006750e-06,7.211972194844953e-12
	-6.131627553166421e-09,-4.112729739995196e-17
	-9.283170739405862e-06,-7.092067898777386e-12
	-7.667392289952328e-06,1.198631687701673e-13
	-1.621910076993194e-06,-7.211972194844954e-12
	-7.667392289952328e-06,1.198631687701673e-13
8		1.202264434617413e+00,0.000000000000000e+00
	-7.667392289952327e-02,1.226551406350776e-09
	1.000000000000000e+00,0.000000000000000e+00
	0.000000000000000e+00,0.000000000000000e+00
	1.149627372751584e-08,-6.047467230360373e-14
	1.149687707148708e-08,8.729407163277699e-15
	7.667392289952278e-06,-1.226551406350765e-13
	1.621910077006750e-06,7.379960607508491e-12
	-6.131627553166295e-09,-4.208527522082733e-17
	-9.283170739405862e-06,-7.257263381598193e-12
	-7.667392289952328e-06,1.226551406350776e-13
	-1.621910076993194e-06,-7.379960607508491e-12
	-7.667392289952328e-06,1.226551406350776e-13
9		1.230268770812381e+00,0.000000000000000e+00
	-7.667392289952327e-02,1.255121458790853e-09
	1.000000000000000e+00,0.000000000000000e+00
	0.000000000000000e+00,0.000000000000000e+00
	1.149627372751555e-08,-6.188330837875275e-14
	1.149687707148684e-08,8.932741176947447e-15
	7.667392289952278e-06,-1.255121458790839e-13
	1.621910077006750e-06,7.551861972971455e-12
	-6.131627553166165e-09,-4.306556721165688e-17
	-9.283170739405862e-06,-7.426306761525159e-12
	-7.667392289952328e-06,1.255121458790853e-13
	-1.621910076993194e-06,-7.551861972971456e-12
	-7.667392289952328e-06,1.255121458790853e-13
10		1.258925411794167e+00,0.000000000000000e+00
	-7.667392289952327e-02,1.284356993241877e-09
	1.000000000000000e+00,0.000000000000000e+00
	0.000000000000000e+00,0.000000000000000e+00
	1.149627372751525e-08,-6.332475580312658e-14
	1.149687707148659e-08,9.140811448228053e-15
	7.667392289952278e-06,-1.284356993241867e-13
	1.621910077006749e-06,7.727767435613197e-12
	-6.131627553166027e-09,-4.406869313628158e-17
	-9.283170739405862e-06,-7.599287667595876e-12
	-7.667392289952328e-06,1.284356993241877e-13
	-1.621910076993194e-06,-7.727767435613199e-12
	-7.667392289952328e-06,1.284356993241877e-13
11		1.288249551693134e+00,0.000000000000000e+00
	-7.667392289952327e-02,1.314273510771192e-09
	1.000000000000000e+00,0.000000000000000e+00
	0.000000000000000e+00,0.000000000000000e+00
	1.149627372751493e-08,-6.479977885122951e-14
	1.149687707148633e-08,9.353728298731412e-15
	7.667392289952278e-06,-1.314273510771189e-13
	1.621910077006749e-06,7.907770262838403e-12
	-6.131627553165883e-09,-4.509518486530275e-17
	-9.283170739405862e-06,-7.776297816576418e-12
	-7.667392289952328e-06,1.314273510771192e-13
	-1.621910076993194e-06,-7.907770262838401e-12
	-7.667392289952328e-06,1.314273510771192e-13
12		1.318256738556407e+00,0.000000000000000e+00
	-7.667392289952327e-02,1.344886873512385e-09
	1.000000000000000e+00,0.000000000000000e+00
	0.000000000000000e+00,0.000000000000000e+00
	1.149627372751459e-08,-6.630915959980572e-14
	1.149687707148605e-08,9.571604619790088e-15
	7.667392289952278e-06,-1.344886873512382e-13
	1.621910077006749e-06,8.091965894528674e-12
	-6.131627553165732e-09,-4.614558665829703e-17
	-9.283170739405862e-06,-7.957431061590777e-12
	-7.667392289952328e-06,1.344886873512385e-13
	-1.621910076993194e-06,-8.091965894528674e-12
	-7.667392289952328e-06,1.344886873512385e-13
13		1.348962882591653e+00,0.000000000000000e+00
	-7.667392289952327e-02,1.376213313075597e-09
	1.000000000000000e+00,0.000000000000000e+00
	0.000000000000000e+00,0.000000000000000e+00
	1.149627372751424e-08,-6.785369834250730e-14
	1.149687707148576e-08,9.794555932313267e-15
	7.667392289952278e-06,-1.376213313075591e-13
	1.621910077006749e-06,8.280451993646056e-12
	-6.131627553165575e-09,-4.722045545210873e-17
	-9.283170739405862e-06,-8.142783441883044e-12
	-7.667392289952328e-06,1.376213313075597e-13
	-1.621910076993194e-06,-8.280451993646056e-12
	-7.667392289952328e-06,1.376213313075597e-13
14		1.380384264602885e+00,0.000000000000000e+00
	-7.667392289952327e-02,1.408269439153738e-09
	1.000000000000000e+00,0.000000000000000e+00
	0.000000000000000e+00,0.000000000000000e+00
	1.149627372751388e-08,-6.943421401421989e-14
	1.149687707148546e-08,1.002270044803811e-14
	7.667392289952278e-06,-1.408269439153723e-13
	1.621910077006749e-06,8.473328498015207e-12
	-6.131627553165411e-09,-4.832036115647866e-17
	-9.283170739405862e-06,-8.332453233738679e-12
	-7.667392289952328e-06,1.408269439153738e-13
	-1.621910076993194e-06,-8.473328498015211e-12
	-7.667392289952328e-06,1.408269439153738e-13
15		1.412537544622754e+00,0.000000000000000e+00
	-7.667392289952327e-02,1.441072248329168e-09
	1.000000000000000e+00,0.000000000000000e+00
	0.000000000000000e+00,0.000000000000000e+00
	1.149627372751349e-08,-7.105154462527313e-14
	1.149687707148514e-08,1.025615913220679e-14
	7.667392289952278e-06,-1.441072248329175e-13
	1.621910077006749e-06,8.670697673311773e-12
	-6.131627553165236e-09,-4.944588695601374e-17
	-9.283170739405862e-06,-8.526541002591900e-12
	-7.667392289952328e-06,1.441072248329168e-13
	-1.621910076993194e-06,-8.670697673311772e-12
	-7.667392289952328e-06,1.441072248329168e-13
16		1.445439770745927e+00,0.000000000000000e+00
	-7.667392289952327e-02,1.474639133085508e-09
	1.000000000000000e+00,0.000000000000000e+00
	0.000000000000000e+00,0.000000000000000e+00
	1.149627372751309e-08,-7.270654770576558e-14
	1.149687707148481e-08,1.049505576770313e-14
	7.667392289952278e-06,-1.474639133085506e-13
	1.621910077006749e-06,8.872664167284974e-12
	-6.131627553165056e-09,-5.059762961901500e-17
	-9.283170739405862e-06,-8.725149656346803e-12
	-7.667392289952328e-06,1.474639133085508e-13
	-1.621910076993194e-06,-8.872664167284975e-12
	-7.667392289952328e-06,1.474639133085508e-13
17		1.479108388168207e+00,0.000000000000000e+00
	-7.667392289952327e-02,1.508987891029367e-09
	1.000000000000000e+00,0.000000000000000e+00
	0.000000000000000e+00,0.000000000000000e+00
	1.149627372751267e-08,-7.440010076023616e-14
	1.149687707148447e-08,1.073951702068643e-14
	7.667392289952278e-06,-1.508987891029345e-13
	1.621910077006748e-06,9.079335065243265e-12
	-6.131627553164867e-09,-5.177619981521655e-17
	-9.283170739405862e-06,-8.928384499940514e-12
	-7.667392289952328e-06,1.508987891029367e-13
	-1.621910076993194e-06,-9.079335065243266e-12
	-7.667392289952328e-06,1.508987891029367e-13
18		1.513561248436208e+00,0.000000000000000e+00
	-7.667392289952327e-02,1.544136734326865e-09
	1.000000000000000e+00,0.000000000000000e+00
	0.000000000000000e+00,0.000000000000000e+00
	1.149627372751223e-08,-7.613310173293167e-14
	1.149687707148411e-08,1.098967250774830e-14
	7.667392289952278e-06,-1.544136734326850e-13
	1.621910077006748e-06,9.290819946832358e-12
	-6.131627553164667e-09,-5.298222243783176e-17
	-9.283170739405862e-06,-9.136353291177235e-12
	-7.667392289952328e-06,1.544136734326866e-13
	-1.621910076993194e-06,-9.290819946832358e-12
	-7.667392289952328e-06,1.544136734326866e-13
19		1.548816618912481e+00,0.000000000000000e+00
	-7.667392289952327e-02,1.580104299359969e-09
	1.000000000000000e+00,0.000000000000000e+00
	0.000000000000000e+00,0.000000000000000e+00
	1.149627372751177e-08,-7.790646948390675e-14
	1.149687707148373e-08,1.124565486463926e-14
	7.667392289952278e-06,-1.580104299359962e-13
	1.621910077006748e-06,9.507230944135801e-12
	-6.131627553164462e-09,-5.421633693607705e-17
	-9.283170739405862e-06,-9.349166297862868e-12
	-7.667392289952328e-06,1.580104299359970e-13
	-1.621910076993194e-06,-9.507230944135797e-12
	-7.667392289952328e-06,1.580104299359970e-13
20		1.584893192461113e+00,0.000000000000000e+00
	-7.667392289952327e-02,1.616909656607748e-09
	1.000000000000000e+00,0.000000000000000e+00
	0.000000000000000e+00,0.000000000000000e+00
	1.149627372751128e-08,-7.972114427621613e-14
	1.149687707148333e-08,1.150759981659340e-14
	7.667392289952278e-06,-1.616909656607735e-13
	1.621910077006748e-06,9.728682801128902e-12
	-6.131627553164243e-09,-5.547919765385747e-17
	-9.283170739405862e-06,-9.566936356270474e-12
	-7.667392289952328e-06,1.616909656607748e-13
	-1.621910076993194e-06,-9.728682801128902e-12
	-7.667392289952328e-06,1.616909656607748e-13
21		1.621810097358929e+00,0.000000000000000e+00
	-7.667392289952327e-02,1.654572320757789e-09
	1.000000000000000e+00,0.000000000000000e+00
	0.000000000000000e+00,0.000000000000000e+00
	1.149627372751078e-08,-8.157808827445492e-14
	1.149687707148292e-08,1.177564625029131e-14
	7.667392289952278e-06,-1.654572320757789e-13
	1.621910077006748e-06,9.955292934517504e-12
	-6.131627553164015e-09,-5.677147417654682e-17
	-9.283170739405862e-06,-9.789778930967549e-12
	-7.667392289952328e-06,1.654572320757789e-13
	-1.621910076993194e-06,-9.955292934517501e-12
	-7.667392289952328e-06,1.654572320757789e-13
22		1.659586907437560e+00,0.000000000000000e+00
	-7.667392289952327e-02,1.693112261053149e-09
	1.000000000000000e+00,0.000000000000000e+00
	0.000000000000000e+00,0.000000000000000e+00
	1.149627372751025e-08,-8.347828605491046e-14
	1.149687707148248e-08,1.204993628750025e-14
	7.667392289952278e-06,-1.693112261053146e-13
	1.621910077006747e-06,1.018718149599386e-11
	-6.131627553163778e-09,-5.809385168631583e-17
	-9.283170739405862e-06,-1.001781217603686e-11
	-7.667392289952328e-06,1.693112261053149e-13
	-1.621910076993194e-06,-1.018718149599386e-11
	-7.667392289952328e-06,1.693112261053149e-13
23		1.698243652461743e+00,0.000000000000000e+00
	-7.667392289952327e-02,1.732549911880311e-09
	1.000000000000000e+00,0.000000000000000e+00
	0.000000000000000e+00,0.000000000000000e+00
	1.149627372750969e-08,-8.542274512759802e-14
	1.149687707148203e-08,1.233061536042862e-14
	7.667392289952278e-06,-1.732549911880291e-13
	1.621910077006747e-06,1.042447143594269e-11
	-6.131627553163528e-09,-5.944703132523145e-17
	-9.283170739405862e-06,-1.025115699772334e-11
	-7.667392289952328e-06,1.732549911880311e-13
	-1.621910076993194e-06,-1.042447143594269e-11
	-7.667392289952328e-06,1.732549911880311e-13
24		1.737800828749374e+00,0.000000000000000e+00
	-7.667392289952327e-02,1.772906183603760e-09
	1.000000000000000e+00,0.000000000000000e+00
	0.000000000000000e+00,0.000000000000000e+00
	1.149627372750911e-08,-8.741249647045604e-14
	1.149687707148155e-08,1.261783228883598e-14
	7.667392289952278e-06,-1.772906183603750e-13
	1.621910077006747e-06,1.066728856863105e-11
	-6.131627553163267e-09,-6.083173056697596e-17
	-9.283170739405862e-06,-1.048993711854010e-11
	-7.667392289952328e-06,1.772906183603760e-13
	-1.621910076993194e-06,-1.066728856863104e-11
	-7.667392289952328e-06,1.772906183603760e-13
25		1.778279410038922e+00,0.000000000000000e+00
	-7.667392289952327e-02,1.814202473652943e-09
	1.000000000000000e+00,0.000000000000000e+00
	0.000000000000000e+00,0.000000000000000e+00
	1.149627372750850e-08,-8.944859507598361e-14
	1.149687707148105e-08,1.291173935893990e-14
	7.667392289952278e-06,-1.814202473652936e-13
	1.621910077006747e-06,1.091576163891674e-11
	-6.131627553162993e-09,-6.224868359761201e-17
	-9.283170739405862e-06,-1.073427914286785e-11
	-7.667392289952328e-06,1.814202473652943e-13
	-1.621910076993194e-06,-1.091576163891674e-11
	-7.667392289952328e-06,1.814202473652943e-13
26		1.819700858609982e+00,0.000000000000000e+00
	-7.667392289952327e-02,1.856460677867466e-09
	1.000000000000000e+00,0.000000000000000e+00
	0.000000000000000e+00,0.000000000000000e+00
	1.149627372750786e-08,-9.153212051061291e-14
	1.149687707148053e-08,1.321249240415866e-14
	7.667392289952278e-06,-1.856460677867470e-13
	1.621910077006746e-06,1.117002239051058e-11
	-6.131627553162706e-09,-6.369864170406506e-17
	-9.283170739405862e-06,-1.098431262408213e-11
	-7.667392289952328e-06,1.856460677867466e-13
	-1.621910076993194e-06,-1.117002239051058e-11
	-7.667392289952328e-06,1.856460677867466e-13
27		1.862087136662866e+00,0.000000000000000e+00
	-7.667392289952327e-02,1.899703202106556e-09
	1.000000000000000e+00,0.000000000000000e+00
	0.000000000000000e+00,0.000000000000000e+00
	1.149627372750720e-08,-9.366417748710788e-14
	1.149687707147998e-08,1.352025088773807e-14
	7.667392289952278e-06,-1.899703202106562e-13
	1.621910077006746e-06,1.143020563582860e-11
	-6.131627553162406e-09,-6.518237367347553e-17
	-9.283170739405862e-06,-1.124017013324427e-11
	-7.667392289952328e-06,1.899703202106556e-13
	-1.621910076993194e-06,-1.143020563582860e-11
	-7.667392289952328e-06,1.899703202106556e-13
28		1.905460717963246e+00,0.000000000000000e+00
	-7.667392289952327e-02,1.943952974128948e-09
	1.000000000000000e+00,0.000000000000000e+00
	0.000000000000000e+00,0.000000000000000e+00
	1.149627372750650e-08,-9.584589645029803e-14
	1.149687707147940e-08,1.383517798730023e-14
	7.667392289952278e-06,-1.943952974128939e-13
	1.621910077006746e-06,1.169644932747138e-11
	-6.131627553162090e-09,-6.670066620040960e-17
	-9.283170739405862e-06,-1.150198732939229e-11
	-7.667392289952328e-06,1.943952974128949e-13
	-1.621910076993194e-06,-1.169644932747138e-11
	-7.667392289952328e-06,1.943952974128949e-13
29		1.949844599758044e+00,0.000000000000000e+00
	-7.667392289952327e-02,1.989233455749483e-09
	1.000000000000000e+00,0.000000000000000e+00
	0.000000000000000e+00,0.000000000000000e+00
	1.149627372750577e-08,-9.807843417645690e-14
	1.149687707147880e-08,1.415744068136115e-14
	7.667392289952278e-06,-1.989233455749469e-13
	1.621910077006745e-06,1.196889463136841e-11
	-6.131627553161763e-09,-6.825432430327123e-17
	-9.283170739405862e-06,-1.176990303146916e-11
	-7.667392289952328e-06,1.989233455749484e-13
	-1.621910076993194e-06,-1.196889463136841e-11
	-7.667392289952328e-06,1.989233455749484e-13
30		1.995262314968878e+00,0.000000000000000e+00
	-7.667392289952327e-02,2.035568655278874e-09
	1.000000000000000e+00,0.000000000000000e+00
	0.000000000000000e+00,0.000000000000000e+00
	1.149627372750500e-08,-1.003629743866375e-13
	1.149687707147817e-08,1.448720983786740e-14
	7.667392289952278e-06,-2.035568655278851e-13
	1.621910077006745e-06,1.224768600162603e-11
	-6.131627553161418e-09,-6.984417175243518e-17
	-9.283170739405862e-06,-1.204405929192639e-11
	-7.667392289952328e-06,2.035568655278874e-13
	-1.621910076993194e-06,-1.224768600162603e-11
	-7.667392289952328e-06,2.035568655278874e-13
31		2.041737944669527e+00,0.000000000000000e+00
	-7.667392289952327e-02,2.082983140253229e-09
	1.000000000000000e+00,0.000000000000000e+00
	0.000000000000000e+00,0.000000000000000e+00
	1.149627372750420e-08,-1.027007283742992e-13
	1.149687707147752e-08,1.482466030479027e-14
	7.667392289952278e-06,-2.082983140253223e-13
	1.621910077006745e-06,1.253297125711900e-11
	-6.131627553161057e-09,-7.147105150579127e-17
	-9.283170739405862e-06,-1.232460147204218e-11
	-7.667392289952328e-06,2.082983140253229e-13
	-1.621910076993194e-06,-1.253297125711900e-11
	-7.667392289952328e-06,2.082983140253229e-13
32		2.089296130854037e+00,0.000000000000000e+00
	-7.667392289952327e-02,2.131502050460089e-09
	1.000000000000000e+00,0.000000000000000e+00
	0.000000000000000e+00,0.000000000000000e+00
