Title: * GA CMOS Amp | W=2.2623744368071662e-06 L=8.948801799753771e-07 Vbias=1.484784439755306
Date: Sat Sep  6 22:16:23 2025
Plotname: AC Analysis
Flags: complex forward log
No. Variables: 13
No. Points:          901
Offset:    0.0000000000000000e+00
Command: Linear Technology Corporation LTspice
Variables:
	0	frequency	frequency
	1	V(out)	voltage
	2	V(g)	voltage
	3	V(vdd)	voltage
	4	V(m1#dbody)	voltage
	5	V(m1#sbody)	voltage
	6	Id(M1)	device_current
	7	Ig(M1)	device_current
	8	Ib(M1)	device_current
	9	Is(M1)	device_current
	10	I(Rload)	device_current
	11	I(Vg)	device_current
	12	I(Vdd)	device_current
Values:
0		1.000000000000000e+00,0.000000000000000e+00
	-2.806460332621205e-01,1.241101354858061e-09
	1.000000000000000e+00,0.000000000000000e+00
	0.000000000000000e+00,0.000000000000000e+00
	6.761013984026361e-05,1.218255437837748e-13
	6.761014194510397e-05,1.342098103384322e-13
	2.806460332621206e-05,-1.241101354858061e-13
	4.049391914321580e-05,4.523269133701216e-13
	-3.605874225764827e-05,-7.075525437719227e-14
	-3.249978021177958e-05,-2.574615235071232e-13
	-2.806460332621205e-05,1.241101354858061e-13
	-4.049391914318079e-05,-4.523269133701215e-13
	-2.806460332621205e-05,1.241101354858061e-13
1		1.023292992280754e+00,0.000000000000000e+00
	-2.806460332621205e-01,1.270010319136403e-09
	1.000000000000000e+00,0.000000000000000e+00
	0.000000000000000e+00,0.000000000000000e+00
	6.761013984026361e-05,1.246632252347289e-13
	6.761014194510397e-05,1.373359584146468e-13
	2.806460332621206e-05,-1.270010319136403e-13
	4.049391914321580e-05,4.628629606716291e-13
	-3.605874225764827e-05,-7.240335597122299e-14
	-3.249978021177958e-05,-2.634585727867658e-13
	-2.806460332621205e-05,1.270010319136403e-13
	-4.049391914318079e-05,-4.628629606716292e-13
	-2.806460332621205e-05,1.270010319136403e-13
2		1.047128548050899e+00,0.000000000000000e+00
	-2.806460332621205e-01,1.299592659696525e-09
	1.000000000000000e+00,0.000000000000000e+00
	0.000000000000000e+00,0.000000000000000e+00
	6.761013984026361e-05,1.275670047778153e-13
	6.761014194510397e-05,1.405349238338691e-13
	2.806460332621206e-05,-1.299592659696525e-13
	4.049391914321580e-05,4.736444240416003e-13
	-3.605874225764827e-05,-7.408984678296137e-14
	-3.249978021177958e-05,-2.695953112889864e-13
	-2.806460332621205e-05,1.299592659696525e-13
	-4.049391914318079e-05,-4.736444240416004e-13
	-2.806460332621205e-05,1.299592659696525e-13
3		1.071519305237606e+00,0.000000000000000e+00
	-2.806460332621205e-01,1.329864061486961e-09
	1.000000000000000e+00,0.000000000000000e+00
	0.000000000000000e+00,0.000000000000000e+00
	6.761013984026361e-05,1.305384220353839e-13
	6.761014194510397e-05,1.438084027299078e-13
	2.806460332621206e-05,-1.329864061486961e-13
	4.049391914321580e-05,4.846770199546236e-13
	-3.605874225764827e-05,-7.581562101215916e-14
	-3.249978021177958e-05,-2.758749927937683e-13
	-2.806460332621205e-05,1.329864061486961e-13
	-4.049391914318079e-05,-4.846770199546236e-13
	-2.806460332621205e-05,1.329864061486961e-13
4		1.096478196143185e+00,0.000000000000000e+00
	-2.806460332621205e-01,1.360840574805629e-09
	1.000000000000000e+00,0.000000000000000e+00
	0.000000000000000e+00,0.000000000000000e+00
	6.761013984026361e-05,1.335790524921960e-13
	6.761014194510397e-05,1.471581307446031e-13
	2.806460332621206e-05,-1.360840574805629e-13
	4.049391914321580e-05,4.959665980390855e-13
	-3.605874225764827e-05,-7.758159368715595e-14
	-3.249978021177958e-05,-2.823009468713666e-13
	-2.806460332621205e-05,1.360840574805629e-13
	-4.049391914318079e-05,-4.959665980390854e-13
	-2.806460332621205e-05,1.360840574805629e-13
5		1.122018454301963e+00,0.000000000000000e+00
	-2.806460332621205e-01,1.392538623809914e-09
	1.000000000000000e+00,0.000000000000000e+00
	0.000000000000000e+00,0.000000000000000e+00
	6.761013984026361e-05,1.366905083307671e-13
	6.761014194510397e-05,1.505858839480873e-13
	2.806460332621206e-05,-1.392538623809914e-13
	4.049391914321580e-05,5.075191441787218e-13
	-3.605874225764827e-05,-7.938870115003948e-14
	-3.249978021177958e-05,-2.888765806476910e-13
	-2.806460332621205e-05,1.392538623809914e-13
	-4.049391914318079e-05,-5.075191441787217e-13
	-2.806460332621205e-05,1.392538623809914e-13
6		1.148153621496882e+00,0.000000000000000e+00
	-2.806460332621205e-01,1.424975015224970e-09
	1.000000000000000e+00,0.000000000000000e+00
	0.000000000000000e+00,0.000000000000000e+00
	6.761013984026361e-05,1.398744392861680e-13
	6.761014194510397e-05,1.540934797804807e-13
	2.806460332621206e-05,-1.424975015224970e-13
	4.049391914321580e-05,5.193407836864118e-13
	-3.605874225764827e-05,-8.123790155310645e-14
	-3.249978021177958e-05,-2.956053806108083e-13
	-2.806460332621205e-05,1.424975015224970e-13
	-4.049391914318079e-05,-5.193407836864118e-13
	-2.806460332621205e-05,1.424975015224970e-13
7		1.174897554939529e+00,0.000000000000000e+00
	-2.806460332621205e-01,1.458166947254873e-09
	1.000000000000000e+00,0.000000000000000e+00
	0.000000000000000e+00,0.000000000000000e+00
	6.761013984026361e-05,1.431325335207355e-13
	6.761014194510397e-05,1.576827780155219e-13
	2.806460332621206e-05,-1.458166947254873e-13
	4.049391914321580e-05,5.314377845519000e-13
	-3.605874225764827e-05,-8.313017536688759e-14
	-3.249978021177958e-05,-3.024909144595252e-13
	-2.806460332621205e-05,1.458166947254873e-13
	-4.049391914318079e-05,-5.314377845519001e-13
	-2.806460332621205e-05,1.458166947254873e-13
8		1.202264434617413e+00,0.000000000000000e+00
	-2.806460332621205e-01,1.492132018701331e-09
	1.000000000000000e+00,0.000000000000000e+00
	0.000000000000000e+00,0.000000000000000e+00
	6.761013984026361e-05,1.464665185191589e-13
	6.761014194510397e-05,1.613556817466454e-13
	2.806460332621206e-05,-1.492132018701331e-13
	4.049391914321580e-05,5.438165607651685e-13
	-3.605874225764827e-05,-8.506652590000627e-14
	-3.249978021177958e-05,-3.095368329950291e-13
	-2.806460332621205e-05,1.492132018701331e-13
	-4.049391914318079e-05,-5.438165607651686e-13
	-2.806460332621205e-05,1.492132018701331e-13
9		1.230268770812381e+00,0.000000000000000e+00
	-2.806460332621205e-01,1.526888238294807e-09
	1.000000000000000e+00,0.000000000000000e+00
	0.000000000000000e+00,0.000000000000000e+00
	6.761013984026361e-05,1.498781620044145e-13
	6.761014194510397e-05,1.651141383960258e-13
	2.806460332621206e-05,-1.526888238294807e-13
	4.049391914321580e-05,5.564836757172179e-13
	-3.605874225764827e-05,-8.704797983114568e-14
	-3.249978021177958e-05,-3.167468720565914e-13
	-2.806460332621205e-05,1.526888238294807e-13
	-4.049391914318079e-05,-5.564836757172179e-13
	-2.806460332621205e-05,1.526888238294807e-13
10		1.258925411794167e+00,0.000000000000000e+00
	-2.806460332621205e-01,1.562454034242983e-09
	1.000000000000000e+00,0.000000000000000e+00
	0.000000000000000e+00,0.000000000000000e+00
	6.761013984026361e-05,1.533692728750370e-13
	6.761014194510397e-05,1.689601407471278e-13
	2.806460332621206e-05,-1.562454034242983e-13
	4.049391914321580e-05,5.694458456800648e-13
	-3.605874225764827e-05,-8.907558775340780e-14
	-3.249978021177958e-05,-3.241248545023587e-13
	-2.806460332621205e-05,1.562454034242983e-13
	-4.049391914318079e-05,-5.694458456800648e-13
	-2.806460332621205e-05,1.562454034242983e-13
11		1.288249551693134e+00,0.000000000000000e+00
	-2.806460332621205e-01,1.598848264001637e-09
	1.000000000000000e+00,0.000000000000000e+00
	0.000000000000000e+00,0.000000000000000e+00
	6.761013984026361e-05,1.569417021642201e-13
	6.761014194510397e-05,1.728957280013058e-13
	2.806460332621206e-05,-1.598848264001638e-13
	4.049391914321580e-05,5.827099433677981e-13
	-3.605874225764827e-05,-9.115042473135158e-14
	-3.249978021177958e-05,-3.316746922362827e-13
	-2.806460332621205e-05,1.598848264001637e-13
	-4.049391914318079e-05,-5.827099433677981e-13
	-2.806460332621205e-05,1.598848264001637e-13
12		1.318256738556407e+00,0.000000000000000e+00
	-2.806460332621205e-01,1.636090224273125e-09
	1.000000000000000e+00,0.000000000000000e+00
	0.000000000000000e+00,0.000000000000000e+00
	6.761013984026361e-05,1.605973440212597e-13
	6.761014194510397e-05,1.769229868590155e-13
	2.806460332621206e-05,-1.636090224273125e-13
	4.049391914321580e-05,5.962830015805828e-13
	-3.605874225764827e-05,-9.327359087100639e-14
	-3.249978021177958e-05,-3.394003882822639e-13
	-2.806460332621205e-05,1.636090224273125e-13
	-4.049391914318079e-05,-5.962830015805828e-13
	-2.806460332621205e-05,1.636090224273125e-13
13		1.348962882591653e+00,0.000000000000000e+00
	-2.806460332621205e-01,1.674199661237736e-09
	1.000000000000000e+00,0.000000000000000e+00
	0.000000000000000e+00,0.000000000000000e+00
	6.761013984026361e-05,1.643381367158565e-13
	6.761014194510397e-05,1.810440526262106e-13
	2.806460332621206e-05,-1.674199661237737e-13
	4.049391914321580e-05,6.101722169335443e-13
	-3.605874225764827e-05,-9.544621190316297e-14
	-3.249978021177958e-05,-3.473060389066077e-13
	-2.806460332621205e-05,1.674199661237736e-13
	-4.049391914318079e-05,-6.101722169335444e-13
	-2.806460332621205e-05,1.674199661237736e-13
14		1.380384264602885e+00,0.000000000000000e+00
	-2.806460332621205e-01,1.713196781023388e-09
	1.000000000000000e+00,0.000000000000000e+00
	0.000000000000000e+00,0.000000000000000e+00
	6.761013984026361e-05,1.681660636658125e-13
	6.761014194510397e-05,1.852611103465094e-13
	2.806460332621206e-05,-1.713196781023388e-13
	4.049391914321580e-05,6.243849536725080e-13
	-3.605874225764827e-05,-9.766943978025059e-14
	-3.249978021177958e-05,-3.553958357899185e-13
	-2.806460332621205e-05,1.713196781023388e-13
	-4.049391914318079e-05,-6.243849536725081e-13
	-2.806460332621205e-05,1.713196781023388e-13
15		1.412537544622754e+00,0.000000000000000e+00
	-2.806460332621205e-01,1.753102260419179e-09
	1.000000000000000e+00,0.000000000000000e+00
	0.000000000000000e+00,0.000000000000000e+00
	6.761013984026361e-05,1.720831544886650e-13
	6.761014194510397e-05,1.895763959597345e-13
	2.806460332621206e-05,-1.753102260419179e-13
	4.049391914321580e-05,6.389287475786208e-13
	-3.605874225764827e-05,-9.994445328711753e-14
	-3.249978021177958e-05,-3.636740682495853e-13
	-2.806460332621205e-05,1.753102260419179e-13
	-4.049391914318079e-05,-6.389287475786208e-13
	-2.806460332621205e-05,1.753102260419179e-13
16		1.445439770745927e+00,0.000000000000000e+00
	-2.806460332621205e-01,1.793937257838494e-09
	1.000000000000000e+00,0.000000000000000e+00
	0.000000000000000e+00,0.000000000000000e+00
	6.761013984026361e-05,1.760914860778173e-13
	6.761014194510397e-05,1.939921974874378e-13
	2.806460332621206e-05,-1.793937257838495e-13
	4.049391914321580e-05,6.538113099639213e-13
	-3.605874225764827e-05,-1.022724586660385e-13
	-3.249978021177958e-05,-3.721451255140333e-13
	-2.806460332621205e-05,1.793937257838495e-13
	-4.049391914318079e-05,-6.538113099639214e-13
	-2.806460332621205e-05,1.793937257838495e-13
17		1.479108388168207e+00,0.000000000000000e+00
	-2.806460332621205e-01,1.835723424537483e-09
	1.000000000000000e+00,0.000000000000000e+00
	0.000000000000000e+00,0.000000000000000e+00
	6.761013984026361e-05,1.801931837037344e-13
	6.761014194510397e-05,1.985108562460392e-13
	2.806460332621206e-05,-1.835723424537485e-13
	4.049391914321580e-05,6.690405317599807e-13
	-3.605874225764827e-05,-1.046546902562803e-13
	-3.249978021177958e-05,-3.808134990499519e-13
	-2.806460332621205e-05,1.835723424537483e-13
	-4.049391914318079e-05,-6.690405317599805e-13
	-2.806460332621205e-05,1.835723424537483e-13
18		1.513561248436208e+00,0.000000000000000e+00
	-2.806460332621205e-01,1.878482916094835e-09
	1.000000000000000e+00,0.000000000000000e+00
	0.000000000000000e+00,0.000000000000000e+00
	6.761013984026361e-05,1.843904221407900e-13
	6.761014194510397e-05,2.031347680882240e-13
	2.806460332621206e-05,-1.878482916094835e-13
	4.049391914321580e-05,6.846244877017775e-13
	-3.605874225764827e-05,-1.070924111485645e-13
	-3.249978021177958e-05,-3.896837849437294e-13
	-2.806460332621205e-05,1.878482916094835e-13
	-4.049391914318079e-05,-6.846244877017774e-13
	-2.806460332621205e-05,1.878482916094835e-13
19		1.548816618912481e+00,0.000000000000000e+00
	-2.806460332621205e-01,1.922238404158961e-09
	1.000000000000000e+00,0.000000000000000e+00
	0.000000000000000e+00,0.000000000000000e+00
	6.761013984026361e-05,1.886854268203604e-13
	6.761014194510397e-05,2.078663846732558e-13
	2.806460332621206e-05,-1.922238404158961e-13
	4.049391914321580e-05,7.005714406090302e-13
	-3.605874225764827e-05,-1.095869138547754e-13
	-3.249978021177958e-05,-3.987606863383587e-13
	-2.806460332621205e-05,1.922238404158961e-13
	-4.049391914318079e-05,-7.005714406090303e-13
	-2.806460332621205e-05,1.922238404158961e-13
20		1.584893192461113e+00,0.000000000000000e+00
	-2.806460332621205e-01,1.967013088468804e-09
	1.000000000000000e+00,0.000000000000000e+00
	0.000000000000000e+00,0.000000000000000e+00
	6.761013984026361e-05,1.930804750107778e-13
	6.761014194510397e-05,2.127082147668782e-13
	2.806460332621206e-05,-1.967013088468805e-13
	4.049391914321580e-05,7.168898457672532e-13
	-3.605874225764827e-05,-1.121395209932664e-13
	-3.249978021177958e-05,-4.080490159271063e-13
	-2.806460332621205e-05,1.967013088468805e-13
	-4.049391914318079e-05,-7.168898457672531e-13
	-2.806460332621205e-05,1.967013088468805e-13
21		1.621810097358929e+00,0.000000000000000e+00
	-2.806460332621205e-01,2.012830709154650e-09
	1.000000000000000e+00,0.000000000000000e+00
	0.000000000000000e+00,0.000000000000000e+00
	6.761013984026361e-05,1.975778970247682e-13
	6.761014194510397e-05,2.176628255714961e-13
	2.806460332621206e-05,-2.012830709154651e-13
	4.049391914321580e-05,7.335883554108608e-13
	-3.605874225764827e-05,-1.147515859901300e-13
	-3.249978021177958e-05,-4.175536985052657e-13
	-2.806460332621205e-05,2.012830709154650e-13
	-4.049391914318079e-05,-7.335883554108608e-13
	-2.806460332621205e-05,2.012830709154650e-13
22		1.659586907437560e+00,0.000000000000000e+00
	-2.806460332621205e-01,2.059715559325454e-09
	1.000000000000000e+00,0.000000000000000e+00
	0.000000000000000e+00,0.000000000000000e+00
	6.761013984026361e-05,2.021800774550138e-13
	6.761014194510397e-05,2.227328440873401e-13
	2.806460332621206e-05,-2.059715559325455e-13
	4.049391914321580e-05,7.506758233106971e-13
	-3.605874225764827e-05,-1.174244937968024e-13
	-3.249978021177958e-05,-4.272797735813492e-13
	-2.806460332621205e-05,2.059715559325454e-13
	-4.049391914318079e-05,-7.506758233106969e-13
	-2.806460332621205e-05,2.059715559325454e-13
23		1.698243652461743e+00,0.000000000000000e+00
	-2.806460332621205e-01,2.107692497949372e-09
	1.000000000000000e+00,0.000000000000000e+00
	0.000000000000000e+00,0.000000000000000e+00
	6.761013984026361e-05,2.068894564384958e-13
	6.761014194510397e-05,2.279209585053370e-13
	2.806460332621206e-05,-2.107692497949372e-13
	4.049391914321580e-05,7.681613094684219e-13
	-3.605874225764827e-05,-1.201596616243828e-13
	-3.249978021177958e-05,-4.372323980491019e-13
	-2.806460332621205e-05,2.107692497949372e-13
	-4.049391914318079e-05,-7.681613094684219e-13
	-2.806460332621205e-05,2.107692497949372e-13
24		1.737800828749374e+00,0.000000000000000e+00
	-2.806460332621205e-01,2.156786963034309e-09
	1.000000000000000e+00,0.000000000000000e+00
	0.000000000000000e+00,0.000000000000000e+00
	6.761013984026361e-05,2.117085309502870e-13
	6.761014194510397e-05,2.332299196324238e-13
	2.806460332621206e-05,-2.156786963034309e-13
	4.049391914321580e-05,7.860540849202437e-13
	-3.605874225764827e-05,-1.229585396950575e-13
	-3.249978021177958e-05,-4.474168489217553e-13
	-2.806460332621205e-05,2.156786963034309e-13
	-4.049391914318079e-05,-7.860540849202438e-13
	-2.806460332621205e-05,2.156786963034309e-13
25		1.778279410038922e+00,0.000000000000000e+00
	-2.806460332621205e-01,2.207024985115499e-09
	1.000000000000000e+00,0.000000000000000e+00
	0.000000000000000e+00,0.000000000000000e+00
	6.761013984026361e-05,2.166398561274818e-13
	6.761014194510397e-05,2.386625423500628e-13
	2.806460332621206e-05,-2.207024985115499e-13
	4.049391914321580e-05,8.043636366525463e-13
	-3.605874225764827e-05,-1.258226120110273e-13
	-3.249978021177958e-05,-4.578385261299691e-13
	-2.806460332621205e-05,2.207024985115499e-13
	-4.049391914318079e-05,-8.043636366525462e-13
	-2.806460332621205e-05,2.207024985115499e-13
26		1.819700858609982e+00,0.000000000000000e+00
	-2.806460332621205e-01,2.258433201057225e-09
	1.000000000000000e+00,0.000000000000000e+00
	0.000000000000000e+00,0.000000000000000e+00
	6.761013984026361e-05,2.216860466239630e-13
	6.761014194510397e-05,2.442217071067280e-13
	2.806460332621206e-05,-2.258433201057226e-13
	4.049391914321580e-05,8.230996726320132e-13
	-3.605874225764827e-05,-1.287533971413445e-13
	-3.249978021177958e-05,-4.685029553849463e-13
	-2.806460332621205e-05,2.258433201057225e-13
	-4.049391914318079e-05,-8.230996726320131e-13
	-2.806460332621205e-05,2.258433201057225e-13
27		1.862087136662866e+00,0.000000000000000e+00
	-2.806460332621205e-01,2.311038868176050e-09
	1.000000000000000e+00,0.000000000000000e+00
	0.000000000000000e+00,0.000000000000000e+00
	6.761013984026361e-05,2.268497779967259e-13
	6.761014194510397e-05,2.499103614451576e-13
	2.806460332621206e-05,-2.311038868176050e-13
	4.049391914321580e-05,8.422721269529219e-13
	-3.605874225764827e-05,-1.317524490270787e-13
	-3.249978021177958e-05,-4.794157911082383e-13
	-2.806460332621205e-05,2.311038868176050e-13
	-4.049391914318079e-05,-8.422721269529218e-13
	-2.806460332621205e-05,2.311038868176050e-13
28		1.905460717963246e+00,0.000000000000000e+00
	-2.806460332621205e-01,2.364869878692997e-09
	1.000000000000000e+00,0.000000000000000e+00
	0.000000000000000e+00,0.000000000000000e+00
	6.761013984026361e-05,2.321337881244943e-13
	6.761014194510397e-05,2.557315215651800e-13
	2.806460332621206e-05,-2.364869878692997e-13
	4.049391914321580e-05,8.618911651043306e-13
	-3.605874225764827e-05,-1.348213578052369e-13
	-3.249978021177958e-05,-4.905828194297941e-13
	-2.806460332621205e-05,2.364869878692998e-13
	-4.049391914318079e-05,-8.618911651043308e-13
	-2.806460332621205e-05,2.364869878692998e-13
29		1.949844599758044e+00,0.000000000000000e+00
	-2.806460332621205e-01,2.419954774522382e-09
	1.000000000000000e+00,0.000000000000000e+00
	0.000000000000000e+00,0.000000000000000e+00
	6.761013984026361e-05,2.375408786593804e-13
	6.761014194510397e-05,2.616882739229433e-13
	2.806460332621206e-05,-2.419954774522382e-13
	4.049391914321580e-05,8.819671893599561e-13
	-3.605874225764827e-05,-1.379617506518750e-13
	-3.249978021177958e-05,-5.020099612558429e-13
	-2.806460332621205e-05,2.419954774522382e-13
	-4.049391914318079e-05,-8.819671893599562e-13
	-2.806460332621205e-05,2.419954774522382e-13
30		1.995262314968878e+00,0.000000000000000e+00
	-2.806460332621205e-01,2.476322762405105e-09
	1.000000000000000e+00,0.000000000000000e+00
	0.000000000000000e+00,0.000000000000000e+00
	6.761013984026361e-05,2.430739165123569e-13
	6.761014194510397e-05,2.677837768673943e-13
	2.806460332621206e-05,-2.476322762405106e-13
	4.049391914321580e-05,9.025108442935959e-13
	-3.605874225764827e-05,-1.411752926448485e-13
	-3.249978021177958e-05,-5.137032754082369e-13
	-2.806460332621205e-05,2.476322762405105e-13
	-4.049391914318079e-05,-9.025108442935958e-13
	-2.806460332621205e-05,2.476322762405105e-13
31		2.041737944669527e+00,0.000000000000000e+00
	-2.806460332621205e-01,2.534003729394462e-09
	1.000000000000000e+00,0.000000000000000e+00
	0.000000000000000e+00,0.000000000000000e+00
	6.761013984026361e-05,2.487358353733319e-13
	6.761014194510397e-05,2.740212623148775e-13
	2.806460332621206e-05,-2.534003729394463e-13
	4.049391914321580e-05,9.235330224230233e-13
	-3.605874225764827e-05,-1.444636876466581e-13
	-3.249978021177958e-05,-5.256689618369189e-13
	-2.806460332621205e-05,2.534003729394462e-13
	-4.049391914318079e-05,-9.235330224230233e-13
	-2.806460332621205e-05,2.534003729394462e-13
32		2.089296130854037e+00,0.000000000000000e+00
	-2.806460332621205e-01,2.593028258702650e-09
	1.000000000000000e+00,0.000000000000000e+00
	0.000000000000000e+00,0.000000000000000e+00
	6.761013984026361e-05,2.545296372666298e-13
