LTspice 24.0.9 for Windows
Circuit: * GA CMOS Amp | W=1.9165283052191803e-05 L=2.7455325020778064e-07 Vbias=1.4305600926651985
Start Time: Sat Sep  6 22:01:52 2025
solver = Normal
Maximum thread count: 2
tnom = 27
temp = 27
method = modified trap
AsciiRawFile = 1
Direct Newton iteration for .op point succeeded.
Semiconductor Device Operating Points:
                        --- BSIM4 MOSFETS ---
Name:      m1
Model:      n
Id:      1.77e-04
Vgs:     1.43e+00
Vds:     2.83e-02
Vbs:     0.00e+00
Vth:     2.75e-01
Vdsat:   8.09e-01
Gm:     -1.97e-05
Gds:     6.21e-03
Gmb      8.34e-05
Cbd:     9.49e-15
Cbs:     1.53e-14


.measure op idd find i(vdd)
  Error: FIND can not be evaluated over an interval.

gain_db: MAX(db(v(out)/v(g)))=(33.5975dB,180°) FROM 1 TO 1e+09
gain_lin: MAX(mag(v(out)/v(g)))=(-18.8492dB,0°) FROM 1 TO 1e+09

Measurement "fc" FAIL'ed

Total elapsed time: 0.516 seconds.

