LTspice 24.0.9 for Windows
Circuit: * GA CMOS Amp | W=3.0420708623311366e-05 L=8.420413864477795e-07 Vbias=0.6347895930227789
Start Time: Sat Sep  6 22:37:35 2025
solver = Normal
Maximum thread count: 2
tnom = 27
temp = 27
method = modified trap
AsciiRawFile = 1
Direct Newton iteration for .op point succeeded.
Semiconductor Device Operating Points:
                        --- BSIM4 MOSFETS ---
Name:      m1
Model:      n
Id:      1.74e-04
Vgs:     6.35e-01
Vds:     6.11e-02
Vbs:     0.00e+00
Vth:     2.38e-01
Vdsat:   3.04e-01
Gm:      2.19e-04
Gds:     2.52e-03
Gmb      1.98e-04
Cbd:     1.49e-14
Cbs:     2.43e-14


.measure op idd find i(vdd)
  Error: FIND can not be evaluated over an interval.

gain_db: MAX(db(v(out)/v(g)))=(30.8314dB,128.359°) FROM 1 TO 1e+09
gain_lin: MAX(mag(v(out)/v(g)))=(-2.57318dB,0°) FROM 1 TO 1e+09

Measurement "fc" FAIL'ed

Total elapsed time: 0.462 seconds.

