Title: * GA CMOS Amp | W=2.521458186358844e-06 L=9.281433710232714e-07 Vbias=1.4598960906633918
Date: Sat Sep  6 22:13:37 2025
Plotname: AC Analysis
Flags: complex forward log
No. Variables: 13
No. Points:          901
Offset:    0.0000000000000000e+00
Command: Linear Technology Corporation LTspice
Variables:
	0	frequency	frequency
	1	V(out)	voltage
	2	V(g)	voltage
	3	V(vdd)	voltage
	4	V(m1#dbody)	voltage
	5	V(m1#sbody)	voltage
	6	Id(M1)	device_current
	7	Ig(M1)	device_current
	8	Ib(M1)	device_current
	9	Is(M1)	device_current
	10	I(Rload)	device_current
	11	I(Vg)	device_current
	12	I(Vdd)	device_current
Values:
0		1.000000000000000e+00,0.000000000000000e+00
	-2.549802157320092e-01,1.343344939655721e-09
	1.000000000000000e+00,0.000000000000000e+00
	0.000000000000000e+00,0.000000000000000e+00
	6.564540273198375e-05,1.378029098706276e-13
	6.564540464433006e-05,1.504601775462316e-13
	2.549802157320092e-05,-1.343344939655721e-13
	3.978451510725406e-05,5.240544026743498e-13
	-3.501088237594349e-05,-7.940410626087293e-14
	-3.027165430451149e-05,-3.103158024479047e-13
	-2.549802157320092e-05,1.343344939655721e-13
	-3.978451510677772e-05,-5.240544026743498e-13
	-2.549802157320092e-05,1.343344939655721e-13
1		1.023292992280754e+00,0.000000000000000e+00
	-2.549802157320092e-01,1.374635462965512e-09
	1.000000000000000e+00,0.000000000000000e+00
	0.000000000000000e+00,0.000000000000000e+00
	6.564540273198375e-05,1.410127519865096e-13
	6.564540464433006e-05,1.539648453003768e-13
	2.549802157320092e-05,-1.374635462965512e-13
	3.978451510725406e-05,5.362611978305387e-13
	-3.501088237594349e-05,-8.125366549506761e-14
	-3.027165430451149e-05,-3.175439860389199e-13
	-2.549802157320092e-05,1.374635462965512e-13
	-3.978451510677772e-05,-5.362611978305387e-13
	-2.549802157320092e-05,1.374635462965512e-13
2		1.047128548050899e+00,0.000000000000000e+00
	-2.549802157320092e-01,1.406654836193218e-09
	1.000000000000000e+00,0.000000000000000e+00
	0.000000000000000e+00,0.000000000000000e+00
	6.564540273198375e-05,1.442973609300193e-13
	6.564540464433006e-05,1.575511472534660e-13
	2.549802157320092e-05,-1.406654836193219e-13
	3.978451510725406e-05,5.487523257720733e-13
	-3.501088237594349e-05,-8.314630649822721e-14
	-3.027165430451149e-05,-3.249405356545243e-13
	-2.549802157320092e-05,1.406654836193218e-13
	-3.978451510677772e-05,-5.487523257720733e-13
	-2.549802157320092e-05,1.406654836193218e-13
3		1.071519305237606e+00,0.000000000000000e+00
	-2.549802157320092e-01,1.439420036434352e-09
	1.000000000000000e+00,0.000000000000000e+00
	0.000000000000000e+00,0.000000000000000e+00
	6.564540273198375e-05,1.476584782442954e-13
	6.564540464433006e-05,1.612209849102649e-13
	2.549802157320092e-05,-1.439420036434353e-13
	3.978451510725406e-05,5.615344094603281e-13
	-3.501088237594349e-05,-8.508303277366361e-14
	-3.027165430451149e-05,-3.325093730432292e-13
	-2.549802157320092e-05,1.439420036434352e-13
	-3.978451510677772e-05,-5.615344094603281e-13
	-2.549802157320092e-05,1.439420036434352e-13
4		1.096478196143185e+00,0.000000000000000e+00
	-2.549802157320092e-01,1.472948436231780e-09
	1.000000000000000e+00,0.000000000000000e+00
	0.000000000000000e+00,0.000000000000000e+00
	6.564540273198375e-05,1.510978860382276e-13
	6.564540464433006e-05,1.649763040672753e-13
	2.549802157320092e-05,-1.472948436231781e-13
	3.978451510725406e-05,5.746142261252654e-13
	-3.501088237594349e-05,-8.706487119928369e-14
	-3.027165430451149e-05,-3.402545113028035e-13
	-2.549802157320092e-05,1.472948436231780e-13
	-3.978451510677772e-05,-5.746142261252652e-13
	-2.549802157320092e-05,1.472948436231780e-13
5		1.122018454301963e+00,0.000000000000000e+00
	-2.549802157320092e-01,1.507257812786876e-09
	1.000000000000000e+00,0.000000000000000e+00
	0.000000000000000e+00,0.000000000000000e+00
	6.564540273198375e-05,1.546174079313543e-13
	6.564540464433006e-05,1.688190958444217e-13
	2.549802157320092e-05,-1.507257812786877e-13
	3.978451510725406e-05,5.879987108588127e-13
	-3.501088237594349e-05,-8.909287257205347e-14
	-3.027165430451149e-05,-3.481800570080715e-13
	-2.549802157320092e-05,1.507257812786876e-13
	-3.978451510677772e-05,-5.879987108588126e-13
	-2.549802157320092e-05,1.507257812786876e-13
6		1.148153621496882e+00,0.000000000000000e+00
	-2.549802157320092e-01,1.542366357385227e-09
	1.000000000000000e+00,0.000000000000000e+00
	0.000000000000000e+00,0.000000000000000e+00
	6.564540273198375e-05,1.582189100207696e-13
	6.564540464433006e-05,1.727513977407697e-13
	2.549802157320092e-05,-1.542366357385228e-13
	3.978451510725406e-05,6.016949602919404e-13
	-3.501088237594349e-05,-9.116811216514450e-14
	-3.027165430451149e-05,-3.562902123882731e-13
	-2.549802157320092e-05,1.542366357385227e-13
	-3.978451510677772e-05,-6.016949602919402e-13
	-2.549802157320092e-05,1.542366357385227e-13
7		1.174897554939529e+00,0.000000000000000e+00
	-2.549802157320092e-01,1.578292685041896e-09
	1.000000000000000e+00,0.000000000000000e+00
	0.000000000000000e+00,0.000000000000000e+00
	6.564540273198375e-05,1.619043018705527e-13
	6.564540464433006e-05,1.767752947148349e-13
	2.549802157320092e-05,-1.578292685041897e-13
	3.978451510725406e-05,6.157102363573891e-13
	-3.501088237594349e-05,-9.329169029805814e-14
	-3.027165430451149e-05,-3.645892775551413e-13
	-2.549802157320092e-05,1.578292685041896e-13
	-3.978451510677772e-05,-6.157102363573891e-13
	-2.549802157320092e-05,1.578292685041896e-13
8		1.202264434617413e+00,0.000000000000000e+00
	-2.549802157320092e-01,1.615055844371348e-09
	1.000000000000000e+00,0.000000000000000e+00
	0.000000000000000e+00,0.000000000000000e+00
	6.564540273198375e-05,1.656755375242444e-13
	6.564540464433006e-05,1.808929202900556e-13
	2.549802157320092e-05,-1.615055844371348e-13
	3.978451510725406e-05,6.300519701400431e-13
	-3.501088237594349e-05,-9.546473292002934e-14
	-3.027165430451149e-05,-3.730816527828790e-13
	-2.549802157320092e-05,1.615055844371348e-13
	-3.978451510677772e-05,-6.300519701400430e-13
	-2.549802157320092e-05,1.615055844371348e-13
9		1.230268770812381e+00,0.000000000000000e+00
	-2.549802157320092e-01,1.652675327687276e-09
	1.000000000000000e+00,0.000000000000000e+00
	0.000000000000000e+00,0.000000000000000e+00
	6.564540273198375e-05,1.695346165409064e-13
	6.564540464433006e-05,1.851064576860149e-13
	2.549802157320092e-05,-1.652675327687277e-13
	3.978451510725406e-05,6.447277658169890e-13
	-3.501088237594349e-05,-9.768839220701983e-14
	-3.027165430451149e-05,-3.817718408412415e-13
	-2.549802157320092e-05,1.652675327687277e-13
	-3.978451510677772e-05,-6.447277658169888e-13
	-2.549802157320092e-05,1.652675327687277e-13
10		1.258925411794167e+00,0.000000000000000e+00
	-2.549802157320092e-01,1.691171081337689e-09
	1.000000000000000e+00,0.000000000000000e+00
	0.000000000000000e+00,0.000000000000000e+00
	6.564540273198375e-05,1.734835850553143e-13
	6.564540464433006e-05,1.894181409760130e-13
	2.549802157320092e-05,-1.691171081337690e-13
	3.978451510725406e-05,6.597454046893521e-13
	-3.501088237594349e-05,-9.996384717261724e-14
	-3.027165430451149e-05,-3.906644493829659e-13
	-2.549802157320092e-05,1.691171081337689e-13
	-3.978451510677772e-05,-6.597454046893522e-13
	-2.549802157320092e-05,1.691171081337689e-13
11		1.288249551693134e+00,0.000000000000000e+00
	-2.549802157320092e-01,1.730563516280722e-09
	1.000000000000000e+00,0.000000000000000e+00
	0.000000000000000e+00,0.000000000000000e+00
	6.564540273198375e-05,1.775245368628453e-13
	6.564540464433006e-05,1.938302562716021e-13
	2.549802157320092e-05,-1.730563516280724e-13
	3.978451510725406e-05,6.751128493080442e-13
	-3.501088237594349e-05,-1.022923042931635e-13
	-3.027165430451149e-05,-3.997641933868084e-13
	-2.549802157320092e-05,1.730563516280722e-13
	-3.978451510677772e-05,-6.751128493080442e-13
	-2.549802157320092e-05,1.730563516280722e-13
12		1.318256738556407e+00,0.000000000000000e+00
	-2.549802157320092e-01,1.770873518906804e-09
	1.000000000000000e+00,0.000000000000000e+00
	0.000000000000000e+00,0.000000000000000e+00
	6.564540273198375e-05,1.816596145296360e-13
	6.564540464433006e-05,1.983451429347131e-13
	2.549802157320092e-05,-1.770873518906805e-13
	3.978451510725406e-05,6.908382476956145e-13
	-3.501088237594349e-05,-1.046749981474447e-13
	-3.027165430451149e-05,-4.090758976574893e-13
	-2.549802157320092e-05,1.770873518906804e-13
	-3.978451510677772e-05,-6.908382476956143e-13
	-2.549802157320092e-05,1.770873518906804e-13
13		1.348962882591653e+00,0.000000000000000e+00
	-2.549802157320092e-01,1.812122462112892e-09
	1.000000000000000e+00,0.000000000000000e+00
	0.000000000000000e+00,0.000000000000000e+00
	6.564540273198375e-05,1.858910105285996e-13
	6.564540464433006e-05,2.029651948180164e-13
	2.549802157320092e-05,-1.812122462112893e-13
	3.978451510725406e-05,7.069299376664380e-13
	-3.501088237594349e-05,-1.071131920712811e-13
	-3.027165430451149e-05,-4.186044993838677e-13
	-2.549802157320092e-05,1.812122462112892e-13
	-3.978451510677772e-05,-7.069299376664381e-13
	-2.549802157320092e-05,1.812122462112892e-13
14		1.380384264602885e+00,0.000000000000000e+00
	-2.549802157320092e-01,1.854332216634670e-09
	1.000000000000000e+00,0.000000000000000e+00
	0.000000000000000e+00,0.000000000000000e+00
	6.564540273198375e-05,1.902209684019039e-13
	6.564540464433006e-05,2.076928615341744e-13
	2.549802157320092e-05,-1.854332216634669e-13
	3.978451510725406e-05,7.233964512475365e-13
	-3.501088237594349e-05,-1.096081788273644e-13
	-3.027165430451149e-05,-4.283550507567051e-13
	-2.549802157320092e-05,1.854332216634670e-13
	-3.978451510677772e-05,-7.233964512475363e-13
	-2.549802157320092e-05,1.854332216634670e-13
15		1.412537544622754e+00,0.000000000000000e+00
	-2.549802157320092e-01,1.897525162642694e-09
	1.000000000000000e+00,0.000000000000000e+00
	0.000000000000000e+00,0.000000000000000e+00
	6.564540273198375e-05,1.946517839505270e-13
	6.564540464433006e-05,2.125306497546575e-13
	2.549802157320092e-05,-1.897525162642695e-13
	3.978451510725406e-05,7.402465192023702e-13
	-3.501088237594349e-05,-1.121612812906977e-13
	-3.027165430451149e-05,-4.383327216474030e-13
	-2.549802157320092e-05,1.897525162642694e-13
	-3.978451510677772e-05,-7.402465192023700e-13
	-2.549802157320092e-05,1.897525162642694e-13
16		1.445439770745927e+00,0.000000000000000e+00
	-2.549802157320092e-01,1.941724201608666e-09
	1.000000000000000e+00,0.000000000000000e+00
	0.000000000000000e+00,0.000000000000000e+00
	6.564540273198375e-05,1.991858064515216e-13
	6.564540464433006e-05,2.174811245388164e-13
	2.549802157320092e-05,-1.941724201608667e-13
	3.978451510725406e-05,7.574890756600060e-13
	-3.501088237594349e-05,-1.147738531500014e-13
	-3.027165430451149e-05,-4.485428023491379e-13
	-2.549802157320092e-05,1.941724201608666e-13
	-3.978451510677772e-05,-7.574890756600060e-13
	-2.549802157320092e-05,1.941724201608666e-13
17		1.479108388168207e+00,0.000000000000000e+00
	-2.549802157320092e-01,1.986952768448090e-09
	1.000000000000000e+00,0.000000000000000e+00
	0.000000000000000e+00,0.000000000000000e+00
	6.564540273198375e-05,2.038254399036327e-13
	6.564540464433006e-05,2.225469106939088e-13
	2.549802157320092e-05,-1.986952768448091e-13
	3.978451510725406e-05,7.751332628521100e-13
	-3.501088237594349e-05,-1.174472796254568e-13
	-3.027165430451149e-05,-4.589907063818441e-13
	-2.549802157320092e-05,1.986952768448090e-13
	-3.978451510677772e-05,-7.751332628521101e-13
	-2.549802157320092e-05,1.986952768448090e-13
18		1.513561248436208e+00,0.000000000000000e+00
	-2.549802157320092e-01,2.033234843945775e-09
	1.000000000000000e+00,0.000000000000000e+00
	0.000000000000000e+00,0.000000000000000e+00
	6.564540273198375e-05,2.085731443019294e-13
	6.564540464433006e-05,2.277306941668077e-13
	2.549802157320092e-05,-2.033234843945776e-13
	3.978451510725406e-05,7.931884359602801e-13
	-3.501088237594349e-05,-1.201829782031681e-13
	-3.027165430451149e-05,-4.696819733625344e-13
	-2.549802157320092e-05,2.033234843945775e-13
	-3.978451510677772e-05,-7.931884359602799e-13
	-2.549802157320092e-05,2.033234843945775e-13
19		1.548816618912481e+00,0.000000000000000e+00
	-2.549802157320092e-01,2.080594967470764e-09
	1.000000000000000e+00,0.000000000000000e+00
	0.000000000000000e+00,0.000000000000000e+00
	6.564540273198375e-05,2.134314369421268e-13
	6.564540464433006e-05,2.330352234681259e-13
	2.549802157320092e-05,-2.080594967470765e-13
	3.978451510725406e-05,8.116641680762863e-13
	-3.501088237594349e-05,-1.229823993867325e-13
	-3.027165430451149e-05,-4.806222719424772e-13
	-2.549802157320092e-05,2.080594967470764e-13
	-3.978451510677772e-05,-8.116641680762861e-13
	-2.549802157320092e-05,2.080594967470764e-13
20		1.584893192461113e+00,0.000000000000000e+00
	-2.549802157320092e-01,2.129058249987437e-09
	1.000000000000000e+00,0.000000000000000e+00
	0.000000000000000e+00,0.000000000000000e+00
	6.564540273198375e-05,2.184028937552899e-13
	6.564540464433006e-05,2.384633111295127e-13
	2.549802157320092e-05,-2.129058249987438e-13
	3.978451510725406e-05,8.305702552778519e-13
	-3.501088237594349e-05,-1.258470274663163e-13
	-3.027165430451149e-05,-4.918174028127919e-13
	-2.549802157320092e-05,2.129058249987437e-13
	-3.978451510677772e-05,-8.305702552778519e-13
	-2.549802157320092e-05,2.129058249987437e-13
21		1.621810097358929e+00,0.000000000000000e+00
	-2.549802157320092e-01,2.178650387369670e-09
	1.000000000000000e+00,0.000000000000000e+00
	0.000000000000000e+00,0.000000000000000e+00
	6.564540273198375e-05,2.234901506736263e-13
	6.564540464433006e-05,2.440178351948955e-13
	2.549802157320092e-05,-2.178650387369671e-13
	3.978451510725406e-05,8.499167218226628e-13
	-3.501088237594349e-05,-1.287783813056451e-13
	-3.027165430451149e-05,-5.032733017800507e-13
	-2.549802157320092e-05,2.178650387369670e-13
	-3.978451510677772e-05,-8.499167218226629e-13
	-2.549802157320092e-05,2.178650387369670e-13
22		1.659586907437560e+00,0.000000000000000e+00
	-2.549802157320092e-01,2.229397674025134e-09
	1.000000000000000e+00,0.000000000000000e+00
	0.000000000000000e+00,0.000000000000000e+00
	6.564540273198375e-05,2.286959050280917e-13
	6.564540464433006e-05,2.497017407464566e-13
	2.549802157320092e-05,-2.229397674025135e-13
	3.978451510725406e-05,8.697138254633620e-13
	-3.501088237594349e-05,-1.317780151473255e-13
	-3.027165430451149e-05,-5.149960429135231e-13
	-2.549802157320092e-05,2.229397674025134e-13
	-3.978451510677772e-05,-8.697138254633619e-13
	-2.549802157320092e-05,2.229397674025134e-13
23		1.698243652461743e+00,0.000000000000000e+00
	-2.549802157320092e-01,2.281327016836932e-09
	1.000000000000000e+00,0.000000000000000e+00
	0.000000000000000e+00,0.000000000000000e+00
	6.564540273198375e-05,2.340229169785511e-13
	6.564540464433006e-05,2.555180414661547e-13
	2.549802157320092e-05,-2.281327016836933e-13
	3.978451510725406e-05,8.899720628863453e-13
	-3.501088237594349e-05,-1.348475194369252e-13
	-3.027165430451149e-05,-5.269918417657267e-13
	-2.549802157320092e-05,2.281327016836933e-13
	-3.978451510677772e-05,-8.899720628863450e-13
	-2.549802157320092e-05,2.281327016836933e-13
24		1.737800828749374e+00,0.000000000000000e+00
	-2.549802157320092e-01,2.334465949429991e-09
	1.000000000000000e+00,0.000000000000000e+00
	0.000000000000000e+00,0.000000000000000e+00
	6.564540273198375e-05,2.394740109772520e-13
	6.564540464433006e-05,2.614698212336192e-13
	2.549802157320092e-05,-2.334465949429991e-13
	3.978451510725406e-05,9.107021752772436e-13
	-3.501088237594349e-05,-1.379885216662484e-13
	-3.027165430451149e-05,-5.392670586679962e-13
	-2.549802157320092e-05,2.334465949429991e-13
	-3.978451510677772e-05,-9.107021752772434e-13
	-2.549802157320092e-05,2.334465949429991e-13
25		1.778279410038922e+00,0.000000000000000e+00
	-2.549802157320092e-01,2.388842646769747e-09
	1.000000000000000e+00,0.000000000000000e+00
	0.000000000000000e+00,0.000000000000000e+00
	6.564540273198375e-05,2.450520772663864e-13
	6.564540464433006e-05,2.675602357612640e-13
	2.549802157320092e-05,-2.388842646769748e-13
	3.978451510725406e-05,9.319151540160424e-13
	-3.501088237594349e-05,-1.412026872362530e-13
	-3.027165430451149e-05,-5.518282021028147e-13
	-2.549802157320092e-05,2.388842646769747e-13
	-3.978451510677772e-05,-9.319151540160424e-13
	-2.549802157320092e-05,2.388842646769747e-13
26		1.819700858609982e+00,0.000000000000000e+00
	-2.549802157320092e-01,2.444485940100891e-09
	1.000000000000000e+00,0.000000000000000e+00
	0.000000000000000e+00,0.000000000000000e+00
	6.564540273198375e-05,2.507600734105351e-13
	6.564540464433006e-05,2.737925142674879e-13
	2.549802157320092e-05,-2.444485940100891e-13
	3.978451510725406e-05,9.536222465048558e-13
	-3.501088237594349e-05,-1.444917203400687e-13
	-3.027165430451149e-05,-5.646819321546980e-13
	-2.549802157320092e-05,2.444485940100891e-13
	-3.978451510677772e-05,-9.536222465048556e-13
	-2.549802157320092e-05,2.444485940100891e-13
27		1.862087136662866e+00,0.000000000000000e+00
	-2.549802157320092e-01,2.501425332234072e-09
	1.000000000000000e+00,0.000000000000000e+00
	0.000000000000000e+00,0.000000000000000e+00
	6.564540273198375e-05,2.566010258648080e-13
	6.564540464433006e-05,2.801699611888488e-13
	2.549802157320092e-05,-2.501425332234073e-13
	3.978451510725406e-05,9.758349621314488e-13
	-3.501088237594349e-05,-1.478573648665828e-13
	-3.027165430451149e-05,-5.778350640414586e-13
	-2.549802157320092e-05,2.501425332234073e-13
	-3.978451510677772e-05,-9.758349621314488e-13
	-2.549802157320092e-05,2.501425332234073e-13
28		1.905460717963246e+00,0.000000000000000e+00
	-2.549802157320092e-01,2.559691013188684e-09
	1.000000000000000e+00,0.000000000000000e+00
	0.000000000000000e+00,0.000000000000000e+00
	6.564540273198375e-05,2.625780315795105e-13
	6.564540464433006e-05,2.866959579321198e-13
	2.549802157320092e-05,-2.559691013188684e-13
	3.978451510725406e-05,9.985650783716666e-13
	-3.501088237594349e-05,-1.513014053250728e-13
	-3.027165430451149e-05,-5.912945717277254e-13
	-2.549802157320092e-05,2.559691013188684e-13
	-3.978451510677772e-05,-9.985650783716664e-13
	-2.549802157320092e-05,2.559691013188684e-13
29		1.949844599758044e+00,0.000000000000000e+00
	-2.549802157320092e-01,2.619313876200003e-09
	1.000000000000000e+00,0.000000000000000e+00
	0.000000000000000e+00,0.000000000000000e+00
	6.564540273198375e-05,2.686942596421877e-13
	6.564540464433006e-05,2.933739646671561e-13
	2.549802157320092e-05,-2.619313876200004e-13
	3.978451510725406e-05,1.021824647034009e-12
	-3.501088237594349e-05,-1.548256677913769e-13
	-3.027165430451149e-05,-6.050675916226312e-13
	-2.549802157320092e-05,2.619313876200004e-13
	-3.978451510677772e-05,-1.021824647034008e-12
	-2.549802157320092e-05,2.619313876200004e-13
30		1.995262314968878e+00,0.000000000000000e+00
	-2.549802157320092e-01,2.680325534099202e-09
	1.000000000000000e+00,0.000000000000000e+00
	0.000000000000000e+00,0.000000000000000e+00
	6.564540273198375e-05,2.749529529579161e-13
	6.564540464433006e-05,3.002075221615223e-13
	2.549802157320092e-05,-2.680325534099203e-13
	3.978451510725406e-05,1.045626000649656e-12
	-3.501088237594349e-05,-1.584320208761041e-13
	-3.027165430451149e-05,-6.191614263636314e-13
	-2.549802157320092e-05,2.680325534099202e-13
	-3.978451510677772e-05,-1.045626000649656e-12
	-2.549802157320092e-05,2.680325534099202e-13
31		2.041737944669527e+00,0.000000000000000e+00
	-2.549802157320092e-01,2.742758336074883e-09
	1.000000000000000e+00,0.000000000000000e+00
	0.000000000000000e+00,0.000000000000000e+00
	6.564540273198375e-05,2.813574299687354e-13
	6.564540464433006e-05,3.072002536578550e-13
	2.549802157320092e-05,-2.742758336074883e-13
	3.978451510725406e-05,1.069981759011344e-12
	-3.501088237594349e-05,-1.621223767153954e-13
	-3.027165430451149e-05,-6.335835486884601e-13
	-2.549802157320092e-05,2.742758336074883e-13
	-3.978451510677772e-05,-1.069981759011344e-12
	-2.549802157320092e-05,2.742758336074883e-13
32		2.089296130854037e+00,0.000000000000000e+00
	-2.549802157320092e-01,2.806645384825048e-09
	1.000000000000000e+00,0.000000000000000e+00
	0.000000000000000e+00,0.000000000000000e+00
	6.564540273198375e-05,2.879110864131299e-13
