LTspice 24.0.9 for Windows
Circuit: * GA CMOS Amp | W=5e-05 L=4.566181973895185e-07 Vbias=1.2838121319069273
Start Time: Mon Sep  8 18:46:04 2025
solver = Normal
Maximum thread count: 2
tnom = 27
temp = 27
method = modified trap
AsciiRawFile = 1
Instance "m1": Length shorter than recommended for a level 3 MOSFET.
Direct Newton iteration for .op point succeeded.
Semiconductor Device Operating Points:
                        --- MOSFET Transistors ---
Name:          m1
Model:        n_1u
Id:          1.79e-04
Vgs:         1.28e+00
Vds:         1.30e-02
Vbs:         0.00e+00
Vth:         6.87e-01
Vdsat:       2.87e-01
Gm:          2.61e-04
Gds:         1.31e-02
Gmb:         2.77e-05
Cbd:         0.00e+00
Cbs:         0.00e+00
Cgsov:       1.00e-14
Cgdov:       1.00e-14
Cgbov:       2.57e-17
Cgs:         1.12e-14
Cgd:         1.09e-14
Cgb:         0.00e+00



gain_db: MAX(db(v(out)/v(g)))=(32.8041dB,141.33°) FROM 1 TO 1e+09
gain_lin: MAX(mag(v(out)/v(g)))=(-33.1054dB,0°) FROM 1 TO 1e+09

Measurement "fc" FAIL'ed

Total elapsed time: 0.446 seconds.

