Title: * GA CMOS Amp | W=1.4205705598949554e-05 L=7.063113841913477e-07 Vbias=0.6360464014387269
Date: Mon Sep  8 18:42:36 2025
Plotname: AC Analysis
Flags: complex forward log
No. Variables: 11
No. Points:          901
Offset:    0.0000000000000000e+00
Command: Linear Technology Corporation LTspice
Variables:
	0	frequency	frequency
	1	V(out)	voltage
	2	V(g)	voltage
	3	V(vdd)	voltage
	4	Id(M1)	device_current
	5	Ig(M1)	device_current
	6	Ib(M1)	device_current
	7	Is(M1)	device_current
	8	I(Rload)	device_current
	9	I(Vg)	device_current
	10	I(Vdd)	device_current
Values:
0		1.000000000000000e+00,0.000000000000000e+00
	-6.507003533108893e-02,1.900523244544683e-10
	1.000000000000000e+00,0.000000000000000e+00
	0.000000000000000e+00,0.000000000000000e+00
	6.507003533108894e-06,-1.900523244544683e-14
	3.392703132113652e-24,9.124404676694060e-14
	6.507003493156933e-14,-2.361606842125302e-15
	-6.507003598178929e-06,-6.987720747936846e-14
	-6.507003533108893e-06,1.900523244544683e-14
	-3.392703132113652e-24,-9.124404676694060e-14
	-6.507003533108893e-06,1.900523244544683e-14
1		1.023292992280754e+00,0.000000000000000e+00
	-6.507003533108893e-02,1.944792117809256e-10
	1.000000000000000e+00,0.000000000000000e+00
	0.000000000000000e+00,0.000000000000000e+00
	6.507003533108894e-06,-1.944792117809256e-14
	3.552596304697909e-24,9.336939364394771e-14
	6.507003493156933e-14,-2.416615732069096e-15
	-6.507003598178929e-06,-7.150485673378605e-14
	-6.507003533108893e-06,1.944792117809256e-14
	-3.552596304697909e-24,-9.336939364394771e-14
	-6.507003533108893e-06,1.944792117809256e-14
2		1.047128548050899e+00,0.000000000000000e+00
	-6.507003533108893e-02,1.990092145597058e-10
	1.000000000000000e+00,0.000000000000000e+00
	0.000000000000000e+00,0.000000000000000e+00
	6.507003533108894e-06,-1.990092145597058e-14
	3.720025010349311e-24,9.554424620935487e-14
	6.507003493156933e-14,-2.472905943661739e-15
	-6.507003598178929e-06,-7.317041880972255e-14
	-6.507003533108893e-06,1.990092145597058e-14
	-3.720025010349311e-24,-9.554424620935487e-14
	-6.507003533108893e-06,1.990092145597058e-14
3		1.071519305237606e+00,0.000000000000000e+00
	-6.507003533108893e-02,2.036447346582440e-10
	1.000000000000000e+00,0.000000000000000e+00
	0.000000000000000e+00,0.000000000000000e+00
	6.507003533108894e-06,-2.036447346582440e-14
	3.895344387800105e-24,9.776975759877984e-14
	6.507003493156933e-14,-2.530507322718490e-15
	-6.507003598178929e-06,-7.487477681023695e-14
	-6.507003533108893e-06,2.036447346582440e-14
	-3.895344387800105e-24,-9.776975759877984e-14
	-6.507003533108893e-06,2.036447346582440e-14
4		1.096478196143185e+00,0.000000000000000e+00
	-6.507003533108893e-02,2.083882298906546e-10
	1.000000000000000e+00,0.000000000000000e+00
	0.000000000000000e+00,0.000000000000000e+00
	6.507003533108894e-06,-2.083882298906547e-14
	4.078926312955343e-24,1.000471078078194e-13
	6.507003493156933e-14,-2.589450410252941e-15
	-6.507003598178929e-06,-7.661883440850098e-14
	-6.507003533108893e-06,2.083882298906547e-14
	-4.078926312955343e-24,-1.000471078078194e-13
	-6.507003533108893e-06,2.083882298906547e-14
5		1.122018454301963e+00,0.000000000000000e+00
	-6.507003533108893e-02,2.132422153208977e-10
	1.000000000000000e+00,0.000000000000000e+00
	0.000000000000000e+00,0.000000000000000e+00
	6.507003533108894e-06,-2.132422153208977e-14
	4.271160187691539e-24,1.023775043176987e-13
	6.507003493156933e-14,-2.649766458670367e-15
	-6.507003598178929e-06,-7.840351632693859e-14
	-6.507003533108893e-06,2.132422153208977e-14
	-4.271160187691539e-24,-1.023775043176987e-13
	-6.507003533108893e-06,2.132422153208977e-14
6		1.148153621496882e+00,0.000000000000000e+00
	-6.507003533108893e-02,2.182092645962983e-10
	1.000000000000000e+00,0.000000000000000e+00
	0.000000000000000e+00,0.000000000000000e+00
	6.507003533108894e-06,-2.182092645962983e-14
	4.472453765830249e-24,1.047621827354938e-13
	6.507003493156933e-14,-2.711487448337987e-15
	-6.507003598178929e-06,-8.022976882752594e-14
	-6.507003533108893e-06,2.182092645962983e-14
	-4.472453765830249e-24,-1.047621827354938e-13
	-6.507003533108893e-06,2.182092645962983e-14
7		1.174897554939529e+00,0.000000000000000e+00
	-6.507003533108893e-02,2.232920113121289e-10
	1.000000000000000e+00,0.000000000000000e+00
	0.000000000000000e+00,0.000000000000000e+00
	6.507003533108894e-06,-2.232920113121289e-14
	4.683234018038604e-24,1.072024074492665e-13
	6.507003493156933e-14,-2.774646104541472e-15
	-6.507003598178929e-06,-8.209856021351219e-14
	-6.507003533108893e-06,2.232920113121289e-14
	-4.683234018038604e-24,-1.072024074492665e-13
	-6.507003533108893e-06,2.232920113121289e-14
8		1.202264434617413e+00,0.000000000000000e+00
	-6.507003533108893e-02,2.284931504079764e-10
	1.000000000000000e+00,0.000000000000000e+00
	0.000000000000000e+00,0.000000000000000e+00
	6.507003533108894e-06,-2.284931504079764e-14
	4.903948037491346e-24,1.096994722984606e-13
	6.507003493156933e-14,-2.839275914836386e-15
	-6.507003598178929e-06,-8.401088134282655e-14
	-6.507003533108893e-06,2.284931504079764e-14
	-4.903948037491346e-24,-1.096994722984606e-13
	-6.507003533108893e-06,2.284931504079764e-14
9		1.230268770812381e+00,0.000000000000000e+00
	-6.507003533108893e-02,2.338154395966346e-10
	1.000000000000000e+00,0.000000000000000e+00
	0.000000000000000e+00,0.000000000000000e+00
	6.507003533108894e-06,-2.338154395966346e-14
	5.135063988215370e-24,1.122547012599114e-13
	6.507003493156933e-14,-2.905411146803587e-15
	-6.507003598178929e-06,-8.596774615344436e-14
	-6.507003533108893e-06,2.338154395966346e-14
	-5.135063988215370e-24,-1.122547012599114e-13
	-6.507003533108893e-06,2.338154395966346e-14
10		1.258925411794167e+00,0.000000000000000e+00
	-6.507003533108893e-02,2.392617008262801e-10
	1.000000000000000e+00,0.000000000000000e+00
	0.000000000000000e+00,0.000000000000000e+00
	6.507003533108894e-06,-2.392617008262801e-14
	5.377072098128422e-24,1.148694491498369e-13
	6.507003493156933e-14,-2.973086866218516e-15
	-6.507003598178929e-06,-8.797019220099038e-14
	-6.507003533108893e-06,2.392617008262801e-14
	-5.377072098128422e-24,-1.148694491498369e-13
	-6.507003533108893e-06,2.392617008262801e-14
11		1.288249551693134e+00,0.000000000000000e+00
	-6.507003533108893e-02,2.448348217767068e-10
	1.000000000000000e+00,0.000000000000000e+00
	0.000000000000000e+00,0.000000000000000e+00
	6.507003533108894e-06,-2.448348217767068e-14
	5.630485698878220e-24,1.175451023421786e-13
	6.507003493156933e-14,-3.042338955643352e-15
	-6.507003598178929e-06,-9.001928120886452e-14
	-6.507003533108893e-06,2.448348217767068e-14
	-5.630485698878220e-24,-1.175451023421786e-13
	-6.507003533108893e-06,2.448348217767068e-14
12		1.318256738556407e+00,0.000000000000000e+00
	-6.507003533108893e-02,2.505377573904114e-10
	1.000000000000000e+00,0.000000000000000e+00
	0.000000000000000e+00,0.000000000000000e+00
	6.507003533108894e-06,-2.505377573904114e-14
	5.895842314687703e-24,1.202830795036754e-13
	6.507003493156933e-14,-3.113204133452602e-15
	-6.507003598178929e-06,-9.211609963118163e-14
	-6.507003533108893e-06,2.505377573904114e-14
	-5.895842314687703e-24,-1.202830795036754e-13
	-6.507003533108893e-06,2.505377573904114e-14
13		1.348962882591653e+00,0.000000000000000e+00
	-6.507003533108893e-02,2.563735314393437e-10
	1.000000000000000e+00,0.000000000000000e+00
	0.000000000000000e+00,0.000000000000000e+00
	6.507003533108894e-06,-2.563735314393438e-14
	6.173704802515991e-24,1.230848323460598e-13
	6.507003493156933e-14,-3.185719973301505e-15
	-6.507003598178929e-06,-9.426175922882392e-14
	-6.507003533108893e-06,2.563735314393437e-14
	-6.173704802515991e-24,-1.230848323460598e-13
	-6.507003533108893e-06,2.563735314393437e-14
14		1.380384264602885e+00,0.000000000000000e+00
	-6.507003533108893e-02,2.623452381281501e-10
	1.000000000000000e+00,0.000000000000000e+00
	0.000000000000000e+00,0.000000000000000e+00
	6.507003533108894e-06,-2.623452381281501e-14
	6.464662545953437e-24,1.259518463957745e-13
	6.507003493156933e-14,-3.259924924048277e-15
	-6.507003598178929e-06,-9.645739765891123e-14
	-6.507003533108893e-06,2.623452381281501e-14
	-6.464662545953437e-24,-1.259518463957745e-13
	-6.507003533108893e-06,2.623452381281501e-14
15		1.412537544622754e+00,0.000000000000000e+00
	-6.507003533108893e-02,2.684560437347616e-10
	1.000000000000000e+00,0.000000000000000e+00
	0.000000000000000e+00,0.000000000000000e+00
	6.507003533108894e-06,-2.684560437347617e-14
	6.769332705383251e-24,1.288856417816180e-13
	6.507003493156933e-14,-3.335858330139967e-15
	-6.507003598178929e-06,-9.870417907800188e-14
	-6.507003533108893e-06,2.684560437347616e-14
	-6.769332705383251e-24,-1.288856417816180e-13
	-6.507003533108893e-06,2.684560437347616e-14
16		1.445439770745927e+00,0.000000000000000e+00
	-6.507003533108893e-02,2.747091882891972e-10
	1.000000000000000e+00,0.000000000000000e+00
	0.000000000000000e+00,0.000000000000000e+00
	6.507003533108894e-06,-2.747091882891972e-14
	7.088361527061429e-24,1.318877740407373e-13
	6.507003493156933e-14,-3.413560452473624e-15
	-6.507003598178929e-06,-1.010032947593439e-13
	-6.507003533108893e-06,2.747091882891972e-14
	-7.088361527061429e-24,-1.318877740407373e-13
	-6.507003533108893e-06,2.747091882891972e-14
17		1.479108388168207e+00,0.000000000000000e+00
	-6.507003533108893e-02,2.811079872914697e-10
	1.000000000000000e+00,0.000000000000000e+00
	0.000000000000000e+00,0.000000000000000e+00
	6.507003533108894e-06,-2.811079872914697e-14
	7.422425713891692e-24,1.349598349433940e-13
	6.507003493156933e-14,-3.493072489742951e-15
	-6.507003598178929e-06,-1.033559637245040e-13
	-6.507003533108893e-06,2.811079872914697e-14
	-7.422425713891692e-24,-1.349598349433940e-13
	-6.507003533108893e-06,2.811079872914697e-14
18		1.513561248436208e+00,0.000000000000000e+00
	-6.507003533108893e-02,2.876558334695082e-10
	1.000000000000000e+00,0.000000000000000e+00
	0.000000000000000e+00,0.000000000000000e+00
	6.507003533108894e-06,-2.876558334695082e-14
	7.772233860803067e-24,1.381034533369423e-13
	6.507003493156933e-14,-3.574436600282640e-15
	-6.507003598178929e-06,-1.057634333897088e-13
	-6.507003533108893e-06,2.876558334695082e-14
	-7.772233860803067e-24,-1.381034533369423e-13
	-6.507003533108893e-06,2.876558334695082e-14
19		1.548816618912481e+00,0.000000000000000e+00
	-6.507003533108893e-02,2.943561985780273e-10
	1.000000000000000e+00,0.000000000000000e+00
	0.000000000000000e+00,0.000000000000000e+00
	6.507003533108894e-06,-2.943561985780274e-14
	8.138527957774755e-24,1.413202960094652e-13
	6.507003493156933e-14,-3.657695924421084e-15
	-6.507003598178929e-06,-1.082269802272414e-13
	-6.507003533108893e-06,2.943561985780273e-14
	-8.138527957774755e-24,-1.413202960094652e-13
	-6.507003533108893e-06,2.943561985780273e-14
20		1.584893192461113e+00,0.000000000000000e+00
	-6.507003533108893e-02,3.012126352392975e-10
	1.000000000000000e+00,0.000000000000000e+00
	0.000000000000000e+00,0.000000000000000e+00
	6.507003533108894e-06,-3.012126352392975e-14
	8.522084963696331e-24,1.446120685735276e-13
	6.507003493156933e-14,-3.742894607353977e-15
	-6.507003598178929e-06,-1.107479104422438e-13
	-6.507003533108893e-06,3.012126352392975e-14
	-8.522084963696331e-24,-1.446120685735276e-13
	-6.507003533108893e-06,3.012126352392975e-14
21		1.621810097358929e+00,0.000000000000000e+00
	-6.507003533108893e-02,3.082287788267920e-10
	1.000000000000000e+00,0.000000000000000e+00
	0.000000000000000e+00,0.000000000000000e+00
	6.507003533108894e-06,-3.082287788267921e-14
	8.923718454401739e-24,1.479805163705146e-13
	6.507003493156933e-14,-3.830077822550718e-15
	-6.507003598178929e-06,-1.133275606652847e-13
	-6.507003533108893e-06,3.082287788267920e-14
	-8.923718454401739e-24,-1.479805163705146e-13
	-6.507003533108893e-06,3.082287788267920e-14
22		1.659586907437560e+00,0.000000000000000e+00
	-6.507003533108893e-02,3.154083493927108e-10
	1.000000000000000e+00,0.000000000000000e+00
	0.000000000000000e+00,0.000000000000000e+00
	6.507003533108894e-06,-3.154083493927108e-14
	9.344280348372712e-24,1.514274253960350e-13
	6.507003493156933e-14,-3.919291795706103e-15
	-6.507003598178929e-06,-1.159672986610578e-13
	-6.507003533108893e-06,3.154083493927108e-14
	-9.344280348372712e-24,-1.514274253960350e-13
	-6.507003533108893e-06,3.154083493927108e-14
23		1.698243652461743e+00,0.000000000000000e+00
	-6.507003533108893e-02,3.227551536404006e-10
	1.000000000000000e+00,0.000000000000000e+00
	0.000000000000000e+00,0.000000000000000e+00
	6.507003533108894e-06,-3.227551536404006e-14
	9.784662713772071e-24,1.549546232468793e-13
	6.507003493156933e-14,-4.010583829249513e-15
	-6.507003598178929e-06,-1.186685240535898e-13
	-6.507003533108893e-06,3.227551536404006e-14
	-9.784662713772071e-24,-1.549546232468793e-13
	-6.507003533108893e-06,3.227551536404006e-14
24		1.737800828749374e+00,0.000000000000000e+00
	-6.507003533108893e-02,3.302730869427200e-10
	1.000000000000000e+00,0.000000000000000e+00
	0.000000000000000e+00,0.000000000000000e+00
	6.507003533108894e-06,-3.302730869427201e-14
	1.024579966063992e-23,1.585639800900360e-13
	6.507003493156933e-14,-4.104002327425518e-15
	-6.507003598178929e-06,-1.214326690683385e-13
	-6.507003533108893e-06,3.302730869427201e-14
	-1.024579966063992e-23,-1.585639800900360e-13
	-6.507003533108893e-06,3.302730869427201e-14
25		1.778279410038922e+00,0.000000000000000e+00
	-6.507003533108893e-02,3.379661354074175e-10
	1.000000000000000e+00,0.000000000000000e+00
	0.000000000000000e+00,0.000000000000000e+00
	6.507003533108894e-06,-3.379661354074176e-14
	1.072866932226628e-23,1.622574096542789e-13
	6.507003493156933e-14,-4.199596821958461e-15
	-6.507003598178929e-06,-1.242611992915787e-13
	-6.507003533108893e-06,3.379661354074176e-14
	-1.072866932226628e-23,-1.622574096542789e-13
	-6.507003533108893e-06,3.379661354074176e-14
26		1.819700858609982e+00,0.000000000000000e+00
	-6.507003533108893e-02,3.458383779906189e-10
	1.000000000000000e+00,0.000000000000000e+00
	0.000000000000000e+00,0.000000000000000e+00
	6.507003533108894e-06,-3.458383779906189e-14
	1.123429592994292e-23,1.660368702448512e-13
	6.507003493156933e-14,-4.297417998314636e-15
	-6.507003598178929e-06,-1.271556144474747e-13
	-6.507003533108893e-06,3.458383779906189e-14
	-1.123429592994292e-23,-1.660368702448512e-13
	-6.507003533108893e-06,3.458383779906189e-14
27		1.862087136662866e+00,0.000000000000000e+00
	-6.507003533108893e-02,3.538939886595429e-10
	1.000000000000000e+00,0.000000000000000e+00
	0.000000000000000e+00,0.000000000000000e+00
	6.507003533108894e-06,-3.538939886595429e-14
	1.176375198549526e-23,1.699043657817851e-13
	6.507003493156933e-14,-4.397517722576537e-15
	-6.507003598178929e-06,-1.301174491932542e-13
	-6.507003533108893e-06,3.538939886595429e-14
	-1.176375198549526e-23,-1.699043657817851e-13
	-6.507003533108893e-06,3.538939886595429e-14
28		1.905460717963246e+00,0.000000000000000e+00
	-6.507003533108893e-02,3.621372386055948e-10
	1.000000000000000e+00,0.000000000000000e+00
	0.000000000000000e+00,0.000000000000000e+00
	6.507003533108894e-06,-3.621372386055949e-14
	1.231816053620253e-23,1.738619468624066e-13
	6.507003493156933e-14,-4.499949068942950e-15
	-6.507003598178929e-06,-1.331482739329041e-13
	-6.507003533108893e-06,3.621372386055948e-14
	-1.231816053620253e-23,-1.738619468624066e-13
	-6.507003533108893e-06,3.621372386055948e-14
29		1.949844599758044e+00,0.000000000000000e+00
	-6.507003533108893e-02,3.705724985090086e-10
	1.000000000000000e+00,0.000000000000000e+00
	0.000000000000000e+00,0.000000000000000e+00
	6.507003533108894e-06,-3.705724985090087e-14
	1.289869755693165e-23,1.779117118485895e-13
	6.507003493156933e-14,-4.604766347869674e-15
	-6.507003598178929e-06,-1.362496956498190e-13
	-6.507003533108893e-06,3.705724985090086e-14
	-1.289869755693165e-23,-1.779117118485895e-13
	-6.507003533108893e-06,3.705724985090086e-14
30		1.995262314968878e+00,0.000000000000000e+00
	-6.507003533108893e-02,3.792042408562387e-10
	1.000000000000000e+00,0.000000000000000e+00
	0.000000000000000e+00,0.000000000000000e+00
	6.507003533108894e-06,-3.792042408562387e-14
	1.350659444453752e-23,1.820558079793345e-13
	6.507003493156933e-14,-4.712025134865245e-15
	-6.507003598178929e-06,-1.394233587588453e-13
	-6.507003533108893e-06,3.792042408562387e-14
	-1.350659444453752e-23,-1.820558079793345e-13
	-6.507003533108893e-06,3.792042408562387e-14
31		2.041737944669527e+00,0.000000000000000e+00
	-6.507003533108893e-02,3.880370423113322e-10
	1.000000000000000e+00,0.000000000000000e+00
	0.000000000000000e+00,0.000000000000000e+00
	6.507003533108894e-06,-3.880370423113323e-14
	1.414314062982091e-23,1.862964325092635e-13
	6.507003493156933e-14,-4.821782299958408e-15
	-6.507003598178929e-06,-1.426709459781719e-13
	-6.507003533108893e-06,3.880370423113323e-14
	-1.414314062982091e-23,-1.862964325092635e-13
	-6.507003533108893e-06,3.880370423113323e-14
32		2.089296130854037e+00,0.000000000000000e+00
	-6.507003533108893e-02,3.970755861425368e-10
	1.000000000000000e+00,0.000000000000000e+00
	0.000000000000000e+00,0.000000000000000e+00
	6.507003533108894e-06,-3.970755861425369e-14
	1.480968631258406e-23,1.906358338736338e-13
	6.507003493156933e-14,-4.934096037850813e-15
	-6.507003598178929e-06,-1.459941792215293e-13
	-6.507003533108893e-06,3.970755861425368e-14
	-1.480968631258406e-23,-1.906358338736338e-13
	-6.507003533108893e-06,3.970755861425368e-14
33		2.137962089502230e+00,0.000000000000000e+00
	-6.507003533108893e-02,4.063246647054308e-10
	1.000000000000000e+00,0.000000000000000e+00
	0.000000000000000e+00,0.000000000000000e+00
	6.507003533108894e-06,-4.063246647054308e-14
	1.550764532558543e-23,1.950763128804875e-13
	6.507003493156933e-14,-5.049025898772990e-15
	-6.507003598178929e-06,-1.493948205111714e-13
	-6.507003533108893e-06,4.063246647054308e-14
	-1.550764532558543e-23,-1.950763128804875e-13
	-6.507003533108893e-06,4.063246647054308e-14
34		2.187761623949550e+00,0.000000000000000e+00
	-6.507003533108893e-02,4.157891819838944e-10
	1.000000000000000e+00,0.000000000000000e+00
	0.000000000000000e+00,0.000000000000000e+00
	6.507003533108894e-06,-4.157891819838945e-14
	1.623849813346858e-23,1.996202239305707e-13
	6.507003493156933e-14,-5.166632820058416e-15
	-6.507003598178929e-06,-1.528746729121228e-13
	-6.507003533108893e-06,4.157891819838944e-14
	-1.623849813346858e-23,-1.996202239305707e-13
	-6.507003533108893e-06,4.157891819838944e-14
35		2.238721138568337e+00,0.000000000000000e+00
	-6.507003533108893e-02,4.254741561902662e-10
	1.000000000000000e+00,0.000000000000000e+00
	0.000000000000000e+00,0.000000000000000e+00
	6.507003533108894e-06,-4.254741561902663e-14
	1.700379497302620e-23,2.042699762656679e-13
	6.507003493156933e-14,-5.286979158453533e-15
	-6.507003598178929e-06,-1.564355814881877e-13
	-6.507003533108893e-06,4.254741561902663e-14
	-1.700379497302620e-23,-2.042699762656679e-13
	-6.507003533108893e-06,4.254741561902663e-14
36		2.290867652767770e+00,0.000000000000000e+00
	-6.507003533108893e-02,4.353847224260665e-10
	1.000000000000000e+00,0.000000000000000e+00
	0.000000000000000e+00,0.000000000000000e+00
	6.507003533108894e-06,-4.353847224260666e-14
	1.780515914146011e-23,2.090280352460139e-13
	6.507003493156933e-14,-5.410128723179874e-15
	-6.507003598178929e-06,-1.600794342802273e-13
	-6.507003533108893e-06,4.353847224260666e-14
	-1.780515914146011e-23,-2.090280352460139e-13
	-6.507003533108893e-06,4.353847224260666e-14
37		2.344228815319919e+00,0.000000000000000e+00
	-6.507003533108893e-02,4.455261354046952e-10
	1.000000000000000e+00,0.000000000000000e+00
	0.000000000000000e+00,0.000000000000000e+00
	6.507003533108894e-06,-4.455261354046953e-14
	1.864429043961232e-23,2.138969236574605e-13
	6.507003493156933e-14,-5.536146809766780e-15
	-6.507003598178929e-06,-1.638081633072242e-13
	-6.507003533108893e-06,4.455261354046952e-14
	-1.864429043961232e-23,-2.138969236574605e-13
	-6.507003533108893e-06,4.455261354046952e-14
38		2.398832919019488e+00,0.000000000000000e+00
	-6.507003533108893e-02,4.559037722375509e-10
	1.000000000000000e+00,0.000000000000000e+00
