Title: * GA CMOS Amp | W=1e-06 L=4.267071479890621e-07 Vbias=0.7663167124643506
Date: Mon Sep  8 18:46:41 2025
Plotname: AC Analysis
Flags: complex forward log
No. Variables: 11
No. Points:          901
Offset:    0.0000000000000000e+00
Command: Linear Technology Corporation LTspice
Variables:
	0	frequency	frequency
	1	V(out)	voltage
	2	V(g)	voltage
	3	V(vdd)	voltage
	4	Id(M1)	device_current
	5	Ig(M1)	device_current
	6	Ib(M1)	device_current
	7	Is(M1)	device_current
	8	I(Rload)	device_current
	9	I(Vg)	device_current
	10	I(Vdd)	device_current
Values:
0		1.000000000000000e+00,0.000000000000000e+00
	-2.799715297149667e-02,1.291010638617215e-11
	1.000000000000000e+00,0.000000000000000e+00
	0.000000000000000e+00,0.000000000000000e+00
	2.799715297149667e-06,-1.291010638617215e-15
	1.622331815194444e-26,4.394913205732562e-15
	2.799715280031763e-14,-2.068546400868399e-16
	-2.799715325146820e-06,-2.897047927028507e-15
	-2.799715297149667e-06,1.291010638617215e-15
	-1.622331815194444e-26,-4.394913205732562e-15
	-2.799715297149667e-06,1.291010638617215e-15
1		1.023292992280754e+00,0.000000000000000e+00
	-2.799715297149667e-02,1.321082139456897e-11
	1.000000000000000e+00,0.000000000000000e+00
	0.000000000000000e+00,0.000000000000000e+00
	2.799715297149667e-06,-1.321082139456897e-15
	1.698789958101338e-26,4.497283885108274e-15
	2.799715280031763e-14,-2.116729036216198e-16
	-2.799715325146820e-06,-2.964528842029757e-15
	-2.799715297149667e-06,1.321082139456897e-15
	-1.698789958101338e-26,-4.497283885108274e-15
	-2.799715297149667e-06,1.321082139456897e-15
2		1.047128548050899e+00,0.000000000000000e+00
	-2.799715297149667e-02,1.351854095533509e-11
	1.000000000000000e+00,0.000000000000000e+00
	0.000000000000000e+00,0.000000000000000e+00
	2.799715297149667e-06,-1.351854095533509e-15
	1.778851462270103e-26,4.602039083928461e-15
	2.799715280031763e-14,-2.166033989317238e-16
	-2.799715325146820e-06,-3.033581589463229e-15
	-2.799715297149667e-06,1.351854095533509e-15
	-1.778851462270103e-26,-4.602039083928461e-15
	-2.799715297149667e-06,1.351854095533509e-15
3		1.071519305237606e+00,0.000000000000000e+00
	-2.799715297149667e-02,1.383342822545477e-11
	1.000000000000000e+00,0.000000000000000e+00
	0.000000000000000e+00,0.000000000000000e+00
	2.799715297149667e-06,-1.383342822545477e-15
	1.862686148885112e-26,4.709234344786135e-15
	2.799715280031763e-14,-2.216487402310256e-16
	-2.799715325146820e-06,-3.104242782009633e-15
	-2.799715297149667e-06,1.383342822545477e-15
	-1.862686148885112e-26,-4.709234344786135e-15
	-2.799715297149667e-06,1.383342822545477e-15
4		1.096478196143185e+00,0.000000000000000e+00
	-2.799715297149667e-02,1.415565016232665e-11
	1.000000000000000e+00,0.000000000000000e+00
	0.000000000000000e+00,0.000000000000000e+00
	2.799715297149667e-06,-1.415565016232665e-15
	1.950471842556588e-26,4.818926504027500e-15
	2.799715280031763e-14,-2.268116026262652e-16
	-2.799715325146820e-06,-3.176549885168570e-15
	-2.799715297149667e-06,1.415565016232665e-15
	-1.950471842556588e-26,-4.818926504027500e-15
	-2.799715297149667e-06,1.415565016232665e-15
5		1.122018454301963e+00,0.000000000000000e+00
	-2.799715297149667e-02,1.448537761228678e-11
	1.000000000000000e+00,0.000000000000000e+00
	0.000000000000000e+00,0.000000000000000e+00
	2.799715297149667e-06,-1.448537761228678e-15
	2.042394748510443e-26,4.931173721887335e-15
	2.799715280031763e-14,-2.320947235354248e-16
	-2.799715325146820e-06,-3.250541237123232e-15
	-2.799715297149667e-06,1.448537761228678e-15
	-2.042394748510443e-26,-4.931173721887335e-15
	-2.799715297149667e-06,1.448537761228678e-15
6		1.148153621496882e+00,0.000000000000000e+00
	-2.799715297149667e-02,1.482278540119359e-11
	1.000000000000000e+00,0.000000000000000e+00
	0.000000000000000e+00,0.000000000000000e+00
	2.799715297149667e-06,-1.482278540119359e-15
	2.138649847554522e-26,5.046035513326314e-15
	2.799715280031763e-14,-2.375009041391388e-16
	-2.799715325146820e-06,-3.326256069067816e-15
	-2.799715297149667e-06,1.482278540119359e-15
	-2.138649847554522e-26,-5.046035513326314e-15
	-2.799715297149667e-06,1.482278540119359e-15
7		1.174897554939529e+00,0.000000000000000e+00
	-2.799715297149667e-02,1.516805242712286e-11
	1.000000000000000e+00,0.000000000000000e+00
	0.000000000000000e+00,0.000000000000000e+00
	2.799715297149667e-06,-1.516805242712286e-15
	2.239441309659045e-26,5.163572779586634e-15
	2.799715280031763e-14,-2.430330108659239e-16
	-2.799715325146820e-06,-3.403734526008424e-15
	-2.799715297149667e-06,1.516805242712286e-15
	-2.239441309659045e-26,-5.163572779586634e-15
	-2.799715297149667e-06,1.516805242712286e-15
8		1.202264434617413e+00,0.000000000000000e+00
	-2.799715297149667e-02,1.552136175522191e-11
	1.000000000000000e+00,0.000000000000000e+00
	0.000000000000000e+00,0.000000000000000e+00
	2.799715297149667e-06,-1.552136175522191e-15
	2.344982927028480e-26,5.283847840482659e-15
	2.799715280031763e-14,-2.486939769119929e-16
	-2.799715325146820e-06,-3.483017688048475e-15
	-2.799715297149667e-06,1.552136175522191e-15
	-2.344982927028480e-26,-5.283847840482659e-15
	-2.799715297149667e-06,1.552136175522191e-15
9		1.230268770812381e+00,0.000000000000000e+00
	-2.799715297149667e-02,1.588290071477309e-11
	1.000000000000000e+00,0.000000000000000e+00
	0.000000000000000e+00,0.000000000000000e+00
	2.799715297149667e-06,-1.588290071477309e-15
	2.455498567583481e-26,5.406924467443700e-15
	2.799715280031763e-14,-2.544868037964737e-16
	-2.799715325146820e-06,-3.564147592169918e-15
	-2.799715297149667e-06,1.588290071477309e-15
	-2.455498567583481e-26,-5.406924467443700e-15
	-2.799715297149667e-06,1.588290071477309e-15
10		1.258925411794167e+00,0.000000000000000e+00
	-2.799715297149667e-02,1.625286099851828e-11
	1.000000000000000e+00,0.000000000000000e+00
	0.000000000000000e+00,0.000000000000000e+00
	2.799715297149667e-06,-1.625286099851828e-15
	2.571222649814754e-26,5.532867917326487e-15
	2.799715280031763e-14,-2.604145629528588e-16
	-2.799715325146820e-06,-3.647167254521801e-15
	-2.799715297149667e-06,1.625286099851828e-15
	-2.571222649814754e-26,-5.532867917326487e-15
	-2.799715297149667e-06,1.625286099851828e-15
11		1.288249551693134e+00,0.000000000000000e+00
	-2.799715297149667e-02,1.663143876429694e-11
	1.000000000000000e+00,0.000000000000000e+00
	0.000000000000000e+00,0.000000000000000e+00
	2.799715297149667e-06,-1.663143876429694e-15
	2.692400640016111e-26,5.661744967015206e-15
	2.799715280031763e-14,-2.664803973575162e-16
	-2.799715325146820e-06,-3.732120693227996e-15
	-2.799715297149667e-06,1.663143876429694e-15
	-2.692400640016111e-26,-5.661744967015206e-15
	-2.799715297149667e-06,1.663143876429694e-15
12		1.318256738556407e+00,0.000000000000000e+00
	-2.799715297149667e-02,1.701883473905154e-11
	1.000000000000000e+00,0.000000000000000e+00
	0.000000000000000e+00,0.000000000000000e+00
	2.799715297149667e-06,-1.701883473905154e-15
	2.819289572951382e-26,5.793623948827490e-15
	2.799715280031763e-14,-2.726875231961378e-16
	-2.799715325146820e-06,-3.819052951726198e-15
	-2.799715297149667e-06,1.701883473905154e-15
	-2.819289572951382e-26,-5.793623948827490e-15
	-2.799715297149667e-06,1.701883473905154e-15
13		1.348962882591653e+00,0.000000000000000e+00
	-2.799715297149667e-02,1.741525432525570e-11
	1.000000000000000e+00,0.000000000000000e+00
	0.000000000000000e+00,0.000000000000000e+00
	2.799715297149667e-06,-1.741525432525570e-15
	2.952158597059622e-26,5.928574786745120e-15
	2.799715280031763e-14,-2.790392315690022e-16
	-2.799715325146820e-06,-3.908010122650548e-15
	-2.799715297149667e-06,1.741525432525570e-15
	-2.952158597059622e-26,-5.928574786745120e-15
	-2.799715297149667e-06,1.741525432525570e-15
14		1.380384264602885e+00,0.000000000000000e+00
	-2.799715297149667e-02,1.782090770982125e-11
	1.000000000000000e+00,0.000000000000000e+00
	0.000000000000000e+00,0.000000000000000e+00
	2.799715297149667e-06,-1.782090770982125e-15
	3.091289545355023e-26,6.066669033488649e-15
	2.799715280031763e-14,-2.855388902359673e-16
	-2.799715325146820e-06,-3.999039372270557e-15
	-2.799715297149667e-06,1.782090770982125e-15
	-3.091289545355023e-26,-6.066669033488649e-15
	-2.799715297149667e-06,1.782090770982125e-15
15		1.412537544622754e+00,0.000000000000000e+00
	-2.799715297149667e-02,1.823600997554215e-11
	1.000000000000000e+00,0.000000000000000e+00
	0.000000000000000e+00,0.000000000000000e+00
	2.799715297149667e-06,-1.823600997554215e-15
	3.236977533232530e-26,6.207979908455590e-15
	2.799715280031763e-14,-2.921899454020881e-16
	-2.799715325146820e-06,-4.092188965499287e-15
	-2.799715297149667e-06,1.823600997554215e-15
	-3.236977533232530e-26,-6.207979908455590e-15
	-2.799715297149667e-06,1.823600997554215e-15
16		1.445439770745927e+00,0.000000000000000e+00
	-2.799715297149667e-02,1.866078121513420e-11
	1.000000000000000e+00,0.000000000000000e+00
	0.000000000000000e+00,0.000000000000000e+00
	2.799715297149667e-06,-1.866078121513420e-15
	3.389531584447160e-26,6.352582336542321e-15
	2.799715280031763e-14,-2.989959235448532e-16
	-2.799715325146820e-06,-4.187508291484047e-15
	-2.799715297149667e-06,1.866078121513420e-15
	-3.389531584447160e-26,-6.352582336542321e-15
	-2.799715297149667e-06,1.866078121513420e-15
17		1.479108388168207e+00,0.000000000000000e+00
	-2.799715297149667e-02,1.909544664793116e-11
	1.000000000000000e+00,0.000000000000000e+00
	0.000000000000000e+00,0.000000000000000e+00
	2.799715297149667e-06,-1.909544664793116e-15
	3.549275286594819e-26,6.500552987870256e-15
	2.799715280031763e-14,-3.059604332839600e-16
	-2.799715325146820e-06,-4.285047889793180e-15
	-2.799715297149667e-06,1.909544664793116e-15
	-3.549275286594819e-26,-6.500552987870256e-15
	-2.799715297149667e-06,1.909544664793116e-15
18		1.513561248436208e+00,0.000000000000000e+00
	-2.799715297149667e-02,1.954023673929898e-11
	1.000000000000000e+00,0.000000000000000e+00
	0.000000000000000e+00,0.000000000000000e+00
	2.799715297149667e-06,-1.954023673929898e-15
	3.716547477484974e-26,6.651970318437351e-15
	2.799715280031763e-14,-3.130871672946594e-16
	-2.799715325146820e-06,-4.384859477212794e-15
	-2.799715297149667e-06,1.954023673929898e-15
	-3.716547477484974e-26,-6.651970318437351e-15
	-2.799715297149667e-06,1.954023673929898e-15
19		1.548816618912481e+00,0.000000000000000e+00
	-2.799715297149667e-02,1.999538732283158e-11
	1.000000000000000e+00,0.000000000000000e+00
	0.000000000000000e+00,0.000000000000000e+00
	2.799715297149667e-06,-1.999538732283157e-15
	3.891702963861074e-26,6.806914611716518e-15
	2.799715280031763e-14,-3.203799042656568e-16
	-2.799715325146820e-06,-4.486995975167704e-15
	-2.799715297149667e-06,1.999538732283158e-15
	-3.891702963861074e-26,-6.806914611716518e-15
	-2.799715297149667e-06,1.999538732283158e-15
20		1.584893192461113e+00,0.000000000000000e+00
	-2.799715297149667e-02,2.046113972539298e-11
	1.000000000000000e+00,0.000000000000000e+00
	0.000000000000000e+00,0.000000000000000e+00
	2.799715297149667e-06,-2.046113972539298e-15
	4.075113273993229e-26,6.965468021222983e-15
	2.799715280031763e-14,-3.278425109026262e-16
	-2.799715325146820e-06,-4.591511537781059e-15
	-2.799715297149667e-06,2.046113972539298e-15
	-4.075113273993229e-26,-6.965468021222983e-15
	-2.799715297149667e-06,2.046113972539298e-15
21		1.621810097358929e+00,0.000000000000000e+00
	-2.799715297149667e-02,2.093774089507199e-11
	1.000000000000000e+00,0.000000000000000e+00
	0.000000000000000e+00,0.000000000000000e+00
	2.799715297149667e-06,-2.093774089507199e-15
	4.267167445739475e-26,7.127714614073170e-15
	2.799715280031763e-14,-3.354789439783840e-16
	-2.799715325146820e-06,-4.698461580587587e-15
	-2.799715297149667e-06,2.093774089507199e-15
	-4.267167445739475e-26,-7.127714614073170e-15
	-2.799715297149667e-06,2.093774089507199e-15
22		1.659586907437560e+00,0.000000000000000e+00
	-2.799715297149667e-02,2.142544353211733e-11
	1.000000000000000e+00,0.000000000000000e+00
	0.000000000000000e+00,0.000000000000000e+00
	2.799715297149667e-06,-2.142544353211733e-15
	4.468272851747243e-26,7.293740415558194e-15
	2.799715280031763e-14,-3.432932524308275e-16
	-2.799715325146820e-06,-4.807902809915633e-15
	-2.799715297149667e-06,2.142544353211733e-15
	-4.468272851747243e-26,-7.293740415558194e-15
	-2.799715297149667e-06,2.142544353211733e-15
23		1.698243652461743e+00,0.000000000000000e+00
	-2.799715297149667e-02,2.192450622292267e-11
	1.000000000000000e+00,0.000000000000000e+00
	0.000000000000000e+00,0.000000000000000e+00
	2.799715297149667e-06,-2.192450622292268e-15
	4.678856063545343e-26,7.463633454755616e-15
	2.799715280031763e-14,-3.512895795097335e-16
	-2.799715325146820e-06,-4.919893252953615e-15
	-2.799715297149667e-06,2.192450622292268e-15
	-4.678856063545343e-26,-7.463633454755616e-15
	-2.799715297149667e-06,2.192450622292268e-15
24		1.737800828749374e+00,0.000000000000000e+00
	-2.799715297149667e-02,2.243519357713256e-11
	1.000000000000000e+00,0.000000000000000e+00
	0.000000000000000e+00,0.000000000000000e+00
	2.799715297149667e-06,-2.243519357713256e-15
	4.899363756359382e-26,7.637483811203615e-15
	2.799715280031763e-14,-3.594721649735632e-16
	-2.799715325146820e-06,-5.034492288516796e-15
	-2.799715297149667e-06,2.243519357713256e-15
	-4.899363756359382e-26,-7.637483811203615e-15
	-2.799715297149667e-06,2.243519357713256e-15
25		1.778279410038922e+00,0.000000000000000e+00
	-2.799715297149667e-02,2.295777636794193e-11
	1.000000000000000e+00,0.000000000000000e+00
	0.000000000000000e+00,0.000000000000000e+00
	2.799715297149667e-06,-2.295777636794193e-15
	5.130263656569800e-26,7.815383662662366e-15
	2.799715280031763e-14,-3.678453473374382e-16
	-2.799715325146820e-06,-5.151760678530735e-15
	-2.799715297149667e-06,2.295777636794193e-15
	-5.130263656569800e-26,-7.815383662662366e-15
	-2.799715297149667e-06,2.295777636794193e-15
26		1.819700858609982e+00,0.000000000000000e+00
	-2.799715297149667e-02,2.349253167566368e-11
	1.000000000000000e+00,0.000000000000000e+00
	0.000000000000000e+00,0.000000000000000e+00
	2.799715297149667e-06,-2.349253167566368e-15
	5.372045533822232e-26,7.997427333987892e-15
	2.799715280031763e-14,-3.764135661734822e-16
	-2.799715325146820e-06,-5.271760600248043e-15
	-2.799715297149667e-06,2.349253167566368e-15
	-5.372045533822232e-26,-7.997427333987892e-15
	-2.799715297149667e-06,2.349253167566368e-15
27		1.862087136662866e+00,0.000000000000000e+00
	-2.799715297149667e-02,2.403974303464029e-11
	1.000000000000000e+00,0.000000000000000e+00
	0.000000000000000e+00,0.000000000000000e+00
	2.799715297149667e-06,-2.403974303464029e-15
	5.625222239894595e-26,8.183711347144363e-15
	2.799715280031763e-14,-3.851813644647309e-16
	-2.799715325146820e-06,-5.394555679215604e-15
	-2.799715297149667e-06,2.403974303464029e-15
	-5.625222239894595e-26,-8.183711347144363e-15
	-2.799715297149667e-06,2.403974303464029e-15
28		1.905460717963246e+00,0.000000000000000e+00
	-2.799715297149667e-02,2.459970058357747e-11
	1.000000000000000e+00,0.000000000000000e+00
	0.000000000000000e+00,0.000000000000000e+00
	2.799715297149667e-06,-2.459970058357747e-15
	5.890330796524453e-26,8.374334472381316e-15
	2.799715280031763e-14,-3.941533910138978e-16
	-2.799715325146820e-06,-5.520211023009671e-15
	-2.799715297149667e-06,2.459970058357747e-15
	-5.890330796524453e-26,-8.374334472381316e-15
	-2.799715297149667e-06,2.459970058357747e-15
29		1.949844599758044e+00,0.000000000000000e+00
	-2.799715297149667e-02,2.517270121937960e-11
	1.000000000000000e+00,0.000000000000000e+00
	0.000000000000000e+00,0.000000000000000e+00
	2.799715297149667e-06,-2.517270121937961e-15
	6.167933534504151e-26,8.569397780602948e-15
	2.799715280031763e-14,-4.033344029082180e-16
	-2.799715325146820e-06,-5.648793255756769e-15
	-2.799715297149667e-06,2.517270121937961e-15
	-6.167933534504151e-26,-8.569397780602948e-15
	-2.799715297149667e-06,2.517270121937961e-15
30		1.995262314968878e+00,0.000000000000000e+00
	-2.799715297149667e-02,2.575904875456834e-11
	1.000000000000000e+00,0.000000000000000e+00
	0.000000000000000e+00,0.000000000000000e+00
	2.799715297149667e-06,-2.575904875456834e-15
	6.458619286459783e-26,8.769004696957243e-15
	2.799715280031763e-14,-4.127292680417219e-16
	-2.799715325146820e-06,-5.780370553458687e-15
	-2.799715297149667e-06,2.575904875456834e-15
	-6.458619286459783e-26,-8.769004696957243e-15
	-2.799715297149667e-06,2.575904875456834e-15
31		2.041737944669527e+00,0.000000000000000e+00
	-2.799715297149667e-02,2.635905407836807e-11
	1.000000000000000e+00,0.000000000000000e+00
	0.000000000000000e+00,0.000000000000000e+00
	2.799715297149667e-06,-2.635905407836807e-15
	6.763004635844166e-26,8.973261055673365e-15
	2.799715280031763e-14,-4.223429676962595e-16
	-2.799715325146820e-06,-5.915012680140298e-15
	-2.799715297149667e-06,2.635905407836807e-15
	-6.763004635844166e-26,-8.973261055673365e-15
	-2.799715297149667e-06,2.635905407836807e-15
32		2.089296130854037e+00,0.000000000000000e+00
	-2.799715297149667e-02,2.697303532154348e-11
	1.000000000000000e+00,0.000000000000000e+00
	0.000000000000000e+00,0.000000000000000e+00
	2.799715297149667e-06,-2.697303532154348e-15
	7.081735224793006e-26,9.182275156176356e-15
	2.799715280031763e-14,-4.321805991826389e-16
	-2.799715325146820e-06,-6.052791024839369e-15
	-2.799715297149667e-06,2.697303532154348e-15
	-7.081735224793006e-26,-9.182275156176356e-15
	-2.799715297149667e-06,2.697303532154348e-15
33		2.137962089502230e+00,0.000000000000000e+00
	-2.799715297149667e-02,2.760131802507670e-11
	1.000000000000000e+00,0.000000000000000e+00
	0.000000000000000e+00,0.000000000000000e+00
	2.799715297149667e-06,-2.760131802507670e-15
	7.415487123618411e-26,9.396157820508932e-15
	2.799715280031763e-14,-4.422473785432923e-16
	-2.799715325146820e-06,-6.193778639457970e-15
	-2.799715297149667e-06,2.760131802507670e-15
	-7.415487123618411e-26,-9.396157820508932e-15
	-2.799715297149667e-06,2.760131802507670e-15
34		2.187761623949550e+00,0.000000000000000e+00
	-2.799715297149667e-02,2.824423531277345e-11
	1.000000000000000e+00,0.000000000000000e+00
	0.000000000000000e+00,0.000000000000000e+00
	2.799715297149667e-06,-2.824423531277344e-15
	7.764968264844686e-26,9.615022452090793e-15
	2.799715280031763e-14,-4.525486433178844e-16
	-2.799715325146820e-06,-6.338050277495564e-15
	-2.799715297149667e-06,2.824423531277345e-15
	-7.764968264844686e-26,-9.615022452090793e-15
	-2.799715297149667e-06,2.824423531277345e-15
35		2.238721138568337e+00,0.000000000000000e+00
	-2.799715297149667e-02,2.890212806788968e-11
	1.000000000000000e+00,0.000000000000000e+00
	0.000000000000000e+00,0.000000000000000e+00
	2.799715297149667e-06,-2.890212806788968e-15
	8.130919944828129e-26,9.838985095846622e-15
	2.799715280031763e-14,-4.630898553733539e-16
	-2.799715325146820e-06,-6.485682433684300e-15
	-2.799715297149667e-06,2.890212806788968e-15
	-8.130919944828129e-26,-9.838985095846622e-15
	-2.799715297149667e-06,2.890212806788968e-15
36		2.290867652767770e+00,0.000000000000000e+00
	-2.799715297149667e-02,2.957534511387240e-11
	1.000000000000000e+00,0.000000000000000e+00
	0.000000000000000e+00,0.000000000000000e+00
	2.799715297149667e-06,-2.957534511387240e-15
	8.514118396145978e-26,1.006816449973463e-14
	2.799715280031763e-14,-4.738766037998617e-16
	-2.799715325146820e-06,-6.636753384547530e-15
	-2.799715297149667e-06,2.957534511387240e-15
	-8.514118396145978e-26,-1.006816449973463e-14
	-2.799715297149667e-06,2.957534511387240e-15
37		2.344228815319919e+00,0.000000000000000e+00
	-2.799715297149667e-02,3.026424339931047e-11
	1.000000000000000e+00,0.000000000000000e+00
	0.000000000000000e+00,0.000000000000000e+00
	2.799715297149667e-06,-3.026424339931047e-15
	8.915376434089791e-26,1.030268217770831e-14
	2.799715280031763e-14,-4.849146078742007e-16
	-2.799715325146820e-06,-6.791343229903065e-15
	-2.799715297149667e-06,3.026424339931047e-15
	-8.915376434089791e-26,-1.030268217770831e-14
	-2.799715297149667e-06,3.026424339931047e-15
38		2.398832919019488e+00,0.000000000000000e+00
	-2.799715297149667e-02,3.096918818719347e-11
	1.000000000000000e+00,0.000000000000000e+00
	0.000000000000000e+00,0.000000000000000e+00
