LTspice 24.0.9 for Windows
Circuit: * GA CMOS Amp | W=3.241294186261277e-05 L=7.716080281439825e-07 Vbias=0.6210344455913379
Start Time: Sat Sep  6 22:39:35 2025
solver = Normal
Maximum thread count: 2
tnom = 27
temp = 27
method = modified trap
AsciiRawFile = 1
Direct Newton iteration for .op point succeeded.
Semiconductor Device Operating Points:
                        --- BSIM4 MOSFETS ---
Name:      m1
Model:      n
Id:      1.75e-04
Vgs:     6.21e-01
Vds:     5.33e-02
Vbs:     0.00e+00
Vth:     2.40e-01
Vdsat:   2.94e-01
Gm:      2.34e-04
Gds:     2.94e-03
Gmb      2.04e-04
Cbd:     1.59e-14
Cbs:     2.59e-14


.measure op idd find i(vdd)
  Error: FIND can not be evaluated over an interval.

gain_db: MAX(db(v(out)/v(g)))=(30.942dB,129.265°) FROM 1 TO 1e+09
gain_lin: MAX(mag(v(out)/v(g)))=(-3.38294dB,0°) FROM 1 TO 1e+09

Measurement "fc" FAIL'ed

Total elapsed time: 1.050 seconds.

