Title: * GA CMOS Amp | W=4.012313302230079e-06 L=6.133677322247052e-07 Vbias=1.5
Date: Sat Sep  6 22:12:18 2025
Plotname: AC Analysis
Flags: complex forward log
No. Variables: 13
No. Points:          901
Offset:    0.0000000000000000e+00
Command: Linear Technology Corporation LTspice
Variables:
	0	frequency	frequency
	1	V(out)	voltage
	2	V(g)	voltage
	3	V(vdd)	voltage
	4	V(m1#dbody)	voltage
	5	V(m1#sbody)	voltage
	6	Id(M1)	device_current
	7	Ig(M1)	device_current
	8	Ib(M1)	device_current
	9	Is(M1)	device_current
	10	I(Rload)	device_current
	11	I(Vg)	device_current
	12	I(Vdd)	device_current
Values:
0		1.000000000000000e+00,0.000000000000000e+00
	1.502632481672870e-02,5.831453659780768e-10
	1.000000000000000e+00,0.000000000000000e+00
	0.000000000000000e+00,0.000000000000000e+00
	8.600211214854831e-05,4.712384104937024e-14
	8.600211203583938e-05,4.581389946408685e-14
	-1.502632481672874e-06,-5.831453659780780e-14
	5.263489570964831e-05,6.314644417200379e-13
	-4.586779312795819e-05,-2.452661268478135e-14
	-5.264470100017239e-06,-5.486232924374488e-13
	1.502632481672870e-06,5.831453659780768e-14
	-5.263489570950242e-05,-6.314644417200380e-13
	1.502632481672870e-06,5.831453659780768e-14
1		1.023292992280754e+00,0.000000000000000e+00
	1.502632481672870e-02,5.967285664863615e-10
	1.000000000000000e+00,0.000000000000000e+00
	0.000000000000000e+00,0.000000000000000e+00
	8.600211214854831e-05,4.822149631517271e-14
	8.600211203583938e-05,4.688104227065506e-14
	-1.502632481672874e-06,-5.967285664863625e-14
	5.263489570964831e-05,6.461731380865935e-13
	-4.586779312795819e-05,-2.509791088472100e-14
	-5.264470100017239e-06,-5.614023705532362e-13
	1.502632481672870e-06,5.967285664863616e-14
	-5.263489570950242e-05,-6.461731380865935e-13
	1.502632481672870e-06,5.967285664863616e-14
2		1.047128548050899e+00,0.000000000000000e+00
	1.502632481672870e-02,6.106281603792339e-10
	1.000000000000000e+00,0.000000000000000e+00
	0.000000000000000e+00,0.000000000000000e+00
	8.600211214854831e-05,4.934471925660844e-14
	8.600211203583938e-05,4.797304202637913e-14
	-1.502632481672874e-06,-6.106281603792343e-14
	5.263489570964831e-05,6.612244440040751e-13
	-4.586779312795819e-05,-2.568251632922186e-14
	-5.264470100017239e-06,-5.744791116369298e-13
	1.502632481672870e-06,6.106281603792340e-14
	-5.263489570950242e-05,-6.612244440040751e-13
	1.502632481672870e-06,6.106281603792340e-14
3		1.071519305237606e+00,0.000000000000000e+00
	1.502632481672870e-02,6.248515174053584e-10
	1.000000000000000e+00,0.000000000000000e+00
	0.000000000000000e+00,0.000000000000000e+00
	8.600211214854831e-05,5.049410542134858e-14
	8.600211203583938e-05,4.909047772398387e-14
	-1.502632481672874e-06,-6.248515174053593e-14
	5.263489570964831e-05,6.766263398741078e-13
	-4.586779312795819e-05,-2.628073898382876e-14
	-5.264470100017239e-06,-5.878604491497432e-13
	1.502632481672870e-06,6.248515174053584e-14
	-5.263489570950242e-05,-6.766263398741080e-13
	1.502632481672870e-06,6.248515174053584e-14
4		1.096478196143185e+00,0.000000000000000e+00
	1.502632481672870e-02,6.394061789768989e-10
	1.000000000000000e+00,0.000000000000000e+00
	0.000000000000000e+00,0.000000000000000e+00
	8.600211214854831e-05,5.167026422915165e-14
	8.600211203583938e-05,5.023394184266716e-14
	-1.502632481672874e-06,-6.394061789768992e-14
	5.263489570964831e-05,6.923869919857503e-13
	-4.586779312795819e-05,-2.689289603411160e-14
	-5.264470100017239e-06,-6.015534780539488e-13
	1.502632481672870e-06,6.394061789768990e-14
	-5.263489570950242e-05,-6.923869919857502e-13
	1.502632481672870e-06,6.394061789768990e-14
5		1.122018454301963e+00,0.000000000000000e+00
	1.502632481672870e-02,6.542998621680742e-10
	1.000000000000000e+00,0.000000000000000e+00
	0.000000000000000e+00,0.000000000000000e+00
	8.600211214854831e-05,5.287381929498580e-14
	8.600211203583938e-05,5.140404066224025e-14
	-1.502632481672874e-06,-6.542998621680760e-14
	5.263489570964831e-05,7.085147568453691e-13
	-4.586779312795819e-05,-2.751931205384128e-14
	-5.264470100017239e-06,-6.155654585747202e-13
	1.502632481672870e-06,6.542998621680742e-14
	-5.263489570950242e-05,-7.085147568453690e-13
	1.502632481672870e-06,6.542998621680742e-14
6		1.148153621496882e+00,0.000000000000000e+00
	1.502632481672870e-02,6.695404638068537e-10
	1.000000000000000e+00,0.000000000000000e+00
	0.000000000000000e+00,0.000000000000000e+00
	8.600211214854831e-05,5.410540875967790e-14
	8.600211203583938e-05,5.260139458458539e-14
	-1.502632481672874e-06,-6.695404638068541e-14
	5.263489570964831e-05,7.250181856073686e-13
	-4.586779312795819e-05,-2.816031917708308e-14
	-5.264470100017239e-06,-6.299038200496001e-13
	1.502632481672870e-06,6.695404638068538e-14
	-5.263489570950242e-05,-7.250181856073685e-13
	1.502632481672870e-06,6.695404638068538e-14
7		1.174897554939529e+00,0.000000000000000e+00
	1.502632481672870e-02,6.851360646619593e-10
	1.000000000000000e+00,0.000000000000000e+00
	0.000000000000000e+00,0.000000000000000e+00
	8.600211214854831e-05,5.536568562826412e-14
	8.600211203583938e-05,5.382663846260104e-14
	-1.502632481672874e-06,-6.851360646619589e-14
	5.263489570964831e-05,7.419060286081272e-13
	-4.586779312795819e-05,-2.881625727429844e-14
	-5.264470100017239e-06,-6.445761648676329e-13
	1.502632481672870e-06,6.851360646619594e-14
	-5.263489570950242e-05,-7.419060286081274e-13
	1.502632481672870e-06,6.851360646619594e-14
8		1.202264434617413e+00,0.000000000000000e+00
	1.502632481672870e-02,7.010949337273967e-10
	1.000000000000000e+00,0.000000000000000e+00
	0.000000000000000e+00,0.000000000000000e+00
	8.600211214854831e-05,5.665531811622194e-14
	8.600211203583938e-05,5.508042193680935e-14
	-1.502632481672874e-06,-7.010949337273971e-14
	5.263489570964831e-05,7.591872400055414e-13
	-4.586779312795819e-05,-2.948747413254891e-14
	-5.264470100017239e-06,-6.595902725002528e-13
	1.502632481672870e-06,7.010949337273967e-14
	-5.263489570950242e-05,-7.591872400055414e-13
	1.502632481672870e-06,7.010949337273967e-14
9		1.230268770812381e+00,0.000000000000000e+00
	1.502632481672870e-02,7.174255326067845e-10
	1.000000000000000e+00,0.000000000000000e+00
	0.000000000000000e+00,0.000000000000000e+00
	8.600211214854831e-05,5.797499000376676e-14
	8.600211203583938e-05,5.636340977980414e-14
	-1.502632481672874e-06,-7.174255326067859e-14
	5.263489570964831e-05,7.768709825266375e-13
	-4.586779312795819e-05,-3.017432563989731e-14
	-5.264470100017239e-06,-6.749541036260616e-13
	1.502632481672870e-06,7.174255326067846e-14
	-5.263489570950242e-05,-7.768709825266374e-13
	1.502632481672870e-06,7.174255326067846e-14
10		1.258925411794167e+00,0.000000000000000e+00
	1.502632481672870e-02,7.341365199998104e-10
	1.000000000000000e+00,0.000000000000000e+00
	0.000000000000000e+00,0.000000000000000e+00
	8.600211214854831e-05,5.932540099840130e-14
	8.600211203583938e-05,5.767628224872209e-14
	-1.502632481672874e-06,-7.341365199998118e-14
	5.263489570964831e-05,7.949666323257724e-13
	-4.586779312795819e-05,-3.087717597410439e-14
	-5.264470100017239e-06,-6.906758043516868e-13
	1.502632481672870e-06,7.341365199998104e-14
	-5.263489570950242e-05,-7.949666323257724e-13
	1.502632481672870e-06,7.341365199998104e-14
11		1.288249551693134e+00,0.000000000000000e+00
	1.502632481672870e-02,7.512367562931859e-10
	1.000000000000000e+00,0.000000000000000e+00
	0.000000000000000e+00,0.000000000000000e+00
	8.600211214854831e-05,6.070726710590971e-14
	8.600211203583938e-05,5.901973544592418e-14
	-1.502632481672874e-06,-7.512367562931863e-14
	5.263489570964831e-05,8.134837839559939e-13
	-4.586779312795819e-05,-3.159639779572070e-14
	-5.264470100017239e-06,-7.067637105309545e-13
	1.502632481672870e-06,7.512367562931860e-14
	-5.263489570950242e-05,-8.134837839559937e-13
	1.502632481672870e-06,7.512367562931860e-14
12		1.318256738556407e+00,0.000000000000000e+00
	1.502632481672870e-02,7.687353082585418e-10
	1.000000000000000e+00,0.000000000000000e+00
	0.000000000000000e+00,0.000000000000000e+00
	8.600211214854831e-05,6.212132100999335e-14
	8.600211203583938e-05,6.039448168807824e-14
	-1.502632481672874e-06,-7.687353082585418e-14
	5.263489570964831e-05,8.324322554561994e-13
	-4.586779312795819e-05,-3.233237244567606e-14
	-5.264470100017239e-06,-7.232263521846692e-13
	1.502632481672870e-06,7.687353082585418e-14
	-5.263489570950242e-05,-8.324322554561993e-13
	1.502632481672870e-06,7.687353082585418e-14
13		1.348962882591653e+00,0.000000000000000e+00
	1.502632481672870e-02,7.866414538597511e-10
	1.000000000000000e+00,0.000000000000000e+00
	0.000000000000000e+00,0.000000000000000e+00
	8.600211214854831e-05,6.356831246074937e-14
	8.600211203583938e-05,6.180124988383879e-14
	-1.502632481672874e-06,-7.866414538597525e-14
	5.263489570964831e-05,8.518220935567915e-13
	-4.586779312795819e-05,-3.308549014747165e-14
	-5.264470100017239e-06,-7.400724580233446e-13
	1.502632481672870e-06,7.866414538597512e-14
	-5.263489570950242e-05,-8.518220935567915e-13
	1.502632481672870e-06,7.866414538597512e-14
14		1.380384264602885e+00,0.000000000000000e+00
	1.502632481672870e-02,8.049646871722274e-10
	1.000000000000000e+00,0.000000000000000e+00
	0.000000000000000e+00,0.000000000000000e+00
	8.600211214854831e-05,6.504900867219817e-14
	8.600211203583938e-05,6.324078592032400e-14
	-1.502632481672874e-06,-8.049646871722291e-14
	5.263489570964831e-05,8.716635790065856e-13
	-4.586779312795819e-05,-3.385615021408168e-14
	-5.264470100017239e-06,-7.573109600752811e-13
	1.502632481672870e-06,8.049646871722275e-14
	-5.263489570950242e-05,-8.716635790065855e-13
	1.502632481672870e-06,8.049646871722275e-14
15		1.412537544622754e+00,0.000000000000000e+00
	1.502632481672870e-02,8.237147234168098e-10
	1.000000000000000e+00,0.000000000000000e+00
	0.000000000000000e+00,0.000000000000000e+00
	8.600211214854831e-05,6.656419472907040e-14
	8.600211203583938e-05,6.471385305859495e-14
	-1.502632481672874e-06,-8.237147234168110e-14
	5.263489570964831e-05,8.919672320238006e-13
	-4.586779312795819e-05,-3.464476125967434e-14
	-5.264470100017239e-06,-7.749509984224452e-13
	1.502632481672870e-06,8.237147234168098e-14
	-5.263489570950242e-05,-8.919672320238005e-13
	1.502632481672870e-06,8.237147234168098e-14
16		1.445439770745927e+00,0.000000000000000e+00
	1.502632481672870e-02,8.429015041109010e-10
	1.000000000000000e+00,0.000000000000000e+00
	0.000000000000000e+00,0.000000000000000e+00
	8.600211214854831e-05,6.811467400306923e-14
	8.600211203583938e-05,6.622123233834663e-14
	-1.502632481672874e-06,-8.429015041109011e-14
	5.263489570964831e-05,9.127438178740163e-13
	-4.586779312795819e-05,-3.545174141626449e-14
	-5.264470100017239e-06,-7.930019260466617e-13
	1.502632481672870e-06,8.429015041109011e-14
	-5.263489570950242e-05,-9.127438178740163e-13
	1.502632481672870e-06,8.429015041109011e-14
17		1.479108388168207e+00,0.000000000000000e+00
	1.502632481672870e-02,8.625352023395922e-10
	1.000000000000000e+00,0.000000000000000e+00
	0.000000000000000e+00,0.000000000000000e+00
	8.600211214854831e-05,6.970126857882879e-14
	8.600211203583938e-05,6.776372299202575e-14
	-1.502632481672874e-06,-8.625352023395932e-14
	5.263489570964831e-05,9.340043525780618e-13
	-4.586779312795819e-05,-3.627751855541283e-14
	-5.264470100017239e-06,-8.114733137886897e-13
	1.502632481672870e-06,8.625352023395923e-14
	-5.263489570950242e-05,-9.340043525780620e-13
	1.502632481672870e-06,8.625352023395923e-14
18		1.513561248436208e+00,0.000000000000000e+00
	1.502632481672870e-02,8.826262281495670e-10
	1.000000000000000e+00,0.000000000000000e+00
	0.000000000000000e+00,0.000000000000000e+00
	8.600211214854831e-05,7.132481968979422e-14
	8.600211203583938e-05,6.934214286859417e-14
	-1.502632481672875e-06,-8.826262281495684e-14
	5.263489570964831e-05,9.557601087528533e-13
	-4.586779312795819e-05,-3.712253051508897e-14
	-5.264470100017239e-06,-8.303749554228075e-13
	1.502632481672870e-06,8.826262281495670e-14
	-5.263489570950242e-05,-9.557601087528537e-13
	1.502632481672870e-06,8.826262281495670e-14
19		1.548816618912481e+00,0.000000000000000e+00
	1.502632481672870e-02,9.031852340686459e-10
	1.000000000000000e+00,0.000000000000000e+00
	0.000000000000000e+00,0.000000000000000e+00
	8.600211214854831e-05,7.298618816425478e-14
	8.600211203583938e-05,7.095732886716330e-14
	-1.502632481672875e-06,-9.031852340686475e-14
	5.263489570964831e-05,9.780226215882863e-13
	-4.586779312795819e-05,-3.798722533181900e-14
	-5.264470100017240e-06,-8.497168728496026e-13
	1.502632481672870e-06,9.031852340686460e-14
	-5.263489570950242e-05,-9.780226215882863e-13
	1.502632481672870e-06,9.031852340686460e-14
20		1.584893192461113e+00,0.000000000000000e+00
	1.502632481672870e-02,9.242231207538981e-10
	1.000000000000000e+00,0.000000000000000e+00
	0.000000000000000e+00,0.000000000000000e+00
	8.600211214854831e-05,7.468625488176644e-14
	8.600211203583938e-05,7.261013738072906e-14
	-1.502632481672875e-06,-9.242231207538992e-14
	5.263489570964831e-05,1.000803694963345e-12
	-4.586779312795819e-05,-3.887206147824033e-14
	-5.264470100017240e-06,-8.695093214097150e-13
	1.502632481672870e-06,9.242231207538981e-14
	-5.263489570950242e-05,-1.000803694963345e-12
	1.502632481672870e-06,9.242231207538981e-14
21		1.621810097358929e+00,0.000000000000000e+00
	1.502632481672870e-02,9.457510427713130e-10
	1.000000000000000e+00,0.000000000000000e+00
	0.000000000000000e+00,0.000000000000000e+00
	8.600211214854831e-05,7.642592124020585e-14
	8.600211203583938e-05,7.430144475024287e-14
	-1.502632481672875e-06,-9.457510427713131e-14
	5.263489570964831e-05,1.024115407704676e-12
	-4.586779312795819e-05,-3.977750810618998e-14
	-5.264470100017240e-06,-8.897627953213552e-13
	1.502632481672870e-06,9.457510427713130e-14
	-5.263489570950242e-05,-1.024115407704677e-12
	1.502632481672870e-06,9.457510427713130e-14
22		1.659586907437560e+00,0.000000000000000e+00
	1.502632481672870e-02,9.677804145101002e-10
	1.000000000000000e+00,0.000000000000000e+00
	0.000000000000000e+00,0.000000000000000e+00
	8.600211214854831e-05,7.820610963370350e-14
	8.600211203583938e-05,7.603214772925917e-14
	-1.502632481672875e-06,-9.677804145101027e-14
	5.263489570964831e-05,1.047970119990943e-12
	-4.586779312795819e-05,-4.070404529545510e-14
	-5.264470100017240e-06,-9.104880332444774e-13
	1.502632481672870e-06,9.677804145101003e-14
	-5.263489570950242e-05,-1.047970119990943e-12
	1.502632481672870e-06,9.677804145101003e-14
23		1.698243652461743e+00,0.000000000000000e+00
	1.502632481672870e-02,9.903229162347493e-10
	1.000000000000000e+00,0.000000000000000e+00
	0.000000000000000e+00,0.000000000000000e+00
	8.600211214854831e-05,8.002776394170916e-14
	8.600211203583938e-05,7.780316395940595e-14
	-1.502632481672875e-06,-9.903229162347495e-14
	5.263489570964831e-05,1.072380479906353e-12
	-4.586779312795819e-05,-4.165216430831761e-14
	-5.264470100017240e-06,-9.316960239745605e-13
	1.502632481672870e-06,9.903229162347493e-14
	-5.263489570950242e-05,-1.072380479906353e-12
	1.502632481672870e-06,9.903229162347493e-14
24		1.737800828749374e+00,0.000000000000000e+00
	1.502632481672870e-02,1.013390500278059e-09
	1.000000000000000e+00,0.000000000000000e+00
	0.000000000000000e+00,0.000000000000000e+00
	8.600211214854831e-05,8.189185002944941e-14
	8.600211203583938e-05,7.961543245693065e-14
	-1.502632481672875e-06,-1.013390500278061e-13
	5.263489570964831e-05,1.097359430146843e-12
	-4.586779312795819e-05,-4.262236785002795e-14
	-5.264470100017240e-06,-9.533980122690088e-13
	1.502632481672870e-06,1.013390500278059e-13
	-5.263489570950242e-05,-1.097359430146843e-12
	1.502632481672870e-06,1.013390500278059e-13
25		1.778279410038922e+00,0.000000000000000e+00
	1.502632481672870e-02,1.036995397378426e-09
	1.000000000000000e+00,0.000000000000000e+00
	0.000000000000000e+00,0.000000000000000e+00
	8.600211214854831e-05,8.379935626004205e-14
	8.600211203583938e-05,8.146991411057883e-14
	-1.502632481672875e-06,-1.036995397378426e-13
	5.263489570964831e-05,1.122920214882466e-12
	-4.586779312795819e-05,-4.361517033534611e-14
	-5.264470100017240e-06,-9.756055048092775e-13
	1.502632481672870e-06,1.036995397378426e-13
	-5.263489570950242e-05,-1.122920214882466e-12
	1.502632481672870e-06,1.036995397378426e-13
26		1.819700858609982e+00,0.000000000000000e+00
	1.502632481672870e-02,1.061150123164739e-09
	1.000000000000000e+00,0.000000000000000e+00
	0.000000000000000e+00,0.000000000000000e+00
	8.600211214854831e-05,8.575129401853935e-14
	8.600211203583938e-05,8.336759219107023e-14
	-1.502632481672875e-06,-1.061150123164739e-13
	5.263489570964831e-05,1.149076386779626e-12
	-4.586779312795819e-05,-4.463109816129109e-14
	-5.264470100017240e-06,-9.983302763018609e-13
	1.502632481672870e-06,1.061150123164739e-13
	-5.263489570950242e-05,-1.149076386779626e-12
	1.502632481672870e-06,1.061150123164739e-13
27		1.862087136662866e+00,0.000000000000000e+00
	1.502632481672870e-02,1.085867484792336e-09
	1.000000000000000e+00,0.000000000000000e+00
	0.000000000000000e+00,0.000000000000000e+00
	8.600211214854831e-05,8.774869824817786e-14
	8.600211203583938e-05,8.530947287244187e-14
	-1.502632481672875e-06,-1.085867484792337e-13
	5.263489570964831e-05,1.175841814186881e-12
	-4.586779312795819e-05,-4.567068998624362e-14
	-5.264470100017240e-06,-1.021584375721403e-12
	1.502632481672870e-06,1.085867484792336e-13
	-5.263489570950242e-05,-1.175841814186881e-12
	1.502632481672870e-06,1.085867484792336e-13
28		1.905460717963246e+00,0.000000000000000e+00
	1.502632481672870e-02,1.111160587733526e-09
	1.000000000000000e+00,0.000000000000000e+00
	0.000000000000000e+00,0.000000000000000e+00
	8.600211214854831e-05,8.979262799911889e-14
	8.600211203583938e-05,8.729658576553488e-14
	-1.502632481672875e-06,-1.111160587733528e-13
	5.263489570964831e-05,1.203230688488123e-12
	-4.586779312795819e-05,-4.673449701554992e-14
	-5.264470100017240e-06,-1.045380132699221e-12
	1.502632481672870e-06,1.111160587733526e-13
	-5.263489570950242e-05,-1.203230688488124e-12
	1.502632481672870e-06,1.111160587733526e-13
29		1.949844599758044e+00,0.000000000000000e+00
	1.502632481672870e-02,1.137042842726281e-09
	1.000000000000000e+00,0.000000000000000e+00
	0.000000000000000e+00,0.000000000000000e+00
	8.600211214854831e-05,9.188416698997101e-14
	8.600211203583938e-05,8.932998446390768e-14
	-1.502632481672875e-06,-1.137042842726283e-13
	5.263489570964831e-05,1.231257531627044e-12
	-4.586779312795819e-05,-4.782308329377805e-14
	-5.264470100017240e-06,-1.069730164060638e-12
	1.502632481672870e-06,1.137042842726281e-13
	-5.263489570950242e-05,-1.231257531627044e-12
	1.502632481672870e-06,1.137042842726281e-13
30		1.995262314968878e+00,0.000000000000000e+00
	1.502632481672870e-02,1.163527972884791e-09
	1.000000000000000e+00,0.000000000000000e+00
	0.000000000000000e+00,0.000000000000000e+00
	8.600211214854831e-05,9.402442418239191e-14
	8.600211203583938e-05,9.141074710246537e-14
	-1.502632481672875e-06,-1.163527972884791e-13
	5.263489570964831e-05,1.259937203806853e-12
	-4.586779312795819e-05,-4.893702600378188e-14
	-5.264470100017240e-06,-1.094647380514592e-12
	1.502632481672870e-06,1.163527972884791e-13
	-5.263489570950242e-05,-1.259937203806853e-12
	1.502632481672870e-06,1.163527972884791e-13
31		2.041737944669527e+00,0.000000000000000e+00
	1.502632481672870e-02,1.190630020975638e-09
	1.000000000000000e+00,0.000000000000000e+00
	0.000000000000000e+00,0.000000000000000e+00
	8.600211214854831e-05,9.621453436907470e-14
	8.600211203583938e-05,9.353997692910103e-14
	-1.502632481672875e-06,-1.190630020975638e-13
	5.263489570964831e-05,1.289284911369361e-12
	-4.586779312795819e-05,-5.007691577273102e-14
	-5.264470100017240e-06,-1.120144993499066e-12
	1.502632481672870e-06,1.190630020975638e-13
	-5.263489570950242e-05,-1.289284911369360e-12
	1.502632481672870e-06,1.190630020975638e-13
32		2.089296130854037e+00,0.000000000000000e+00
	1.502632481672870e-02,1.218363356863457e-09
	1.000000000000000e+00,0.000000000000000e+00
	0.000000000000000e+00,0.000000000000000e+00
	8.600211214854831e-05,9.845565877542993e-14
	8.600211203583938e-05,9.571880288965251e-14
	-1.502632481672875e-06,-1.218363356863458e-13
