Title: * GA CMOS Amp | W=4.860222724536654e-06 L=8.882378157716385e-07 Vbias=1.2726752829859973
Date: Sat Sep  6 22:09:31 2025
Plotname: AC Analysis
Flags: complex forward log
No. Variables: 13
No. Points:          901
Offset:    0.0000000000000000e+00
Command: Linear Technology Corporation LTspice
Variables:
	0	frequency	frequency
	1	V(out)	voltage
	2	V(g)	voltage
	3	V(vdd)	voltage
	4	V(m1#dbody)	voltage
	5	V(m1#sbody)	voltage
	6	Id(M1)	device_current
	7	Ig(M1)	device_current
	8	Ib(M1)	device_current
	9	Is(M1)	device_current
	10	I(Rload)	device_current
	11	I(Vg)	device_current
	12	I(Vdd)	device_current
Values:
0		1.000000000000000e+00,0.000000000000000e+00
	-5.282560532816728e-02,1.293642434694740e-09
	1.000000000000000e+00,0.000000000000000e+00
	0.000000000000000e+00,0.000000000000000e+00
	2.849930313343733e-05,1.074748907417459e-13
	2.849930352962512e-05,1.129458259961441e-13
	5.282560532816727e-06,-1.293642434694740e-13
	2.010253008821572e-05,1.068236866521047e-12
	-1.519962853420786e-05,-5.987513362093855e-14
	-1.018546208682458e-05,-8.789974894306343e-13
	-5.282560532816728e-06,1.293642434694740e-13
	-2.010253008810636e-05,-1.068236866521047e-12
	-5.282560532816728e-06,1.293642434694740e-13
1		1.023292992280754e+00,0.000000000000000e+00
	-5.282560532816728e-02,1.323775237940140e-09
	1.000000000000000e+00,0.000000000000000e+00
	0.000000000000000e+00,0.000000000000000e+00
	2.849930313343733e-05,1.099783025421683e-13
	2.849930352962512e-05,1.155766722492157e-13
	5.282560532816727e-06,-1.323775237940141e-13
	2.010253008821572e-05,1.093119299606938e-12
	-1.519962853420786e-05,-6.126980464618019e-14
	-1.018546208682458e-05,-8.994719711667441e-13
	-5.282560532816728e-06,1.323775237940140e-13
	-2.010253008810636e-05,-1.093119299606938e-12
	-5.282560532816728e-06,1.323775237940140e-13
2		1.047128548050899e+00,0.000000000000000e+00
	-5.282560532816728e-02,1.354609924338933e-09
	1.000000000000000e+00,0.000000000000000e+00
	0.000000000000000e+00,0.000000000000000e+00
	2.849930313343733e-05,1.125400262943335e-13
	2.849930352962512e-05,1.182687987837519e-13
	5.282560532816727e-06,-1.354609924338934e-13
	2.010253008821572e-05,1.118581319014626e-12
	-1.519962853420786e-05,-6.269696173284697e-14
	-1.018546208682458e-05,-9.204233648478857e-13
	-5.282560532816728e-06,1.354609924338933e-13
	-2.010253008810636e-05,-1.118581319014626e-12
	-5.282560532816728e-06,1.354609924338933e-13
3		1.071519305237606e+00,0.000000000000000e+00
	-5.282560532816728e-02,1.386162842849992e-09
	1.000000000000000e+00,0.000000000000000e+00
	0.000000000000000e+00,0.000000000000000e+00
	2.849930313343733e-05,1.151614202580832e-13
	2.849930352962512e-05,1.210236330008759e-13
	5.282560532816727e-06,-1.386162842849994e-13
	2.010253008821572e-05,1.144636425043829e-12
	-1.519962853420786e-05,-6.415736157851690e-14
	-1.018546208682458e-05,-9.418627791803133e-13
	-5.282560532816728e-06,1.386162842849992e-13
	-2.010253008810636e-05,-1.144636425043829e-12
	-5.282560532816728e-06,1.386162842849992e-13
4		1.096478196143185e+00,0.000000000000000e+00
	-5.282560532816728e-02,1.418450723248366e-09
	1.000000000000000e+00,0.000000000000000e+00
	0.000000000000000e+00,0.000000000000000e+00
	2.849930313343733e-05,1.178438743311954e-13
	2.849930352962512e-05,1.238426355501540e-13
	5.282560532816727e-06,-1.418450723248365e-13
	2.010253008821572e-05,1.171298432456645e-12
	-1.519962853420786e-05,-6.565177850651883e-14
	-1.018546208682458e-05,-9.638015816252899e-13
	-5.282560532816728e-06,1.418450723248366e-13
	-2.010253008810636e-05,-1.171298432456645e-12
	-5.282560532816728e-06,1.418450723248366e-13
5		1.122018454301963e+00,0.000000000000000e+00
	-5.282560532816728e-02,1.451490684995620e-09
	1.000000000000000e+00,0.000000000000000e+00
	0.000000000000000e+00,0.000000000000000e+00
	2.849930313343733e-05,1.205888107863261e-13
	2.849930352962512e-05,1.267273011040520e-13
	5.282560532816727e-06,-1.451490684995619e-13
	2.010253008821572e-05,1.198581477802317e-12
	-1.519962853420786e-05,-6.718100487648896e-14
	-1.018546208682458e-05,-9.862514044262664e-13
	-5.282560532816728e-06,1.451490684995620e-13
	-2.010253008810636e-05,-1.198581477802317e-12
	-5.282560532816728e-06,1.451490684995620e-13
6		1.148153621496882e+00,0.000000000000000e+00
	-5.282560532816728e-02,1.485300246316809e-09
	1.000000000000000e+00,0.000000000000000e+00
	0.000000000000000e+00,0.000000000000000e+00
	2.849930313343733e-05,1.233976850251174e-13
	2.849930352962512e-05,1.296791591504296e-13
	5.282560532816727e-06,-1.485300246316810e-13
	2.010253008821572e-05,1.226500026912622e-12
	-1.519962853420786e-05,-6.874585150449033e-14
	-1.018546208682458e-05,-1.009224150776450e-12
	-5.282560532816728e-06,1.485300246316809e-13
	-2.010253008810636e-05,-1.226500026912621e-12
	-5.282560532816728e-06,1.485300246316809e-13
7		1.174897554939529e+00,0.000000000000000e+00
	-5.282560532816728e-02,1.519897333488869e-09
	1.000000000000000e+00,0.000000000000000e+00
	0.000000000000000e+00,0.000000000000000e+00
	2.849930313343733e-05,1.262719863498703e-13
	2.849930352962512e-05,1.326997748034952e-13
	5.282560532816727e-06,-1.519897333488868e-13
	2.010253008821572e-05,1.255068882571842e-12
	-1.519962853420786e-05,-7.034714809291829e-14
	-1.018546208682458e-05,-1.032732001130037e-12
	-5.282560532816728e-06,1.519897333488869e-13
	-2.010253008810636e-05,-1.255068882571842e-12
	-5.282560532816728e-06,1.519897333488869e-13
8		1.202264434617413e+00,0.000000000000000e+00
	-5.282560532816728e-02,1.555300290345364e-09
	1.000000000000000e+00,0.000000000000000e+00
	0.000000000000000e+00,0.000000000000000e+00
	2.849930313343733e-05,1.292132387531934e-13
	2.849930352962512e-05,1.357907496336508e-13
	5.282560532816727e-06,-1.555300290345366e-13
	2.010253008821572e-05,1.284303192365403e-12
	-1.519962853420786e-05,-7.198574367041972e-14
	-1.018546208682458e-05,-1.056787419660446e-12
	-5.282560532816728e-06,1.555300290345364e-13
	-2.010253008810636e-05,-1.284303192365402e-12
	-5.282560532816728e-06,1.555300290345364e-13
9		1.230268770812381e+00,0.000000000000000e+00
	-5.282560532816728e-02,1.591527888002633e-09
	1.000000000000000e+00,0.000000000000000e+00
	0.000000000000000e+00,0.000000000000000e+00
	2.849930313343733e-05,1.322230017260427e-13
	2.849930352962512e-05,1.389537225166652e-13
	5.282560532816727e-06,-1.591527888002633e-13
	2.010253008821572e-05,1.314218456711318e-12
	-1.519962853420786e-05,-7.366250704205913e-14
	-1.018546208682458e-05,-1.081403160868995e-12
	-5.282560532816728e-06,1.591527888002634e-13
	-2.010253008810636e-05,-1.314218456711318e-12
	-5.282560532816728e-06,1.591527888002634e-13
10		1.258925411794167e+00,0.000000000000000e+00
	-5.282560532816728e-02,1.628599334812484e-09
	1.000000000000000e+00,0.000000000000000e+00
	0.000000000000000e+00,0.000000000000000e+00
	2.849930313343733e-05,1.353028710845856e-13
	2.849930352962512e-05,1.421903705026280e-13
	5.282560532816727e-06,-1.628599334812485e-13
	2.010253008821572e-05,1.344830537078719e-12
	-1.519962853420786e-05,-7.537832724997084e-14
	-1.018546208682458e-05,-1.106592276347500e-12
	-5.282560532816728e-06,1.628599334812483e-13
	-2.010253008810636e-05,-1.344830537078719e-12
	-5.282560532816728e-06,1.628599334812483e-13
11		1.288249551693134e+00,0.000000000000000e+00
	-5.282560532816728e-02,1.666534286546712e-09
	1.000000000000000e+00,0.000000000000000e+00
	0.000000000000000e+00,0.000000000000000e+00
	2.849930313343733e-05,1.384544798163227e-13
	2.849930352962512e-05,1.455024097051433e-13
	5.282560532816727e-06,-1.666534286546714e-13
	2.010253008821572e-05,1.376155664397816e-12
	-1.519962853420786e-05,-7.713411404474054e-14
	-1.018546208682458e-05,-1.132368121698404e-12
	-5.282560532816728e-06,1.666534286546712e-13
	-2.010253008810636e-05,-1.376155664397816e-12
	-5.282560532816728e-06,1.666534286546712e-13
12		1.318256738556407e+00,0.000000000000000e+00
	-5.282560532816728e-02,1.705352856818857e-09
	1.000000000000000e+00,0.000000000000000e+00
	0.000000000000000e+00,0.000000000000000e+00
	2.849930313343733e-05,1.416794989459201e-13
	2.849930352962512e-05,1.488915962112363e-13
	5.282560532816727e-06,-1.705352856818858e-13
	2.010253008821572e-05,1.408210447665751e-12
	-1.519962853420786e-05,-7.893079836776749e-14
	-1.018546208682458e-05,-1.158744363616097e-12
	-5.282560532816728e-06,1.705352856818857e-13
	-2.010253008810636e-05,-1.408210447665751e-12
	-5.282560532816728e-06,1.705352856818857e-13
13		1.348962882591653e+00,0.000000000000000e+00
	-5.282560532816728e-02,1.745075627748701e-09
	1.000000000000000e+00,0.000000000000000e+00
	0.000000000000000e+00,0.000000000000000e+00
	2.849930313343733e-05,1.449796384212086e-13
	2.849930352962512e-05,1.523597270124538e-13
	5.282560532816726e-06,-1.745075627748701e-13
	2.010253008821573e-05,1.441011882752907e-12
	-1.519962853420786e-05,-8.076933284486167e-14
	-1.018546208682458e-05,-1.185734987133175e-12
	-5.282560532816728e-06,1.745075627748701e-13
	-2.010253008810636e-05,-1.441011882752906e-12
	-5.282560532816728e-06,1.745075627748701e-13
14		1.380384264602885e+00,0.000000000000000e+00
	-5.282560532816728e-02,1.785723660875183e-09
	1.000000000000000e+00,0.000000000000000e+00
	0.000000000000000e+00,0.000000000000000e+00
	2.849930313343733e-05,1.483566480198203e-13
	2.849930352962512e-05,1.559086409576527e-13
	5.282560532816726e-06,-1.785723660875185e-13
	2.010253008821573e-05,1.474577361414345e-12
	-1.519962853420786e-05,-8.265069229133868e-14
	-1.018546208682458e-05,-1.213354303035488e-12
	-5.282560532816728e-06,1.785723660875183e-13
	-2.010253008810636e-05,-1.474577361414345e-12
	-5.282560532816728e-06,1.785723660875183e-13
15		1.412537544622754e+00,0.000000000000000e+00
	-5.282560532816728e-02,1.827318508323509e-09
	1.000000000000000e+00,0.000000000000000e+00
	0.000000000000000e+00,0.000000000000000e+00
	2.849930313343733e-05,1.518123182769446e-13
	2.849930352962512e-05,1.595402197279822e-13
	5.282560532816726e-06,-1.827318508323511e-13
	2.010253008821573e-05,1.508924680511144e-12
	-1.519962853420786e-05,-8.457587422887985e-14
	-1.018546208682458e-05,-1.241616955449913e-12
	-5.282560532816728e-06,1.827318508323509e-13
	-2.010253008810636e-05,-1.508924680511144e-12
	-5.282560532816728e-06,1.827318508323509e-13
16		1.445439770745927e+00,0.000000000000000e+00
	-5.282560532816728e-02,1.869882224232367e-09
	1.000000000000000e+00,0.000000000000000e+00
	0.000000000000000e+00,0.000000000000000e+00
	2.849930313343733e-05,1.553484814346928e-13
	2.849930352962512e-05,1.632563888345759e-13
	5.282560532816726e-06,-1.869882224232368e-13
	2.010253008821573e-05,1.544072051446529e-12
	-1.519962853420786e-05,-8.654589941443115e-14
	-1.018546208682458e-05,-1.270537929608861e-12
	-5.282560532816728e-06,1.869882224232367e-13
	-2.010253008810636e-05,-1.544072051446529e-12
	-5.282560532816728e-06,1.869882224232367e-13
17		1.479108388168207e+00,0.000000000000000e+00
	-5.282560532816728e-02,1.913437376447330e-09
	1.000000000000000e+00,0.000000000000000e+00
	0.000000000000000e+00,0.000000000000000e+00
	2.849930313343733e-05,1.589670124135779e-13
	2.849930352962512e-05,1.670591186394834e-13
	5.282560532816726e-06,-1.913437376447332e-13
	2.010253008821573e-05,1.580038109821801e-12
	-1.519962853420786e-05,-8.856181238142239e-14
	-1.018546208682458e-05,-1.300132559795645e-12
	-5.282560532816728e-06,1.913437376447330e-13
	-2.010253008810636e-05,-1.580038109821801e-12
	-5.282560532816728e-06,1.913437376447330e-13
18		1.513561248436208e+00,0.000000000000000e+00
	-5.282560532816728e-02,1.958007058486625e-09
	1.000000000000000e+00,0.000000000000000e+00
	0.000000000000000e+00,0.000000000000000e+00
	2.849930313343733e-05,1.626698298066220e-13
	2.849930352962512e-05,1.709504254003825e-13
	5.282560532816726e-06,-1.958007058486625e-13
	2.010253008821573e-05,1.616841925317178e-12
	-1.519962853420786e-05,-9.062468199359248e-14
	-1.018546208682458e-05,-1.330416537474923e-12
	-5.282560532816728e-06,1.958007058486625e-13
	-2.010253008810636e-05,-1.616841925317177e-12
	-5.282560532816728e-06,1.958007058486625e-13
19		1.548816618912481e+00,0.000000000000000e+00
	-5.282560532816728e-02,2.003614901785616e-09
	1.000000000000000e+00,0.000000000000000e+00
	0.000000000000000e+00,0.000000000000000e+00
	2.849930313343733e-05,1.664588968966192e-13
	2.849930352962512e-05,1.749323723396252e-13
	5.282560532816726e-06,-2.003614901785618e-13
	2.010253008821573e-05,1.654503011802791e-12
	-1.519962853420786e-05,-9.273560201171504e-14
	-1.018546208682458e-05,-1.361405919612514e-12
	-5.282560532816728e-06,2.003614901785616e-13
	-2.010253008810636e-05,-1.654503011802790e-12
	-5.282560532816728e-06,2.003614901785616e-13
20		1.584893192461113e+00,0.000000000000000e+00
	-5.282560532816728e-02,2.050285088226512e-09
	1.000000000000000e+00,0.000000000000000e+00
	0.000000000000000e+00,0.000000000000000e+00
	2.849930313343733e-05,1.703362226970950e-13
	2.849930352962512e-05,1.790070707381861e-13
	5.282560532816726e-06,-2.050285088226513e-13
	2.010253008821573e-05,1.693041337685197e-12
	-1.519962853420786e-05,-9.489569167352498e-14
	-1.018546208682458e-05,-1.393117137189021e-12
	-5.282560532816728e-06,2.050285088226512e-13
	-2.010253008810636e-05,-1.693041337685197e-12
	-5.282560532816728e-06,2.050285088226512e-13
21		1.621810097358929e+00,0.000000000000000e+00
	-5.282560532816728e-02,2.098042362959918e-09
	1.000000000000000e+00,0.000000000000000e+00
	0.000000000000000e+00,0.000000000000000e+00
	2.849930313343733e-05,1.743038630175112e-13
	2.849930352962512e-05,1.831766810550911e-13
	5.282560532816726e-06,-2.098042362959917e-13
	2.010253008821573e-05,1.732477336494896e-12
	-1.519962853420786e-05,-9.710609628715322e-14
	-1.018546208682458e-05,-1.425567003911751e-12
	-5.282560532816728e-06,2.098042362959918e-13
	-2.010253008810636e-05,-1.732477336494896e-12
	-5.282560532816728e-06,2.098042362959918e-13
22		1.659586907437560e+00,0.000000000000000e+00
	-5.282560532816728e-02,2.146912047525038e-09
	1.000000000000000e+00,0.000000000000000e+00
	0.000000000000000e+00,0.000000000000000e+00
	2.849930313343733e-05,1.783639215532838e-13
	2.849930352962512e-05,1.874434140729215e-13
	5.282560532816726e-06,-2.146912047525041e-13
	2.010253008821573e-05,1.772831917720453e-12
	-1.519962853420786e-05,-9.936798783838407e-14
	-1.018546208682458e-05,-1.458772725129565e-12
	-5.282560532816728e-06,2.146912047525038e-13
	-2.010253008810636e-05,-1.772831917720453e-12
	-5.282560532816728e-06,2.146912047525038e-13
23		1.698243652461743e+00,0.000000000000000e+00
	-5.282560532816727e-02,2.196920053275497e-09
	1.000000000000000e+00,0.000000000000000e+00
	0.000000000000000e+00,0.000000000000000e+00
	2.849930313343733e-05,1.825185510011895e-13
	2.849930352962512e-05,1.918095320700003e-13
	5.282560532816729e-06,-2.196920053275497e-13
	2.010253008821572e-05,1.814126477894991e-12
	-1.519962853420786e-05,-1.016825656120576e-13
	-1.018546208682459e-05,-1.492751906955383e-12
	-5.282560532816727e-06,2.196920053275497e-13
	-2.010253008810636e-05,-1.814126477894990e-12
	-5.282560532816727e-06,2.196920053275497e-13
24		1.737800828749374e+00,0.000000000000000e+00
	-5.282560532816727e-02,2.248092895117877e-09
	1.000000000000000e+00,0.000000000000000e+00
	0.000000000000000e+00,0.000000000000000e+00
	2.849930313343733e-05,1.867699542007546e-13
	2.849930352962512e-05,1.962773500198818e-13
	5.282560532816729e-06,-2.248092895117877e-13
	2.010253008821572e-05,1.856382911940910e-12
	-1.519962853420786e-05,-1.040510568279465e-13
	-1.018546208682459e-05,-1.527522565601176e-12
	-5.282560532816727e-06,2.248092895117877e-13
	-2.010253008810636e-05,-1.856382911940910e-12
	-5.282560532816727e-06,2.248092895117877e-13
25		1.778279410038922e+00,0.000000000000000e+00
	-5.282560532816727e-02,2.300457705570276e-09
	1.000000000000000e+00,0.000000000000000e+00
	0.000000000000000e+00,0.000000000000000e+00
	2.849930313343733e-05,1.911203853022296e-13
	2.849930352962512e-05,2.008492368187818e-13
	5.282560532816729e-06,-2.300457705570275e-13
	2.010253008821572e-05,1.899623624778873e-12
	-1.519962853420786e-05,-1.064747172914442e-13
	-1.018546208682459e-05,-1.563103136930401e-12
	-5.282560532816727e-06,2.300457705570276e-13
	-2.010253008810636e-05,-1.899623624778873e-12
	-5.282560532816727e-06,2.300457705570276e-13
26		1.819700858609982e+00,0.000000000000000e+00
	-5.282560532816727e-02,2.354042249148325e-09
	1.000000000000000e+00,0.000000000000000e+00
	0.000000000000000e+00,0.000000000000000e+00
	2.849930313343732e-05,1.955721509617691e-13
	2.849930352962511e-05,2.055276165415970e-13
	5.282560532816729e-06,-2.354042249148326e-13
	2.010253008821572e-05,1.943871543207186e-12
	-1.519962853420786e-05,-1.089548320594093e-13
	-1.018546208682459e-05,-1.599512486232944e-12
	-5.282560532816727e-06,2.354042249148325e-13
	-2.010253008810636e-05,-1.943871543207185e-12
	-5.282560532816727e-06,2.354042249148325e-13
27		1.862087136662866e+00,0.000000000000000e+00
	-5.282560532816727e-02,2.408874937086306e-09
	1.000000000000000e+00,0.000000000000000e+00
	0.000000000000000e+00,0.000000000000000e+00
	2.849930313343732e-05,2.001276115644520e-13
	2.849930352962511e-05,2.103149697271822e-13
	5.282560532816729e-06,-2.408874937086308e-13
	2.010253008821572e-05,1.989150128057888e-12
	-1.519962853420786e-05,-1.114927161215199e-13
	-1.018546208682459e-05,-1.636769918227737e-12
	-5.282560532816727e-06,2.408874937086306e-13
	-2.010253008810636e-05,-1.989150128057888e-12
	-5.282560532816727e-06,2.408874937086306e-13
28		1.905460717963246e+00,0.000000000000000e+00
	-5.282560532816727e-02,2.464984842401159e-09
	1.000000000000000e+00,0.000000000000000e+00
	0.000000000000000e+00,0.000000000000000e+00
	2.849930313343732e-05,2.047891824757886e-13
	2.849930352962511e-05,2.152138346935645e-13
	5.282560532816729e-06,-2.464984842401159e-13
	2.010253008821572e-05,2.035483386636001e-12
	-1.519962853420786e-05,-1.140897150974988e-13
	-1.018546208682459e-05,-1.674895187298387e-12
	-5.282560532816727e-06,2.464984842401159e-13
	-2.010253008810636e-05,-2.035483386636001e-12
	-5.282560532816727e-06,2.464984842401159e-13
29		1.949844599758044e+00,0.000000000000000e+00
	-5.282560532816727e-02,2.522401715307385e-09
	1.000000000000000e+00,0.000000000000000e+00
	0.000000000000000e+00,0.000000000000000e+00
	2.849930313343732e-05,2.095593353223791e-13
	2.849930352962511e-05,2.202268088837932e-13
	5.282560532816729e-06,-2.522401715307387e-13
	2.010253008821572e-05,2.082895885448517e-12
	-1.519962853420786e-05,-1.167472059505783e-13
	-1.018546208682459e-05,-1.713908507967200e-12
	-5.282560532816727e-06,2.522401715307386e-13
	-2.010253008810636e-05,-2.082895885448517e-12
	-5.282560532816727e-06,2.522401715307386e-13
30		1.995262314968878e+00,0.000000000000000e+00
	-5.282560532816727e-02,2.581155998991001e-09
	1.000000000000000e+00,0.000000000000000e+00
	0.000000000000000e+00,0.000000000000000e+00
	2.849930313343732e-05,2.144405993024032e-13
	2.849930352962511e-05,2.253565502431385e-13
	5.282560532816729e-06,-2.581155998991004e-13
	2.010253008821572e-05,2.131412763229884e-12
	-1.519962853420786e-05,-1.194665977175847e-13
	-1.018546208682459e-05,-1.753830565613199e-12
	-5.282560532816727e-06,2.581155998991001e-13
	-2.010253008810636e-05,-2.131412763229883e-12
	-5.282560532816727e-06,2.581155998991001e-13
31		2.041737944669527e+00,0.000000000000000e+00
	-5.282560532816727e-02,2.641278845750920e-09
	1.000000000000000e+00,0.000000000000000e+00
	0.000000000000000e+00,0.000000000000000e+00
	2.849930313343732e-05,2.194355625266343e-13
	2.849930352962511e-05,2.306057786283692e-13
	5.282560532816729e-06,-2.641278845750921e-13
	2.010253008821572e-05,2.181059744270898e-12
	-1.519962853420786e-05,-1.222493322560284e-13
	-1.018546208682459e-05,-1.794682527439778e-12
	-5.282560532816727e-06,2.641278845750920e-13
	-2.010253008810636e-05,-2.181059744270898e-12
	-5.282560532816727e-06,2.641278845750920e-13
32		2.089296130854037e+00,0.000000000000000e+00
	-5.282560532816727e-02,2.702802133516316e-09
	1.000000000000000e+00,0.000000000000000e+00
	0.000000000000000e+00,0.000000000000000e+00
	2.849930313343732e-05,2.245468733906902e-13
