Title: * GA CMOS Amp | W=2.126531848517604e-05 L=9.107441375030955e-07 Vbias=0.9684958148793767
Date: Mon Sep  8 18:47:45 2025
Plotname: AC Analysis
Flags: complex forward log
No. Variables: 11
No. Points:          901
Offset:    0.0000000000000000e+00
Command: Linear Technology Corporation LTspice
Variables:
	0	frequency	frequency
	1	V(out)	voltage
	2	V(g)	voltage
	3	V(vdd)	voltage
	4	Id(M1)	device_current
	5	Ig(M1)	device_current
	6	Ib(M1)	device_current
	7	Is(M1)	device_current
	8	I(Rload)	device_current
	9	I(Vg)	device_current
	10	I(Vdd)	device_current
Values:
0		1.000000000000000e+00,0.000000000000000e+00
	-5.092195026737553e+00,1.460526503484342e-09
	1.000000000000000e+00,0.000000000000000e+00
	0.000000000000000e+00,0.000000000000000e+00
	5.092195026737553e-04,-1.460526503484342e-13
	3.902933914493882e-23,3.035735635760507e-13
	5.092195111758291e-12,-4.740707811163751e-15
	-5.092195077659504e-04,-1.527802054164527e-13
	-5.092195026737553e-04,1.460526503484342e-13
	-3.902933914493882e-23,-3.035735635760507e-13
	-5.092195026737553e-04,1.460526503484342e-13
1		1.023292992280754e+00,0.000000000000000e+00
	-5.092195026737553e+00,1.494546536055840e-09
	1.000000000000000e+00,0.000000000000000e+00
	0.000000000000000e+00,0.000000000000000e+00
	5.092195026737553e-04,-1.494546536055840e-13
	4.086873523022592e-23,3.106447002490687e-13
	5.092195111758291e-12,-4.851133081614480e-15
	-5.092195077659504e-04,-1.563389135618702e-13
	-5.092195026737553e-04,1.494546536055840e-13
	-4.086873523022592e-23,-3.106447002490687e-13
	-5.092195026737553e-04,1.494546536055840e-13
2		1.047128548050899e+00,0.000000000000000e+00
	-5.092195026737553e+00,1.529358996983416e-09
	1.000000000000000e+00,0.000000000000000e+00
	0.000000000000000e+00,0.000000000000000e+00
	5.092195026737553e-04,-1.529358996983416e-13
	4.279481938230311e-23,3.178805448540274e-13
	5.092195111758291e-12,-4.964130487037485e-15
	-5.092195077659504e-04,-1.599805146686483e-13
	-5.092195026737553e-04,1.529358996983416e-13
	-4.279481938230311e-23,-3.178805448540274e-13
	-5.092195026737553e-04,1.529358996983416e-13
3		1.071519305237606e+00,0.000000000000000e+00
	-5.092195026737553e+00,1.564982344294652e-09
	1.000000000000000e+00,0.000000000000000e+00
	0.000000000000000e+00,0.000000000000000e+00
	5.092195026737553e-04,-1.564982344294653e-13
	4.481167708389153e-23,3.252849339315141e-13
	5.092195111758291e-12,-5.079759940152627e-15
	-5.092195077659504e-04,-1.637069395618962e-13
	-5.092195026737553e-04,1.564982344294653e-13
	-4.481167708389153e-23,-3.252849339315141e-13
	-5.092195026737553e-04,1.564982344294653e-13
4		1.096478196143185e+00,0.000000000000000e+00
	-5.092195026737553e+00,1.601435465959824e-09
	1.000000000000000e+00,0.000000000000000e+00
	0.000000000000000e+00,0.000000000000000e+00
	5.092195026737553e-04,-1.601435465959824e-13
	4.692358636058110e-23,3.328617933866264e-13
	5.092195111758291e-12,-5.198082749226713e-15
	-5.092195077659504e-04,-1.675201640414173e-13
	-5.092195026737553e-04,1.601435465959824e-13
	-4.692358636058110e-23,-3.328617933866264e-13
	-5.092195026737553e-04,1.601435465959824e-13
5		1.122018454301963e+00,0.000000000000000e+00
	-5.092195026737553e+00,1.638737689906552e-09
	1.000000000000000e+00,0.000000000000000e+00
	0.000000000000000e+00,0.000000000000000e+00
	5.092195026737553e-04,-1.638737689906552e-13
	4.913502685509629e-23,3.406151405705392e-13
	5.092195111758291e-12,-5.319161650579208e-15
	-5.092195077659504e-04,-1.714222099293047e-13
	-5.092195026737553e-04,1.638737689906553e-13
	-4.913502685509629e-23,-3.406151405705392e-13
	-5.092195026737553e-04,1.638737689906553e-13
6		1.148153621496882e+00,0.000000000000000e+00
	-5.092195026737553e+00,1.676908794267726e-09
	1.000000000000000e+00,0.000000000000000e+00
	0.000000000000000e+00,0.000000000000000e+00
	5.092195026737553e-04,-1.676908794267726e-13
	5.145068932921891e-23,3.485490864105567e-13
	5.092195111758291e-12,-5.443060841846235e-15
	-5.092195077659504e-04,-1.754151461419378e-13
	-5.092195026737553e-04,1.676908794267726e-13
	-5.145068932921891e-23,-3.485490864105567e-13
	-5.092195026737553e-04,1.676908794267726e-13
7		1.174897554939529e+00,0.000000000000000e+00
	-5.092195026737553e+00,1.715969017868133e-09
	1.000000000000000e+00,0.000000000000000e+00
	0.000000000000000e+00,0.000000000000000e+00
	5.092195026737553e-04,-1.715969017868133e-13
	5.387548561352293e-23,3.566678375897817e-13
	5.092195111758291e-12,-5.569846016019062e-15
	-5.092195077659504e-04,-1.795010897869493e-13
	-5.092195026737553e-04,1.715969017868133e-13
	-5.387548561352293e-23,-3.566678375897817e-13
	-5.092195026737553e-04,1.715969017868133e-13
8		1.202264434617413e+00,0.000000000000000e+00
	-5.092195026737553e+00,1.755939070955349e-09
	1.000000000000000e+00,0.000000000000000e+00
	0.000000000000000e+00,0.000000000000000e+00
	5.092195026737553e-04,-1.755939070955349e-13
	5.641455902602539e-23,3.649756987775537e-13
	5.092195111758291e-12,-5.699584396275165e-15
	-5.092195077659504e-04,-1.836822072857437e-13
	-5.092195026737553e-04,1.755939070955349e-13
	-5.641455902602539e-23,-3.649756987775537e-13
	-5.092195026737553e-04,1.755939070955349e-13
9		1.230268770812381e+00,0.000000000000000e+00
	-5.092195026737553e+00,1.796840146180587e-09
	1.000000000000000e+00,0.000000000000000e+00
	0.000000000000000e+00,0.000000000000000e+00
	5.092195026737553e-04,-1.796840146180586e-13
	5.907329528185374e-23,3.734770749118421e-13
	5.092195111758291e-12,-5.832344771621095e-15
	-5.092195077659504e-04,-1.879607155221624e-13
	-5.092195026737553e-04,1.796840146180587e-13
	-5.907329528185374e-23,-3.734770749118421e-13
	-5.092195026737553e-04,1.796840146180587e-13
10		1.258925411794167e+00,0.000000000000000e+00
	-5.092195026737553e+00,1.838693929835320e-09
	1.000000000000000e+00,0.000000000000000e+00
	0.000000000000000e+00,0.000000000000000e+00
	5.092195026737553e-04,-1.838693929835320e-13
	6.185733391706956e-23,3.821764735348023e-13
	5.092195111758291e-12,-5.968197533365129e-15
	-5.092195077659504e-04,-1.923388830179052e-13
	-5.092195026737553e-04,1.838693929835320e-13
	-6.185733391706956e-23,-3.821764735348023e-13
	-5.092195026737553e-04,1.838693929835320e-13
11		1.288249551693134e+00,0.000000000000000e+00
	-5.092195026737553e+00,1.881522613349644e-09
	1.000000000000000e+00,0.000000000000000e+00
	0.000000000000000e+00,0.000000000000000e+00
	5.092195026737553e-04,-1.881522613349644e-13
	6.477258025088072e-23,3.910785071827343e-13
	5.092195111758291e-12,-6.107214712439792e-15
	-5.092195077659504e-04,-1.968190311353301e-13
	-5.092195026737553e-04,1.881522613349644e-13
	-6.477258025088072e-23,-3.910785071827343e-13
	-5.092195026737553e-04,1.881522613349644e-13
12		1.318256738556407e+00,0.000000000000000e+00
	-5.092195026737553e+00,1.925348905058462e-09
	1.000000000000000e+00,0.000000000000000e+00
	0.000000000000000e+00,0.000000000000000e+00
	5.092195026737553e-04,-1.925348905058461e-13
	6.782521791161510e-23,4.001878958317106e-13
	5.092195111758291e-12,-6.249470017593623e-15
	-5.092195077659504e-04,-2.014035353082709e-13
	-5.092195026737553e-04,1.925348905058462e-13
	-6.782521791161510e-23,-4.001878958317106e-13
	-5.092195026737553e-04,1.925348905058462e-13
13		1.348962882591653e+00,0.000000000000000e+00
	-5.092195026737553e+00,1.970196042241747e-09
	1.000000000000000e+00,0.000000000000000e+00
	0.000000000000000e+00,0.000000000000000e+00
	5.092195026737553e-04,-1.970196042241746e-13
	7.102172195302538e-23,4.095094694001699e-13
	5.092195111758291e-12,-6.395038874472180e-15
	-5.092195077659504e-04,-2.060948263015230e-13
	-5.092195026737553e-04,1.970196042241747e-13
	-7.102172195302538e-23,-4.095094694001699e-13
	-5.092195026737553e-04,1.970196042241747e-13
14		1.380384264602885e+00,0.000000000000000e+00
	-5.092195026737553e+00,2.016087803445256e-09
	1.000000000000000e+00,0.000000000000000e+00
	0.000000000000000e+00,0.000000000000000e+00
	5.092195026737553e-04,-2.016087803445256e-13
	7.436887258874616e-23,4.190481703098038e-13
	5.092195111758291e-12,-6.543998465610410e-15
	-5.092195077659504e-04,-2.108953914996678e-13
	-5.092195026737553e-04,2.016087803445256e-13
	-7.436887258874616e-23,-4.190481703098038e-13
	-5.092195026737553e-04,2.016087803445256e-13
15		1.412537544622754e+00,0.000000000000000e+00
	-5.092195026737553e+00,2.063048521088229e-09
	1.000000000000000e+00,0.000000000000000e+00
	0.000000000000000e+00,0.000000000000000e+00
	5.092195026737553e-04,-2.063048521088228e-13
	7.787376957403609e-23,4.288090561060942e-13
	5.092195111758291e-12,-6.696427771355191e-15
	-5.092195077659504e-04,-2.158077762259161e-13
	-5.092195026737553e-04,2.063048521088229e-13
	-7.787376957403609e-23,-4.288090561060942e-13
	-5.092195026737553e-04,2.063048521088229e-13
16		1.445439770745927e+00,0.000000000000000e+00
	-5.092195026737553e+00,2.111103094364758e-09
	1.000000000000000e+00,0.000000000000000e+00
	0.000000000000000e+00,0.000000000000000e+00
	5.092195026737553e-04,-2.111103094364758e-13
	8.154384726531071e-23,4.387973021398908e-13
	5.092195111758291e-12,-6.852407611741960e-15
	-5.092195077659504e-04,-2.208345850916731e-13
	-5.092195026737553e-04,2.111103094364758e-13
	-8.154384726531071e-23,-4.387973021398908e-13
	-5.092195026737553e-04,2.111103094364758e-13
17		1.479108388168207e+00,0.000000000000000e+00
	-5.092195026737553e+00,2.160277002445672e-09
	1.000000000000000e+00,0.000000000000000e+00
	0.000000000000000e+00,0.000000000000000e+00
	5.092195026737553e-04,-2.160277002445672e-13
	8.538689038940910e-23,4.490182043114510e-13
	5.092195111758291e-12,-7.012020689346849e-15
	-5.092195077659504e-04,-2.259784833775369e-13
	-5.092195026737553e-04,2.160277002445672e-13
	-8.538689038940910e-23,-4.490182043114510e-13
	-5.092195026737553e-04,2.160277002445672e-13
18		1.513561248436208e+00,0.000000000000000e+00
	-5.092195026737553e+00,2.210596317987930e-09
	1.000000000000000e+00,0.000000000000000e+00
	0.000000000000000e+00,0.000000000000000e+00
	5.092195026737553e-04,-2.210596317987930e-13
	8.941105055604327e-23,4.594771818783957e-13
	5.092195111758291e-12,-7.175351633136290e-15
	-5.092195077659504e-04,-2.312421984464664e-13
	-5.092195026737553e-04,2.210596317987930e-13
	-8.941105055604327e-23,-4.594771818783957e-13
	-5.092195026737553e-04,2.210596317987930e-13
19		1.548816618912481e+00,0.000000000000000e+00
	-5.092195026737553e+00,2.262087720958686e-09
	1.000000000000000e+00,0.000000000000000e+00
	0.000000000000000e+00,0.000000000000000e+00
	5.092195026737553e-04,-2.262087720958686e-13
	9.362486354845516e-23,4.701797803290718e-13
	5.092195111758291e-12,-7.342487043338589e-15
	-5.092195077659504e-04,-2.366285211898646e-13
	-5.092195026737553e-04,2.262087720958686e-13
	-9.362486354845516e-23,-4.701797803290718e-13
	-5.092195026737553e-04,2.262087720958686e-13
20		1.584893192461113e+00,0.000000000000000e+00
	-5.092195026737553e+00,2.314778512781365e-09
	1.000000000000000e+00,0.000000000000000e+00
	0.000000000000000e+00,0.000000000000000e+00
	5.092195026737553e-04,-2.314778512781365e-13
	9.803726742895744e-23,4.811316743228436e-13
	5.092195111758291e-12,-7.513515537360654e-15
	-5.092195077659504e-04,-2.421403075073464e-13
	-5.092195026737553e-04,2.314778512781365e-13
	-9.803726742895744e-23,-4.811316743228436e-13
	-5.092195026737553e-04,2.314778512781365e-13
21		1.621810097358929e+00,0.000000000000000e+00
	-5.092195026737553e+00,2.368696630811237e-09
	1.000000000000000e+00,0.000000000000000e+00
	0.000000000000000e+00,0.000000000000000e+00
	5.092195026737553e-04,-2.368696630811238e-13
	1.026576214977619e-22,4.923386706988718e-13
	5.092195111758291e-12,-7.688527796773631e-15
	-5.092195077659504e-04,-2.477804798209744e-13
	-5.092195026737553e-04,2.368696630811237e-13
	-1.026576214977619e-22,-4.923386706988718e-13
	-5.092195026737553e-04,2.368696630811237e-13
22		1.659586907437560e+00,0.000000000000000e+00
	-5.092195026737553e+00,2.423870663148172e-09
	1.000000000000000e+00,0.000000000000000e+00
	0.000000000000000e+00,0.000000000000000e+00
	5.092195026737553e-04,-2.423870663148172e-13
	1.074957261453103e-22,5.038067115549774e-13
	5.092195111758291e-12,-7.867616615394275e-15
	-5.092195077659504e-04,-2.535520286247660e-13
	-5.092195026737553e-04,2.423870663148172e-13
	-1.074957261453103e-22,-5.038067115549774e-13
	-5.092195026737553e-04,2.423870663148172e-13
23		1.698243652461743e+00,0.000000000000000e+00
	-5.092195026737553e+00,2.480329863794428e-09
	1.000000000000000e+00,0.000000000000000e+00
	0.000000000000000e+00,0.000000000000000e+00
	5.092195026737553e-04,-2.480329863794428e-13
	1.125618436402159e-22,5.155418773982197e-13
	5.092195111758291e-12,-8.050876948484670e-15
	-5.092195077659504e-04,-2.594580140702922e-13
	-5.092195026737553e-04,2.480329863794429e-13
	-1.125618436402159e-22,-5.155418773982197e-13
	-5.092195026737553e-04,2.480329863794429e-13
24		1.737800828749374e+00,0.000000000000000e+00
	-5.092195026737553e+00,2.538104168165516e-09
	1.000000000000000e+00,0.000000000000000e+00
	0.000000000000000e+00,0.000000000000000e+00
	5.092195026737553e-04,-2.538104168165515e-13
	1.178667198969116e-22,5.275503903688618e-13
	5.092195111758291e-12,-8.238405963099051e-15
	-5.092195077659504e-04,-2.655015675892112e-13
	-5.092195026737553e-04,2.538104168165516e-13
	-1.178667198969116e-22,-5.275503903688618e-13
	-5.092195026737553e-04,2.538104168165516e-13
25		1.778279410038922e+00,0.000000000000000e+00
	-5.092195026737553e+00,2.597224208962346e-09
	1.000000000000000e+00,0.000000000000000e+00
	0.000000000000000e+00,0.000000000000000e+00
	5.092195026737553e-04,-2.597224208962345e-13
	1.234216072691751e-22,5.398386175394325e-13
	5.092195111758291e-12,-8.430303089603212e-15
	-5.092195077659504e-04,-2.716858935535949e-13
	-5.092195026737553e-04,2.597224208962346e-13
	-1.234216072691751e-22,-5.398386175394325e-13
	-5.092195026737553e-04,2.597224208962346e-13
26		1.819700858609982e+00,0.000000000000000e+00
	-5.092195026737553e+00,2.657721332413093e-09
	1.000000000000000e+00,0.000000000000000e+00
	0.000000000000000e+00,0.000000000000000e+00
	5.092195026737553e-04,-2.657721332413092e-13
	1.292382884178797e-22,5.524130742906315e-13
	5.092195111758291e-12,-8.626670074393689e-15
	-5.092195077659504e-04,-2.780142709749285e-13
	-5.092195026737553e-04,2.657721332413093e-13
	-1.292382884178797e-22,-5.524130742906315e-13
	-5.092195026737553e-04,2.657721332413093e-13
27		1.862087136662866e+00,0.000000000000000e+00
	-5.092195026737553e+00,2.719627614893386e-09
	1.000000000000000e+00,0.000000000000000e+00
	0.000000000000000e+00,0.000000000000000e+00
	5.092195026737553e-04,-2.719627614893386e-13
	1.353291013035977e-22,5.652804277658708e-13
	5.092195111758291e-12,-8.827611033845193e-15
	-5.092195077659504e-04,-2.844900552426870e-13
	-5.092195026737553e-04,2.719627614893386e-13
	-1.353291013035977e-22,-5.652804277658708e-13
	-5.092195026737553e-04,2.719627614893386e-13
28		1.905460717963246e+00,0.000000000000000e+00
	-5.092195026737553e+00,2.782975879933623e-09
	1.000000000000000e+00,0.000000000000000e+00
	0.000000000000000e+00,0.000000000000000e+00
	5.092195026737553e-04,-2.782975879933624e-13
	1.417069653570693e-22,5.784475004062826e-13
	5.092195111758291e-12,-9.033232509514062e-15
	-5.092195077659504e-04,-2.911166799034062e-13
	-5.092195026737553e-04,2.782975879933624e-13
	-1.417069653570693e-22,-5.784475004062826e-13
	-5.092195026737553e-04,2.782975879933624e-13
29		1.949844599758044e+00,0.000000000000000e+00
	-5.092195026737553e+00,2.847799715622442e-09
	1.000000000000000e+00,0.000000000000000e+00
	0.000000000000000e+00,0.000000000000000e+00
	5.092195026737553e-04,-2.847799715622443e-13
	1.483854088830472e-22,5.919212735680677e-13
	5.092195111758291e-12,-9.243643524628374e-15
	-5.092195077659504e-04,-2.978976584811950e-13
	-5.092195026737553e-04,2.847799715622443e-13
	-1.483854088830472e-22,-5.919212735680677e-13
	-5.092195026737553e-04,2.847799715622443e-13
30		1.995262314968878e+00,0.000000000000000e+00
	-5.092195026737553e+00,2.914133492415569e-09
	1.000000000000000e+00,0.000000000000000e+00
	0.000000000000000e+00,0.000000000000000e+00
	5.092195026737553e-04,-2.914133492415569e-13
	1.553785977556442e-22,6.057088912241027e-13
	5.092195111758291e-12,-9.458955641893654e-15
	-5.092195077659504e-04,-3.048365863406522e-13
	-5.092195026737553e-04,2.914133492415569e-13
	-1.553785977556442e-22,-6.057088912241027e-13
	-5.092195026737553e-04,2.914133492415569e-13
31		2.041737944669527e+00,0.000000000000000e+00
	-5.092195026737553e+00,2.982012381359492e-09
	1.000000000000000e+00,0.000000000000000e+00
	0.000000000000000e+00,0.000000000000000e+00
	5.092195026737553e-04,-2.982012381359492e-13
	1.627013654660524e-22,6.198176637517698e-13
	5.092195111758291e-12,-9.679283022644220e-15
	-5.092195077659504e-04,-3.119371425931764e-13
	-5.092195026737553e-04,2.982012381359492e-13
	-1.627013654660524e-22,-6.198176637517698e-13
	-5.092195026737553e-04,2.982012381359492e-13
32		2.089296130854037e+00,0.000000000000000e+00
	-5.092195026737553e+00,3.051472372739612e-09
	1.000000000000000e+00,0.000000000000000e+00
	0.000000000000000e+00,0.000000000000000e+00
	5.092195026737553e-04,-3.051472372739612e-13
	1.703692445863663e-22,6.342550718090148e-13
	5.092195111758291e-12,-9.904742487373823e-15
	-5.092195077659504e-04,-3.192030920476798e-13
	-5.092195026737553e-04,3.051472372739612e-13
	-1.703692445863663e-22,-6.342550718090148e-13
	-5.092195026737553e-04,3.051472372739612e-13
33		2.137962089502230e+00,0.000000000000000e+00
	-5.092195026737553e+00,3.122550295162770e-09
	1.000000000000000e+00,0.000000000000000e+00
	0.000000000000000e+00,0.000000000000000e+00
	5.092195026737553e-04,-3.122550295162770e-13
	1.783984997162503e-22,6.490287703006914e-13
	5.092195111758291e-12,-1.013545357767514e-14
	-5.092195077659504e-04,-3.266382872067393e-13
	-5.092195026737553e-04,3.122550295162771e-13
	-1.783984997162503e-22,-6.490287703006914e-13
	-5.092195026737553e-04,3.122550295162771e-13
34		2.187761623949550e+00,0.000000000000000e+00
	-5.092195026737553e+00,3.195283835084263e-09
	1.000000000000000e+00,0.000000000000000e+00
	0.000000000000000e+00,0.000000000000000e+00
	5.092195026737553e-04,-3.195283835084263e-13
	1.868061619823359e-22,6.641465924372927e-13
	5.092195111758291e-12,-1.037153861962189e-14
	-5.092195077659504e-04,-3.342466703092446e-13
	-5.092195026737553e-04,3.195283835084264e-13
	-1.868061619823359e-22,-6.641465924372927e-13
	-5.092195026737553e-04,3.195283835084264e-13
35		2.238721138568337e+00,0.000000000000000e+00
	-5.092195026737553e+00,3.269711556789699e-09
	1.000000000000000e+00,0.000000000000000e+00
	0.000000000000000e+00,0.000000000000000e+00
	5.092195026737553e-04,-3.269711556789700e-13
	1.956100651635246e-22,6.796165538882238e-13
	5.092195111758291e-12,-1.061312278862828e-14
	-5.092195077659504e-04,-3.420322754206255e-13
	-5.092195026737553e-04,3.269711556789699e-13
	-1.956100651635246e-22,-6.796165538882238e-13
	-5.092195026737553e-04,3.269711556789699e-13
36		2.290867652767770e+00,0.000000000000000e+00
	-5.092195026737553e+00,3.345872922842294e-09
	1.000000000000000e+00,0.000000000000000e+00
	0.000000000000000e+00,0.000000000000000e+00
	5.092195026737553e-04,-3.345872922842293e-13
	2.048288835188233e-22,6.954468570318148e-13
	5.092195111758291e-12,-1.086033417581851e-14
	-5.092195077659504e-04,-3.499992305717669e-13
	-5.092195026737553e-04,3.345872922842294e-13
	-2.048288835188233e-22,-6.954468570318148e-13
	-5.092195026737553e-04,3.345872922842294e-13
37		2.344228815319919e+00,0.000000000000000e+00
	-5.092195026737553e+00,3.423808315006444e-09
	1.000000000000000e+00,0.000000000000000e+00
	0.000000000000000e+00,0.000000000000000e+00
	5.092195026737553e-04,-3.423808315006443e-13
	2.144821713979522e-22,7.116458953043316e-13
	5.092195111758291e-12,-1.111330385594229e-14
	-5.092195077659504e-04,-3.581517599477450e-13
	-5.092195026737553e-04,3.423808315006444e-13
	-2.144821713979522e-22,-7.116458953043316e-13
	-5.092195026737553e-04,3.423808315006444e-13
38		2.398832919019488e+00,0.000000000000000e+00
	-5.092195026737553e+00,3.503559055658670e-09
	1.000000000000000e+00,0.000000000000000e+00
