Title: * GA CMOS Amp | W=1.89415663197937e-05 L=5.754347782896861e-07 Vbias=1.0984631204956368
Date: Mon Sep  8 18:45:16 2025
Plotname: AC Analysis
Flags: complex forward log
No. Variables: 11
No. Points:          901
Offset:    0.0000000000000000e+00
Command: Linear Technology Corporation LTspice
Variables:
	0	frequency	frequency
	1	V(out)	voltage
	2	V(g)	voltage
	3	V(vdd)	voltage
	4	Id(M1)	device_current
	5	Ig(M1)	device_current
	6	Ib(M1)	device_current
	7	Is(M1)	device_current
	8	I(Rload)	device_current
	9	I(Vg)	device_current
	10	I(Vdd)	device_current
Values:
0		1.000000000000000e+00,0.000000000000000e+00
	-3.522165703672729e-01,6.875648532148021e-11
	1.000000000000000e+00,0.000000000000000e+00
	0.000000000000000e+00,0.000000000000000e+00
	3.522165703672726e-05,-6.875648532148015e-15
	4.204992789531564e-24,1.464775040198805e-13
	3.554213672506135e-13,8.816492797026292e-16
	-3.522165739214863e-05,-1.404835047674351e-13
	-3.522165703672729e-05,6.875648532148022e-15
	-4.204992789531564e-24,-1.464775040198805e-13
	-3.522165703672729e-05,6.875648532148022e-15
1		1.023292992280754e+00,0.000000000000000e+00
	-3.522165703672729e-01,7.035802960332524e-11
	1.000000000000000e+00,0.000000000000000e+00
	0.000000000000000e+00,0.000000000000000e+00
	3.522165703672726e-05,-7.035802960332545e-15
	4.403167994266689e-24,1.498894033903197e-13
	3.554213672506135e-13,9.021855295691090e-16
	-3.522165739214863e-05,-1.437557859595563e-13
	-3.522165703672729e-05,7.035802960332525e-15
	-4.403167994266689e-24,-1.498894033903197e-13
	-3.522165703672729e-05,7.035802960332525e-15
2		1.047128548050899e+00,0.000000000000000e+00
	-3.522165703672729e-01,7.199687864376456e-11
	1.000000000000000e+00,0.000000000000000e+00
	0.000000000000000e+00,0.000000000000000e+00
	3.522165703672726e-05,-7.199687864376461e-15
	4.610682908660668e-24,1.533807761064573e-13
	3.554213672506135e-13,9.232001301451635e-16
	-3.522165739214863e-05,-1.471042883722260e-13
	-3.522165703672729e-05,7.199687864376456e-15
	-4.610682908660668e-24,-1.533807761064573e-13
	-3.522165703672729e-05,7.199687864376456e-15
3		1.071519305237606e+00,0.000000000000000e+00
	-3.522165703672729e-01,7.367390138225215e-11
	1.000000000000000e+00,0.000000000000000e+00
	0.000000000000000e+00,0.000000000000000e+00
	3.522165703672726e-05,-7.367390138225218e-15
	4.827977699668943e-24,1.569534733403211e-13
	3.554213672506135e-13,9.447042236502256e-16
	-3.522165739214863e-05,-1.505307874257461e-13
	-3.522165703672729e-05,7.367390138225215e-15
	-4.827977699668943e-24,-1.569534733403211e-13
	-3.522165703672729e-05,7.367390138225215e-15
4		1.096478196143185e+00,0.000000000000000e+00
	-3.522165703672729e-01,7.538998699844199e-11
	1.000000000000000e+00,0.000000000000000e+00
	0.000000000000000e+00,0.000000000000000e+00
	3.522165703672726e-05,-7.538998699844190e-15
	5.055513278676461e-24,1.606093893832747e-13
	3.554213672506135e-13,9.667092118393069e-16
	-3.522165739214863e-05,-1.540370998952698e-13
	-3.522165703672729e-05,7.538998699844199e-15
	-5.055513278676461e-24,-1.606093893832747e-13
	-3.522165703672729e-05,7.538998699844199e-15
5		1.122018454301963e+00,0.000000000000000e+00
	-3.522165703672729e-01,7.714604538364285e-11
	1.000000000000000e+00,0.000000000000000e+00
	0.000000000000000e+00,0.000000000000000e+00
	3.522165703672726e-05,-7.714604538364288e-15
	5.293772279152526e-24,1.643504626503959e-13
	3.554213672506135e-13,9.892267620484109e-16
	-3.522165739214863e-05,-1.576250848740801e-13
	-3.522165703672729e-05,7.714604538364286e-15
	-5.293772279152526e-24,-1.643504626503959e-13
	-3.522165703672729e-05,7.714604538364286e-15
6		1.148153621496882e+00,0.000000000000000e+00
	-3.522165703672729e-01,7.894300762325475e-11
	1.000000000000000e+00,0.000000000000000e+00
	0.000000000000000e+00,0.000000000000000e+00
	3.522165703672726e-05,-7.894300762325468e-15
	5.543260080381086e-24,1.681786767082500e-13
	3.554213672506135e-13,1.012268813380692e-15
	-3.522165739214863e-05,-1.612966447593052e-13
	-3.522165703672729e-05,7.894300762325476e-15
	-5.543260080381086e-24,-1.681786767082500e-13
	-3.522165703672729e-05,7.894300762325476e-15
7		1.174897554939529e+00,0.000000000000000e+00
	-3.522165703672729e-01,8.078182649044273e-11
	1.000000000000000e+00,0.000000000000000e+00
	0.000000000000000e+00,0.000000000000000e+00
	3.522165703672726e-05,-8.078182649044285e-15
	5.804505879437957e-24,1.720960613266027e-13
	3.554213672506135e-13,1.035847583036819e-15
	-3.522165739214863e-05,-1.650537262605952e-13
	-3.522165703672729e-05,8.078182649044272e-15
	-5.804505879437957e-24,-1.720960613266027e-13
	-3.522165703672729e-05,8.078182649044272e-15
8		1.202264434617413e+00,0.000000000000000e+00
	-3.522165703672729e-01,8.266347695130983e-11
	1.000000000000000e+00,0.000000000000000e+00
	0.000000000000000e+00,0.000000000000000e+00
	3.522165703672726e-05,-8.266347695130996e-15
	6.078063813688778e-24,1.761046935546314e-13
	3.554213672506135e-13,1.059975572792555e-15
	-3.522165739214863e-05,-1.688983214322930e-13
	-3.522165703672729e-05,8.266347695130984e-15
	-6.078063813688778e-24,-1.761046935546314e-13
	-3.522165703672729e-05,8.266347695130984e-15
9		1.230268770812381e+00,0.000000000000000e+00
	-3.522165703672729e-01,8.458895668183700e-11
	1.000000000000000e+00,0.000000000000000e+00
	0.000000000000000e+00,0.000000000000000e+00
	3.522165703672726e-05,-8.458895668183702e-15
	6.364514136188644e-24,1.802066988222040e-13
	3.554213672506135e-13,1.084665575627416e-15
	-3.522165739214863e-05,-1.728324687296477e-13
	-3.522165703672729e-05,8.458895668183701e-15
	-6.364514136188644e-24,-1.802066988222040e-13
	-3.522165703672729e-05,8.458895668183701e-15
10		1.258925411794167e+00,0.000000000000000e+00
	-3.522165703672729e-01,8.655928659686407e-11
	1.000000000000000e+00,0.000000000000000e+00
	0.000000000000000e+00,0.000000000000000e+00
	3.522165703672726e-05,-8.655928659686395e-15
	6.664464446476640e-24,1.844042520668098e-13
	3.554213672506135e-13,1.109930682507670e-15
	-3.522165739214863e-05,-1.768582540896311e-13
	-3.522165703672729e-05,8.655928659686408e-15
	-6.664464446476640e-24,-1.844042520668098e-13
	-3.522165703672729e-05,8.655928659686408e-15
11		1.288249551693134e+00,0.000000000000000e+00
	-3.522165703672729e-01,8.857551139139242e-11
	1.000000000000000e+00,0.000000000000000e+00
	0.000000000000000e+00,0.000000000000000e+00
	3.522165703672726e-05,-8.857551139139266e-15
	6.978550979375928e-24,1.886995788867403e-13
	3.554213672506135e-13,1.135784289327495e-15
	-3.522165739214863e-05,-1.809778120369285e-13
	-3.522165703672729e-05,8.857551139139243e-15
	-6.978550979375928e-24,-1.886995788867403e-13
	-3.522165703672729e-05,8.857551139139243e-15
12		1.318256738556407e+00,0.000000000000000e+00
	-3.522165703672729e-01,9.063870009449596e-11
	1.000000000000000e+00,0.000000000000000e+00
	0.000000000000000e+00,0.000000000000000e+00
	3.522165703672726e-05,-9.063870009449593e-15
	7.307439954533095e-24,1.930949567211307e-13
	3.554213672506135e-13,1.162240104011404e-15
	-3.522165739214863e-05,-1.851933268156925e-13
	-3.522165703672729e-05,9.063870009449596e-15
	-7.307439954533095e-24,-1.930949567211307e-13
	-3.522165703672729e-05,9.063870009449596e-15
13		1.348962882591653e+00,0.000000000000000e+00
	-3.522165703672729e-01,9.274994663613464e-11
	1.000000000000000e+00,0.000000000000000e+00
	0.000000000000000e+00,0.000000000000000e+00
	3.522165703672726e-05,-9.274994663613489e-15
	7.651828989559372e-24,1.975927160574885e-13
	3.554213672506135e-13,1.189312153782530e-15
	-3.522165739214863e-05,-1.895070335476576e-13
	-3.522165703672729e-05,9.274994663613464e-15
	-7.651828989559372e-24,-1.975927160574885e-13
	-3.522165703672729e-05,9.274994663613464e-15
14		1.380384264602885e+00,0.000000000000000e+00
	-3.522165703672729e-01,9.491037042717051e-11
	1.000000000000000e+00,0.000000000000000e+00
	0.000000000000000e+00,0.000000000000000e+00
	3.522165703672726e-05,-9.491037042717034e-15
	8.012448579771091e-24,2.021952416673489e-13
	3.554213672506135e-13,1.217014792599994e-15
	-3.522165739214863e-05,-1.939212194172318e-13
	-3.522165703672729e-05,9.491037042717052e-15
	-8.012448579771091e-24,-2.021952416673489e-13
	-3.522165703672729e-05,9.491037042717052e-15
15		1.412537544622754e+00,0.000000000000000e+00
	-3.522165703672729e-01,9.712111695289409e-11
	1.000000000000000e+00,0.000000000000000e+00
	0.000000000000000e+00,0.000000000000000e+00
	3.522165703672726e-05,-9.712111695289401e-15
	8.390063647668193e-24,2.069049738707116e-13
	3.554213672506135e-13,1.245362708769571e-15
	-3.522165739214863e-05,-1.984382248841918e-13
	-3.522165703672729e-05,9.712111695289411e-15
	-8.390063647668193e-24,-2.069049738707116e-13
	-3.522165703672729e-05,9.712111695289411e-15
16		1.445439770745927e+00,0.000000000000000e+00
	-3.522165703672729e-01,9.938335838037604e-11
	1.000000000000000e+00,0.000000000000000e+00
	0.000000000000000e+00,0.000000000000000e+00
	3.522165703672726e-05,-9.938335838037645e-15
	8.785475165437424e-24,2.117244098299317e-13
	3.554213672506135e-13,1.274370932731703e-15
	-3.522165739214863e-05,-2.030604449246258e-13
	-3.522165703672729e-05,9.938335838037604e-15
	-8.785475165437424e-24,-2.117244098299317e-13
	-3.522165703672729e-05,9.938335838037604e-15
17		1.479108388168207e+00,0.000000000000000e+00
	-3.522165703672729e-01,1.016982941799656e-10
	1.000000000000000e+00,0.000000000000000e+00
	0.000000000000000e+00,0.000000000000000e+00
	3.522165703672726e-05,-1.016982941799654e-14
	9.199521853921727e-24,2.166561048737475e-13
	3.554213672506135e-13,1.304054845030598e-15
	-3.522165739214863e-05,-2.077903303007816e-13
	-3.522165703672729e-05,1.016982941799656e-14
	-9.199521853921727e-24,-2.166561048737475e-13
	-3.522165703672729e-05,1.016982941799656e-14
18		1.513561248436208e+00,0.000000000000000e+00
	-3.522165703672729e-01,1.040671517612654e-10
	1.000000000000000e+00,0.000000000000000e+00
	0.000000000000000e+00,0.000000000000000e+00
	3.522165703672726e-05,-1.040671517612653e-14
	9.633081961659576e-24,2.217026738521500e-13
	3.554213672506135e-13,1.334430184469610e-15
	-3.522165739214863e-05,-2.126303888604930e-13
	-3.522165703672729e-05,1.040671517612654e-14
	-9.633081961659576e-24,-2.217026738521500e-13
	-3.522165703672729e-05,1.040671517612654e-14
19		1.548816618912481e+00,0.000000000000000e+00
	-3.522165703672729e-01,1.064911871239206e-10
	1.000000000000000e+00,0.000000000000000e+00
	0.000000000000000e+00,0.000000000000000e+00
	3.522165703672726e-05,-1.064911871239204e-14
	1.008707512776790e-23,2.268667925228106e-13
	3.554213672506135e-13,1.365513056455649e-15
	-3.522165739214863e-05,-2.175831868668742e-13
	-3.522165703672729e-05,1.064911871239206e-14
	-1.008707512776790e-23,-2.268667925228106e-13
	-3.522165703672729e-05,1.064911871239206e-14
20		1.584893192461113e+00,0.000000000000000e+00
	-3.522165703672729e-01,1.089716855235664e-10
	1.000000000000000e+00,0.000000000000000e+00
	0.000000000000000e+00,0.000000000000000e+00
	3.522165703672726e-05,-1.089716855235666e-14
	1.056246433261994e-23,2.321511989698039e-13
	3.554213672506135e-13,1.397319941538972e-15
	-3.522165739214863e-05,-2.226513503589862e-13
	-3.522165703672729e-05,1.089716855235664e-14
	-1.056246433261994e-23,-2.321511989698039e-13
	-3.522165703672729e-05,1.089716855235664e-14
21		1.621810097358929e+00,0.000000000000000e+00
	-3.522165703672729e-01,1.115099621532876e-10
	1.000000000000000e+00,0.000000000000000e+00
	0.000000000000000e+00,0.000000000000000e+00
	3.522165703672726e-05,-1.115099621532877e-14
	1.106025794045574e-23,2.375586950553754e-13
	3.554213672506135e-13,1.429867704150956e-15
	-3.522165739214863e-05,-2.278375665441976e-13
	-3.522165703672729e-05,1.115099621532876e-14
	-1.106025794045574e-23,-2.375586950553754e-13
	-3.522165703672729e-05,1.115099621532876e-14
22		1.659586907437560e+00,0.000000000000000e+00
	-3.522165703672729e-01,1.141073628409513e-10
	1.000000000000000e+00,0.000000000000000e+00
	0.000000000000000e+00,0.000000000000000e+00
	3.522165703672726e-05,-1.141073628409516e-14
	1.158151183825785e-23,2.430921479055262e-13
	3.554213672506135e-13,1.463173601546304e-15
	-3.522165739214863e-05,-2.331445852229774e-13
	-3.522165703672729e-05,1.141073628409513e-14
	-1.158151183825785e-23,-2.430921479055262e-13
	-3.522165703672729e-05,1.141073628409513e-14
23		1.698243652461743e+00,0.000000000000000e+00
	-3.522165703672729e-01,1.167652647627828e-10
	1.000000000000000e+00,0.000000000000000e+00
	0.000000000000000e+00,0.000000000000000e+00
	3.522165703672726e-05,-1.167652647627828e-14
	1.212733167542925e-23,2.487544914302017e-13
	3.554213672506135e-13,1.497255292952435e-15
	-3.522165739214863e-05,-2.385752202468758e-13
	-3.522165703672729e-05,1.167652647627828e-14
	-1.212733167542925e-23,-2.487544914302017e-13
	-3.522165703672729e-05,1.167652647627828e-14
24		1.737800828749374e+00,0.000000000000000e+00
	-3.522165703672729e-01,1.194850771735625e-10
	1.000000000000000e+00,0.000000000000000e+00
	0.000000000000000e+00,0.000000000000000e+00
	3.522165703672726e-05,-1.194850771735624e-14
	1.269887520902390e-23,2.545487278788882e-13
	3.554213672506135e-13,1.532130848933562e-15
	-3.522165739214863e-05,-2.441323510104655e-13
	-3.522165703672729e-05,1.194850771735625e-14
	-1.269887520902390e-23,-2.545487278788882e-13
	-3.522165703672729e-05,1.194850771735625e-14
25		1.778279410038922e+00,0.000000000000000e+00
	-3.522165703672729e-01,1.222682421538316e-10
	1.000000000000000e+00,0.000000000000000e+00
	0.000000000000000e+00,0.000000000000000e+00
	3.522165703672726e-05,-1.222682421538317e-14
	1.329735475950477e-23,2.604779294324469e-13
	3.554213672506135e-13,1.567818760970862e-15
	-3.522165739214863e-05,-2.498189239780346e-13
	-3.522165703672729e-05,1.222682421538316e-14
	-1.329735475950477e-23,-2.604779294324469e-13
	-3.522165703672729e-05,1.222682421538316e-14
26		1.819700858609982e+00,0.000000000000000e+00
	-3.522165703672729e-01,1.251162353745022e-10
	1.000000000000000e+00,0.000000000000000e+00
	0.000000000000000e+00,0.000000000000000e+00
	3.522165703672726e-05,-1.251162353745018e-14
	1.392403978223794e-23,2.665452398320237e-13
	3.554213672506135e-13,1.604337951267785e-15
	-3.522165739214863e-05,-2.556379542458413e-13
	-3.522165703672729e-05,1.251162353745022e-14
	-1.392403978223794e-23,-2.665452398320237e-13
	-3.522165703672729e-05,1.251162353745022e-14
27		1.862087136662866e+00,0.000000000000000e+00
	-3.522165703672729e-01,1.280305668792775e-10
	1.000000000000000e+00,0.000000000000000e+00
	0.000000000000000e+00,0.000000000000000e+00
	3.522165703672726e-05,-1.280305668792774e-14
	1.458025956017778e-23,2.727538760459028e-13
	3.554213672506135e-13,1.641707782782368e-15
	-3.522165739214863e-05,-2.615925271407574e-13
	-3.522165703672729e-05,1.280305668792775e-14
	-1.458025956017778e-23,-2.727538760459028e-13
	-3.522165703672729e-05,1.280305668792775e-14
28		1.905460717963246e+00,0.000000000000000e+00
	-3.522165703672729e-01,1.310127818852970e-10
	1.000000000000000e+00,0.000000000000000e+00
	0.000000000000000e+00,0.000000000000000e+00
	3.522165703672726e-05,-1.310127818852973e-14
	1.526740602345420e-23,2.791071299751858e-13
	3.554213672506135e-13,1.679948069493959e-15
	-3.522165739214863e-05,-2.676857998561500e-13
	-3.522165703672729e-05,1.310127818852970e-14
	-1.526740602345420e-23,-2.791071299751858e-13
	-3.522165703672729e-05,1.310127818852970e-14
29		1.949844599758044e+00,0.000000000000000e+00
	-3.522165703672729e-01,1.340644616024314e-10
	1.000000000000000e+00,0.000000000000000e+00
	0.000000000000000e+00,0.000000000000000e+00
	3.522165703672726e-05,-1.340644616024316e-14
	1.598693670184316e-23,2.856083701992012e-13
	3.554213672506135e-13,1.719079086908755e-15
	-3.522165739214863e-05,-2.739210031258668e-13
	-3.522165703672729e-05,1.340644616024314e-14
	-1.598693670184316e-23,-2.856083701992012e-13
	-3.522165703672729e-05,1.340644616024314e-14
30		1.995262314968878e+00,0.000000000000000e+00
	-3.522165703672729e-01,1.371872240716603e-10
	1.000000000000000e+00,0.000000000000000e+00
	0.000000000000000e+00,0.000000000000000e+00
	3.522165703672726e-05,-1.371872240716601e-14
	1.674037781638266e-23,2.922610437615699e-13
	3.554213672506135e-13,1.759121582810144e-15
	-3.522165739214863e-05,-2.803014429372141e-13
	-3.522165703672729e-05,1.371872240716603e-14
	-1.674037781638266e-23,-2.922610437615699e-13
	-3.522165703672729e-05,1.371872240716603e-14
31		2.041737944669527e+00,0.000000000000000e+00
	-3.522165703672729e-01,1.403827250229795e-10
	1.000000000000000e+00,0.000000000000000e+00
	0.000000000000000e+00,0.000000000000000e+00
	3.522165703672726e-05,-1.403827250229797e-14
	1.752932751669226e-23,2.990686779978733e-13
	3.554213672506135e-13,1.800096788259438e-15
	-3.522165739214863e-05,-2.868305022838348e-13
	-3.522165703672729e-05,1.403827250229795e-14
	-1.752932751669226e-23,-2.990686779978733e-13
	-3.522165703672729e-05,1.403827250229795e-14
32		2.089296130854037e+00,0.000000000000000e+00
	-3.522165703672729e-01,1.436526587532910e-10
	1.000000000000000e+00,0.000000000000000e+00
	0.000000000000000e+00,0.000000000000000e+00
	3.522165703672726e-05,-1.436526587532910e-14
	1.835545927086264e-23,3.060348824058931e-13
	3.554213672506135e-13,1.842026428852931e-15
	-3.522165739214863e-05,-2.935116429594169e-13
	-3.522165703672729e-05,1.436526587532910e-14
	-1.835545927086264e-23,-3.060348824058931e-13
	-3.522165703672729e-05,1.436526587532910e-14
33		2.137962089502230e+00,0.000000000000000e+00
	-3.522165703672729e-01,1.469987590247413e-10
	1.000000000000000e+00,0.000000000000000e+00
	0.000000000000000e+00,0.000000000000000e+00
	3.522165703672726e-05,-1.469987590247415e-14
	1.922052541510582e-23,3.131633505594150e-13
	3.554213672506135e-13,1.884932736241216e-15
	-3.522165739214863e-05,-3.003484073931821e-13
	-3.522165703672729e-05,1.469987590247413e-14
	-1.922052541510582e-23,-3.131633505594150e-13
	-3.522165703672729e-05,1.469987590247413e-14
34		2.187761623949550e+00,0.000000000000000e+00
	-3.522165703672729e-01,1.504227999839850e-10
	1.000000000000000e+00,0.000000000000000e+00
	0.000000000000000e+00,0.000000000000000e+00
	3.522165703672726e-05,-1.504227999839852e-14
	2.012636087069517e-23,3.204578620666106e-13
	3.554213672506135e-13,1.928838459916275e-15
	-3.522165739214863e-05,-3.073444205281283e-13
	-3.522165703672729e-05,1.504227999839850e-14
	-2.012636087069517e-23,-3.204578620666106e-13
	-3.522165703672729e-05,1.504227999839850e-14
35		2.238721138568337e+00,0.000000000000000e+00
	-3.522165703672729e-01,1.539265971028614e-10
	1.000000000000000e+00,0.000000000000000e+00
	0.000000000000000e+00,0.000000000000000e+00
	3.522165703672726e-05,-1.539265971028612e-14
	2.107488703607947e-23,3.279222845740351e-13
	3.554213672506135e-13,1.973766879273813e-15
	-3.522165739214863e-05,-3.145033917430228e-13
	-3.522165703672729e-05,1.539265971028614e-14
	-2.107488703607947e-23,-3.279222845740351e-13
	-3.522165703672729e-05,1.539265971028614e-14
36		2.290867652767770e+00,0.000000000000000e+00
	-3.522165703672729e-01,1.575120081409811e-10
	1.000000000000000e+00,0.000000000000000e+00
	0.000000000000000e+00,0.000000000000000e+00
	3.522165703672726e-05,-1.575120081409811e-14
	2.206811586242662e-23,3.355605758173054e-13
	3.554213672506135e-13,2.019741815956816e-15
	-3.522165739214863e-05,-3.218291168191641e-13
	-3.522165703672729e-05,1.575120081409811e-14
	-2.206811586242662e-23,-3.355605758173054e-13
	-3.522165703672729e-05,1.575120081409811e-14
37		2.344228815319919e+00,0.000000000000000e+00
	-3.522165703672729e-01,1.611809341307350e-10
	1.000000000000000e+00,0.000000000000000e+00
	0.000000000000000e+00,0.000000000000000e+00
	3.522165703672726e-05,-1.611809341307352e-14
	2.310815412124181e-23,3.433767857195433e-13
	3.554213672506135e-13,2.066787646484981e-15
	-3.522165739214863e-05,-3.293254799529547e-13
	-3.522165703672729e-05,1.611809341307350e-14
	-2.310815412124181e-23,-3.433767857195433e-13
	-3.522165703672729e-05,1.611809341307350e-14
38		2.398832919019488e+00,0.000000000000000e+00
	-3.522165703672729e-01,1.649353203852470e-10
	1.000000000000000e+00,0.000000000000000e+00
	0.000000000000000e+00,0.000000000000000e+00
