LTspice 24.0.9 for Windows
Circuit: * GA CMOS Amp | W=3.370580557026196e-05 L=7.366671057465716e-07 Vbias=0.7499738555959611
Start Time: Mon Sep  8 18:47:13 2025
solver = Normal
Maximum thread count: 2
tnom = 27
temp = 27
method = modified trap
AsciiRawFile = 1
Instance "m1": Length shorter than recommended for a level 3 MOSFET.
Direct Newton iteration for .op point succeeded.
Semiconductor Device Operating Points:
                        --- MOSFET Transistors ---
Name:          m1
Model:        n_1u
Id:          6.28e-06
Vgs:         7.50e-01
Vds:         1.74e+00
Vbs:         0.00e+00
Vth:         7.80e-01
Vdsat:       4.83e-02
Gm:          1.17e-04
Gds:         6.70e-07
Gmb:         2.39e-05
Cbd:         0.00e+00
Cbs:         0.00e+00
Cgsov:       6.74e-15
Cgdov:       6.74e-15
Cgbov:       5.37e-17
Cgs:         1.90e-14
Cgd:         0.00e+00
Cgb:         1.35e-15



gain_db: MAX(db(v(out)/v(g)))=(28.7287dB,87.3344°) FROM 1 TO 1e+09
gain_lin: MAX(mag(v(out)/v(g)))=(1.27045dB,0°) FROM 1 TO 1e+09

Measurement "fc" FAIL'ed

Total elapsed time: 0.460 seconds.

