Title: * GA CMOS Amp | W=2.7231623896351872e-05 L=8.948173029840918e-07 Vbias=0.8240077886251439
Date: Sat Sep  6 22:36:48 2025
Plotname: AC Analysis
Flags: complex forward log
No. Variables: 13
No. Points:          901
Offset:    0.0000000000000000e+00
Command: Linear Technology Corporation LTspice
Variables:
	0	frequency	frequency
	1	V(out)	voltage
	2	V(g)	voltage
	3	V(vdd)	voltage
	4	V(m1#dbody)	voltage
	5	V(m1#sbody)	voltage
	6	Id(M1)	device_current
	7	Ig(M1)	device_current
	8	Ib(M1)	device_current
	9	Is(M1)	device_current
	10	I(Rload)	device_current
	11	I(Vg)	device_current
	12	I(Vdd)	device_current
Values:
0		1.000000000000000e+00,0.000000000000000e+00
	-2.683337832526271e-02,1.162065862922201e-09
	1.000000000000000e+00,0.000000000000000e+00
	0.000000000000000e+00,0.000000000000000e+00
	5.300254829633114e-07,4.350746087316341e-14
	5.300256911148867e-07,6.038249602685027e-14
	2.683337832526251e-06,-1.162065862922194e-13
	4.770193681223817e-06,6.197634929431119e-12
	-2.826803549316191e-07,-3.107921321153045e-14
	-7.170851158818449e-06,-6.050349129927369e-12
	-2.683337832526271e-06,1.162065862922201e-13
	-4.770193681224999e-06,-6.197634929431119e-12
	-2.683337832526271e-06,1.162065862922201e-13
1		1.023292992280754e+00,0.000000000000000e+00
	-2.683337832526271e-02,1.189133854096976e-09
	1.000000000000000e+00,0.000000000000000e+00
	0.000000000000000e+00,0.000000000000000e+00
	5.300254829633112e-07,4.452087982343719e-14
	5.300256911148865e-07,6.178898504069633e-14
	2.683337832526251e-06,-1.189133854096971e-13
	4.770193681223817e-06,6.341996392001290e-12
	-2.826803549316190e-07,-3.180314108495853e-14
	-7.170851158818449e-06,-6.191279865506634e-12
	-2.683337832526271e-06,1.189133854096976e-13
	-4.770193681224999e-06,-6.341996392001289e-12
	-2.683337832526271e-06,1.189133854096976e-13
2		1.047128548050899e+00,0.000000000000000e+00
	-2.683337832526271e-02,1.216832339781240e-09
	1.000000000000000e+00,0.000000000000000e+00
	0.000000000000000e+00,0.000000000000000e+00
	5.300254829633109e-07,4.555790433349693e-14
	5.300256911148863e-07,6.322823539228494e-14
	2.683337832526251e-06,-1.216832339781236e-13
	4.770193681223817e-06,6.489720465004745e-12
	-2.826803549316189e-07,-3.254393140475422e-14
	-7.170851158818449e-06,-6.335493299621867e-12
	-2.683337832526271e-06,1.216832339781240e-13
	-4.770193681224999e-06,-6.489720465004745e-12
	-2.683337832526271e-06,1.216832339781240e-13
3		1.071519305237606e+00,0.000000000000000e+00
	-2.683337832526271e-02,1.245176006078736e-09
	1.000000000000000e+00,0.000000000000000e+00
	0.000000000000000e+00,0.000000000000000e+00
	5.300254829633107e-07,4.661908424746439e-14
	5.300256911148861e-07,6.470101019120312e-14
	2.683337832526251e-06,-1.245176006078737e-13
	4.770193681223817e-06,6.640885473700352e-12
	-2.826803549316188e-07,-3.330197694775054e-14
	-7.170851158818449e-06,-6.483065896144728e-12
	-2.683337832526271e-06,1.245176006078736e-13
	-4.770193681224999e-06,-6.640885473700353e-12
	-2.683337832526271e-06,1.245176006078736e-13
4		1.096478196143185e+00,0.000000000000000e+00
	-2.683337832526271e-02,1.274179881176508e-09
	1.000000000000000e+00,0.000000000000000e+00
	0.000000000000000e+00,0.000000000000000e+00
	5.300254829633105e-07,4.770498221697639e-14
	5.300256911148859e-07,6.620809032214379e-14
	2.683337832526251e-06,-1.274179881176498e-13
	4.770193681223817e-06,6.795571567776626e-12
	-2.826803549316186e-07,-3.407767963972834e-14
	-7.170851158818449e-06,-6.634075900019248e-12
	-2.683337832526271e-06,1.274179881176508e-13
	-4.770193681224999e-06,-6.795571567776627e-12
	-2.683337832526271e-06,1.274179881176508e-13
5		1.122018454301963e+00,0.000000000000000e+00
	-2.683337832526270e-02,1.303859343313045e-09
	1.000000000000000e+00,0.000000000000000e+00
	0.000000000000000e+00,0.000000000000000e+00
	5.300254829633100e-07,4.881617399950999e-14
	5.300256911148855e-07,6.775027485894101e-14
	2.683337832526251e-06,-1.303859343313036e-13
	4.770193681223831e-06,6.953860763848161e-12
	-2.826803549316185e-07,-3.487145076852257e-14
	-7.170851158818463e-06,-6.788603378748335e-12
	-2.683337832526271e-06,1.303859343313045e-13
	-4.770193681224999e-06,-6.953860763848160e-12
	-2.683337832526271e-06,1.303859343313045e-13
6		1.148153621496882e+00,0.000000000000000e+00
	-2.683337832526270e-02,1.334230128932025e-09
	1.000000000000000e+00,0.000000000000000e+00
	0.000000000000000e+00,0.000000000000000e+00
	5.300254829633098e-07,4.995324876365653e-14
	5.300256911148853e-07,6.932838148824930e-14
	2.683337832526251e-06,-1.334230128932018e-13
	4.770193681223830e-06,7.115836988941915e-12
	-2.826803549316184e-07,-3.568371120209247e-14
	-7.170851158818463e-06,-6.946730264846620e-12
	-2.683337832526271e-06,1.334230128932025e-13
	-4.770193681224999e-06,-7.115836988941915e-12
	-2.683337832526271e-06,1.334230128932025e-13
7		1.174897554939529e+00,0.000000000000000e+00
	-2.683337832526270e-02,1.365308341025988e-09
	1.000000000000000e+00,0.000000000000000e+00
	0.000000000000000e+00,0.000000000000000e+00
	5.300254829633094e-07,5.111680940150691e-14
	5.300256911148850e-07,7.094324694309221e-14
	2.683337832526251e-06,-1.365308341025985e-13
	4.770193681223830e-06,7.281586124996443e-12
	-2.826803549316182e-07,-3.651489161167143e-14
	-7.170851158818463e-06,-7.108540399282172e-12
	-2.683337832526271e-06,1.365308341025988e-13
	-4.770193681224999e-06,-7.281586124996444e-12
	-2.683337832526271e-06,1.365308341025988e-13
8		1.202264434617413e+00,0.000000000000000e+00
	-2.683337832526270e-02,1.397110457674355e-09
	1.000000000000000e+00,0.000000000000000e+00
	0.000000000000000e+00,0.000000000000000e+00
	5.300254829633092e-07,5.230747284831300e-14
	5.300256911148848e-07,7.259572744650931e-14
	2.683337832526251e-06,-1.397110457674354e-13
	4.770193681223830e-06,7.451196054397633e-12
	-2.826803549316181e-07,-3.736543270011468e-14
	-7.170851158818463e-06,-7.274119575930082e-12
	-2.683337832526271e-06,1.397110457674355e-13
	-4.770193681224999e-06,-7.451196054397631e-12
	-2.683337832526271e-06,1.397110457674355e-13
9		1.230268770812381e+00,0.000000000000000e+00
	-2.683337832526270e-02,1.429653340780325e-09
	1.000000000000000e+00,0.000000000000000e+00
	0.000000000000000e+00,0.000000000000000e+00
	5.300254829633089e-07,5.352587040959448e-14
	5.300256911148845e-07,7.428669916553653e-14
	2.683337832526251e-06,-1.429653340780316e-13
	4.770193681223830e-06,7.624756706575102e-12
	-2.826803549316179e-07,-3.823578543556548e-14
	-7.170851158818463e-06,-7.443555587061504e-12
	-2.683337832526271e-06,1.429653340780325e-13
	-4.770193681224999e-06,-7.624756706575100e-12
	-2.683337832526271e-06,1.429653340780325e-13
10		1.258925411794167e+00,0.000000000000000e+00
	-2.683337832526270e-02,1.462954245011275e-09
	1.000000000000000e+00,0.000000000000000e+00
	0.000000000000000e+00,0.000000000000000e+00
	5.300254829633085e-07,5.477264809586585e-14
	5.300256911148842e-07,7.601705867576212e-14
	2.683337832526251e-06,-1.462954245011278e-13
	4.770193681223830e-06,7.802360105683983e-12
	-2.826803549316177e-07,-3.912641129056468e-14
	-7.170851158818463e-06,-7.616938269892290e-12
	-2.683337832526271e-06,1.462954245011275e-13
	-4.770193681224999e-06,-7.802360105683983e-12
	-2.683337832526271e-06,1.462954245011275e-13
11		1.288249551693134e+00,0.000000000000000e+00
	-2.683337832526270e-02,1.497030826947420e-09
	1.000000000000000e+00,0.000000000000000e+00
	0.000000000000000e+00,0.000000000000000e+00
	5.300254829633080e-07,5.604846696515935e-14
	5.300256911148837e-07,7.778772343670230e-14
	2.683337832526251e-06,-1.497030826947408e-13
	4.770193681223829e-06,7.984100419397346e-12
	-2.826803549316175e-07,-4.003778248672943e-14
	-7.170851158818463e-06,-7.794359554215875e-12
	-2.683337832526271e-06,1.497030826947420e-13
	-4.770193681224999e-06,-7.984100419397345e-12
	-2.683337832526271e-06,1.497030826947420e-13
12		1.318256738556407e+00,0.000000000000000e+00
	-2.683337832526270e-02,1.531901154443557e-09
	1.000000000000000e+00,0.000000000000000e+00
	0.000000000000000e+00,0.000000000000000e+00
	5.300254829633076e-07,5.735400347352689e-14
	5.300256911148834e-07,7.959963227825084e-14
	2.683337832526251e-06,-1.531901154443560e-13
	4.770193681223829e-06,8.170074008835132e-12
	-2.826803549316173e-07,-4.097038224513133e-14
	-7.170851158818463e-06,-7.975913511145646e-12
	-2.683337832526271e-06,1.531901154443557e-13
	-4.770193681224999e-06,-8.170074008835132e-12
	-2.683337832526271e-06,1.531901154443557e-13
13		1.348962882591653e+00,0.000000000000000e+00
	-2.683337832526270e-02,1.567583716208889e-09
	1.000000000000000e+00,0.000000000000000e+00
	0.000000000000000e+00,0.000000000000000e+00
	5.300254829633072e-07,5.868994983370607e-14
	5.300256911148831e-07,8.145374589845899e-14
	2.683337832526237e-06,-1.567583716208877e-13
	4.770193681223843e-06,8.360379479656120e-12
	-2.826803549316171e-07,-4.192470504250671e-14
	-7.170851158818463e-06,-8.161696402992726e-12
	-2.683337832526271e-06,1.567583716208889e-13
	-4.770193681224999e-06,-8.360379479656118e-12
	-2.683337832526271e-06,1.567583716208889e-13
14		1.380384264602885e+00,0.000000000000000e+00
	-2.683337832526270e-02,1.604097431609979e-09
	1.000000000000000e+00,0.000000000000000e+00
	0.000000000000000e+00,0.000000000000000e+00
	5.300254829633068e-07,6.005701438214052e-14
	5.300256911148827e-07,8.335104737291038e-14
	2.683337832526237e-06,-1.604097431609967e-13
	4.770193681223843e-06,8.555117734339926e-12
	-2.826803549316169e-07,-4.290125687343475e-14
	-7.170851158818463e-06,-8.351806734305495e-12
	-2.683337832526271e-06,1.604097431609979e-13
	-4.770193681224999e-06,-8.555117734339926e-12
	-2.683337832526271e-06,1.604097431609979e-13
15		1.412537544622754e+00,0.000000000000000e+00
	-2.683337832526270e-02,1.641461660702047e-09
	1.000000000000000e+00,0.000000000000000e+00
	0.000000000000000e+00,0.000000000000000e+00
	5.300254829633062e-07,6.145592195454885e-14
	5.300256911148823e-07,8.529254267596035e-14
	2.683337832526237e-06,-1.641461660702041e-13
	4.770193681223842e-06,8.754392025686846e-12
	-2.826803549316167e-07,-4.390055551862232e-14
	-7.170851158818463e-06,-8.546345304098020e-12
	-2.683337832526271e-06,1.641461660702047e-13
	-4.770193681224999e-06,-8.754392025686848e-12
	-2.683337832526271e-06,1.641461660702047e-13
16		1.445439770745927e+00,0.000000000000000e+00
	-2.683337832526270e-02,1.679696214493934e-09
	1.000000000000000e+00,0.000000000000000e+00
	0.000000000000000e+00,0.000000000000000e+00
	5.300254829633058e-07,6.288741427024270e-14
	5.300256911148818e-07,8.727926121411731e-14
	2.683337832526237e-06,-1.679696214493922e-13
	4.770193681223842e-06,8.958308011563867e-12
	-2.826803549316164e-07,-4.492313081943836e-14
	-7.170851158818463e-06,-8.745415259295035e-12
	-2.683337832526271e-06,1.679696214493934e-13
	-4.770193681224999e-06,-8.958308011563865e-12
	-2.683337832526271e-06,1.679696214493934e-13
17		1.479108388168207e+00,0.000000000000000e+00
	-2.683337832526270e-02,1.718821365452152e-09
	1.000000000000000e+00,0.000000000000000e+00
	0.000000000000000e+00,0.000000000000000e+00
	5.300254829633053e-07,6.435225032539605e-14
	5.300256911148814e-07,8.931225637184765e-14
	2.683337832526237e-06,-1.718821365452154e-13
	4.770193681223842e-06,9.166973810925841e-12
	-2.826803549316162e-07,-4.596952495884284e-14
	-7.170851158818463e-06,-8.949122149421782e-12
	-2.683337832526271e-06,1.718821365452153e-13
	-4.770193681224999e-06,-9.166973810925840e-12
	-2.683337832526271e-06,1.718821365452153e-13
18		1.513561248436208e+00,0.000000000000000e+00
	-2.683337832526270e-02,1.758857858249625e-09
	1.000000000000000e+00,0.000000000000000e+00
	0.000000000000000e+00,0.000000000000000e+00
	5.300254829633047e-07,6.585120679547465e-14
	5.300256911148810e-07,9.139260607009381e-14
	2.683337832526237e-06,-1.758857858249616e-13
	4.770193681223842e-06,9.380500061141611e-12
	-2.826803549316160e-07,-4.704029274885910e-14
	-7.170851158818463e-06,-9.157573982567790e-12
	-2.683337832526271e-06,1.758857858249625e-13
	-4.770193681224999e-06,-9.380500061141611e-12
	-2.683337832526271e-06,1.758857858249625e-13
19		1.548816618912481e+00,0.000000000000000e+00
	-2.683337832526270e-02,1.799826920764777e-09
	1.000000000000000e+00,0.000000000000000e+00
	0.000000000000000e+00,0.000000000000000e+00
	5.300254829633041e-07,6.738507844704005e-14
	5.300256911148805e-07,9.352141333780259e-14
	2.683337832526237e-06,-1.799826920764775e-13
	4.770193681223841e-06,9.598999976655397e-12
	-2.826803549316157e-07,-4.813600192474272e-14
	-7.170851158818463e-06,-9.370881282654175e-12
	-2.683337832526271e-06,1.799826920764777e-13
	-4.770193681224999e-06,-9.598999976655397e-12
	-2.683337832526271e-06,1.799826920764777e-13
20		1.584893192461113e+00,0.000000000000000e+00
	-2.683337832526270e-02,1.841750275336844e-09
	1.000000000000000e+00,0.000000000000000e+00
	0.000000000000000e+00,0.000000000000000e+00
	5.300254829633036e-07,6.895467855914494e-14
	5.300256911148799e-07,9.569980689676522e-14
	2.683337832526237e-06,-1.841750275336850e-13
	4.770193681223841e-06,9.822589409014589e-12
	-2.826803549316154e-07,-4.925723344600211e-14
	-7.170851158818463e-06,-9.589157148034902e-12
	-2.683337832526271e-06,1.841750275336844e-13
	-4.770193681224999e-06,-9.822589409014589e-12
	-2.683337832526271e-06,1.841750275336844e-13
21		1.621810097358929e+00,0.000000000000000e+00
	-2.683337832526270e-02,1.884650150283342e-09
	1.000000000000000e+00,0.000000000000000e+00
	0.000000000000000e+00,0.000000000000000e+00
	5.300254829633029e-07,7.056083935454497e-14
	5.300256911148794e-07,9.792894176008123e-14
	2.683337832526237e-06,-1.884650150283335e-13
	4.770193681223841e-06,1.005138690829578e-11
	-2.826803549316151e-07,-5.040458180443114e-14
	-7.170851158818463e-06,-9.812517311463016e-12
	-2.683337832526271e-06,1.884650150283342e-13
	-4.770193681224999e-06,-1.005138690829578e-11
	-2.683337832526271e-06,1.884650150283342e-13
22		1.659586907437560e+00,0.000000000000000e+00
	-2.683337832526270e-02,1.928549291685814e-09
	1.000000000000000e+00,0.000000000000000e+00
	0.000000000000000e+00,0.000000000000000e+00
	5.300254829633023e-07,7.220441244095398e-14
	5.300256911148789e-07,1.002099998445613e-13
	2.683337832526237e-06,-1.928549291685815e-13
	4.770193681223840e-06,1.028551378596159e-11
	-2.826803549316149e-07,-5.157865533931642e-14
	-7.170851158818463e-06,-1.004108020145369e-11
	-2.683337832526271e-06,1.928549291685814e-13
	-4.770193681224999e-06,-1.028551378596159e-11
	-2.683337832526271e-06,1.928549291685814e-13
23		1.698243652461743e+00,0.000000000000000e+00
	-2.683337832526270e-02,1.973470975450106e-09
	1.000000000000000e+00,0.000000000000000e+00
	0.000000000000000e+00,0.000000000000000e+00
	5.300254829633016e-07,7.388626926257742e-14
	5.300256911148782e-07,1.025441905973949e-13
	2.683337832526237e-06,-1.973470975450104e-13
	4.770193681223840e-06,1.052509417918158e-11
	-2.826803549316145e-07,-5.278007655998674e-14
	-7.170851158818463e-06,-1.027496700507659e-11
	-2.683337832526271e-06,1.973470975450106e-13
	-4.770193681224999e-06,-1.052509417918158e-11
	-2.683337832526271e-06,1.973470975450106e-13
24		1.737800828749374e+00,0.000000000000000e+00
	-2.683337832526270e-02,2.019439019647557e-09
	1.000000000000000e+00,0.000000000000000e+00
	0.000000000000000e+00,0.000000000000000e+00
	5.300254829633009e-07,7.560730156216439e-14
	5.300256911148777e-07,1.049327516374162e-13
	2.683337832526237e-06,-2.019439019647552e-13
	4.770193681223840e-06,1.077025511665147e-11
	-2.826803549316142e-07,-5.400948247587614e-14
	-7.170851158818463e-06,-1.051430173221084e-11
	-2.683337832526271e-06,2.019439019647558e-13
	-4.770193681224999e-06,-1.077025511665147e-11
	-2.683337832526271e-06,2.019439019647558e-13
25		1.778279410038922e+00,0.000000000000000e+00
	-2.683337832526270e-02,2.066477797143662e-09
	1.000000000000000e+00,0.000000000000000e+00
	0.000000000000000e+00,0.000000000000000e+00
	5.300254829633002e-07,7.736842185382054e-14
	5.300256911148771e-07,1.073769494113049e-13
	2.683337832526237e-06,-2.066477797143645e-13
	4.770193681223839e-06,1.102112658594538e-11
	-2.826803549316138e-07,-5.526752493427425e-14
	-7.170851158818463e-06,-1.075921128129674e-11
	-2.683337832526271e-06,2.066477797143662e-13
	-4.770193681224999e-06,-1.102112658594538e-11
	-2.683337832526271e-06,2.066477797143662e-13
26		1.819700858609982e+00,0.000000000000000e+00
	-2.683337832526270e-02,2.114612248520878e-09
	1.000000000000000e+00,0.000000000000000e+00
	0.000000000000000e+00,0.000000000000000e+00
	5.300254829632993e-07,7.917056390683568e-14
	5.300256911148763e-07,1.098780798650733e-13
	2.683337832526237e-06,-2.114612248520876e-13
	4.770193681223839e-06,1.127784160243702e-11
	-2.826803549316134e-07,-5.655487096594468e-14
	-7.170851158818463e-06,-1.100982550661899e-11
	-2.683337832526271e-06,2.114612248520878e-13
	-4.770193681224999e-06,-1.127784160243703e-11
	-2.683337832526271e-06,2.114612248520878e-13
27		1.862087136662866e+00,0.000000000000000e+00
	-2.683337832526270e-02,2.163867895302464e-09
	1.000000000000000e+00,0.000000000000000e+00
	0.000000000000000e+00,0.000000000000000e+00
	5.300254829632986e-07,8.101468324078058e-14
	5.300256911148757e-07,1.124374691311946e-13
	2.683337832526237e-06,-2.163867895302435e-13
	4.770193681223839e-06,1.154053627982615e-11
	-2.826803549316131e-07,-5.787220313879347e-14
	-7.170851158818463e-06,-1.126627728715712e-11
	-2.683337832526271e-06,2.163867895302464e-13
	-4.770193681224999e-06,-1.154053627982616e-11
	-2.683337832526271e-06,2.163867895302464e-13
28		1.905460717963246e+00,0.000000000000000e+00
	-2.683337832526270e-02,2.214270853484315e-09
	1.000000000000000e+00,0.000000000000000e+00
	0.000000000000000e+00,0.000000000000000e+00
	5.300254829632978e-07,8.290175763213581e-14
	5.300256911148750e-07,1.150564742317350e-13
	2.683337832526237e-06,-2.214270853484303e-13
	4.770193681223839e-06,1.180934990230791e-11
	-2.826803549316127e-07,-5.922021991977562e-14
	-7.170851158818463e-06,-1.152870259703970e-11
	-2.683337832526271e-06,2.214270853484315e-13
	-4.770193681224999e-06,-1.180934990230791e-11
	-2.683337832526271e-06,2.214270853484315e-13
29		1.949844599758044e+00,0.000000000000000e+00
	-2.683337832526270e-02,2.265847847382025e-09
	1.000000000000000e+00,0.000000000000000e+00
	0.000000000000000e+00,0.000000000000000e+00
	5.300254829632968e-07,8.483278763272210e-14
	5.300256911148741e-07,1.177364837978656e-13
	2.683337832526251e-06,-2.265847847382002e-13
	4.770193681223824e-06,1.208442499842309e-11
	-2.826803549316123e-07,-6.059963604523151e-14
	-7.170851158818463e-06,-1.179724057763966e-11
	-2.683337832526270e-06,2.265847847382025e-13
	-4.770193681224999e-06,-1.208442499842309e-11
	-2.683337832526270e-06,2.265847847382025e-13
30		1.995262314968878e+00,0.000000000000000e+00
	-2.683337832526270e-02,2.318626223800457e-09
	1.000000000000000e+00,0.000000000000000e+00
	0.000000000000000e+00,0.000000000000000e+00
	5.300254829632960e-07,8.680879710020595e-14
	5.300256911148734e-07,1.204789188061324e-13
	2.683337832526251e-06,-2.318626223800456e-13
	4.770193681223824e-06,1.236590741662871e-11
	-2.826803549316118e-07,-6.201118289984960e-14
	-7.170851158818463e-06,-1.207203361134882e-11
	-2.683337832526270e-06,2.318626223800457e-13
	-4.770193681224999e-06,-1.236590741662871e-11
	-2.683337832526270e-06,2.318626223800457e-13
31		2.041737944669527e+00,0.000000000000000e+00
	-2.683337832526270e-02,2.372633966533395e-09
	1.000000000000000e+00,0.000000000000000e+00
	0.000000000000000e+00,0.000000000000000e+00
	5.300254829632949e-07,8.883083374096264e-14
	5.300256911148725e-07,1.232852333318773e-13
	2.683337832526251e-06,-2.372633966533380e-13
	4.770193681223837e-06,1.265394640262876e-11
	-2.826803549316114e-07,-6.345560890445625e-14
	-7.170851158818476e-06,-1.235322739707097e-11
	-2.683337832526270e-06,2.372633966533395e-13
	-4.770193681224999e-06,-1.265394640262876e-11
	-2.683337832526270e-06,2.372633966533395e-13
32		2.089296130854037e+00,0.000000000000000e+00
	-2.683337832526270e-02,2.427899711200912e-09
	1.000000000000000e+00,0.000000000000000e+00
	0.000000000000000e+00,0.000000000000000e+00
	5.300254829632938e-07,9.089996966558375e-14
