LTspice 24.0.9 for Windows
Circuit: * GA CMOS Amp | W=1.1978772484148081e-05 L=8.45880416161528e-07 Vbias=0.8642403851074422
Start Time: Mon Sep  8 18:43:49 2025
solver = Normal
Maximum thread count: 2
tnom = 27
temp = 27
method = modified trap
AsciiRawFile = 1
Instance "m1": Length shorter than recommended for a level 3 MOSFET.
Direct Newton iteration for .op point succeeded.
Semiconductor Device Operating Points:
                        --- MOSFET Transistors ---
Name:          m1
Model:        n_1u
Id:          1.27e-05
Vgs:         8.64e-01
Vds:         1.67e+00
Vbs:         0.00e+00
Vth:         8.05e-01
Vdsat:       9.57e-02
Gm:          2.10e-04
Gds:         1.58e-06
Gmb:         5.00e-05
Cbd:         0.00e+00
Cbs:         0.00e+00
Cgsov:       2.40e-15
Cgdov:       2.40e-15
Cgbov:       6.46e-17
Cgs:         8.91e-15
Cgd:         0.00e+00
Cgb:         0.00e+00



gain_db: MAX(db(v(out)/v(g)))=(28.9463dB,76.9562°) FROM 1 TO 1e+09
gain_lin: MAX(mag(v(out)/v(g)))=(6.32179dB,0°) FROM 1 TO 1e+09

Measurement "fc" FAIL'ed

Total elapsed time: 0.532 seconds.

