LTspice 24.0.9 for Windows
Circuit: * GA CMOS Amp | W=1e-06 L=3.749897452131284e-07 Vbias=0.6179302026955689
Start Time: Sat Sep  6 22:38:08 2025
solver = Normal
Maximum thread count: 2
tnom = 27
temp = 27
method = modified trap
AsciiRawFile = 1
Direct Newton iteration for .op point succeeded.
Semiconductor Device Operating Points:
                        --- BSIM4 MOSFETS ---
Name:      m1
Model:      n
Id:      3.74e-05
Vgs:     6.18e-01
Vds:     1.43e+00
Vbs:     0.00e+00
Vth:     2.60e-01
Vdsat:   2.80e-01
Gm:      1.22e-04
Gds:     5.52e-06
Gmb      5.66e-05
Cbd:     3.73e-16
Cbs:     8.00e-16


.measure op idd find i(vdd)
  Error: FIND can not be evaluated over an interval.

gain_db: MAX(db(v(out)/v(g)))=(28.7282dB,87.4027°) FROM 1 TO 1e+09
gain_lin: MAX(mag(v(out)/v(g)))=(1.41523dB,0°) FROM 1 TO 1e+09

Measurement "fc" FAIL'ed

Total elapsed time: 1.268 seconds.

