Title: * GA CMOS Amp | W=2.767814705131233e-05 L=2.558879161354333e-07 Vbias=1.0363239389366927
Date: Sat Sep  6 22:04:54 2025
Plotname: AC Analysis
Flags: complex forward log
No. Variables: 13
No. Points:          901
Offset:    0.0000000000000000e+00
Command: Linear Technology Corporation LTspice
Variables:
	0	frequency	frequency
	1	V(out)	voltage
	2	V(g)	voltage
	3	V(vdd)	voltage
	4	V(m1#dbody)	voltage
	5	V(m1#sbody)	voltage
	6	Id(M1)	device_current
	7	Ig(M1)	device_current
	8	Ib(M1)	device_current
	9	Is(M1)	device_current
	10	I(Rload)	device_current
	11	I(Vg)	device_current
	12	I(Vdd)	device_current
Values:
0		1.000000000000000e+00,0.000000000000000e+00
	-2.117229100126330e-03,9.948663898926775e-11
	1.000000000000000e+00,0.000000000000000e+00
	0.000000000000000e+00,0.000000000000000e+00
	2.431262084473302e-06,1.278182784313880e-14
	2.431262103406348e-06,1.415348172984385e-14
	2.117229100126287e-07,-9.948663898926608e-15
	4.445351508620823e-06,1.959476801320275e-12
	-1.296673121535173e-06,-7.458094754395982e-15
	-3.360401297098279e-06,-1.942070042666953e-12
	-2.117229100126330e-07,9.948663898926776e-15
	-4.445351508633455e-06,-1.959476801320275e-12
	-2.117229100126330e-07,9.948663898926776e-15
1		1.023292992280754e+00,0.000000000000000e+00
	-2.117229100126330e-03,1.018039805032829e-10
	1.000000000000000e+00,0.000000000000000e+00
	0.000000000000000e+00,0.000000000000000e+00
	2.431262084473302e-06,1.307955486042296e-14
	2.431262103406348e-06,1.448315867052290e-14
	2.117229100126287e-07,-1.018039805032852e-14
	4.445351508620823e-06,2.005118879327746e-12
	-1.296673121535173e-06,-7.631816097939260e-15
	-3.360401297098279e-06,-1.987306665179478e-12
	-2.117229100126330e-07,1.018039805032829e-14
	-4.445351508633455e-06,-2.005118879327745e-12
	-2.117229100126330e-07,1.018039805032829e-14
2		1.047128548050899e+00,0.000000000000000e+00
	-2.117229100126330e-03,1.041752998352959e-10
	1.000000000000000e+00,0.000000000000000e+00
	0.000000000000000e+00,0.000000000000000e+00
	2.431262084473302e-06,1.338421683082249e-14
	2.431262103406348e-06,1.482051477363632e-14
	2.117229100126287e-07,-1.041752998352919e-14
	4.445351508620823e-06,2.051824097905921e-12
	-1.296673121535173e-06,-7.809583931396693e-15
	-3.360401297098279e-06,-2.033596983990995e-12
	-2.117229100126330e-07,1.041752998352959e-14
	-4.445351508633455e-06,-2.051824097905920e-12
	-2.117229100126330e-07,1.041752998352959e-14
3		1.071519305237606e+00,0.000000000000000e+00
	-2.117229100126330e-03,1.066018542902047e-10
	1.000000000000000e+00,0.000000000000000e+00
	0.000000000000000e+00,0.000000000000000e+00
	2.431262084473302e-06,1.369597529014678e-14
	2.431262103406348e-06,1.516572890985543e-14
	2.117229100126287e-07,-1.066018542902044e-14
	4.445351508620823e-06,2.099617220779909e-12
	-1.296673121535173e-06,-7.991492509626617e-15
	-3.360401297098279e-06,-2.080965542841262e-12
	-2.117229100126330e-07,1.066018542902047e-14
	-4.445351508633455e-06,-2.099617220779908e-12
	-2.117229100126330e-07,1.066018542902047e-14
4		1.096478196143185e+00,0.000000000000000e+00
	-2.117229100126330e-03,1.090849304593005e-10
	1.000000000000000e+00,0.000000000000000e+00
	0.000000000000000e+00,0.000000000000000e+00
	2.431262084473301e-06,1.401499553685756e-14
	2.431262103406347e-06,1.551898411628470e-14
	2.117229100126287e-07,-1.090849304593010e-14
	4.445351508620822e-06,2.148523588496073e-12
	-1.296673121535173e-06,-8.177638282965051e-15
	-3.360401297098279e-06,-2.129437457167178e-12
	-2.117229100126330e-07,1.090849304593005e-14
	-4.445351508633455e-06,-2.148523588496073e-12
	-2.117229100126330e-07,1.090849304593005e-14
5		1.122018454301963e+00,0.000000000000000e+00
	-2.117229100126330e-03,1.116258449024356e-10
	1.000000000000000e+00,0.000000000000000e+00
	0.000000000000000e+00,0.000000000000000e+00
	2.431262084473301e-06,1.434144671971239e-14
	2.431262103406347e-06,1.588046769351047e-14
	2.117229100126287e-07,-1.116258449024316e-14
	4.445351508620822e-06,2.198569131857930e-12
	-1.296673121535173e-06,-8.368119948364957e-15
	-3.360401297098279e-06,-2.179038427419322e-12
	-2.117229100126330e-07,1.116258449024356e-14
	-4.445351508633455e-06,-2.198569131857930e-12
	-2.117229100126330e-07,1.116258449024356e-14
6		1.148153621496882e+00,0.000000000000000e+00
	-2.117229100126330e-03,1.142259448460807e-10
	1.000000000000000e+00,0.000000000000000e+00
	0.000000000000000e+00,0.000000000000000e+00
	2.431262084473301e-06,1.467550192744950e-14
	2.431262103406347e-06,1.625037130491017e-14
	2.117229100126287e-07,-1.142259448460792e-14
	4.445351508620822e-06,2.249780385675001e-12
	-1.296673121535173e-06,-8.563038501726648e-15
	-3.360401297098279e-06,-2.229794752688667e-12
	-2.117229100126330e-07,1.142259448460807e-14
	-4.445351508633455e-06,-2.249780385675001e-12
	-2.117229100126330e-07,1.142259448460807e-14
7		1.174897554939529e+00,0.000000000000000e+00
	-2.117229100126330e-03,1.168866088976423e-10
	1.000000000000000e+00,0.000000000000000e+00
	0.000000000000000e+00,0.000000000000000e+00
	2.431262084473301e-06,1.501733828056177e-14
	2.431262103406347e-06,1.662889107827484e-14
	2.117229100126287e-07,-1.168866088976405e-14
	4.445351508620822e-06,2.302184502831920e-12
	-1.296673121535173e-06,-8.762497291447169e-15
	-3.360401297098279e-06,-2.281733344650709e-12
	-2.117229100126330e-07,1.168866088976423e-14
	-4.445351508633455e-06,-2.302184502831921e-12
	-2.117229100126330e-07,1.168866088976423e-14
8		1.202264434617413e+00,0.000000000000000e+00
	-2.117229100126330e-03,1.196092477764186e-10
	1.000000000000000e+00,0.000000000000000e+00
	0.000000000000000e+00,0.000000000000000e+00
	2.431262084473301e-06,1.536713702520837e-14
	2.431262103406347e-06,1.701622770979859e-14
	2.117229100126287e-07,-1.196092477764170e-14
	4.445351508620822e-06,2.355809268685257e-12
	-1.296673121535173e-06,-8.966602073216975e-15
	-3.360401297098279e-06,-2.334881741834398e-12
	-2.117229100126330e-07,1.196092477764186e-14
	-4.445351508633455e-06,-2.355809268685257e-12
	-2.117229100126330e-07,1.196092477764186e-14
9		1.230268770812381e+00,0.000000000000000e+00
	-2.117229100126330e-03,1.223953050615815e-10
	1.000000000000000e+00,0.000000000000000e+00
	0.000000000000000e+00,0.000000000000000e+00
	2.431262084473301e-06,1.572508362931384e-14
	2.431262103406347e-06,1.741258657049048e-14
	2.117229100126287e-07,-1.223953050615792e-14
	4.445351508620822e-06,2.410683115795671e-12
	-1.296673121535173e-06,-9.175461066093010e-15
	-3.360401297098279e-06,-2.389268124223420e-12
	-2.117229100126330e-07,1.223953050615815e-14
	-4.445351508633455e-06,-2.410683115795672e-12
	-2.117229100126330e-07,1.223953050615815e-14
10		1.258925411794167e+00,0.000000000000000e+00
	-2.117229100126330e-03,1.252462579575815e-10
	1.000000000000000e+00,0.000000000000000e+00
	0.000000000000000e+00,0.000000000000000e+00
	2.431262084473301e-06,1.609136788090566e-14
	2.431262103406347e-06,1.781817781506488e-14
	2.117229100126287e-07,-1.252462579575792e-14
	4.445351508620822e-06,2.466835139003244e-12
	-1.296673121535173e-06,-9.389185009877875e-15
	-3.360401297098279e-06,-2.444921328197609e-12
	-2.117229100126330e-07,1.252462579575815e-14
	-4.445351508633455e-06,-2.466835139003244e-12
	-2.117229100126330e-07,1.252462579575815e-14
11		1.288249551693134e+00,0.000000000000000e+00
	-2.117229100126330e-03,1.281636180773808e-10
	1.000000000000000e+00,0.000000000000000e+00
	0.000000000000000e+00,0.000000000000000e+00
	2.431262084473301e-06,1.646618398874237e-14
	2.431262103406347e-06,1.823321649336830e-14
	2.117229100126287e-07,-1.281636180773814e-14
	4.445351508620822e-06,2.524295110853940e-12
	-1.296673121535173e-06,-9.607887223835535e-15
	-3.360401297098279e-06,-2.501870861822366e-12
	-2.117229100126330e-07,1.281636180773808e-14
	-4.445351508633455e-06,-2.524295110853941e-12
	-2.117229100126330e-07,1.281636180773808e-14
12		1.318256738556407e+00,0.000000000000000e+00
	-2.117229100126330e-03,1.311489322439307e-10
	1.000000000000000e+00,0.000000000000000e+00
	0.000000000000000e+00,0.000000000000000e+00
	2.431262084473301e-06,1.684973068528562e-14
	2.431262103406347e-06,1.865792266440164e-14
	2.117229100126287e-07,-1.311489322439289e-14
	4.445351508620822e-06,2.583093497385407e-12
	-1.296673121535173e-06,-9.831683666774691e-15
	-3.360401297098279e-06,-2.560146920494239e-12
	-2.117229100126330e-07,1.311489322439307e-14
	-4.445351508633455e-06,-2.583093497385407e-12
	-2.117229100126330e-07,1.311489322439307e-14
13		1.348962882591653e+00,0.000000000000000e+00
	-2.117229100126330e-03,1.342037833103178e-10
	1.000000000000000e+00,0.000000000000000e+00
	0.000000000000000e+00,0.000000000000000e+00
	2.431262084473301e-06,1.724221133207076e-14
	2.431262103406347e-06,1.909252151299845e-14
	2.117229100126287e-07,-1.342037833103146e-14
	4.445351508620822e-06,2.643261474280471e-12
	-1.296673121535173e-06,-1.006069299853169e-14
	-3.360401297098279e-06,-2.619780402950908e-12
	-2.117229100126330e-07,1.342037833103178e-14
	-4.445351508633455e-06,-2.643261474280471e-12
	-2.117229100126330e-07,1.342037833103178e-14
14		1.380384264602885e+00,0.000000000000000e+00
	-2.117229100126330e-03,1.373297909990130e-10
	1.000000000000000e+00,0.000000000000000e+00
	0.000000000000000e+00,0.000000000000000e+00
	2.431262084473301e-06,1.764383402753183e-14
	2.431262103406347e-06,1.953724346922087e-14
	2.117229100126287e-07,-1.373297909990120e-14
	4.445351508620822e-06,2.704830943396901e-12
	-1.296673121535173e-06,-1.029503664288553e-14
	-3.360401297098279e-06,-2.680802927654115e-12
	-2.117229100126330e-07,1.373297909990130e-14
	-4.445351508633455e-06,-2.704830943396901e-12
	-2.117229100126330e-07,1.373297909990130e-14
15		1.412537544622754e+00,0.000000000000000e+00
	-2.117229100126330e-03,1.405286127606706e-10
	1.000000000000000e+00,0.000000000000000e+00
	0.000000000000000e+00,0.000000000000000e+00
	2.431262084473301e-06,1.805481171733803e-14
	2.431262103406347e-06,1.999232433053664e-14
	2.117229100126287e-07,-1.405286127606710e-14
	4.445351508620822e-06,2.767834549682190e-12
	-1.296673121535173e-06,-1.053483885193834e-14
	-3.360401297098279e-06,-2.743246849554185e-12
	-2.117229100126330e-07,1.405286127606706e-14
	-4.445351508633455e-06,-2.767834549682190e-12
	-2.117229100126330e-07,1.405286127606706e-14
16		1.445439770745927e+00,0.000000000000000e+00
	-2.117229100126330e-03,1.438019446529299e-10
	1.000000000000000e+00,0.000000000000000e+00
	0.000000000000000e+00,0.000000000000000e+00
	2.431262084473301e-06,1.847536230730045e-14
	2.431262103406347e-06,2.045800538684216e-14
	2.117229100126287e-07,-1.438019446529282e-14
	4.445351508620822e-06,2.832305698482341e-12
	-1.296673121535173e-06,-1.078022677199553e-14
	-3.360401297098279e-06,-2.807145277245053e-12
	-2.117229100126330e-07,1.438019446529300e-14
	-4.445351508633455e-06,-2.832305698482341e-12
	-2.117229100126330e-07,1.438019446529300e-14
17		1.479108388168207e+00,0.000000000000000e+00
	-2.117229100126330e-03,1.471515222396881e-10
	1.000000000000000e+00,0.000000000000000e+00
	0.000000000000000e+00,0.000000000000000e+00
	2.431262084473301e-06,1.890570877890854e-14
	2.431262103406347e-06,2.093453354839750e-14
	2.117229100126287e-07,-1.471515222396837e-14
	4.445351508620822e-06,2.898278573253825e-12
	-1.296673121535173e-06,-1.103133051098040e-14
	-3.360401297098279e-06,-2.872532090518876e-12
	-2.117229100126330e-07,1.471515222396881e-14
	-4.445351508633455e-06,-2.898278573253826e-12
	-2.117229100126330e-07,1.471515222396881e-14
18		1.513561248436208e+00,0.000000000000000e+00
	-2.117229100126330e-03,1.505791215113183e-10
	1.000000000000000e+00,0.000000000000000e+00
	0.000000000000000e+00,0.000000000000000e+00
	2.431262084473301e-06,1.934607930755783e-14
	2.431262103406347e-06,2.142216147674151e-14
	2.117229100126287e-07,-1.505791215113167e-14
	4.445351508620822e-06,2.965788153688102e-12
	-1.296673121535173e-06,-1.128828320741911e-14
	-3.360401297098279e-06,-2.939441958329551e-12
	-2.117229100126330e-07,1.505791215113184e-14
	-4.445351508633455e-06,-2.965788153688102e-12
	-2.117229100126330e-07,1.505791215113184e-14
19		1.548816618912481e+00,0.000000000000000e+00
	-2.117229100126330e-03,1.540865598263242e-10
	1.000000000000000e+00,0.000000000000000e+00
	0.000000000000000e+00,0.000000000000000e+00
	2.431262084473301e-06,1.979670738353164e-14
	2.431262103406347e-06,2.192114771865632e-14
	2.117229100126287e-07,-1.540865598263190e-14
	4.445351508620822e-06,3.034870234258311e-12
	-1.296673121535173e-06,-1.155122110103249e-14
	-3.360401297098279e-06,-3.007910357174646e-12
	-2.117229100126330e-07,1.540865598263242e-14
	-4.445351508633455e-06,-3.034870234258311e-12
	-2.117229100126330e-07,1.540865598263242e-14
20		1.584893192461113e+00,0.000000000000000e+00
	-2.117229100126330e-03,1.576756968749267e-10
	1.000000000000000e+00,0.000000000000000e+00
	0.000000000000000e+00,0.000000000000000e+00
	2.431262084473301e-06,2.025783193580060e-14
	2.431262103406347e-06,2.243175684325225e-14
	2.117229100126287e-07,-1.576756968749275e-14
	4.445351508620822e-06,3.105561443197981e-12
	-1.296673121535173e-06,-1.182028360497213e-14
	-3.360401297098279e-06,-3.077973589905516e-12
	-2.117229100126330e-07,1.576756968749267e-14
	-4.445351508633455e-06,-3.105561443197981e-12
	-2.117229100126330e-07,1.576756968749267e-14
21		1.621810097358929e+00,0.000000000000000e+00
	-2.117229100126330e-03,1.613484356650969e-10
	1.000000000000000e+00,0.000000000000000e+00
	0.000000000000000e+00,0.000000000000000e+00
	2.431262084473301e-06,2.072969745870601e-14
	2.431262103406347e-06,2.295425958224588e-14
	2.117229100126287e-07,-1.613484356650951e-14
	4.445351508620822e-06,3.177899261921798e-12
	-1.296673121535173e-06,-1.209561337973906e-14
	-3.360401297098279e-06,-3.149668804975550e-12
	-2.117229100126330e-07,1.613484356650969e-14
	-4.445351508633455e-06,-3.177899261921798e-12
	-2.117229100126330e-07,1.613484356650969e-14
22		1.659586907437560e+00,0.000000000000000e+00
	-2.117229100126330e-03,1.651067235315558e-10
	1.000000000000000e+00,0.000000000000000e+00
	0.000000000000000e+00,0.000000000000000e+00
	2.431262084473301e-06,2.121255414159402e-14
	2.431262103406347e-06,2.348893297350556e-14
	2.117229100126287e-07,-1.651067235315521e-14
	4.445351508620822e-06,3.251922044898757e-12
	-1.296673121535173e-06,-1.237735640882431e-14
	-3.360401297098279e-06,-3.223034016136778e-12
	-2.117229100126330e-07,1.651067235315558e-14
	-4.445351508633455e-06,-3.251922044898757e-12
	-2.117229100126330e-07,1.651067235315558e-14
23		1.698243652461743e+00,0.000000000000000e+00
	-2.117229100126330e-03,1.689525531682769e-10
	1.000000000000000e+00,0.000000000000000e+00
	0.000000000000000e+00,0.000000000000000e+00
	2.431262084473301e-06,2.170665800146924e-14
	2.431262103406347e-06,2.403606050794057e-14
	2.117229100126287e-07,-1.689525531682753e-14
	4.445351508620822e-06,3.327669039988199e-12
	-1.296673121535173e-06,-1.266566207611120e-14
	-3.360401297098279e-06,-3.298108122595260e-12
	-2.117229100126330e-07,1.689525531682770e-14
	-4.445351508633455e-06,-3.327669039988198e-12
	-2.117229100126330e-07,1.689525531682770e-14
24		1.737800828749374e+00,0.000000000000000e+00
	-2.117229100126330e-03,1.728879636850393e-10
	1.000000000000000e+00,0.000000000000000e+00
	0.000000000000000e+00,0.000000000000000e+00
	2.431262084473301e-06,2.221227101873844e-14
	2.431262103406347e-06,2.459593227981177e-14
	2.117229100126287e-07,-1.728879636850377e-14
	4.445351508620822e-06,3.405180409249547e-12
	-1.296673121535173e-06,-1.296068324508070e-14
	-3.360401297098279e-06,-3.374930929635963e-12
	-2.117229100126330e-07,1.728879636850393e-14
	-4.445351508633455e-06,-3.405180409249548e-12
	-2.117229100126330e-07,1.728879636850393e-14
25		1.778279410038922e+00,0.000000000000000e+00
	-2.117229100126330e-03,1.769150416885902e-10
	1.000000000000000e+00,0.000000000000000e+00
	0.000000000000000e+00,0.000000000000000e+00
	2.431262084473301e-06,2.272966127611593e-14
	2.431262103406347e-06,2.516884514054338e-14
	2.117229100126287e-07,-1.769150416885857e-14
	4.445351508620822e-06,3.484497250236772e-12
	-1.296673121535173e-06,-1.326257633986166e-14
	-3.360401297098279e-06,-3.453543169728052e-12
	-2.117229100126330e-07,1.769150416885902e-14
	-4.445351508633455e-06,-3.484497250236772e-12
	-2.117229100126330e-07,1.769150416885902e-14
26		1.819700858609982e+00,0.000000000000000e+00
	-2.117229100126330e-03,1.810359223889918e-10
	1.000000000000000e+00,0.000000000000000e+00
	0.000000000000000e+00,0.000000000000000e+00
	2.431262084473301e-06,2.325910310076465e-14
	2.431262103406347e-06,2.575510285611755e-14
	2.117229100126287e-07,-1.810359223889889e-14
	4.445351508620822e-06,3.565661617788846e-12
	-1.296673121535173e-06,-1.357150142816897e-14
	-3.360401297098279e-06,-3.533986524121778e-12
	-2.117229100126330e-07,1.810359223889918e-14
	-4.445351508633455e-06,-3.565661617788846e-12
	-2.117229100126330e-07,1.810359223889918e-14
27		1.862087136662866e+00,0.000000000000000e+00
	-2.117229100126330e-03,1.852527907317378e-10
	1.000000000000000e+00,0.000000000000000e+00
	0.000000000000000e+00,0.000000000000000e+00
	2.431262084473301e-06,2.380087720974802e-14
	2.431262103406347e-06,2.635501626813511e-14
	2.117229100126287e-07,-1.852527907317367e-14
	4.445351508620822e-06,3.648716546327783e-12
	-1.296673121535173e-06,-1.388762230617355e-14
	-3.360401297098279e-06,-3.616303644948436e-12
	-2.117229100126330e-07,1.852527907317378e-14
	-4.445351508633455e-06,-3.648716546327783e-12
	-2.117229100126330e-07,1.852527907317378e-14
28		1.905460717963246e+00,0.000000000000000e+00
	-2.117229100126330e-03,1.895678825562403e-10
	1.000000000000000e+00,0.000000000000000e+00
	0.000000000000000e+00,0.000000000000000e+00
	2.431262084473300e-06,2.435527085886986e-14
	2.431262103406347e-06,2.696890345862794e-14
	2.117229100126287e-07,-1.895678825562335e-14
	4.445351508620822e-06,3.733706072676055e-12
	-1.296673121535172e-06,-1.421110658534928e-14
	-3.360401297098279e-06,-3.700538177835083e-12
	-2.117229100126330e-07,1.895678825562403e-14
	-4.445351508633455e-06,-3.733706072676055e-12
	-2.117229100126330e-07,1.895678825562403e-14
29		1.949844599758044e+00,0.000000000000000e+00
	-2.117229100126330e-03,1.939834857813018e-10
	1.000000000000000e+00,0.000000000000000e+00
	0.000000000000000e+00,0.000000000000000e+00
	2.431262084473300e-06,2.492257799498120e-14
	2.431262103406347e-06,2.759708991871017e-14
	2.117229100126287e-07,-1.939834857813020e-14
	4.445351508620822e-06,3.820675259405504e-12
	-1.296673121535172e-06,-1.454212578134280e-14
	-3.360401297098279e-06,-3.786734785046031e-12
	-2.117229100126330e-07,1.939834857813018e-14
	-4.445351508633455e-06,-3.820675259405504e-12
	-2.117229100126330e-07,1.939834857813018e-14
30		1.995262314968878e+00,0.000000000000000e+00
	-2.117229100126330e-03,1.985019416181994e-10
	1.000000000000000e+00,0.000000000000000e+00
	0.000000000000000e+00,0.000000000000000e+00
	2.431262084473300e-06,2.550309941183478e-14
	2.431262103406347e-06,2.823990872115796e-14
	2.117229100126287e-07,-1.985019416181929e-14
	4.445351508620822e-06,3.909670218730105e-12
	-1.296673121535172e-06,-1.488085540491337e-14
	-3.360401297098279e-06,-3.874939169163372e-12
	-2.117229100126330e-07,1.985019416181994e-14
	-4.445351508633455e-06,-3.909670218730105e-12
	-2.117229100126330e-07,1.985019416181994e-14
31		2.041737944669527e+00,0.000000000000000e+00
	-2.117229100126330e-03,2.031256458120268e-10
	1.000000000000000e+00,0.000000000000000e+00
	0.000000000000000e+00,0.000000000000000e+00
	2.431262084473300e-06,2.609714290956995e-14
	2.431262103406347e-06,2.889770069700908e-14
	2.117229100126287e-07,-2.031256458120238e-14
	4.445351508620822e-06,4.000738136955277e-12
	-1.296673121535172e-06,-1.522747505499103e-14
	-3.360401297098279e-06,-3.965198097319084e-12
	-2.117229100126330e-07,2.031256458120267e-14
	-4.445351508633455e-06,-4.000738136955278e-12
	-2.117229100126330e-07,2.031256458120267e-14
32		2.089296130854037e+00,0.000000000000000e+00
	-2.117229100126330e-03,2.078570499119495e-10
	1.000000000000000e+00,0.000000000000000e+00
	0.000000000000000e+00,0.000000000000000e+00
	2.431262084473300e-06,2.670502345791230e-14
