LTspice 24.0.9 for Windows
Circuit: * GA CMOS Amp | W=5e-05 L=5.853668468910877e-07 Vbias=1.0603142584644545
Start Time: Mon Sep  8 18:45:00 2025
solver = Normal
Maximum thread count: 2
tnom = 27
temp = 27
method = modified trap
AsciiRawFile = 1
Instance "m1": Length shorter than recommended for a level 3 MOSFET.
Direct Newton iteration for .op point succeeded.
Semiconductor Device Operating Points:
                        --- MOSFET Transistors ---
Name:          m1
Model:        n_1u
Id:          1.76e-04
Vgs:         1.06e+00
Vds:         3.55e-02
Vbs:         0.00e+00
Vth:         7.46e-01
Vdsat:       2.48e-01
Gm:          4.87e-04
Gds:         4.42e-03
Gmb:         8.41e-05
Cbd:         0.00e+00
Cbs:         0.00e+00
Cgsov:       1.00e-14
Cgdov:       1.00e-14
Cgbov:       3.85e-17
Cgs:         1.75e-14
Cgd:         1.57e-14
Cgb:         0.00e+00



gain_db: MAX(db(v(out)/v(g)))=(30.4889dB,125.345°) FROM 1 TO 1e+09
gain_lin: MAX(mag(v(out)/v(g)))=(-18.8805dB,0°) FROM 1 TO 1e+09

Measurement "fc" FAIL'ed

Total elapsed time: 0.561 seconds.

