LTspice 24.0.9 for Windows
Circuit: * GA CMOS Amp | W=7.497084353499474e-06 L=5.495816954522604e-07 Vbias=0.8793882992492925
Start Time: Mon Sep  8 18:46:37 2025
solver = Normal
Maximum thread count: 2
tnom = 27
temp = 27
method = modified trap
AsciiRawFile = 1
Instance "m1": Length shorter than recommended for a level 3 MOSFET.
Direct Newton iteration for .op point succeeded.
Semiconductor Device Operating Points:
                        --- MOSFET Transistors ---
Name:          m1
Model:        n_1u
Id:          3.33e-05
Vgs:         8.79e-01
Vds:         1.47e+00
Vbs:         0.00e+00
Vth:         7.57e-01
Vdsat:       1.34e-01
Gm:          3.28e-04
Gds:         1.50e-05
Gmb:         5.97e-05
Cbd:         0.00e+00
Cbs:         0.00e+00
Cgsov:       1.50e-15
Cgdov:       1.50e-15
Cgbov:       3.50e-17
Cgs:         3.02e-15
Cgd:         0.00e+00
Cgb:         0.00e+00



gain_db: MAX(db(v(out)/v(g)))=(29.177dB,71.562°) FROM 1 TO 1e+09
gain_lin: MAX(mag(v(out)/v(g)))=(9.09744dB,0°) FROM 1 TO 1e+09

Measurement "fc" FAIL'ed

Total elapsed time: 0.536 seconds.

