Title: * GA CMOS Amp | W=2.8718191314741733e-05 L=4.677432047669913e-07 Vbias=0.5423910793634571
Date: Sat Sep  6 22:36:59 2025
Plotname: AC Analysis
Flags: complex forward log
No. Variables: 13
No. Points:          901
Offset:    0.0000000000000000e+00
Command: Linear Technology Corporation LTspice
Variables:
	0	frequency	frequency
	1	V(out)	voltage
	2	V(g)	voltage
	3	V(vdd)	voltage
	4	V(m1#dbody)	voltage
	5	V(m1#sbody)	voltage
	6	Id(M1)	device_current
	7	Ig(M1)	device_current
	8	Ib(M1)	device_current
	9	Is(M1)	device_current
	10	I(Rload)	device_current
	11	I(Vg)	device_current
	12	I(Vdd)	device_current
Values:
0		1.000000000000000e+00,0.000000000000000e+00
	-1.069603859057119e-01,4.503794808286892e-10
	1.000000000000000e+00,0.000000000000000e+00
	0.000000000000000e+00,0.000000000000000e+00
	1.048949919130289e-09,-7.136340863642535e-14
	1.049809340856688e-09,-2.722570543161295e-18
	1.069603859057126e-05,-4.503794808286919e-14
	5.351486676680422e-07,3.253627493288557e-12
	-5.598410207651791e-10,4.758830661188437e-15
	-1.123062741721853e-05,-3.213348375866877e-12
	-1.069603859057119e-05,4.503794808286892e-14
	-5.351486676574702e-07,-3.253627493288557e-12
	-1.069603859057119e-05,4.503794808286892e-14
1		1.023292992280754e+00,0.000000000000000e+00
	-1.069603859057119e-01,4.608701665990420e-10
	1.000000000000000e+00,0.000000000000000e+00
	0.000000000000000e+00,0.000000000000000e+00
	1.048949919130236e-09,-7.302567596292191e-14
	1.049809340856650e-09,-2.785987357812938e-18
	1.069603859057126e-05,-4.608701665990397e-14
	5.351486676680422e-07,3.329414213374177e-12
	-5.598410207651577e-10,4.869678067044919e-15
	-1.123062741721853e-05,-3.288196874781318e-12
	-1.069603859057119e-05,4.608701665990420e-14
	-5.351486676574702e-07,-3.329414213374177e-12
	-1.069603859057119e-05,4.608701665990420e-14
2		1.047128548050899e+00,0.000000000000000e+00
	-1.069603859057119e-01,4.716052118320632e-10
	1.000000000000000e+00,0.000000000000000e+00
	0.000000000000000e+00,0.000000000000000e+00
	1.048949919130181e-09,-7.472666246942309e-14
	1.049809340856610e-09,-2.850881339819076e-18
	1.069603859057126e-05,-4.716052118320657e-14
	5.351486676680422e-07,3.406966232945735e-12
	-5.598410207651352e-10,4.983107440670346e-15
	-1.123062741721853e-05,-3.364788819203199e-12
	-1.069603859057119e-05,4.716052118320632e-14
	-5.351486676574702e-07,-3.406966232945734e-12
	-1.069603859057119e-05,4.716052118320632e-14
3		1.071519305237606e+00,0.000000000000000e+00
	-1.069603859057119e-01,4.825903083908309e-10
	1.000000000000000e+00,0.000000000000000e+00
	0.000000000000000e+00,0.000000000000000e+00
	1.048949919130124e-09,-7.646727004148991e-14
	1.049809340856568e-09,-2.917286896894648e-18
	1.069603859057126e-05,-4.825903083908317e-14
	5.351486676680421e-07,3.486324671110529e-12
	-5.598410207651119e-10,5.099178923820066e-15
	-1.123062741721853e-05,-3.443164819195266e-12
	-1.069603859057119e-05,4.825903083908309e-14
	-5.351486676574702e-07,-3.486324671110529e-12
	-1.069603859057119e-05,4.825903083908309e-14
4		1.096478196143185e+00,0.000000000000000e+00
	-1.069603859057119e-01,4.938312807189451e-10
	1.000000000000000e+00,0.000000000000000e+00
	0.000000000000000e+00,0.000000000000000e+00
	1.048949919130063e-09,-7.824842157229659e-14
	1.049809340856524e-09,-2.985239238016493e-18
	1.069603859057126e-05,-4.938312807189467e-14
	5.351486676680421e-07,3.567531604762909e-12
	-5.598410207650873e-10,5.217954059130763e-15
	-1.123062741721853e-05,-3.523366430750145e-12
	-1.069603859057119e-05,4.938312807189452e-14
	-5.351486676574702e-07,-3.567531604762909e-12
	-1.069603859057119e-05,4.938312807189452e-14
5		1.122018454301963e+00,0.000000000000000e+00
	-1.069603859057119e-01,5.053340889287265e-10
	1.000000000000000e+00,0.000000000000000e+00
	0.000000000000000e+00,0.000000000000000e+00
	1.048949919130001e-09,-8.007106145196129e-14
	1.049809340856478e-09,-3.054774392515270e-18
	1.069603859057126e-05,-5.053340889287269e-14
	5.351486676680421e-07,3.650630090893999e-12
	-5.598410207650616e-10,5.339495822751413e-15
	-1.123062741721853e-05,-3.605436177823877e-12
	-1.069603859057119e-05,5.053340889287266e-14
	-5.351486676574702e-07,-3.650630090893998e-12
	-1.069603859057119e-05,5.053340889287266e-14
6		1.148153621496882e+00,0.000000000000000e+00
	-1.069603859057119e-01,5.171048319613453e-10
	1.000000000000000e+00,0.000000000000000e+00
	0.000000000000000e+00,0.000000000000000e+00
	1.048949919129935e-09,-8.193615606827370e-14
	1.049809340856430e-09,-3.125929228940361e-18
	1.069603859057126e-05,-5.171048319613451e-14
	5.351486676680421e-07,3.735664189421081e-12
	-5.598410207650348e-10,5.463868657733923e-15
	-1.123062741721853e-05,-3.689417574882680e-12
	-1.069603859057119e-05,5.171048319613453e-14
	-5.351486676574702e-07,-3.735664189421082e-12
	-1.069603859057119e-05,5.171048319613453e-14
7		1.174897554939529e+00,0.000000000000000e+00
	-1.069603859057119e-01,5.291497508205615e-10
	1.000000000000000e+00,0.000000000000000e+00
	0.000000000000000e+00,0.000000000000000e+00
	1.048949919129866e-09,-8.384469431908655e-14
	1.049809340856379e-09,-3.198741474253128e-18
	1.069603859057126e-05,-5.291497508205634e-14
	5.351486676680420e-07,3.822678986548755e-12
	-5.598410207650067e-10,5.591138508201526e-15
	-1.123062741721853e-05,-3.775355149974900e-12
	-1.069603859057119e-05,5.291497508205616e-14
	-5.351486676574702e-07,-3.822678986548755e-12
	-1.069603859057119e-05,5.291497508205616e-14
8		1.202264434617413e+00,0.000000000000000e+00
	-1.069603859057119e-01,5.414752318817878e-10
	1.000000000000000e+00,0.000000000000000e+00
	0.000000000000000e+00,0.000000000000000e+00
	1.048949919129793e-09,-8.579768813664323e-14
	1.049809340856326e-09,-3.273249734711685e-18
	1.069603859057126e-05,-5.414752318817851e-14
	5.351486676680420e-07,3.911720618674237e-12
	-5.598410207649771e-10,5.721372854313687e-15
	-1.123062741721853e-05,-3.863294468340372e-12
	-1.069603859057119e-05,5.414752318817879e-14
	-5.351486676574702e-07,-3.911720618674238e-12
	-1.069603859057119e-05,5.414752318817879e-14
9		1.230268770812381e+00,0.000000000000000e+00
	-1.069603859057119e-01,5.540878102782298e-10
	1.000000000000000e+00,0.000000000000000e+00
	0.000000000000000e+00,0.000000000000000e+00
	1.048949919129717e-09,-8.779617302411664e-14
	1.049809340856271e-09,-3.349493515544157e-18
	1.069603859057126e-05,-5.540878102782301e-14
	5.351486676680420e-07,4.002836296849482e-12
	-5.598410207649461e-10,5.854640748044548e-15
	-1.123062741721853e-05,-3.953282156569704e-12
	-1.069603859057119e-05,5.540878102782298e-14
	-5.351486676574702e-07,-4.002836296849482e-12
	-1.069603859057119e-05,5.540878102782298e-14
10		1.258925411794167e+00,0.000000000000000e+00
	-1.069603859057119e-01,5.669941733659007e-10
	1.000000000000000e+00,0.000000000000000e+00
	0.000000000000000e+00,0.000000000000000e+00
	1.048949919129638e-09,-8.984120860464712e-14
	1.049809340856213e-09,-3.427513242136774e-18
	1.069603859057126e-05,-5.669941733659008e-14
	5.351486676680420e-07,4.096074331813120e-12
	-5.598410207649138e-10,5.991012849795333e-15
	-1.123062741721853e-05,-4.045365927326325e-12
	-1.069603859057119e-05,5.669941733659007e-14
	-5.351486676574702e-07,-4.096074331813120e-12
	-1.069603859057119e-05,5.669941733659007e-14
11		1.288249551693134e+00,0.000000000000000e+00
	-1.069603859057119e-01,5.802011642693452e-10
	1.000000000000000e+00,0.000000000000000e+00
	0.000000000000000e+00,0.000000000000000e+00
	1.048949919129555e-09,-9.193387918316883e-14
	1.049809340856152e-09,-3.507350281651287e-18
	1.069603859057126e-05,-5.802011642693480e-14
	5.351486676680419e-07,4.191484159605438e-12
	-5.598410207648801e-10,6.130561465859527e-15
	-1.123062741721853e-05,-4.139594604644363e-12
	-1.069603859057119e-05,5.802011642693452e-14
	-5.351486676574702e-07,-4.191484159605439e-12
	-1.069603859057119e-05,5.802011642693452e-14
12		1.318256738556407e+00,0.000000000000000e+00
	-1.069603859057119e-01,5.937157855099555e-10
	1.000000000000000e+00,0.000000000000000e+00
	0.000000000000000e+00,0.000000000000000e+00
	1.048949919129468e-09,-9.407529432132212e-14
	1.049809340856089e-09,-3.589046964642610e-18
	1.069603859057126e-05,-5.937157855099557e-14
	5.351486676680419e-07,4.289116367780030e-12
	-5.598410207648447e-10,6.273360586760458e-15
	-1.123062741721853e-05,-4.236018149815796e-12
	-1.069603859057119e-05,5.937157855099556e-14
	-5.351486676574702e-07,-4.289116367780031e-12
	-1.069603859057119e-05,5.937157855099556e-14
13		1.348962882591653e+00,0.000000000000000e+00
	-1.069603859057119e-01,6.075452027188008e-10
	1.000000000000000e+00,0.000000000000000e+00
	0.000000000000000e+00,0.000000000000000e+00
	1.048949919129377e-09,-9.626658942575835e-14
	1.049809340856022e-09,-3.672646607888349e-18
	1.069603859057126e-05,-6.075452027188036e-14
	5.351486676680419e-07,4.389022722225988e-12
	-5.598410207648076e-10,6.419485926482257e-15
	-1.123062741721853e-05,-4.334687687880589e-12
	-1.069603859057119e-05,6.075452027188008e-14
	-5.351486676574702e-07,-4.389022722225988e-12
	-1.069603859057119e-05,6.075452027188008e-14
14		1.380384264602885e+00,0.000000000000000e+00
	-1.069603859057119e-01,6.216967484359392e-10
	1.000000000000000e+00,0.000000000000000e+00
	0.000000000000000e+00,0.000000000000000e+00
	1.048949919129281e-09,-9.850892635014716e-14
	1.049809340855953e-09,-3.758193537067109e-18
	1.069603859057126e-05,-6.216967484359394e-14
	5.351486676680418e-07,4.491256194614852e-12
	-5.598410207647685e-10,6.569014962614267e-15
	-1.123062741721853e-05,-4.435655534733873e-12
	-1.069603859057119e-05,6.216967484359393e-14
	-5.351486676574702e-07,-4.491256194614853e-12
	-1.069603859057119e-05,6.216967484359393e-14
15		1.412537544622754e+00,0.000000000000000e+00
	-1.069603859057119e-01,6.361779259982275e-10
	1.000000000000000e+00,0.000000000000000e+00
	0.000000000000000e+00,0.000000000000000e+00
	1.048949919129181e-09,-1.008034940112065e-13
	1.049809340855880e-09,-3.845733110042846e-18
	1.069603859057126e-05,-6.361779259982214e-14
	5.351486676680418e-07,4.595870990486904e-12
	-5.598410207647279e-10,6.722026977430562e-15
	-1.123062741721853e-05,-4.538975224864513e-12
	-1.069603859057119e-05,6.361779259982275e-14
	-5.351486676574702e-07,-4.595870990486906e-12
	-1.069603859057119e-05,6.361779259982275e-14
16		1.445439770745927e+00,0.000000000000000e+00
	-1.069603859057119e-01,6.509964135176900e-10
	1.000000000000000e+00,0.000000000000000e+00
	0.000000000000000e+00,0.000000000000000e+00
	1.048949919129076e-09,-1.031515090190825e-13
	1.049809340855803e-09,-3.935311741714564e-18
	1.069603859057126e-05,-6.509964135176934e-14
	5.351486676680417e-07,4.702922577991657e-12
	-5.598410207646851e-10,6.878603099926885e-15
	-1.123062741721853e-05,-4.644701539739814e-12
	-1.069603859057119e-05,6.509964135176901e-14
	-5.351486676574702e-07,-4.702922577991658e-12
	-1.069603859057119e-05,6.509964135176901e-14
17		1.479108388168207e+00,0.000000000000000e+00
	-1.069603859057119e-01,6.661600679525565e-10
	1.000000000000000e+00,0.000000000000000e+00
	0.000000000000000e+00,0.000000000000000e+00
	1.048949919128967e-09,-1.055542163224122e-13
	1.049809340855723e-09,-4.026976927755528e-18
	1.069603859057126e-05,-6.661600679525530e-14
	5.351486676680417e-07,4.812467717297802e-12
	-5.598410207646406e-10,7.038826348835863e-15
	-1.123062741721853e-05,-4.752890536851382e-12
	-1.069603859057119e-05,6.661600679525565e-14
	-5.351486676574702e-07,-4.812467717297802e-12
	-1.069603859057119e-05,6.661600679525565e-14
18		1.513561248436208e+00,0.000000000000000e+00
	-1.069603859057119e-01,6.816769292731219e-10
	1.000000000000000e+00,0.000000000000000e+00
	0.000000000000000e+00,0.000000000000000e+00
	1.048949919128852e-09,-1.080128898684111e-13
	1.049809340855639e-09,-4.120777270220728e-18
	1.069603859057126e-05,-6.816769292731252e-14
	5.351486676680416e-07,4.924564490688198e-12
	-5.598410207645938e-10,7.202781676644851e-15
	-1.123062741721853e-05,-4.863599579437531e-12
	-1.069603859057119e-05,6.816769292731219e-14
	-5.351486676574702e-07,-4.924564490688198e-12
	-1.069603859057119e-05,6.816769292731219e-14
19		1.548816618912481e+00,0.000000000000000e+00
	-1.069603859057119e-01,6.975552247246489e-10
	1.000000000000000e+00,0.000000000000000e+00
	0.000000000000000e+00,0.000000000000000e+00
	1.048949919128732e-09,-1.105288332783380e-13
	1.049809340855552e-09,-4.216762503407037e-18
	1.069603859057126e-05,-6.975552247246496e-14
	5.351486676680416e-07,5.039272333355874e-12
	-5.598410207645449e-10,7.370556014638919e-15
	-1.123062741721853e-05,-4.976887366898048e-12
	-1.069603859057119e-05,6.975552247246490e-14
	-5.351486676574702e-07,-5.039272333355874e-12
	-1.069603859057119e-05,6.975552247246490e-14
20		1.584893192461113e+00,0.000000000000000e+00
	-1.069603859057119e-01,7.138033731895598e-10
	1.000000000000000e+00,0.000000000000000e+00
	0.000000000000000e+00,0.000000000000000e+00
	1.048949919128606e-09,-1.131033805386911e-13
	1.049809340855460e-09,-4.314983519865070e-18
	1.069603859057126e-05,-7.138033731895633e-14
	5.351486676680416e-07,5.156652064917349e-12
	-5.598410207644937e-10,7.542238318992776e-15
	-1.123062741721853e-05,-5.092813965917386e-12
	-1.069603859057119e-05,7.138033731895598e-14
	-5.351486676574702e-07,-5.156652064917350e-12
	-1.069603859057119e-05,7.138033731895598e-14
21		1.621810097358929e+00,0.000000000000000e+00
	-1.069603859057119e-01,7.304299896512404e-10
	1.000000000000000e+00,0.000000000000000e+00
	0.000000000000000e+00,0.000000000000000e+00
	1.048949919128474e-09,-1.157378967085060e-13
	1.049809340855364e-09,-4.415492397673490e-18
	1.069603859057126e-05,-7.304299896512433e-14
	5.351486676680414e-07,5.276765921660003e-12
	-5.598410207644400e-10,7.717919617936677e-15
	-1.123062741721853e-05,-5.211440842312815e-12
	-1.069603859057119e-05,7.304299896512404e-14
	-5.351486676574702e-07,-5.276765921660005e-12
	-1.069603859057119e-05,7.304299896512404e-14
22		1.659586907437560e+00,0.000000000000000e+00
	-1.069603859057119e-01,7.474438897618179e-10
	1.000000000000000e+00,0.000000000000000e+00
	0.000000000000000e+00,0.000000000000000e+00
	1.048949919128336e-09,-1.184337786431280e-13
	1.049809340855263e-09,-4.518342428016480e-18
	1.069603859057126e-05,-7.474438897618241e-14
	5.351486676680414e-07,5.399677589540577e-12
	-5.598410207643836e-10,7.897693060020763e-15
	-1.123062741721853e-05,-5.332830893624415e-12
	-1.069603859057119e-05,7.474438897618179e-14
	-5.351486676574702e-07,-5.399677589540578e-12
	-1.069603859057119e-05,7.474438897618179e-14
23		1.698243652461743e+00,0.000000000000000e+00
	-1.069603859057119e-01,7.648540945163370e-10
	1.000000000000000e+00,0.000000000000000e+00
	0.000000000000000e+00,0.000000000000000e+00
	1.048949919128192e-09,-1.211924557348429e-13
	1.049809340855157e-09,-4.623588143266373e-18
	1.069603859057126e-05,-7.648540945163385e-14
	5.351486676680413e-07,5.525452237952308e-12
	-5.598410207643248e-10,8.081653963503566e-15
	-1.123062741721853e-05,-5.457048482464177e-12
	-1.069603859057119e-05,7.648540945163371e-14
	-5.351486676574702e-07,-5.525452237952306e-12
	-1.069603859057119e-05,7.648540945163371e-14
24		1.737800828749374e+00,0.000000000000000e+00
	-1.069603859057119e-01,7.826698350358090e-10
	1.000000000000000e+00,0.000000000000000e+00
	0.000000000000000e+00,0.000000000000000e+00
	1.048949919128041e-09,-1.240153906707602e-13
	1.049809340855047e-09,-4.731285346227749e-18
	1.069603859057126e-05,-7.826698350358159e-14
	5.351486676680412e-07,5.654156554278605e-12
	-5.598410207642632e-10,8.269899866891192e-15
	-1.123062741721853e-05,-5.584159470641915e-12
	-1.069603859057119e-05,7.826698350358091e-14
	-5.351486676574702e-07,-5.654156554278604e-12
	-1.069603859057119e-05,7.826698350358091e-14
25		1.778279410038922e+00,0.000000000000000e+00
	-1.069603859057119e-01,8.009005574616774e-10
	1.000000000000000e+00,0.000000000000000e+00
	0.000000000000000e+00,0.000000000000000e+00
	1.048949919127882e-09,-1.269040802083489e-13
	1.049809340854931e-09,-4.841491139179869e-18
	1.069603859057126e-05,-8.009005574616840e-14
	5.351486676680412e-07,5.785858779251592e-12
	-5.598410207641988e-10,8.462530580653251e-15
	-1.123062741721853e-05,-5.714231254086077e-12
	-1.069603859057119e-05,8.009005574616774e-14
	-5.351486676574702e-07,-5.785858779251592e-12
	-1.069603859057119e-05,8.009005574616774e-14
26		1.819700858609982e+00,0.000000000000000e+00
	-1.069603859057119e-01,8.195559279642839e-10
	1.000000000000000e+00,0.000000000000000e+00
	0.000000000000000e+00,0.000000000000000e+00
	1.048949919127717e-09,-1.298600559690382e-13
	1.049809340854810e-09,-4.954263954989365e-18
	1.069603859057126e-05,-8.195559279642864e-14
	5.351486676680411e-07,5.920628743134233e-12
	-5.598410207641312e-10,8.659648240144091e-15
	-1.123062741721853e-05,-5.847332798577948e-12
	-1.069603859057119e-05,8.195559279642839e-14
	-5.351486676574702e-07,-5.920628743134231e-12
	-1.069603859057119e-05,8.195559279642839e-14
27		1.862087136662866e+00,0.000000000000000e+00
	-1.069603859057119e-01,8.386458378680020e-10
	1.000000000000000e+00,0.000000000000000e+00
	0.000000000000000e+00,0.000000000000000e+00
	1.048949919127543e-09,-1.328848852503033e-13
	1.049809340854683e-09,-5.069663587011539e-18
	1.069603859057126e-05,-8.386458378680100e-14
	5.351486676680410e-07,6.058537902745269e-12
	-5.598410207640603e-10,8.861357359755797e-15
	-1.123062741721853e-05,-5.983534676318224e-12
	-1.069603859057119e-05,8.386458378680021e-14
	-5.351486676574702e-07,-6.058537902745268e-12
	-1.069603859057119e-05,8.386458378680021e-14
28		1.905460717963246e+00,0.000000000000000e+00
	-1.069603859057119e-01,8.581804088957481e-10
	1.000000000000000e+00,0.000000000000000e+00
	0.000000000000000e+00,0.000000000000000e+00
	1.048949919127361e-09,-1.359801718566675e-13
	1.049809340854551e-09,-5.187751221920208e-18
	1.069603859057126e-05,-8.581804088957472e-14
	5.351486676680410e-07,6.199659379346571e-12
	-5.598410207639863e-10,9.067764888333646e-15
	-1.123062741721853e-05,-6.122909103345330e-12
	-1.069603859057119e-05,8.581804088957481e-14
	-5.351486676574702e-07,-6.199659379346571e-12
	-1.069603859057119e-05,8.581804088957481e-14
29		1.949844599758044e+00,0.000000000000000e+00
	-1.069603859057119e-01,8.781699985356511e-10
	1.000000000000000e+00,0.000000000000000e+00
	0.000000000000000e+00,0.000000000000000e+00
	1.048949919127170e-09,-1.391475569500605e-13
	1.049809340854412e-09,-5.308589471023251e-18
	1.069603859057126e-05,-8.781699985356582e-14
	5.351486676680409e-07,6.344067997412997e-12
	-5.598410207639087e-10,9.278980265881264e-15
	-1.123062741721853e-05,-6.265529977825312e-12
	-1.069603859057119e-05,8.781699985356512e-14
	-5.351486676574702e-07,-6.344067997412996e-12
	-1.069603859057119e-05,8.781699985356512e-14
30		1.995262314968878e+00,0.000000000000000e+00
	-1.069603859057119e-01,8.986252055327318e-10
	1.000000000000000e+00,0.000000000000000e+00
	0.000000000000000e+00,0.000000000000000e+00
	1.048949919126971e-09,-1.423887199199840e-13
	1.049809340854266e-09,-5.432242404557206e-18
	1.069603859057126e-05,-8.986252055327375e-14
	5.351486676680408e-07,6.491840324305315e-12
	-5.598410207638275e-10,9.495115481587686e-15
	-1.123062741721853e-05,-6.411472919233629e-12
	-1.069603859057119e-05,8.986252055327318e-14
	-5.351486676574702e-07,-6.491840324305315e-12
	-1.069603859057119e-05,8.986252055327318e-14
31		2.041737944669527e+00,0.000000000000000e+00
	-1.069603859057119e-01,9.195568755084969e-10
	1.000000000000000e+00,0.000000000000000e+00
	0.000000000000000e+00,0.000000000000000e+00
	1.048949919126762e-09,-1.457053792739466e-13
	1.049809340854114e-09,-5.558775584921960e-18
	1.069603859057126e-05,-9.195568755084927e-14
	5.351486676680407e-07,6.643054710867245e-12
	-5.598410207637425e-10,9.716285133205159e-15
	-1.123062741721853e-05,-6.560815308449602e-12
	-1.069603859057119e-05,9.195568755084969e-14
	-5.351486676574702e-07,-6.643054710867245e-12
	-1.069603859057119e-05,9.195568755084969e-14
32		2.089296130854037e+00,0.000000000000000e+00
	-1.069603859057119e-01,9.409761067114306e-10
	1.000000000000000e+00,0.000000000000000e+00
	0.000000000000000e+00,0.000000000000000e+00
