LTspice 24.0.9 for Windows
Circuit: * GA CMOS Amp | W=7.918335190035595e-06 L=5.154105926048669e-07 Vbias=1.2710634826982294
Start Time: Sat Sep  6 22:11:53 2025
solver = Normal
Maximum thread count: 2
tnom = 27
temp = 27
method = modified trap
AsciiRawFile = 1
Direct Newton iteration for .op point succeeded.
Semiconductor Device Operating Points:
                        --- BSIM4 MOSFETS ---
Name:      m1
Model:      n
Id:      1.68e-04
Vgs:     1.27e+00
Vds:     1.23e-01
Vbs:     0.00e+00
Vth:     2.50e-01
Vdsat:   7.17e-01
Gm:     -4.95e-06
Gds:     1.24e-03
Gmb      9.15e-05
Cbd:     3.81e-15
Cbs:     6.33e-15


.measure op idd find i(vdd)
  Error: FIND can not be evaluated over an interval.

gain_db: MAX(db(v(out)/v(g)))=(33.1042dB,180°) FROM 1 TO 1e+09
gain_lin: MAX(mag(v(out)/v(g)))=(-8.949dB,0°) FROM 1 TO 1e+09

Measurement "fc" FAIL'ed

Total elapsed time: 0.564 seconds.

