Title: * GA CMOS Amp | W=2.394002711850071e-06 L=6.56932556270173e-07 Vbias=1.2739714805233828
Date: Sat Sep  6 22:13:27 2025
Plotname: AC Analysis
Flags: complex forward log
No. Variables: 13
No. Points:          901
Offset:    0.0000000000000000e+00
Command: Linear Technology Corporation LTspice
Variables:
	0	frequency	frequency
	1	V(out)	voltage
	2	V(g)	voltage
	3	V(vdd)	voltage
	4	V(m1#dbody)	voltage
	5	V(m1#sbody)	voltage
	6	Id(M1)	device_current
	7	Ig(M1)	device_current
	8	Ib(M1)	device_current
	9	Is(M1)	device_current
	10	I(Rload)	device_current
	11	I(Vg)	device_current
	12	I(Vdd)	device_current
Values:
0		1.000000000000000e+00,0.000000000000000e+00
	-2.936021520594120e-01,7.646750634885739e-10
	1.000000000000000e+00,0.000000000000000e+00
	0.000000000000000e+00,0.000000000000000e+00
	9.904462395975740e-06,8.446986374826398e-14
	9.904464597991120e-06,9.874712944617029e-14
	2.936021520594122e-05,-7.646750634885745e-14
	6.907892706109773e-06,3.636088929004924e-13
	-5.282380976119374e-06,-5.171367558812948e-14
	-3.098572693593162e-05,-2.354277109635055e-13
	-2.936021520594121e-05,7.646750634885739e-14
	-6.907892706298213e-06,-3.636088929004924e-13
	-2.936021520594121e-05,7.646750634885739e-14
1		1.023292992280754e+00,0.000000000000000e+00
	-2.936021520594120e-01,7.824866338396985e-10
	1.000000000000000e+00,0.000000000000000e+00
	0.000000000000000e+00,0.000000000000000e+00
	9.904462395975740e-06,8.643741963250862e-14
	9.904464597991120e-06,1.010472455701066e-13
	2.936021520594122e-05,-7.824866338396987e-14
	6.907892706109773e-06,3.720784320360371e-13
	-5.282380976119374e-06,-5.291824183441320e-14
	-3.098572693593162e-05,-2.409115268176540e-13
	-2.936021520594121e-05,7.824866338396986e-14
	-6.907892706298213e-06,-3.720784320360372e-13
	-2.936021520594121e-05,7.824866338396986e-14
2		1.047128548050899e+00,0.000000000000000e+00
	-2.936021520594120e-01,8.007130889615196e-10
	1.000000000000000e+00,0.000000000000000e+00
	0.000000000000000e+00,0.000000000000000e+00
	9.904462395975740e-06,8.845080578077694e-14
	9.904464597991120e-06,1.034009382811625e-13
	2.936021520594122e-05,-8.007130889615199e-14
	6.907892706109773e-06,3.807452520812875e-13
	-5.282380976119374e-06,-5.415086603297326e-14
	-3.098572693593162e-05,-2.465230771521623e-13
	-2.936021520594121e-05,8.007130889615197e-14
	-6.907892706298213e-06,-3.807452520812876e-13
	-2.936021520594121e-05,8.007130889615197e-14
3		1.071519305237606e+00,0.000000000000000e+00
	-2.936021520594120e-01,8.193640927617993e-10
	1.000000000000000e+00,0.000000000000000e+00
	0.000000000000000e+00,0.000000000000000e+00
	9.904462395975740e-06,9.051108971705506e-14
	9.904464597991120e-06,1.058094555383684e-13
	2.936021520594122e-05,-8.193640927617995e-14
	6.907892706109773e-06,3.896139482989508e-13
	-5.282380976119374e-06,-5.541220173747545e-14
	-3.098572693593162e-05,-2.522653372852954e-13
	-2.936021520594121e-05,8.193640927617994e-14
	-6.907892706298213e-06,-3.896139482989507e-13
	-2.936021520594121e-05,8.193640927617994e-14
4		1.096478196143185e+00,0.000000000000000e+00
	-2.936021520594120e-01,8.384495342496269e-10
	1.000000000000000e+00,0.000000000000000e+00
	0.000000000000000e+00,0.000000000000000e+00
	9.904462395975740e-06,9.261936383115706e-14
	9.904464597991120e-06,1.082740743694543e-13
	2.936021520594122e-05,-8.384495342496269e-14
	6.907892706109773e-06,3.986892229891523e-13
	-5.282380976119374e-06,-5.670291772480606e-14
	-3.098572693593162e-05,-2.581413518393835e-13
	-2.936021520594121e-05,8.384495342496269e-14
	-6.907892706298213e-06,-3.986892229891523e-13
	-2.936021520594121e-05,8.384495342496269e-14
5		1.122018454301963e+00,0.000000000000000e+00
	-2.936021520594120e-01,8.579795327787054e-10
	1.000000000000000e+00,0.000000000000000e+00
	0.000000000000000e+00,0.000000000000000e+00
	9.904462395975740e-06,9.477674595792456e-14
	9.904464597991120e-06,1.107961015479479e-13
	2.936021520594122e-05,-8.579795327787061e-14
	6.907892706109773e-06,4.079758879826586e-13
	-5.282380976119374e-06,-5.802369834966621e-14
	-3.098572693593162e-05,-2.641542363551218e-13
	-2.936021520594121e-05,8.579795327787054e-14
	-6.907892706298213e-06,-4.079758879826585e-13
	-2.936021520594121e-05,8.579795327787054e-14
6		1.148153621496882e+00,0.000000000000000e+00
	-2.936021520594120e-01,8.779644434127648e-10
	1.000000000000000e+00,0.000000000000000e+00
	0.000000000000000e+00,0.000000000000000e+00
	9.904462395975740e-06,9.698437996991750e-14
	9.904464597991120e-06,1.133768742860418e-13
	2.936021520594122e-05,-8.779644434127649e-14
	6.907892706109773e-06,4.174788671921723e-13
	-5.282380976119374e-06,-5.937524390742579e-14
	-3.098572693593162e-05,-2.703071789434701e-13
	-2.936021520594121e-05,8.779644434127649e-14
	-6.907892706298213e-06,-4.174788671921724e-13
	-2.936021520594121e-05,8.779644434127649e-14
7		1.174897554939529e+00,0.000000000000000e+00
	-2.936021520594120e-01,8.984148624159547e-10
	1.000000000000000e+00,0.000000000000000e+00
	0.000000000000000e+00,0.000000000000000e+00
	9.904462395975740e-06,9.924343638391052e-14
	9.904464597991120e-06,1.160177609436027e-13
	2.936021520594122e-05,-8.984148624159550e-14
	6.907892706109773e-06,4.272031992230576e-13
	-5.282380976119374e-06,-6.075827100542934e-14
	-3.098572693593162e-05,-2.766034419760327e-13
	-2.936021520594121e-05,8.984148624159548e-14
	-6.907892706298213e-06,-4.272031992230576e-13
	-2.936021520594121e-05,8.984148624159548e-14
8		1.202264434617413e+00,0.000000000000000e+00
	-2.936021520594120e-01,9.193416328711245e-10
	1.000000000000000e+00,0.000000000000000e+00
	0.000000000000000e+00,0.000000000000000e+00
	9.904462395975740e-06,1.015551129815165e-13
	9.904464597991120e-06,1.187201617536924e-13
	2.936021520594122e-05,-9.193416328711246e-14
	6.907892706109773e-06,4.371540400448738e-13
	-5.282380976119374e-06,-6.217351294295080e-14
	-3.098572693593162e-05,-2.830463638148105e-13
	-2.936021520594121e-05,9.193416328711246e-14
	-6.907892706298213e-06,-4.371540400448738e-13
	-2.936021520594121e-05,9.193416328711246e-14
9		1.230268770812381e+00,0.000000000000000e+00
	-2.936021520594120e-01,9.407558504289675e-10
	1.000000000000000e+00,0.000000000000000e+00
	0.000000000000000e+00,0.000000000000000e+00
	9.904462395975740e-06,1.039206354442660e-13
	9.904464597991120e-06,1.214855095649910e-13
	2.936021520594122e-05,-9.407558504289677e-14
	6.907892706109773e-06,4.473366657251395e-13
	-5.282380976119374e-06,-6.362172009999830e-14
	-3.098572693593162e-05,-2.896393605822445e-13
	-2.936021520594121e-05,9.407558504289675e-14
	-6.907892706298213e-06,-4.473366657251394e-13
	-2.936021520594121e-05,9.407558504289675e-14
10		1.258925411794167e+00,0.000000000000000e+00
	-2.936021520594120e-01,9.626688691910838e-10
	1.000000000000000e+00,0.000000000000000e+00
	0.000000000000000e+00,0.000000000000000e+00
	9.904462395975740e-06,1.063412580034804e-13
	9.904464597991120e-06,1.243152706015119e-13
	2.936021520594122e-05,-9.626688691910840e-14
	6.907892706109773e-06,4.577564752267734e-13
	-5.282380976119374e-06,-6.510366033517587e-14
	-3.098572693593162e-05,-2.963859279724892e-13
	-2.936021520594121e-05,9.626688691910839e-14
	-6.907892706298213e-06,-4.577564752267734e-13
	-2.936021520594121e-05,9.626688691910839e-14
11		1.288249551693134e+00,0.000000000000000e+00
	-2.936021520594120e-01,9.850923077300740e-10
	1.000000000000000e+00,0.000000000000000e+00
	0.000000000000000e+00,0.000000000000000e+00
	9.904462395975740e-06,1.088182641052811e-13
	9.904464597991120e-06,1.272109452400127e-13
	2.936021520594122e-05,-9.850923077300741e-14
	6.907892706109773e-06,4.684189932706961e-13
	-5.282380976119374e-06,-6.662011939281197e-14
	-3.098572693593162e-05,-3.032896431048766e-13
	-2.936021520594121e-05,9.850923077300740e-14
	-6.907892706298213e-06,-4.684189932706960e-13
	-2.936021520594121e-05,9.850923077300740e-14
12		1.318256738556407e+00,0.000000000000000e+00
	-2.936021520594120e-01,1.008038055249861e-09
	1.000000000000000e+00,0.000000000000000e+00
	0.000000000000000e+00,0.000000000000000e+00
	9.904462395975740e-06,1.113529670910905e-13
	9.904464597991120e-06,1.301740688055157e-13
	2.936021520594122e-05,-1.008038055249861e-13
	6.907892706109773e-06,4.793298732651089e-13
	-5.282380976119374e-06,-6.817190131957162e-14
	-3.098572693593162e-05,-3.103541664205511e-13
	-2.936021520594121e-05,1.008038055249861e-13
	-6.907892706298213e-06,-4.793298732651088e-13
	-2.936021520594121e-05,1.008038055249861e-13
13		1.348962882591653e+00,0.000000000000000e+00
	-2.936021520594120e-01,1.031518277889502e-09
	1.000000000000000e+00,0.000000000000000e+00
	0.000000000000000e+00,0.000000000000000e+00
	9.904462395975740e-06,1.139467108939824e-13
	9.904464597991120e-06,1.332062123853570e-13
	2.936021520594122e-05,-1.031518277889502e-13
	6.907892706109773e-06,4.904949003030080e-13
	-5.282380976119374e-06,-6.975982889077278e-14
	-3.098572693593162e-05,-3.175832436232850e-13
	-2.936021520594121e-05,1.031518277889502e-13
	-6.907892706298213e-06,-4.904949003030080e-13
	-2.936021520594121e-05,1.031518277889502e-13
14		1.380384264602885e+00,0.000000000000000e+00
	-2.936021520594120e-01,1.055545425173839e-09
	1.000000000000000e+00,0.000000000000000e+00
	0.000000000000000e+00,0.000000000000000e+00
	9.904462395975740e-06,1.166008707512532e-13
	9.904464597991120e-06,1.363089836621976e-13
	2.936021520594122e-05,-1.055545425173840e-13
	6.907892706109773e-06,5.019199942295152e-13
	-5.282380976119374e-06,-7.138474404663226e-14
	-3.098572693593162e-05,-3.249807076654990e-13
	-2.936021520594121e-05,1.055545425173839e-13
	-6.907892706298213e-06,-5.019199942295153e-13
	-2.936021520594121e-05,1.055545425173839e-13
15		1.412537544622754e+00,0.000000000000000e+00
	-2.936021520594120e-01,1.080132236614399e-09
	1.000000000000000e+00,0.000000000000000e+00
	0.000000000000000e+00,0.000000000000000e+00
	9.904462395975740e-06,1.193168539335914e-13
	9.904464597991120e-06,1.394840277664386e-13
	2.936021520594122e-05,-1.080132236614399e-13
	6.907892706109773e-06,5.136112127806594e-13
	-5.282380976119374e-06,-7.304750833867406e-14
	-3.098572693593162e-05,-3.325504807805454e-13
	-2.936021520594121e-05,1.080132236614399e-13
	-6.907892706298213e-06,-5.136112127806594e-13
	-2.936021520594121e-05,1.080132236614399e-13
16		1.445439770745927e+00,0.000000000000000e+00
	-2.936021520594120e-01,1.105291748464052e-09
	1.000000000000000e+00,0.000000000000000e+00
	0.000000000000000e+00,0.000000000000000e+00
	9.904462395975740e-06,1.220961004912304e-13
	9.904464597991120e-06,1.427330281484908e-13
	2.936021520594122e-05,-1.105291748464051e-13
	6.907892706109773e-06,5.255747547952680e-13
	-5.282380976119374e-06,-7.474900338653512e-14
	-3.098572693593162e-05,-3.402965765623277e-13
	-2.936021520594121e-05,1.105291748464052e-13
	-6.907892706298213e-06,-5.255747547952680e-13
	-2.936021520594121e-05,1.105291748464052e-13
17		1.479108388168207e+00,0.000000000000000e+00
	-2.936021520594120e-01,1.131037300629006e-09
	1.000000000000000e+00,0.000000000000000e+00
	0.000000000000000e+00,0.000000000000000e+00
	9.904462395975740e-06,1.249400840174827e-13
	9.904464597991120e-06,1.460577074713622e-13
	2.936021520594122e-05,-1.131037300629007e-13
	6.907892706109773e-06,5.378169635016733e-13
	-5.282380976119374e-06,-7.649013134541173e-14
	-3.098572693593162e-05,-3.482231020933610e-13
	-2.936021520594121e-05,1.131037300629006e-13
	-6.907892706298213e-06,-5.378169635016734e-13
	-2.936021520594121e-05,1.131037300629006e-13
18		1.513561248436208e+00,0.000000000000000e+00
	-2.936021520594120e-01,1.157382543741803e-09
	1.000000000000000e+00,0.000000000000000e+00
	0.000000000000000e+00,0.000000000000000e+00
	9.904462395975740e-06,1.278503124300588e-13
	9.904464597991120e-06,1.494598285240373e-13
	2.936021520594122e-05,-1.157382543741803e-13
	6.907892706109773e-06,5.503443298809765e-13
	-5.282380976119374e-06,-7.827181538439429e-14
	-3.098572693593162e-05,-3.563342601224020e-13
	-2.936021520594121e-05,1.157382543741802e-13
	-6.907892706298213e-06,-5.503443298809765e-13
	-2.936021520594121e-05,1.157382543741802e-13
19		1.548816618912481e+00,0.000000000000000e+00
	-2.936021520594120e-01,1.184341446399060e-09
	1.000000000000000e+00,0.000000000000000e+00
	0.000000000000000e+00,0.000000000000000e+00
	9.904462395975740e-06,1.308283287705841e-13
	9.904464597991120e-06,1.529411951561305e-13
	2.936021520594122e-05,-1.184341446399060e-13
	6.907892706109773e-06,5.631634961086509e-13
	-5.282380976119374e-06,-8.009500017594357e-14
	-3.098572693593162e-05,-3.646343512928013e-13
	-2.936021520594121e-05,1.184341446399060e-13
	-6.907892706298213e-06,-5.631634961086509e-13
	-2.936021520594121e-05,1.184341446399060e-13
20		1.584893192461113e+00,0.000000000000000e+00
	-2.936021520594120e-01,1.211928302567810e-09
	1.000000000000000e+00,0.000000000000000e+00
	0.000000000000000e+00,0.000000000000000e+00
	9.904462395975740e-06,1.338757120227413e-13
	9.904464597991120e-06,1.565036532343116e-13
	2.936021520594122e-05,-1.211928302567810e-13
	6.907892706109773e-06,5.762812590763121e-13
	-5.282380976119374e-06,-8.196065239676885e-14
	-3.098572693593162e-05,-3.731277764227623e-13
	-2.936021520594121e-05,1.211928302567810e-13
	-6.907892706298213e-06,-5.762812590763123e-13
	-2.936021520594121e-05,1.211928302567810e-13
21		1.621810097358929e+00,0.000000000000000e+00
	-2.936021520594120e-01,1.240157739164350e-09
	1.000000000000000e+00,0.000000000000000e+00
	0.000000000000000e+00,0.000000000000000e+00
	9.904462395975740e-06,1.369940779494675e-13
	9.904464597991120e-06,1.601490916210082e-13
	2.936021520594122e-05,-1.240157739164350e-13
	6.907892706109773e-06,5.897045739955200e-13
	-5.282380976119374e-06,-8.386976124037234e-14
	-3.098572693593162e-05,-3.818190388387126e-13
	-2.936021520594121e-05,1.240157739164350e-13
	-6.907892706298213e-06,-5.897045739955199e-13
	-2.936021520594121e-05,1.240157739164350e-13
22		1.659586907437560e+00,0.000000000000000e+00
	-2.936021520594120e-01,1.269044723809622e-09
	1.000000000000000e+00,0.000000000000000e+00
	0.000000000000000e+00,0.000000000000000e+00
	9.904462395975740e-06,1.401850799496534e-13
	9.904464597991120e-06,1.638794431759061e-13
	2.936021520594122e-05,-1.269044723809622e-13
	6.907892706109773e-06,6.034405580855230e-13
	-5.282380976119374e-06,-8.582333894153304e-14
	-3.098572693593162e-05,-3.907127467630277e-13
	-2.936021520594121e-05,1.269044723809623e-13
	-6.907892706298213e-06,-6.034405580855231e-13
	-2.936021520594121e-05,1.269044723809623e-13
23		1.698243652461743e+00,0.000000000000000e+00
	-2.936021520594120e-01,1.298604572765252e-09
	1.000000000000000e+00,0.000000000000000e+00
	0.000000000000000e+00,0.000000000000000e+00
	9.904462395975740e-06,1.434504099347976e-13
	9.904464597991120e-06,1.676966857807768e-13
	2.936021520594122e-05,-1.298604572765252e-13
	6.907892706109773e-06,6.174964943469030e-13
	-5.282380976119374e-06,-8.782242131300671e-14
	-3.098572693593162e-05,-3.998136157573712e-13
	-2.936021520594121e-05,1.298604572765252e-13
	-6.907892706298213e-06,-6.174964943469032e-13
	-2.936021520594121e-05,1.298604572765252e-13
24		1.737800828749374e+00,0.000000000000000e+00
	-2.936021520594120e-01,1.328852959054424e-09
	1.000000000000000e+00,0.000000000000000e+00
	0.000000000000000e+00,0.000000000000000e+00
	9.904462395975740e-06,1.467917992260798e-13
	9.904464597991120e-06,1.716028433881765e-13
	2.936021520594122e-05,-1.328852959054425e-13
	6.907892706109773e-06,6.318798354231181e-13
	-5.282380976119374e-06,-8.986806829472772e-14
	-3.098572693593162e-05,-4.091264712229480e-13
	-2.936021520594121e-05,1.328852959054425e-13
	-6.907892706298213e-06,-6.318798354231180e-13
	-2.936021520594121e-05,1.328852959054425e-13
25		1.778279410038922e+00,0.000000000000000e+00
	-2.936021520594120e-01,1.359805920771936e-09
	1.000000000000000e+00,0.000000000000000e+00
	0.000000000000000e+00,0.000000000000000e+00
	9.904462395975740e-06,1.502110194723309e-13
	9.904464597991120e-06,1.755999870945727e-13
	2.936021520594122e-05,-1.359805920771936e-13
	6.907892706109773e-06,6.465982075519930e-13
	-5.282380976119374e-06,-9.196136451580306e-14
	-3.098572693593162e-05,-4.186562509589963e-13
	-2.936021520594121e-05,1.359805920771936e-13
	-6.907892706298213e-06,-6.465982075519932e-13
	-2.936021520594121e-05,1.359805920771936e-13
26		1.819700858609982e+00,0.000000000000000e+00
	-2.936021520594120e-01,1.391479869587801e-09
	1.000000000000000e+00,0.000000000000000e+00
	0.000000000000000e+00,0.000000000000000e+00
	9.904462395975740e-06,1.537098835893842e-13
	9.904464597991120e-06,1.796902362384671e-13
	2.936021520594122e-05,-1.391479869587801e-13
	6.907892706109773e-06,6.616594146092510e-13
	-5.282380976119374e-06,-9.410341986959729e-14
	-3.098572693593162e-05,-4.284080077808736e-13
	-2.936021520594121e-05,1.391479869587801e-13
	-6.907892706298213e-06,-6.616594146092511e-13
	-2.936021520594121e-05,1.391479869587801e-13
27		1.862087136662866e+00,0.000000000000000e+00
	-2.936021520594120e-01,1.423891599448934e-09
	1.000000000000000e+00,0.000000000000000e+00
	0.000000000000000e+00,0.000000000000000e+00
	9.904462395975740e-06,1.572902467213073e-13
	9.904464597991120e-06,1.838757595240967e-13
	2.936021520594122e-05,-1.423891599448935e-13
	6.907892706109773e-06,6.770714422462326e-13
	-5.282380976119374e-06,-9.629537010221238e-14
	-3.098572693593162e-05,-4.383869121991268e-13
	-2.936021520594121e-05,1.423891599448934e-13
	-6.907892706298213e-06,-6.770714422462325e-13
	-2.936021520594121e-05,1.423891599448934e-13
28		1.905460717963246e+00,0.000000000000000e+00
	-2.936021520594120e-01,1.457058295483529e-09
	1.000000000000000e+00,0.000000000000000e+00
	0.000000000000000e+00,0.000000000000000e+00
	9.904462395975740e-06,1.609540072240246e-13
	9.904464597991120e-06,1.881587761713092e-13
	2.936021520594122e-05,-1.457058295483529e-13
	6.907892706109773e-06,6.928424621239930e-13
	-5.282380976119374e-06,-9.853837741467557e-14
	-3.098572693593162e-05,-4.485982551609646e-13
	-2.936021520594121e-05,1.457058295483529e-13
	-6.907892706298213e-06,-6.928424621239930e-13
	-2.936021520594121e-05,1.457058295483529e-13
29		1.949844599758044e+00,0.000000000000000e+00
	-2.936021520594120e-01,1.490997543112835e-09
	1.000000000000000e+00,0.000000000000000e+00
	0.000000000000000e+00,0.000000000000000e+00
	9.904462395975740e-06,1.647031076718503e-13
	9.904464597991120e-06,1.925415570922237e-13
	2.936021520594122e-05,-1.490997543112836e-13
	6.907892706109773e-06,7.089808362460261e-13
	-5.282380976119374e-06,-1.008336310791537e-13
	-3.098572693593162e-05,-4.590474508555888e-13
	-2.936021520594121e-05,1.490997543112836e-13
	-6.907892706298213e-06,-7.089808362460260e-13
	-2.936021520594121e-05,1.490997543112836e-13
30		1.995262314968878e+00,0.000000000000000e+00
	-2.936021520594120e-01,1.525727337375186e-09
	1.000000000000000e+00,0.000000000000000e+00
	0.000000000000000e+00,0.000000000000000e+00
	9.904462395975740e-06,1.685395358874669e-13
	9.904464597991120e-06,1.970264260952972e-13
	2.936021520594122e-05,-1.525727337375186e-13
	6.907892706109773e-06,7.254951213919072e-13
	-5.282380976119374e-06,-1.031823480695208e-13
	-3.098572693593162e-05,-4.697400395848677e-13
	-2.936021520594121e-05,1.525727337375186e-13
	-6.907892706298213e-06,-7.254951213919073e-13
	-2.936021520594121e-05,1.525727337375186e-13
31		2.041737944669527e+00,0.000000000000000e+00
	-2.936021520594120e-01,1.561266092467201e-09
	1.000000000000000e+00,0.000000000000000e+00
	0.000000000000000e+00,0.000000000000000e+00
	9.904462395975740e-06,1.724653259958955e-13
	9.904464597991120e-06,2.016157611174395e-13
	2.936021520594122e-05,-1.561266092467202e-13
	6.907892706109773e-06,7.423940736542136e-13
	-5.282380976119374e-06,-1.055857737066142e-13
	-3.098572693593162e-05,-4.806816907008792e-13
	-2.936021520594121e-05,1.561266092467201e-13
	-6.907892706298213e-06,-7.423940736542136e-13
	-2.936021520594121e-05,1.561266092467201e-13
32		2.089296130854037e+00,0.000000000000000e+00
	-2.936021520594120e-01,1.597632651507243e-09
	1.000000000000000e+00,0.000000000000000e+00
	0.000000000000000e+00,0.000000000000000e+00
	9.904462395975740e-06,1.764825595030157e-13
