Title: * GA CMOS Amp | W=2.6899931358682662e-05 L=7.121127554491364e-07 Vbias=0.978931495781205
Date: Mon Sep  8 18:46:43 2025
Plotname: AC Analysis
Flags: complex forward log
No. Variables: 11
No. Points:          901
Offset:    0.0000000000000000e+00
Command: Linear Technology Corporation LTspice
Variables:
	0	frequency	frequency
	1	V(out)	voltage
	2	V(g)	voltage
	3	V(vdd)	voltage
	4	Id(M1)	device_current
	5	Ig(M1)	device_current
	6	Ib(M1)	device_current
	7	Is(M1)	device_current
	8	I(Rload)	device_current
	9	I(Vg)	device_current
	10	I(Vdd)	device_current
Values:
0		1.000000000000000e+00,0.000000000000000e+00
	-6.292556766572090e+00,6.219071211839048e-09
	1.000000000000000e+00,0.000000000000000e+00
	0.000000000000000e+00,0.000000000000000e+00
	6.292556766572091e-04,-6.219071211839049e-13
	6.030478978590354e-22,8.255233796907252e-13
	6.292561198668889e-12,3.339639262077101e-14
	-6.292556829497703e-04,-2.370126511275913e-13
	-6.292556766572090e-04,6.219071211839048e-13
	-6.030478978590354e-22,-8.255233796907252e-13
	-6.292556766572090e-04,6.219071211839048e-13
1		1.023292992280754e+00,0.000000000000000e+00
	-6.292556766572090e+00,6.363931989569873e-09
	1.000000000000000e+00,0.000000000000000e+00
	0.000000000000000e+00,0.000000000000000e+00
	6.292556766572091e-04,-6.363931989569876e-13
	6.314686696902787e-22,8.447522894014434e-13
	6.292561198668889e-12,3.417429453629141e-14
	-6.292556829497703e-04,-2.425333849807473e-13
	-6.292556766572090e-04,6.363931989569874e-13
	-6.314686696902787e-22,-8.447522894014434e-13
	-6.292556766572090e-04,6.363931989569874e-13
2		1.047128548050899e+00,0.000000000000000e+00
	-6.292556766572090e+00,6.512167008278170e-09
	1.000000000000000e+00,0.000000000000000e+00
	0.000000000000000e+00,0.000000000000000e+00
	6.292556766572091e-04,-6.512167008278168e-13
	6.612288712324147e-22,8.644290979576205e-13
	6.292561198668889e-12,3.497031611512540e-14
	-6.292556829497703e-04,-2.481827132449291e-13
	-6.292556766572090e-04,6.512167008278170e-13
	-6.612288712324147e-22,-8.644290979576205e-13
	-6.292556766572090e-04,6.512167008278170e-13
3		1.071519305237606e+00,0.000000000000000e+00
	-6.292556766572090e+00,6.663854864132973e-09
	1.000000000000000e+00,0.000000000000000e+00
	0.000000000000000e+00,0.000000000000000e+00
	6.292556766572091e-04,-6.663854864132975e-13
	6.923916278629334e-22,8.845642382636065e-13
	6.292561198668889e-12,3.578487941845074e-14
	-6.292556829497703e-04,-2.539636312687597e-13
	-6.292556766572090e-04,6.663854864132974e-13
	-6.923916278629334e-22,-8.845642382636065e-13
	-6.292556766572090e-04,6.663854864132974e-13
4		1.096478196143185e+00,0.000000000000000e+00
	-6.292556766572090e+00,6.819075984043290e-09
	1.000000000000000e+00,0.000000000000000e+00
	0.000000000000000e+00,0.000000000000000e+00
	6.292556766572091e-04,-6.819075984043287e-13
	7.250230399667121e-22,9.051683862373116e-13
	6.292561198668889e-12,3.661841633851244e-14
	-6.292556829497703e-04,-2.598792041714953e-13
	-6.292556766572090e-04,6.819075984043290e-13
	-7.250230399667121e-22,-9.051683862373116e-13
	-6.292556766572090e-04,6.819075984043290e-13
5		1.122018454301963e+00,0.000000000000000e+00
	-6.292556766572090e+00,6.977912668301485e-09
	1.000000000000000e+00,0.000000000000000e+00
	0.000000000000000e+00,0.000000000000000e+00
	6.292556766572091e-04,-6.977912668301487e-13
	7.591923231437927e-22,9.262524664707202e-13
	6.292561198668889e-12,3.747136882761889e-14
	-6.292556829497703e-04,-2.659325684681904e-13
	-6.292556766572090e-04,6.977912668301486e-13
	-7.591923231437927e-22,-9.262524664707202e-13
	-6.292556766572090e-04,6.977912668301486e-13
6		1.148153621496882e+00,0.000000000000000e+00
	-6.292556766572090e+00,7.140449134220008e-09
	1.000000000000000e+00,0.000000000000000e+00
	0.000000000000000e+00,0.000000000000000e+00
	6.292556766572091e-04,-7.140449134220007e-13
	7.949719550249488e-22,9.478276580222521e-13
	6.292561198668889e-12,3.834418913246963e-14
	-6.292556829497703e-04,-2.721269337327211e-13
	-6.292556766572090e-04,7.140449134220008e-13
	-7.949719550249488e-22,-9.478276580222521e-13
	-6.292556766572090e-04,7.140449134220008e-13
7		1.174897554939529e+00,0.000000000000000e+00
	-6.292556766572090e+00,7.306771560784512e-09
	1.000000000000000e+00,0.000000000000000e+00
	0.000000000000000e+00,0.000000000000000e+00
	6.292556766572091e-04,-7.306771560784511e-13
	8.324378290064597e-22,9.699054003440496e-13
	6.292561198668889e-12,3.923734003394423e-14
	-6.292556829497703e-04,-2.784655842995427e-13
	-6.292556766572090e-04,7.306771560784512e-13
	-8.324378290064597e-22,-9.699054003440496e-13
	-6.292556766572090e-04,7.306771560784512e-13
8		1.202264434617413e+00,0.000000000000000e+00
	-6.292556766572090e+00,7.476968134347099e-09
	1.000000000000000e+00,0.000000000000000e+00
	0.000000000000000e+00,0.000000000000000e+00
	6.292556766572091e-04,-7.476968134347100e-13
	8.716694152301770e-22,9.924973993473252e-13
	6.292561198668889e-12,4.015129509247236e-14
	-6.292556829497703e-04,-2.849518810050876e-13
	-6.292556766572090e-04,7.476968134347100e-13
	-8.716694152301770e-22,-9.924973993473252e-13
	-6.292556766572090e-04,7.476968134347100e-13
9		1.230268770812381e+00,0.000000000000000e+00
	-6.292556766572090e+00,7.651129095383890e-09
	1.000000000000000e+00,0.000000000000000e+00
	0.000000000000000e+00,0.000000000000000e+00
	6.292556766572091e-04,-7.651129095383890e-13
	9.127499291503519e-22,1.015615633608991e-12
	6.292561198668889e-12,4.108653889912340e-14
	-6.292556829497703e-04,-2.915892629697254e-13
	-6.292556766572090e-04,7.651129095383891e-13
	-9.127499291503519e-22,-1.015615633608991e-12
	-6.292556766572090e-04,7.651129095383891e-13
10		1.258925411794167e+00,0.000000000000000e+00
	-6.292556766572090e+00,7.829346786341721e-09
	1.000000000000000e+00,0.000000000000000e+00
	0.000000000000000e+00,0.000000000000000e+00
	6.292556766572091e-04,-7.829346786341723e-13
	9.557665080447696e-22,1.039272360722859e-12
	6.292561198668889e-12,4.204356733254376e-14
	-6.292556829497703e-04,-2.983812494212300e-13
	-6.292556766572090e-04,7.829346786341721e-13
	-9.557665080447696e-22,-1.039272360722859e-12
	-6.292556766572090e-04,7.829346786341721e-13
11		1.288249551693134e+00,0.000000000000000e+00
	-6.292556766572090e+00,8.011715700599327e-09
	1.000000000000000e+00,0.000000000000000e+00
	0.000000000000000e+00,0.000000000000000e+00
	6.292556766572091e-04,-8.011715700599327e-13
	1.000810395844598e-21,1.063480123798777e-12
	6.292561198668889e-12,4.302288782187595e-14
	-6.292556829497703e-04,-3.053314415607205e-13
	-6.292556766572090e-04,8.011715700599327e-13
	-1.000810395844598e-21,-1.063480123798777e-12
	-6.292556766572090e-04,8.011715700599327e-13
12		1.318256738556407e+00,0.000000000000000e+00
	-6.292556766572090e+00,8.198332532568984e-09
	1.000000000000000e+00,0.000000000000000e+00
	0.000000000000000e+00,0.000000000000000e+00
	6.292556766572091e-04,-8.198332532568985e-13
	1.047977136675000e-21,1.088251758113158e-12
	6.292561198668889e-12,4.402501961580690e-14
	-6.292556829497703e-04,-3.124435244720661e-13
	-6.292556766572090e-04,8.198332532568985e-13
	-1.047977136675000e-21,-1.088251758113158e-12
	-6.292556766572090e-04,8.198332532568985e-13
13		1.348962882591653e+00,0.000000000000000e+00
	-6.292556766572090e+00,8.389296228965168e-09
	1.000000000000000e+00,0.000000000000000e+00
	0.000000000000000e+00,0.000000000000000e+00
	6.292556766572091e-04,-8.389296228965169e-13
	1.097366777517032e-21,1.113600397914404e-12
	6.292561198668889e-12,4.505049405787787e-14
	-6.292556829497703e-04,-3.197212690757654e-13
	-6.292556766572090e-04,8.389296228965169e-13
	-1.097366777517032e-21,-1.113600397914404e-12
	-6.292556766572090e-04,8.389296228965169e-13
14		1.380384264602885e+00,0.000000000000000e+00
	-6.292556766572090e+00,8.584708041267414e-09
	1.000000000000000e+00,0.000000000000000e+00
	0.000000000000000e+00,0.000000000000000e+00
	6.292556766572091e-04,-8.584708041267416e-13
	1.149084080420704e-21,1.139539483386870e-12
	6.292561198668889e-12,4.609985486821205e-14
	-6.292556829497703e-04,-3.271685341283402e-13
	-6.292556766572090e-04,8.584708041267414e-13
	-1.149084080420704e-21,-1.139539483386870e-12
	-6.292556766572090e-04,8.584708041267414e-13
15		1.412537544622754e+00,0.000000000000000e+00
	-6.292556766572090e+00,8.784671579405185e-09
	1.000000000000000e+00,0.000000000000000e+00
	0.000000000000000e+00,0.000000000000000e+00
	6.292556766572091e-04,-8.784671579405184e-13
	1.203238744719335e-21,1.166082767777014e-12
	6.292561198668889e-12,4.717365843180133e-14
	-6.292556829497703e-04,-3.347892682682973e-13
	-6.292556766572090e-04,8.784671579405185e-13
	-1.203238744719335e-21,-1.166082767777014e-12
	-6.292556766572090e-04,8.784671579405185e-13
16		1.445439770745927e+00,0.000000000000000e+00
	-6.292556766572090e+00,8.989292866693228e-09
	1.000000000000000e+00,0.000000000000000e+00
	0.000000000000000e+00,0.000000000000000e+00
	6.292556766572091e-04,-8.989292866693228e-13
	1.259945639716544e-21,1.193244324685564e-12
	6.292561198668889e-12,4.827247409350827e-14
	-6.292556829497703e-04,-3.425875121097500e-13
	-6.292556766572090e-04,8.989292866693228e-13
	-1.259945639716544e-21,-1.193244324685565e-12
	-6.292556766572090e-04,8.989292866693228e-13
17		1.479108388168207e+00,0.000000000000000e+00
	-6.292556766572090e+00,9.198680396046551e-09
	1.000000000000000e+00,0.000000000000000e+00
	0.000000000000000e+00,0.000000000000000e+00
	6.292556766572091e-04,-9.198680396046551e-13
	1.319325048339446e-21,1.221038555529519e-12
	6.292561198668889e-12,4.939688445994120e-14
	-6.292556829497703e-04,-3.505674003848051e-13
	-6.292556766572090e-04,9.198680396046551e-13
	-1.319325048339446e-21,-1.221038555529519e-12
	-6.292556766572090e-04,9.198680396046551e-13
18		1.513561248436208e+00,0.000000000000000e+00
	-6.292556766572090e+00,9.412945187504787e-09
	1.000000000000000e+00,0.000000000000000e+00
	0.000000000000000e+00,0.000000000000000e+00
	6.292556766572091e-04,-9.412945187504789e-13
	1.381502922274867e-21,1.249480197177971e-12
	6.292561198668889e-12,5.054748570836000e-14
	-6.292556829497703e-04,-3.587331641358524e-13
	-6.292556766572090e-04,9.412945187504787e-13
	-1.381502922274867e-21,-1.249480197177971e-12
	-6.292556766572090e-04,9.412945187504787e-13
19		1.548816618912481e+00,0.000000000000000e+00
	-6.292556766572090e+00,9.632200847096499e-09
	1.000000000000000e+00,0.000000000000000e+00
	0.000000000000000e+00,0.000000000000000e+00
	6.292556766572091e-04,-9.632200847096498e-13
	1.446611149129756e-21,1.278584329765793e-12
	6.292561198668889e-12,5.172488790277627e-14
	-6.292556829497703e-04,-3.670891329589193e-13
	-6.292556766572090e-04,9.632200847096498e-13
	-1.446611149129756e-21,-1.278584329765793e-12
	-6.292556766572090e-04,9.632200847096498e-13
20		1.584893192461113e+00,0.000000000000000e+00
	-6.292556766572090e+00,9.856563627074591e-09
	1.000000000000000e+00,0.000000000000000e+00
	0.000000000000000e+00,0.000000000000000e+00
	6.292556766572091e-04,-9.856563627074587e-13
	1.514787832182485e-21,1.308366384689321e-12
	6.292561198668889e-12,5.292971531741826e-14
	-6.292556829497703e-04,-3.756397372992801e-13
	-6.292556766572090e-04,9.856563627074591e-13
	-1.514787832182485e-21,-1.308366384689321e-12
	-6.292556766572090e-04,9.856563627074591e-13
21		1.621810097358929e+00,0.000000000000000e+00
	-6.292556766572090e+00,1.008615248755480e-08
	1.000000000000000e+00,0.000000000000000e+00
	0.000000000000000e+00,0.000000000000000e+00
	6.292556766572091e-04,-1.008615248755480e-12
	1.586177583318414e-21,1.338842152788287e-12
	6.292561198668889e-12,5.416260676772937e-14
	-6.292556829497703e-04,-3.843895108005367e-13
	-6.292556766572090e-04,1.008615248755480e-12
	-1.586177583318414e-21,-1.338842152788287e-12
	-6.292556766572090e-04,1.008615248755480e-12
22		1.659586907437560e+00,0.000000000000000e+00
	-6.292556766572090e+00,1.032108915958992e-08
	1.000000000000000e+00,0.000000000000000e+00
	0.000000000000000e+00,0.000000000000000e+00
	6.292556766572091e-04,-1.032108915958992e-12
	1.660931829771097e-21,1.370027792718333e-12
	6.292561198668889e-12,5.542421594907556e-14
	-6.292556829497703e-04,-3.933430927084165e-13
	-6.292556766572090e-04,1.032108915958992e-12
	-1.660931829771097e-21,-1.370027792718333e-12
	-6.292556766572090e-04,1.032108915958992e-12
23		1.698243652461743e+00,0.000000000000000e+00
	-6.292556766572090e+00,1.056149820971323e-08
	1.000000000000000e+00,0.000000000000000e+00
	0.000000000000000e+00,0.000000000000000e+00
	6.292556766572091e-04,-1.056149820971323e-12
	1.739209135319732e-21,1.401939839518540e-12
	6.292561198668889e-12,5.671521178334438e-14
	-6.292556829497703e-04,-4.025052303305617e-13
	-6.292556766572090e-04,1.056149820971323e-12
	-1.739209135319732e-21,-1.401939839518540e-12
	-6.292556766572090e-04,1.056149820971323e-12
24		1.737800828749374e+00,0.000000000000000e+00
	-6.292556766572090e+00,1.080750710598527e-08
	1.000000000000000e+00,0.000000000000000e+00
	0.000000000000000e+00,0.000000000000000e+00
	6.292556766572091e-04,-1.080750710598527e-12
	1.821175536624211e-21,1.434595213378527e-12
	6.292561198668889e-12,5.803627877361521e-14
	-6.292556829497703e-04,-4.118807815536145e-13
	-6.292556766572090e-04,1.080750710598527e-12
	-1.821175536624211e-21,-1.434595213378527e-12
	-6.292556766572090e-04,1.080750710598527e-12
25		1.778279410038922e+00,0.000000000000000e+00
	-6.292556766572090e+00,1.105924628557919e-08
	1.000000000000000e+00,0.000000000000000e+00
	0.000000000000000e+00,0.000000000000000e+00
	6.292556766572091e-04,-1.105924628557918e-12
	1.907004895411128e-21,1.468011228609759e-12
	6.292561198668889e-12,5.938811736709269e-14
	-6.292556829497703e-04,-4.214747174189339e-13
	-6.292556766572090e-04,1.105924628557919e-12
	-1.907004895411128e-21,-1.468011228609760e-12
	-6.292556766572090e-04,1.105924628557919e-12
26		1.819700858609982e+00,0.000000000000000e+00
	-6.292556766572090e+00,1.131684922394014e-08
	1.000000000000000e+00,0.000000000000000e+00
	0.000000000000000e+00,0.000000000000000e+00
	6.292556766572091e-04,-1.131684922394014e-12
	1.996879267257811e-21,1.502205602825827e-12
	6.292561198668889e-12,6.077144432649296e-14
	-6.292556829497703e-04,-4.312921247583059e-13
	-6.292556766572090e-04,1.131684922394014e-12
	-1.996879267257811e-21,-1.502205602825827e-12
	-6.292556766572090e-04,1.131684922394014e-12
27		1.862087136662866e+00,0.000000000000000e+00
	-6.292556766572090e+00,1.158045250555583e-08
	1.000000000000000e+00,0.000000000000000e+00
	0.000000000000000e+00,0.000000000000000e+00
	6.292556766572091e-04,-1.158045250555583e-12
	2.090989287756616e-21,1.537196466336554e-12
	6.292561198668889e-12,6.218699311008011e-14
	-6.292556829497703e-04,-4.413382088910513e-13
	-6.292556766572090e-04,1.158045250555583e-12
	-2.090989287756616e-21,-1.537196466336554e-12
	-6.292556766572090e-04,1.158045250555583e-12
28		1.905460717963246e+00,0.000000000000000e+00
	-6.292556766572090e+00,1.185019589637538e-08
	1.000000000000000e+00,0.000000000000000e+00
	0.000000000000000e+00,0.000000000000000e+00
	6.292556766572091e-04,-1.185019589637538e-12
	2.189534576878570e-21,1.573002371760934e-12
	6.292561198668889e-12,6.363551426055655e-14
	-6.292556829497703e-04,-4.516182963839523e-13
	-6.292556766572090e-04,1.185019589637538e-12
	-2.189534576878570e-21,-1.573002371760934e-12
	-6.292556766572090e-04,1.185019589637538e-12
29		1.949844599758044e+00,0.000000000000000e+00
	-6.292556766572090e+00,1.212622241791508e-08
	1.000000000000000e+00,0.000000000000000e+00
	0.000000000000000e+00,0.000000000000000e+00
	6.292556766572091e-04,-1.212622241791508e-12
	2.292724162394098e-21,1.609642303863970e-12
	6.292561198668889e-12,6.511777580300957e-14
	-6.292556829497703e-04,-4.621378378754712e-13
	-6.292556766572090e-04,1.212622241791508e-12
	-2.292724162394098e-21,-1.609642303863970e-12
	-6.292556766572090e-04,1.212622241791508e-12
30		1.995262314968878e+00,0.000000000000000e+00
	-6.292556766572090e+00,1.240867842309028e-08
	1.000000000000000e+00,0.000000000000000e+00
	0.000000000000000e+00,0.000000000000000e+00
	6.292556766572091e-04,-1.240867842309029e-12
	2.400776923248946e-21,1.647135689622648e-12
	6.292561198668889e-12,6.663456365212941e-14
	-6.292556829497703e-04,-4.729024109657489e-13
	-6.292556766572090e-04,1.240867842309028e-12
	-2.400776923248946e-21,-1.647135689622648e-12
	-6.292556766572090e-04,1.240867842309028e-12
31		2.041737944669527e+00,0.000000000000000e+00
	-6.292556766572090e+00,1.269771367381368e-08
	1.000000000000000e+00,0.000000000000000e+00
	0.000000000000000e+00,0.000000000000000e+00
	6.292556766572091e-04,-1.269771367381368e-12
	2.513922053835774e-21,1.685502408526383e-12
	6.292561198668889e-12,6.818668202890933e-14
	-6.292556829497703e-04,-4.839177231739240e-13
	-6.292556766572090e-04,1.269771367381368e-12
	-2.513922053835774e-21,-1.685502408526383e-12
	-6.292556766572090e-04,1.269771367381368e-12
32		2.089296130854037e+00,0.000000000000000e+00
	-6.292556766572090e+00,1.299348142040105e-08
	1.000000000000000e+00,0.000000000000000e+00
	0.000000000000000e+00,0.000000000000000e+00
	6.292556766572091e-04,-1.299348142040105e-12
	2.632399550146189e-21,1.724762803117381e-12
	6.292561198668889e-12,6.977495388705887e-14
	-6.292556829497703e-04,-4.951896149643342e-13
	-6.292556766572090e-04,1.299348142040105e-12
	-2.632399550146189e-21,-1.724762803117381e-12
	-6.292556766572090e-04,1.299348142040105e-12
33		2.137962089502230e+00,0.000000000000000e+00
	-6.292556766572090e+00,1.329613848282658e-08
	1.000000000000000e+00,0.000000000000000e+00
	0.000000000000000e+00,0.000000000000000e+00
	6.292556766572091e-04,-1.329613848282658e-12
	2.756460718834420e-21,1.764937689776526e-12
	6.292561198668889e-12,7.140022134934016e-14
	-6.292556829497703e-04,-5.067240628432081e-13
	-6.292556766572090e-04,1.329613848282658e-12
	-2.756460718834420e-21,-1.764937689776526e-12
	-6.292556766572090e-04,1.329613848282658e-12
34		2.187761623949550e+00,0.000000000000000e+00
	-6.292556766572090e+00,1.360584533387089e-08
	1.000000000000000e+00,0.000000000000000e+00
	0.000000000000000e+00,0.000000000000000e+00
	6.292556766572091e-04,-1.360584533387089e-12
	2.886368710272425e-21,1.806048369760502e-12
	6.292561198668889e-12,7.306334615407464e-14
	-6.292556829497703e-04,-5.185271825274874e-13
	-6.292556766572090e-04,1.360584533387089e-12
	-2.886368710272425e-21,-1.806048369760502e-12
	-6.292556766572090e-04,1.360584533387089e-12
35		2.238721138568337e+00,0.000000000000000e+00
	-6.292556766572090e+00,1.392276618420588e-08
	1.000000000000000e+00,0.000000000000000e+00
	0.000000000000000e+00,0.000000000000000e+00
	6.292556766572091e-04,-1.392276618420589e-12
	3.022399076727111e-21,1.848116640496002e-12
	6.292561198668889e-12,7.476521011204767e-14
	-6.292556829497703e-04,-5.306052321874612e-13
	-6.292556766572090e-04,1.392276618420588e-12
	-3.022399076727111e-21,-1.848116640496002e-12
	-6.292556766572090e-04,1.392276618420588e-12
36		2.290867652767770e+00,0.000000000000000e+00
	-6.292556766572090e+00,1.424706906946134e-08
	1.000000000000000e+00,0.000000000000000e+00
	0.000000000000000e+00,0.000000000000000e+00
	6.292556766572091e-04,-1.424706906946133e-12
	3.164840356843640e-21,1.891164807137009e-12
	6.292561198668889e-12,7.650671557405657e-14
	-6.292556829497703e-04,-5.429646157649317e-13
	-6.292556766572090e-04,1.424706906946134e-12
	-3.164840356843640e-21,-1.891164807137009e-12
	-6.292556766572090e-04,1.424706906946134e-12
37		2.344228815319919e+00,0.000000000000000e+00
	-6.292556766572090e+00,1.457892593931967e-08
	1.000000000000000e+00,0.000000000000000e+00
	0.000000000000000e+00,0.000000000000000e+00
	6.292556766572091e-04,-1.457892593931966e-12
	3.313994687674570e-21,1.935215694391285e-12
	6.292561198668889e-12,7.828878590934841e-14
	-6.292556829497703e-04,-5.556118863686666e-13
	-6.292556766572090e-04,1.457892593931967e-12
	-3.313994687674570e-21,-1.935215694391285e-12
	-6.292556766572090e-04,1.457892593931967e-12
38		2.398832919019488e+00,0.000000000000000e+00
	-6.292556766572090e+00,1.491851274868593e-08
	1.000000000000000e+00,0.000000000000000e+00
	0.000000000000000e+00,0.000000000000000e+00
