Title: * GA CMOS Amp | W=4.4117288346470715e-05 L=7.2112654364604e-07 Vbias=1.0693075507205443
Date: Mon Sep  8 18:43:47 2025
Plotname: AC Analysis
Flags: complex forward log
No. Variables: 11
No. Points:          901
Offset:    0.0000000000000000e+00
Command: Linear Technology Corporation LTspice
Variables:
	0	frequency	frequency
	1	V(out)	voltage
	2	V(g)	voltage
	3	V(vdd)	voltage
	4	Id(M1)	device_current
	5	Ig(M1)	device_current
	6	Ib(M1)	device_current
	7	Is(M1)	device_current
	8	I(Rload)	device_current
	9	I(Vg)	device_current
	10	I(Vdd)	device_current
Values:
0		1.000000000000000e+00,0.000000000000000e+00
	-2.165442911256240e-01,9.492151510820821e-11
	1.000000000000000e+00,0.000000000000000e+00
	0.000000000000000e+00,0.000000000000000e+00
	2.165442911256240e-05,-9.492151510820824e-15
	1.686716461444843e-23,3.990322467239928e-13
	2.246685910228807e-13,1.924426764987277e-15
	-2.165442933723099e-05,-3.914645219781593e-13
	-2.165442911256240e-05,9.492151510820821e-15
	-1.686716461444843e-23,-3.990322467239928e-13
	-2.165442911256240e-05,9.492151510820821e-15
1		1.023292992280754e+00,0.000000000000000e+00
	-2.165442911256240e-01,9.713252122690118e-11
	1.000000000000000e+00,0.000000000000000e+00
	0.000000000000000e+00,0.000000000000000e+00
	2.165442911256240e-05,-9.713252122690122e-15
	1.766208959246289e-23,4.083269017667068e-13
	2.246685910228807e-13,1.969252422768910e-15
	-2.165442933723099e-05,-4.005829020667856e-13
	-2.165442911256240e-05,9.713252122690118e-15
	-1.766208959246289e-23,-4.083269017667067e-13
	-2.165442911256240e-05,9.713252122690118e-15
2		1.047128548050899e+00,0.000000000000000e+00
	-2.165442911256240e-01,9.939502829404956e-11
	1.000000000000000e+00,0.000000000000000e+00
	0.000000000000000e+00,0.000000000000000e+00
	2.165442911256240e-05,-9.939502829404930e-15
	1.849447823050057e-23,4.178380571375829e-13
	2.246685910228807e-13,2.015122204251293e-15
	-2.165442933723099e-05,-4.099136765124293e-13
	-2.165442911256240e-05,9.939502829404957e-15
	-1.849447823050057e-23,-4.178380571375828e-13
	-2.165442911256240e-05,9.939502829404957e-15
3		1.071519305237606e+00,0.000000000000000e+00
	-2.165442911256240e-01,1.017102359208482e-10
	1.000000000000000e+00,0.000000000000000e+00
	0.000000000000000e+00,0.000000000000000e+00
	2.165442911256240e-05,-1.017102359208476e-14
	1.936609613646303e-23,4.275707557770939e-13
	2.246685910228807e-13,2.062060430199704e-15
	-2.165442933723099e-05,-4.194617926152089e-13
	-2.165442911256240e-05,1.017102359208482e-14
	-1.936609613646303e-23,-4.275707557770938e-13
	-2.165442911256240e-05,1.017102359208482e-14
4		1.096478196143185e+00,0.000000000000000e+00
	-2.165442911256240e-01,1.040793716610262e-10
	1.000000000000000e+00,0.000000000000000e+00
	0.000000000000000e+00,0.000000000000000e+00
	2.165442911256240e-05,-1.040793716610259e-14
	2.027879212878866e-23,4.375301580908859e-13
	2.246685910228807e-13,2.110091987882780e-15
	-2.165442933723099e-05,-4.292323129126661e-13
	-2.165442911256240e-05,1.040793716610262e-14
	-2.027879212878866e-23,-4.375301580908858e-13
	-2.165442911256240e-05,1.040793716610262e-14
5		1.122018454301963e+00,0.000000000000000e+00
	-2.165442911256240e-01,1.065036916617122e-10
	1.000000000000000e+00,0.000000000000000e+00
	0.000000000000000e+00,0.000000000000000e+00
	2.165442911256240e-05,-1.065036916617118e-14
	2.123450215804448e-23,4.477215446858941e-13
	2.246685910228807e-13,2.159242344268225e-15
	-2.165442933723099e-05,-4.392304178639911e-13
	-2.165442911256240e-05,1.065036916617122e-14
	-2.123450215804448e-23,-4.477215446858940e-13
	-2.165442911256240e-05,1.065036916617122e-14
6		1.148153621496882e+00,0.000000000000000e+00
	-2.165442911256240e-01,1.089844813294603e-10
	1.000000000000000e+00,0.000000000000000e+00
	0.000000000000000e+00,0.000000000000000e+00
	2.165442911256240e-05,-1.089844813294602e-14
	2.223525341333681e-23,4.581503191701899e-13
	2.246685910228807e-13,2.209537559525635e-15
	-2.165442933723099e-05,-4.494614085967695e-13
	-2.165442911256240e-05,1.089844813294603e-14
	-2.223525341333681e-23,-4.581503191701898e-13
	-2.165442911256240e-05,1.089844813294603e-14
7		1.174897554939529e+00,0.000000000000000e+00
	-2.165442911256240e-01,1.115230560117894e-10
	1.000000000000000e+00,0.000000000000000e+00
	0.000000000000000e+00,0.000000000000000e+00
	2.165442911256240e-05,-1.115230560117892e-14
	2.328316862225118e-23,4.688220110180461e-13
	2.246685910228807e-13,2.261004300843709e-15
	-2.165442933723099e-05,-4.599307097177109e-13
	-2.165442911256240e-05,1.115230560117894e-14
	-2.328316862225118e-23,-4.688220110180460e-13
	-2.165442911256240e-05,1.115230560117894e-14
8		1.202264434617413e+00,0.000000000000000e+00
	-2.165442911256240e-01,1.141207616945981e-10
	1.000000000000000e+00,0.000000000000000e+00
	0.000000000000000e+00,0.000000000000000e+00
	2.165442911256240e-05,-1.141207616945980e-14
	2.438047055344214e-23,4.797422785017372e-13
	2.246685910228807e-13,2.313669856569916e-15
	-2.165442933723099e-05,-4.706438721888473e-13
	-2.165442911256240e-05,1.141207616945981e-14
	-2.438047055344214e-23,-4.797422785017371e-13
	-2.165442911256240e-05,1.141207616945981e-14
9		1.230268770812381e+00,0.000000000000000e+00
	-2.165442911256240e-01,1.167789757158242e-10
	1.000000000000000e+00,0.000000000000000e+00
	0.000000000000000e+00,0.000000000000000e+00
	2.165442911256240e-05,-1.167789757158241e-14
	2.552948673142358e-23,4.909169116916295e-13
	2.246685910228807e-13,2.367562150679290e-15
	-2.165442933723099e-05,-4.816065762707264e-13
	-2.165442911256240e-05,1.167789757158242e-14
	-2.552948673142358e-23,-4.909169116916294e-13
	-2.165442911256240e-05,1.167789757158242e-14
10		1.258925411794167e+00,0.000000000000000e+00
	-2.165442911256240e-01,1.194991074957273e-10
	1.000000000000000e+00,0.000000000000000e+00
	0.000000000000000e+00,0.000000000000000e+00
	2.165442911256240e-05,-1.194991074957270e-14
	2.673265437356028e-23,5.023518355261543e-13
	2.246685910228807e-13,2.422709757579215e-15
	-2.165442933723099e-05,-4.928246345341608e-13
	-2.165442911256240e-05,1.194991074957273e-14
	-2.673265437356028e-23,-5.023518355261542e-13
	-2.165442911256240e-05,1.194991074957273e-14
11		1.288249551693134e+00,0.000000000000000e+00
	-2.165442911256240e-01,1.222825992841823e-10
	1.000000000000000e+00,0.000000000000000e+00
	0.000000000000000e+00,0.000000000000000e+00
	2.165442911256240e-05,-1.222825992841821e-14
	2.799252555973271e-23,5.140531129532877e-13
	2.246685910228807e-13,2.479141917261109e-15
	-2.165442933723099e-05,-5.043039949421306e-13
	-2.165442911256240e-05,1.222825992841823e-14
	-2.799252555973271e-23,-5.140531129532876e-13
	-2.165442911256240e-05,1.222825992841823e-14
12		1.318256738556407e+00,0.000000000000000e+00
	-2.165442911256240e-01,1.251309269253792e-10
	1.000000000000000e+00,0.000000000000000e+00
	0.000000000000000e+00,0.000000000000000e+00
	2.165442911256240e-05,-1.251309269253792e-14
	2.931177264564061e-23,5.260269481452063e-13
	2.246685910228807e-13,2.536888550802639e-15
	-2.165442933723099e-05,-5.160507440034710e-13
	-2.165442911256240e-05,1.251309269253793e-14
	-2.931177264564061e-23,-5.260269481452062e-13
	-2.165442911256240e-05,1.251309269253793e-14
13		1.348962882591653e+00,0.000000000000000e+00
	-2.165442911256240e-01,1.280456006403357e-10
	1.000000000000000e+00,0.000000000000000e+00
	0.000000000000000e+00,0.000000000000000e+00
	2.165442911256240e-05,-1.280456006403364e-14
	3.069319393122772e-23,5.382796897878213e-13
	2.246685910228807e-13,2.595980276233695e-15
	-2.165442933723099e-05,-5.280711100000213e-13
	-2.165442911256240e-05,1.280456006403357e-14
	-3.069319393122772e-23,-5.382796897878212e-13
	-2.165442911256240e-05,1.280456006403357e-14
14		1.380384264602885e+00,0.000000000000000e+00
	-2.165442911256240e-01,1.310281658276356e-10
	1.000000000000000e+00,0.000000000000000e+00
	0.000000000000000e+00,0.000000000000000e+00
	2.165442911256240e-05,-1.310281658276355e-14
	3.213971959625117e-23,5.508178344469358e-13
	2.246685910228807e-13,2.656448424768851e-15
	-2.165442933723099e-05,-5.403714662889411e-13
	-2.165442911256240e-05,1.310281658276356e-14
	-3.213971959625117e-23,-5.508178344469357e-13
	-2.165442911256240e-05,1.310281658276356e-14
15		1.412537544622754e+00,0.000000000000000e+00
	-2.165442911256240e-01,1.340802038828201e-10
	1.000000000000000e+00,0.000000000000000e+00
	0.000000000000000e+00,0.000000000000000e+00
	2.165442911256240e-05,-1.340802038828200e-14
	3.365441791558553e-23,5.636480300128098e-13
	2.246685910228807e-13,2.718325057421455e-15
	-2.165442933723099e-05,-5.529583346819493e-13
	-2.165442911256240e-05,1.340802038828201e-14
	-3.365441791558553e-23,-5.636480300128097e-13
	-2.165442911256240e-05,1.340802038828201e-14
16		1.445439770745927e+00,0.000000000000000e+00
	-2.165442911256240e-01,1.372033330368645e-10
	1.000000000000000e+00,0.000000000000000e+00
	0.000000000000000e+00,0.000000000000000e+00
	2.165442911256240e-05,-1.372033330368646e-14
	3.524050176744524e-23,5.767770792249604e-13
	2.246685910228807e-13,2.781642982000418e-15
	-2.165442933723099e-05,-5.658383889032744e-13
	-2.165442911256240e-05,1.372033330368645e-14
	-3.524050176744524e-23,-5.767770792249603e-13
	-2.165442911256240e-05,1.372033330368645e-14
17		1.479108388168207e+00,0.000000000000000e+00
	-2.165442911256240e-01,1.403992092141859e-10
	1.000000000000000e+00,0.000000000000000e+00
	0.000000000000000e+00,0.000000000000000e+00
	2.165442911256240e-05,-1.403992092141859e-14
	3.690133544833009e-23,5.902119432790633e-13
	2.246685910228807e-13,2.846435770507961e-15
	-2.165442933723099e-05,-5.790184581281527e-13
	-2.165442911256240e-05,1.403992092141859e-14
	-3.690133544833009e-23,-5.902119432790631e-13
	-2.165442911256240e-05,1.403992092141859e-14
18		1.513561248436208e+00,0.000000000000000e+00
	-2.165442911256240e-01,1.436695269106360e-10
	1.000000000000000e+00,0.000000000000000e+00
	0.000000000000000e+00,0.000000000000000e+00
	2.165442911256240e-05,-1.436695269106352e-14
	3.864044180914908e-23,6.039597455178715e-13
	2.246685910228807e-13,2.912737776937888e-15
	-2.165442933723099e-05,-5.925055306037459e-13
	-2.165442911256240e-05,1.436695269106360e-14
	-3.864044180914908e-23,-6.039597455178713e-13
	-2.165442911256240e-05,1.436695269106360e-14
19		1.548816618912481e+00,0.000000000000000e+00
	-2.165442911256240e-01,1.470160200919450e-10
	1.000000000000000e+00,0.000000000000000e+00
	0.000000000000000e+00,0.000000000000000e+00
	2.165442911256240e-05,-1.470160200919449e-14
	4.046150972765954e-23,6.180277752081055e-13
	2.246685910228807e-13,2.980584155492082e-15
	-2.165442933723099e-05,-6.063067573544031e-13
	-2.165442911256240e-05,1.470160200919450e-14
	-4.046150972765954e-23,-6.180277752081053e-13
	-2.165442911256240e-05,1.470160200919450e-14
20		1.584893192461113e+00,0.000000000000000e+00
	-2.165442911256240e-01,1.504404631130939e-10
	1.000000000000000e+00,0.000000000000000e+00
	0.000000000000000e+00,0.000000000000000e+00
	2.165442911256240e-05,-1.504404631130935e-14
	4.236840193307149e-23,6.324234914053194e-13
	2.246685910228807e-13,3.050010879218228e-15
	-2.165442933723099e-05,-6.204294559732283e-13
	-2.165442911256240e-05,1.504404631130939e-14
	-4.236840193307149e-23,-6.324234914053193e-13
	-2.165442911256240e-05,1.504404631130939e-14
21		1.621810097358929e+00,0.000000000000000e+00
	-2.165442911256240e-01,1.539446716591002e-10
	1.000000000000000e+00,0.000000000000000e+00
	0.000000000000000e+00,0.000000000000000e+00
	2.165442911256240e-05,-1.539446716590995e-14
	4.436516319941407e-23,6.471545269087911e-13
	2.246685910228807e-13,3.121054759084034e-15
	-2.165442933723099e-05,-6.348811145019651e-13
	-2.165442911256240e-05,1.539446716591002e-14
	-4.436516319941407e-23,-6.471545269087910e-13
	-2.165442911256240e-05,1.539446716591002e-14
22		1.659586907437560e+00,0.000000000000000e+00
	-2.165442911256240e-01,1.575305037077189e-10
	1.000000000000000e+00,0.000000000000000e+00
	0.000000000000000e+00,0.000000000000000e+00
	2.165442911256240e-05,-1.575305037077185e-14
	4.645602892504365e-23,6.622286923085327e-13
	2.246685910228807e-13,3.193753463495146e-15
	-2.165442933723099e-05,-6.496693954012560e-13
	-2.165442911256240e-05,1.575305037077189e-14
	-4.645602892504365e-23,-6.622286923085326e-13
	-2.165442911256240e-05,1.575305037077189e-14
23		1.698243652461743e+00,0.000000000000000e+00
	-2.165442911256240e-01,1.611998605145661e-10
	1.000000000000000e+00,0.000000000000000e+00
	0.000000000000000e+00,0.000000000000000e+00
	2.165442911256240e-05,-1.611998605145658e-14
	4.864543411649155e-23,6.776539801265692e-13
	2.246685910228807e-13,3.268145538267079e-15
	-2.165442933723099e-05,-6.648021396133797e-13
	-2.165442911256240e-05,1.611998605145661e-14
	-4.864543411649155e-23,-6.776539801265691e-13
	-2.165442911256240e-05,1.611998605145661e-14
24		1.737800828749374e+00,0.000000000000000e+00
	-2.165442911256240e-01,1.649546876211905e-10
	1.000000000000000e+00,0.000000000000000e+00
	0.000000000000000e+00,0.000000000000000e+00
	2.165442911256240e-05,-1.649546876211901e-14
	5.093802279570748e-23,6.934385690546795e-13
	2.246685910228807e-13,3.344270427062349e-15
	-2.165442933723099e-05,-6.802873707196229e-13
	-2.165442911256240e-05,1.649546876211905e-14
	-5.093802279570748e-23,-6.934385690546794e-13
	-2.165442911256240e-05,1.649546876211905e-14
25		1.778279410038922e+00,0.000000000000000e+00
	-2.165442911256240e-01,1.687969758866251e-10
	1.000000000000000e+00,0.000000000000000e+00
	0.000000000000000e+00,0.000000000000000e+00
	2.165442911256240e-05,-1.687969758866249e-14
	5.333865785065279e-23,7.095908282908475e-13
	2.246685910228807e-13,3.422168492304552e-15
	-2.165442933723099e-05,-6.961332991944895e-13
	-2.165442911256240e-05,1.687969758866251e-14
	-5.333865785065279e-23,-7.095908282908473e-13
	-2.165442911256240e-05,1.687969758866251e-14
26		1.819700858609982e+00,0.000000000000000e+00
	-2.165442911256240e-01,1.727287625429669e-10
	1.000000000000000e+00,0.000000000000000e+00
	0.000000000000000e+00,0.000000000000000e+00
	2.165442911256240e-05,-1.727287625429664e-14
	5.585243135013776e-23,7.261193219767200e-13
	2.246685910228807e-13,3.501881036579234e-15
	-2.165442933723099e-05,-7.123483267590026e-13
	-2.165442911256240e-05,1.727287625429669e-14
	-5.585243135013776e-23,-7.261193219767198e-13
	-2.165442911256240e-05,1.727287625429669e-14
27		1.862087136662866e+00,0.000000000000000e+00
	-2.165442911256240e-01,1.767521322755444e-10
	1.000000000000000e+00,0.000000000000000e+00
	0.000000000000000e+00,0.000000000000000e+00
	2.165442911256240e-05,-1.767521322755442e-14
	5.848467534478229e-23,7.430328137384302e-13
	2.246685910228807e-13,3.583450324532472e-15
	-2.165442933723099e-05,-7.289410508354082e-13
	-2.165442911256240e-05,1.767521322755444e-14
	-5.848467534478229e-23,-7.430328137384300e-13
	-2.165442911256240e-05,1.767521322755444e-14
28		1.905460717963246e+00,0.000000000000000e+00
	-2.165442911256240e-01,1.808692183282455e-10
	1.000000000000000e+00,0.000000000000000e+00
	0.000000000000000e+00,0.000000000000000e+00
	2.165442911256240e-05,-1.808692183282451e-14
	6.124097317701011e-23,7.603402713331864e-13
	2.246685910228807e-13,3.666919605280178e-15
	-2.165442933723099e-05,-7.459202691056421e-13
	-2.165442911256240e-05,1.808692183282455e-14
	-6.124097317701011e-23,-7.603402713331862e-13
	-2.165442911256240e-05,1.808692183282455e-14
29		1.949844599758044e+00,0.000000000000000e+00
	-2.165442911256240e-01,1.850822036345913e-10
	1.000000000000000e+00,0.000000000000000e+00
	0.000000000000000e+00,0.000000000000000e+00
	2.165442911256240e-05,-1.850822036345907e-14
	6.412717132406669e-23,7.780508714040968e-13
	2.246685910228807e-13,3.752333135340094e-15
	-2.165442933723099e-05,-7.632949841759779e-13
	-2.165442911256240e-05,1.850822036345914e-14
	-6.412717132406669e-23,-7.780508714040967e-13
	-2.165442911256240e-05,1.850822036345914e-14
30		1.995262314968878e+00,0.000000000000000e+00
	-2.165442911256240e-01,1.893933219751568e-10
	1.000000000000000e+00,0.000000000000000e+00
	0.000000000000000e+00,0.000000000000000e+00
	2.165442911256240e-05,-1.893933219751564e-14
	6.714939179918122e-23,7.961740043457464e-13
	2.246685910228807e-13,3.839736202096429e-15
	-2.165442933723099e-05,-7.810744083503272e-13
	-2.165442911256240e-05,1.893933219751568e-14
	-6.714939179918122e-23,-7.961740043457463e-13
	-2.165442911256240e-05,1.893933219751568e-14
31		2.041737944669527e+00,0.000000000000000e+00
	-2.165442911256240e-01,1.938048591619505e-10
	1.000000000000000e+00,0.000000000000000e+00
	0.000000000000000e+00,0.000000000000000e+00
	2.165442911256240e-05,-1.938048591619494e-14
	7.031404513717761e-23,8.147192792831089e-13
	2.246685910228807e-13,3.929175147812079e-15
	-2.165442933723099e-05,-7.992679685147260e-13
	-2.165442911256240e-05,1.938048591619505e-14
	-7.031404513717761e-23,-8.147192792831088e-13
	-2.165442911256240e-05,1.938048591619505e-14
32		2.089296130854037e+00,0.000000000000000e+00
	-2.165442911256240e-01,1.983191542503825e-10
	1.000000000000000e+00,0.000000000000000e+00
	0.000000000000000e+00,0.000000000000000e+00
	2.165442911256240e-05,-1.983191542503830e-14
	7.362784399207820e-23,8.336965291664320e-13
	2.246685910228807e-13,4.020697394199738e-15
	-2.165442933723099e-05,-8.178853111355934e-13
	-2.165442911256240e-05,1.983191542503825e-14
	-7.362784399207820e-23,-8.336965291664319e-13
	-2.165442911256240e-05,1.983191542503825e-14
33		2.137962089502230e+00,0.000000000000000e+00
	-2.165442911256240e-01,2.029386007794623e-10
	1.000000000000000e+00,0.000000000000000e+00
	0.000000000000000e+00,0.000000000000000e+00
	2.165442911256240e-05,-2.029386007794622e-14
	7.709781737554299e-23,8.531158159847971e-13
	2.246685910228807e-13,4.114351467566088e-15
	-2.165442933723099e-05,-8.369363073744170e-13
	-2.165442911256240e-05,2.029386007794623e-14
	-7.709781737554299e-23,-8.531158159847970e-13
	-2.165442911256240e-05,2.029386007794623e-14
34		2.187761623949550e+00,0.000000000000000e+00
	-2.165442911256240e-01,2.076656480408854e-10
	1.000000000000000e+00,0.000000000000000e+00
	0.000000000000000e+00,0.000000000000000e+00
	2.165442911256240e-05,-2.076656480408843e-14
	8.073132556634572e-23,8.729874361011202e-13
	2.246685910228807e-13,4.210187024540326e-15
	-2.165442933723099e-05,-8.564310583215721e-13
	-2.165442911256240e-05,2.076656480408854e-14
	-8.073132556634572e-23,-8.729874361011201e-13
	-2.165442911256240e-05,2.076656480408854e-14
35		2.238721138568337e+00,0.000000000000000e+00
	-2.165442911256240e-01,2.125028023776795e-10
	1.000000000000000e+00,0.000000000000000e+00
	0.000000000000000e+00,0.000000000000000e+00
	2.165442911256240e-05,-2.125028023776791e-14
	8.453607572251207e-23,8.933219257114190e-13
	2.246685910228807e-13,4.308254878403593e-15
	-2.165442933723099e-05,-8.763799003520547e-13
	-2.165442911256240e-05,2.125028023776795e-14
	-8.453607572251207e-23,-8.933219257114188e-13
	-2.165442911256240e-05,2.125028023776795e-14
36		2.290867652767770e+00,0.000000000000000e+00
	-2.165442911256240e-01,2.174526285131014e-10
	1.000000000000000e+00,0.000000000000000e+00
	0.000000000000000e+00,0.000000000000000e+00
	2.165442911256240e-05,-2.174526285131010e-14
	8.852013822923495e-23,9.141300664312434e-13
	2.246685910228807e-13,4.408607026029692e-15
	-2.165442933723099e-05,-8.967934106059630e-13
	-2.165442911256240e-05,2.174526285131014e-14
	-8.852013822923495e-23,-9.141300664312432e-13
	-2.165442911256240e-05,2.174526285131014e-14
37		2.344228815319919e+00,0.000000000000000e+00
	-2.165442911256240e-01,2.225177509104868e-10
	1.000000000000000e+00,0.000000000000000e+00
	0.000000000000000e+00,0.000000000000000e+00
	2.165442911256240e-05,-2.225177509104868e-14
	9.269196381724371e-23,9.354228910122316e-13
	2.246685910228807e-13,4.511296675455995e-15
	-2.165442933723099e-05,-9.176824125966389e-13
	-2.165442911256240e-05,2.225177509104868e-14
	-9.269196381724371e-23,-9.354228910122314e-13
	-2.165442911256240e-05,2.225177509104868e-14
38		2.398832919019488e+00,0.000000000000000e+00
	-2.165442911256240e-01,2.277008551647755e-10
	1.000000000000000e+00,0.000000000000000e+00
	0.000000000000000e+00,0.000000000000000e+00
