LTspice 24.0.9 for Windows
Circuit: * GA CMOS Amp | W=1.3815496238362734e-05 L=8.615903853294979e-07 Vbias=0.5
Start Time: Mon Sep  8 18:46:35 2025
solver = Normal
Maximum thread count: 2
tnom = 27
temp = 27
method = modified trap
AsciiRawFile = 1
Instance "m1": Length shorter than recommended for a level 3 MOSFET.
Direct Newton iteration for .op point succeeded.
Semiconductor Device Operating Points:
                        --- MOSFET Transistors ---
Name:          m1
Model:        n_1u
Id:          1.63e-08
Vgs:         5.00e-01
Vds:         1.80e+00
Vbs:         0.00e+00
Vth:         8.05e-01
Vdsat:       4.82e-02
Gm:          2.99e-07
Gds:         1.20e-09
Gmb:         7.78e-08
Cbd:         0.00e+00
Cbs:         0.00e+00
Cgsov:       2.76e-15
Cgdov:       2.76e-15
Cgbov:       6.62e-17
Cgs:         1.36e-15
Cgd:         0.00e+00
Cgb:         6.87e-15



gain_db: MAX(db(v(out)/v(g)))=(35.1781dB,151.615°) FROM 1 TO 1e+09
gain_lin: MAX(mag(v(out)/v(g)))=(-15.3363dB,0°) FROM 1 TO 1e+09

Measurement "fc" FAIL'ed

Total elapsed time: 0.552 seconds.

