Title: * GA CMOS Amp | W=3.439333340803354e-06 L=9.310087029357686e-07 Vbias=1.005267972892141
Date: Mon Sep  8 18:45:51 2025
Plotname: AC Analysis
Flags: complex forward log
No. Variables: 11
No. Points:          901
Offset:    0.0000000000000000e+00
Command: Linear Technology Corporation LTspice
Variables:
	0	frequency	frequency
	1	V(out)	voltage
	2	V(g)	voltage
	3	V(vdd)	voltage
	4	Id(M1)	device_current
	5	Ig(M1)	device_current
	6	Ib(M1)	device_current
	7	Is(M1)	device_current
	8	I(Rload)	device_current
	9	I(Vg)	device_current
	10	I(Vdd)	device_current
Values:
0		1.000000000000000e+00,0.000000000000000e+00
	-8.243452678764627e-01,7.782144822891782e-11
	1.000000000000000e+00,0.000000000000000e+00
	0.000000000000000e+00,0.000000000000000e+00
	8.243452678764629e-05,-7.782144822891782e-15
	3.363438122921222e-25,3.156361024826089e-14
	8.243452578535204e-13,-1.173616991458932e-15
	-8.243452761199155e-05,-2.260784843391018e-14
	-8.243452678764628e-05,7.782144822891782e-15
	-3.363438122921222e-25,-3.156361024826089e-14
	-8.243452678764628e-05,7.782144822891782e-15
1		1.023292992280754e+00,0.000000000000000e+00
	-8.243452678764627e-01,7.963414262179111e-11
	1.000000000000000e+00,0.000000000000000e+00
	0.000000000000000e+00,0.000000000000000e+00
	8.243452678764629e-05,-7.963414262179112e-15
	3.521952078113542e-25,3.229882117812637e-14
	8.243452578535204e-13,-1.200954042981551e-15
	-8.243452761199155e-05,-2.313445287296571e-14
	-8.243452678764628e-05,7.963414262179112e-15
	-3.521952078113542e-25,-3.229882117812636e-14
	-8.243452678764628e-05,7.963414262179112e-15
2		1.047128548050899e+00,0.000000000000000e+00
	-8.243452678764627e-01,8.148906009116494e-11
	1.000000000000000e+00,0.000000000000000e+00
	0.000000000000000e+00,0.000000000000000e+00
	8.243452678764629e-05,-8.148906009116496e-15
	3.687936565859880e-25,3.305115737050593e-14
	8.243452578535204e-13,-1.228927856234261e-15
	-8.243452761199155e-05,-2.367332350515517e-14
	-8.243452678764628e-05,8.148906009116495e-15
	-3.687936565859880e-25,-3.305115737050592e-14
	-8.243452678764628e-05,8.148906009116495e-15
3		1.071519305237606e+00,0.000000000000000e+00
	-8.243452678764627e-01,8.338718413883435e-11
	1.000000000000000e+00,0.000000000000000e+00
	0.000000000000000e+00,0.000000000000000e+00
	8.243452678764629e-05,-8.338718413883437e-15
	3.861743661512677e-25,3.382101772400711e-14
	8.243452578535204e-13,-1.257553263303129e-15
	-8.243452761199155e-05,-2.422474604682054e-14
	-8.243452678764628e-05,8.338718413883435e-15
	-3.861743661512677e-25,-3.382101772400710e-14
	-8.243452678764628e-05,8.338718413883435e-15
4		1.096478196143185e+00,0.000000000000000e+00
	-8.243452678764627e-01,8.532952117529403e-11
	1.000000000000000e+00,0.000000000000000e+00
	0.000000000000000e+00,0.000000000000000e+00
	8.243452678764629e-05,-8.532952117529402e-15
	4.043742033224531e-25,3.460881042877964e-14
	8.243452578535204e-13,-1.286845441757885e-15
	-8.243452761199155e-05,-2.478901286949236e-14
	-8.243452678764628e-05,8.532952117529402e-15
	-4.043742033224531e-25,-3.460881042877964e-14
	-8.243452678764628e-05,8.532952117529402e-15
5		1.122018454301963e+00,0.000000000000000e+00
	-8.243452678764627e-01,8.731710105335061e-11
	1.000000000000000e+00,0.000000000000000e+00
	0.000000000000000e+00,0.000000000000000e+00
	8.243452678764629e-05,-8.731710105335061e-15
	4.234317723942797e-25,3.541495318294330e-14
	8.243452578535204e-13,-1.316819922699275e-15
	-8.243452761199155e-05,-2.536642315490896e-14
	-8.243452678764628e-05,8.731710105335061e-15
	-4.234317723942797e-25,-3.541495318294329e-14
	-8.243452678764628e-05,8.731710105335061e-15
6		1.148153621496882e+00,0.000000000000000e+00
	-8.243452678764627e-01,8.935097761416414e-11
	1.000000000000000e+00,0.000000000000000e+00
	0.000000000000000e+00,0.000000000000000e+00
	8.243452678764629e-05,-8.935097761416414e-15
	4.433874970258411e-25,3.623987341405687e-14
	8.243452578535204e-13,-1.347492598993856e-15
	-8.243452761199155e-05,-2.595728305364660e-14
	-8.243452678764628e-05,8.935097761416414e-15
	-4.433874970258411e-25,-3.623987341405685e-14
	-8.243452678764628e-05,8.935097761416414e-15
7		1.174897554939529e+00,0.000000000000000e+00
	-8.243452678764627e-01,9.143222924600869e-11
	1.000000000000000e+00,0.000000000000000e+00
	0.000000000000000e+00,0.000000000000000e+00
	8.243452678764629e-05,-9.143222924600870e-15
	4.642837059845914e-25,3.708400850574599e-14
	8.243452578535204e-13,-1.378879733700588e-15
	-8.243452761199155e-05,-2.656190584744453e-14
	-8.243452678764628e-05,9.143222924600868e-15
	-4.642837059845914e-25,-3.708400850574599e-14
	-8.243452678764628e-05,9.143222924600868e-15
8		1.202264434617413e+00,0.000000000000000e+00
	-8.243452678764627e-01,9.356195945604813e-11
	1.000000000000000e+00,0.000000000000000e+00
	0.000000000000000e+00,0.000000000000000e+00
	8.243452678764629e-05,-9.356195945604813e-15
	4.861647229313361e-25,3.794780602960976e-14
	8.243452578535204e-13,-1.410997968693765e-15
	-8.243452761199155e-05,-2.718061211531118e-14
	-8.243452678764628e-05,9.356195945604813e-15
	-4.861647229313361e-25,-3.794780602960975e-14
	-8.243452678764628e-05,9.356195945604813e-15
9		1.230268770812381e+00,0.000000000000000e+00
	-8.243452678764627e-01,9.574129745543007e-11
	1.000000000000000e+00,0.000000000000000e+00
	0.000000000000000e+00,0.000000000000000e+00
	8.243452678764629e-05,-9.574129745543009e-15
	5.090769604366577e-25,3.883172398252901e-14
	8.243452578535204e-13,-1.443864333486710e-15
	-8.243452761199155e-05,-2.781372990349929e-14
	-8.243452678764628e-05,9.574129745543009e-15
	-5.090769604366577e-25,-3.883172398252901e-14
	-8.243452678764628e-05,9.574129745543009e-15
10		1.258925411794167e+00,0.000000000000000e+00
	-8.243452678764627e-01,9.797139875800879e-11
	1.000000000000000e+00,0.000000000000000e+00
	0.000000000000000e+00,0.000000000000000e+00
	8.243452678764629e-05,-9.797139875800880e-15
	5.330690184282026e-25,3.973623102950243e-14
	8.243452578535204e-13,-1.477496254261070e-15
	-8.243452761199155e-05,-2.846159489944048e-14
	-8.243452678764628e-05,9.797139875800880e-15
	-5.330690184282026e-25,-3.973623102950243e-14
	-8.243452678764628e-05,9.797139875800880e-15
11		1.288249551693134e+00,0.000000000000000e+00
	-8.243452678764627e-01,1.002534457930138e-10
	1.000000000000000e+00,0.000000000000000e+00
	0.000000000000000e+00,0.000000000000000e+00
	8.243452678764629e-05,-1.002534457930138e-14
	5.581917872776423e-25,4.066180675213890e-14
	8.243452578535204e-13,-1.511911563106419e-15
	-8.243452761199155e-05,-2.912455060973111e-14
	-8.243452678764628e-05,1.002534457930138e-14
	-5.581917872776423e-25,-4.066180675213890e-14
	-8.243452678764628e-05,1.002534457930138e-14
12		1.318256738556407e+00,0.000000000000000e+00
	-8.243452678764627e-01,1.025886485319894e-10
	1.000000000000000e+00,0.000000000000000e+00
	0.000000000000000e+00,0.000000000000000e+00
	8.243452678764629e-05,-1.025886485319895e-14
	5.844985557459739e-25,4.160894190293799e-14
	8.243452578535204e-13,-1.547128507475036e-15
	-8.243452761199155e-05,-2.980294854226400e-14
	-8.243452678764628e-05,1.025886485319895e-14
	-5.844985557459739e-25,-4.160894190293798e-14
	-8.243452678764628e-05,1.025886485319895e-14
13		1.348962882591653e+00,0.000000000000000e+00
	-8.243452678764627e-01,1.049782451303381e-10
	1.000000000000000e+00,0.000000000000000e+00
	0.000000000000000e+00,0.000000000000000e+00
	8.243452678764629e-05,-1.049782451303381e-14
	6.120451240161296e-25,4.257813866549347e-14
	8.243452578535204e-13,-1.583165759856983e-15
	-8.243452761199155e-05,-3.049714839260267e-14
	-8.243452678764628e-05,1.049782451303381e-14
	-6.120451240161296e-25,-4.257813866549346e-14
	-8.243452678764628e-05,1.049782451303381e-14
14		1.380384264602885e+00,0.000000000000000e+00
	-8.243452678764627e-01,1.074235025838062e-10
	1.000000000000000e+00,0.000000000000000e+00
	0.000000000000000e+00,0.000000000000000e+00
	8.243452678764629e-05,-1.074235025838062e-14
	6.408899220526425e-25,4.356991092075769e-14
	8.243452578535204e-13,-1.620042427680491e-15
	-8.243452761199155e-05,-3.120751823469658e-14
	-8.243452678764628e-05,1.074235025838062e-14
	-6.408899220526425e-25,-4.356991092075768e-14
	-8.243452678764628e-05,1.074235025838062e-14
15		1.412537544622754e+00,0.000000000000000e+00
	-8.243452678764627e-01,1.099257174002623e-10
	1.000000000000000e+00,0.000000000000000e+00
	0.000000000000000e+00,0.000000000000000e+00
	8.243452678764629e-05,-1.099257174002624e-14
	6.710941335394377e-25,4.458478451950805e-14
	8.243452578535204e-13,-1.657778063442955e-15
	-8.243452761199155e-05,-3.193443471603886e-14
	-8.243452678764628e-05,1.099257174002623e-14
	-6.710941335394377e-25,-4.458478451950804e-14
	-8.243452678764628e-05,1.099257174002623e-14
16		1.445439770745927e+00,0.000000000000000e+00
	-8.243452678764627e-01,1.124862162871230e-10
	1.000000000000000e+00,0.000000000000000e+00
	0.000000000000000e+00,0.000000000000000e+00
	8.243452678764629e-05,-1.124862162871230e-14
	7.027218256586275e-25,4.562329756116002e-14
	8.243452578535204e-13,-1.696392675077929e-15
	-8.243452761199155e-05,-3.267828325736979e-14
	-8.243452678764628e-05,1.124862162871230e-14
	-7.027218256586275e-25,-4.562329756116002e-14
	-8.243452678764628e-05,1.124862162871230e-14
17		1.479108388168207e+00,0.000000000000000e+00
	-8.243452678764627e-01,1.151063568547902e-10
	1.000000000000000e+00,0.000000000000000e+00
	0.000000000000000e+00,0.000000000000000e+00
	8.243452678764629e-05,-1.151063568547902e-14
	7.358400849855960e-25,4.668600067907467e-14
	8.243452578535204e-13,-1.735906736563639e-15
	-8.243452761199155e-05,-3.343945825703201e-14
	-8.243452678764628e-05,1.151063568547902e-14
	-7.358400849855960e-25,-4.668600067907466e-14
	-8.243452678764628e-05,1.151063568547902e-14
18		1.513561248436208e+00,0.000000000000000e+00
	-8.243452678764627e-01,1.177875283364745e-10
	1.000000000000000e+00,0.000000000000000e+00
	0.000000000000000e+00,0.000000000000000e+00
	8.243452678764629e-05,-1.177875283364745e-14
	7.705191597886178e-25,4.777345733251164e-14
	8.243452578535204e-13,-1.776341198778535e-15
	-8.243452761199155e-05,-3.421836330008565e-14
	-8.243452678764628e-05,1.177875283364745e-14
	-7.705191597886178e-25,-4.777345733251163e-14
	-8.243452678764628e-05,1.177875283364745e-14
19		1.548816618912481e+00,0.000000000000000e+00
	-8.243452678764627e-01,1.205311523247851e-10
	1.000000000000000e+00,0.000000000000000e+00
	0.000000000000000e+00,0.000000000000000e+00
	8.243452678764629e-05,-1.205311523247851e-14
	8.068326090348540e-25,4.888624410538277e-14
	8.243452578535204e-13,-1.817717500609664e-15
	-8.243452761199155e-05,-3.501541137229459e-14
	-8.243452678764628e-05,1.205311523247851e-14
	-8.068326090348540e-25,-4.888624410538276e-14
	-8.243452678764628e-05,1.205311523247851e-14
20		1.584893192461113e+00,0.000000000000000e+00
	-8.243452678764627e-01,1.233386835254768e-10
	1.000000000000000e+00,0.000000000000000e+00
	0.000000000000000e+00,0.000000000000000e+00
	8.243452678764629e-05,-1.233386835254768e-14
	8.448574584187859e-25,5.002495101196450e-14
	8.243452578535204e-13,-1.860057580319951e-15
	-8.243452761199155e-05,-3.583102507909688e-14
	-8.243452678764628e-05,1.233386835254768e-14
	-8.448574584187859e-25,-5.002495101196450e-14
	-8.243452678764628e-05,1.233386835254768e-14
21		1.621810097358929e+00,0.000000000000000e+00
	-8.243452678764627e-01,1.262116105287540e-10
	1.000000000000000e+00,0.000000000000000e+00
	0.000000000000000e+00,0.000000000000000e+00
	8.243452678764629e-05,-1.262116105287541e-14
	8.846743637440363e-25,5.119018180973129e-14
	8.243452578535204e-13,-1.903383887180100e-15
	-8.243452761199155e-05,-3.666563686967579e-14
	-8.243452678764628e-05,1.262116105287540e-14
	-8.846743637440363e-25,-5.119018180973129e-14
	-8.243452678764628e-05,1.262116105287540e-14
22		1.659586907437560e+00,0.000000000000000e+00
	-8.243452678764627e-01,1.291514565985419e-10
	1.000000000000000e+00,0.000000000000000e+00
	0.000000000000000e+00,0.000000000000000e+00
	8.243452678764629e-05,-1.291514565985419e-14
	9.263677820051463e-25,5.238255431947577e-14
	8.243452578535204e-13,-1.947719393371507e-15
	-8.243452761199155e-05,-3.751968926625008e-14
	-8.243452678764628e-05,1.291514565985419e-14
	-9.263677820051463e-25,-5.238255431947577e-14
	-8.243452678764628e-05,1.291514565985419e-14
23		1.698243652461743e+00,0.000000000000000e+00
	-8.243452678764627e-01,1.321597804801399e-10
	1.000000000000000e+00,0.000000000000000e+00
	0.000000000000000e+00,0.000000000000000e+00
	8.243452678764629e-05,-1.321597804801399e-14
	9.700261505321811e-25,5.360270075288551e-14
	8.243452578535204e-13,-1.993087606166383e-15
	-8.243452761199155e-05,-3.839363509870514e-14
	-8.243452678764628e-05,1.321597804801399e-14
	-9.700261505321811e-25,-5.360270075288550e-14
	-8.243452678764628e-05,1.321597804801399e-14
24		1.737800828749374e+00,0.000000000000000e+00
	-8.243452678764627e-01,1.352381772266899e-10
	1.000000000000000e+00,0.000000000000000e+00
	0.000000000000000e+00,0.000000000000000e+00
	8.243452678764629e-05,-1.352381772266899e-14
	1.015742074578166e-24,5.485126804775003e-14
	8.243452578535204e-13,-2.039512580391683e-15
	-8.243452761199155e-05,-3.928793774468936e-14
	-8.243452678764628e-05,1.352381772266899e-14
	-1.015742074578166e-24,-5.485126804775003e-14
	-8.243452678764628e-05,1.352381772266899e-14
25		1.778279410038922e+00,0.000000000000000e+00
	-8.243452678764627e-01,1.383882790448944e-10
	1.000000000000000e+00,0.000000000000000e+00
	0.000000000000000e+00,0.000000000000000e+00
	8.243452678764629e-05,-1.383882790448945e-14
	1.063612523747243e-24,5.612891821097585e-14
	8.243452578535204e-13,-2.087018931183251e-15
	-8.243452761199155e-05,-4.020307137530315e-14
	-8.243452678764628e-05,1.383882790448945e-14
	-1.063612523747243e-24,-5.612891821097584e-14
	-8.243452678764628e-05,1.383882790448945e-14
26		1.819700858609982e+00,0.000000000000000e+00
	-8.243452678764627e-01,1.416117561604340e-10
	1.000000000000000e+00,0.000000000000000e+00
	0.000000000000000e+00,0.000000000000000e+00
	8.243452678764629e-05,-1.416117561604340e-14
	1.113739037680204e-24,5.743632866959118e-14
	8.243452578535204e-13,-2.135631847037081e-15
	-8.243452761199155e-05,-4.113952120651070e-14
	-8.243452678764628e-05,1.416117561604340e-14
	-1.113739037680204e-24,-5.743632866959118e-14
	-8.243452678764628e-05,1.416117561604340e-14
27		1.862087136662866e+00,0.000000000000000e+00
	-8.243452678764627e-01,1.449103177035430e-10
	1.000000000000000e+00,0.000000000000000e+00
	0.000000000000000e+00,0.000000000000000e+00
	8.243452678764629e-05,-1.449103177035431e-14
	1.166227941433677e-24,5.877419262992683e-14
	8.243452578535204e-13,-2.185377103164652e-15
	-8.243452761199155e-05,-4.209778375640787e-14
	-8.243452678764628e-05,1.449103177035430e-14
	-1.166227941433677e-24,-5.877419262992683e-14
	-8.243452678764628e-05,1.449103177035430e-14
28		1.905460717963246e+00,0.000000000000000e+00
	-8.243452678764627e-01,1.482857126152133e-10
	1.000000000000000e+00,0.000000000000000e+00
	0.000000000000000e+00,0.000000000000000e+00
	8.243452678764629e-05,-1.482857126152133e-14
	1.221190571009836e-24,6.014321944516328e-14
	8.243452578535204e-13,-2.236281075159211e-15
	-8.243452761199155e-05,-4.307836710848273e-14
	-8.243452678764628e-05,1.482857126152133e-14
	-1.221190571009836e-24,-6.014321944516326e-14
	-8.243452678764628e-05,1.482857126152133e-14
29		1.949844599758044e+00,0.000000000000000e+00
	-8.243452678764627e-01,1.517397305745056e-10
	1.000000000000000e+00,0.000000000000000e+00
	0.000000000000000e+00,0.000000000000000e+00
	8.243452678764629e-05,-1.517397305745056e-14
	1.278743509514979e-24,6.154413499143916e-14
	8.243452578535204e-13,-2.288370752980481e-15
	-8.243452761199155e-05,-4.408179118100812e-14
	-8.243452678764628e-05,1.517397305745056e-14
	-1.278743509514979e-24,-6.154413499143914e-14
	-8.243452678764628e-05,1.517397305745056e-14
30		1.995262314968878e+00,0.000000000000000e+00
	-8.243452678764627e-01,1.552742029474612e-10
	1.000000000000000e+00,0.000000000000000e+00
	0.000000000000000e+00,0.000000000000000e+00
	8.243452678764629e-05,-1.552742029474612e-14
	1.339008834447931e-24,6.297768205272043e-14
	8.243452578535204e-13,-2.341673755265160e-15
	-8.243452761199155e-05,-4.510858800270915e-14
	-8.243452678764628e-05,1.552742029474612e-14
	-1.339008834447931e-24,-6.297768205272042e-14
	-8.243452678764628e-05,1.552742029474612e-14
31		2.041737944669527e+00,0.000000000000000e+00
	-8.243452678764627e-01,1.588910037581167e-10
	1.000000000000000e+00,0.000000000000000e+00
	0.000000000000000e+00,0.000000000000000e+00
	8.243452678764629e-05,-1.588910037581167e-14
	1.402114376642789e-24,6.444462071463423e-14
	8.243452578535204e-13,-2.396218343970596e-15
	-8.243452761199155e-05,-4.615930199485196e-14
	-8.243452678764628e-05,1.588910037581167e-14
	-1.402114376642789e-24,-6.444462071463422e-14
	-8.243452678764628e-05,1.588910037581167e-14
32		2.089296130854037e+00,0.000000000000000e+00
	-8.243452678764627e-01,1.625920506821358e-10
	1.000000000000000e+00,0.000000000000000e+00
	0.000000000000000e+00,0.000000000000000e+00
	8.243452678764629e-05,-1.625920506821358e-14
	1.468193991415256e-24,6.594572876747635e-14
	8.243452578535204e-13,-2.452033439359718e-15
	-8.243452761199155e-05,-4.723449025990305e-14
	-8.243452678764628e-05,1.625920506821358e-14
	-1.468193991415256e-24,-6.594572876747634e-14
	-8.243452678764628e-05,1.625920506821358e-14
33		2.137962089502230e+00,0.000000000000000e+00
	-8.243452678764627e-01,1.663793060635867e-10
	1.000000000000000e+00,0.000000000000000e+00
	0.000000000000000e+00,0.000000000000000e+00
	8.243452678764629e-05,-1.663793060635867e-14
	1.537387842487711e-24,6.748180211860588e-14
	8.243452578535204e-13,-2.509148635334874e-15
	-8.243452761199155e-05,-4.833472287691233e-14
	-8.243452678764628e-05,1.663793060635867e-14
	-1.537387842487711e-24,-6.748180211860587e-14
	-8.243452678764628e-05,1.663793060635867e-14
34		2.187761623949550e+00,0.000000000000000e+00
	-8.243452678764627e-01,1.702547779554031e-10
	1.000000000000000e+00,0.000000000000000e+00
	0.000000000000000e+00,0.000000000000000e+00
	8.243452678764629e-05,-1.702547779554031e-14
	1.609842699295262e-24,6.905365521444593e-14
	8.243452578535204e-13,-2.567594215128982e-15
	-8.243452761199155e-05,-4.946058320377664e-14
	-8.243452678764628e-05,1.702547779554031e-14
	-1.609842699295262e-24,-6.905365521444592e-14
	-8.243452678764628e-05,1.702547779554031e-14
35		2.238721138568337e+00,0.000000000000000e+00
	-8.243452678764627e-01,1.742205211840798e-10
	1.000000000000000e+00,0.000000000000000e+00
	0.000000000000000e+00,0.000000000000000e+00
	8.243452678764629e-05,-1.742205211840798e-14
	1.685712248303389e-24,7.066212147231387e-14
	8.243452578535204e-13,-2.627401167362093e-15
	-8.243452761199155e-05,-5.061266818654380e-14
	-8.243452678764628e-05,1.742205211840798e-14
	-1.685712248303389e-24,-7.066212147231386e-14
	-8.243452678764628e-05,1.742205211840798e-14
36		2.290867652767770e+00,0.000000000000000e+00
	-8.243452678764627e-01,1.782786384391695e-10
	1.000000000000000e+00,0.000000000000000e+00
	0.000000000000000e+00,0.000000000000000e+00
	8.243452678764629e-05,-1.782786384391696e-14
	1.765157418997545e-24,7.230805372231019e-14
	8.243452578535204e-13,-2.688601202471897e-15
	-8.243452761199155e-05,-5.179158867592133e-14
	-8.243452678764628e-05,1.782786384391695e-14
	-1.765157418997545e-24,-7.230805372231019e-14
	-8.243452678764628e-05,1.782786384391695e-14
37		2.344228815319919e+00,0.000000000000000e+00
	-8.243452678764627e-01,1.824312813881564e-10
	1.000000000000000e+00,0.000000000000000e+00
	0.000000000000000e+00,0.000000000000000e+00
	8.243452678764629e-05,-1.824312813881565e-14
	1.848346725236172e-24,7.399232465950032e-14
	8.243452578535204e-13,-2.751226769527115e-15
	-8.243452761199155e-05,-5.299796975115756e-14
	-8.243452678764628e-05,1.824312813881564e-14
	-1.848346725236172e-24,-7.399232465950031e-14
	-8.243452678764628e-05,1.824312813881564e-14
38		2.398832919019488e+00,0.000000000000000e+00
	-8.243452678764627e-01,1.866806518172989e-10
	1.000000000000000e+00,0.000000000000000e+00
