Title: * GA CMOS Amp | W=4.9949817147660015e-06 L=9.617069020627462e-07 Vbias=1.0047794142387654
Date: Mon Sep  8 18:45:13 2025
Plotname: AC Analysis
Flags: complex forward log
No. Variables: 11
No. Points:          901
Offset:    0.0000000000000000e+00
Command: Linear Technology Corporation LTspice
Variables:
	0	frequency	frequency
	1	V(out)	voltage
	2	V(g)	voltage
	3	V(vdd)	voltage
	4	Id(M1)	device_current
	5	Ig(M1)	device_current
	6	Ib(M1)	device_current
	7	Is(M1)	device_current
	8	I(Rload)	device_current
	9	I(Vg)	device_current
	10	I(Vdd)	device_current
Values:
0		1.000000000000000e+00,0.000000000000000e+00
	-1.226274335286348e+00,1.368478918983544e-10
	1.000000000000000e+00,0.000000000000000e+00
	0.000000000000000e+00,0.000000000000000e+00
	1.226274335286348e-04,-1.368478918983544e-14
	8.589776785529991e-25,4.932711379228613e-14
	1.226274344654638e-12,-1.559560790069117e-15
	-1.226274347549092e-04,-3.408276381238157e-14
	-1.226274335286348e-04,1.368478918983544e-14
	-8.589776785529991e-25,-4.932711379228613e-14
	-1.226274335286348e-04,1.368478918983544e-14
1		1.023292992280754e+00,0.000000000000000e+00
	-1.226274335286348e+00,1.400354887879802e-10
	1.000000000000000e+00,0.000000000000000e+00
	0.000000000000000e+00,0.000000000000000e+00
	1.226274335286348e-04,-1.400354887879802e-14
	8.994600493513342e-25,5.047608987308173e-14
	1.226274344654638e-12,-1.595887627513567e-15
	-1.226274347549092e-04,-3.487665336677014e-14
	-1.226274335286348e-04,1.400354887879802e-14
	-8.994600493513342e-25,-5.047608987308173e-14
	-1.226274335286348e-04,1.400354887879802e-14
2		1.047128548050899e+00,0.000000000000000e+00
	-1.226274335286348e+00,1.432973343473503e-10
	1.000000000000000e+00,0.000000000000000e+00
	0.000000000000000e+00,0.000000000000000e+00
	1.226274335286348e-04,-1.432973343473503e-14
	9.418502955070526e-25,5.165182904485806e-14
	1.226274344654638e-12,-1.633060625702186e-15
	-1.226274347549092e-04,-3.568903498442085e-14
	-1.226274335286348e-04,1.432973343473503e-14
	-9.418502955070526e-25,-5.165182904485806e-14
	-1.226274335286348e-04,1.432973343473503e-14
3		1.071519305237606e+00,0.000000000000000e+00
	-1.226274335286348e+00,1.466351580501557e-10
	1.000000000000000e+00,0.000000000000000e+00
	0.000000000000000e+00,0.000000000000000e+00
	1.226274335286348e-04,-1.466351580501557e-14
	9.862383324156105e-25,5.285495470008677e-14
	1.226274344654638e-12,-1.671099494250676e-15
	-1.226274347549092e-04,-3.652033940082052e-14
	-1.226274335286348e-04,1.466351580501557e-14
	-9.862383324156105e-25,-5.285495470008677e-14
	-1.226274335286348e-04,1.466351580501557e-14
4		1.096478196143185e+00,0.000000000000000e+00
	-1.226274335286348e+00,1.500507296547051e-10
	1.000000000000000e+00,0.000000000000000e+00
	0.000000000000000e+00,0.000000000000000e+00
	1.226274335286348e-04,-1.500507296547052e-14
	1.032718313054498e-24,5.408610475191550e-14
	1.226274344654638e-12,-1.710024401870624e-15
	-1.226274347549092e-04,-3.737100738457435e-14
	-1.226274335286348e-04,1.500507296547051e-14
	-1.032718313054498e-24,-5.408610475191550e-14
	-1.226274335286348e-04,1.500507296547051e-14
5		1.122018454301963e+00,0.000000000000000e+00
	-1.226274335286348e+00,1.535458601422737e-10
	1.000000000000000e+00,0.000000000000000e+00
	0.000000000000000e+00,0.000000000000000e+00
	1.226274335286348e-04,-1.535458601422737e-14
	1.081388827694332e-24,5.534593197239793e-14
	1.226274344654638e-12,-1.749855987063302e-15
	-1.226274347549092e-04,-3.824148997110726e-14
	-1.226274335286348e-04,1.535458601422737e-14
	-1.081388827694332e-24,-5.534593197239793e-14
	-1.226274335286348e-04,1.535458601422737e-14
6		1.148153621496882e+00,0.000000000000000e+00
	-1.226274335286348e+00,1.571224026773095e-10
	1.000000000000000e+00,0.000000000000000e+00
	0.000000000000000e+00,0.000000000000000e+00
	1.226274335286348e-04,-1.571224026773095e-14
	1.132353113022030e-24,5.663510433860213e-14
	1.226274344654638e-12,-1.790615369062394e-15
	-1.226274347549092e-04,-3.913224870180879e-14
	-1.226274335286348e-04,1.571224026773095e-14
	-1.132353113022030e-24,-5.663510433860213e-14
	-1.226274335286348e-04,1.571224026773095e-14
7		1.174897554939529e+00,0.000000000000000e+00
	-1.226274335286348e+00,1.607822535900056e-10
	1.000000000000000e+00,0.000000000000000e+00
	0.000000000000000e+00,0.000000000000000e+00
	1.226274335286348e-04,-1.607822535900056e-14
	1.185719271119674e-24,5.795430538678090e-14
	1.226274344654638e-12,-1.832324159031766e-15
	-1.226274347549092e-04,-4.004375586874857e-14
	-1.226274335286348e-04,1.607822535900056e-14
	-1.185719271119674e-24,-5.795430538678090e-14
	-1.226274335286348e-04,1.607822535900056e-14
8		1.202264434617413e+00,0.000000000000000e+00
	-1.226274335286348e+00,1.645273533817598e-10
	1.000000000000000e+00,0.000000000000000e+00
	0.000000000000000e+00,0.000000000000000e+00
	1.226274335286348e-04,-1.645273533817598e-14
	1.241600498763515e-24,5.930423457479165e-14
	1.226274344654638e-12,-1.875004471523930e-15
	-1.226274347549092e-04,-4.097649476509174e-14
	-1.226274335286348e-04,1.645273533817598e-14
	-1.241600498763515e-24,-5.930423457479165e-14
	-1.226274335286348e-04,1.645273533817598e-14
9		1.230268770812381e+00,0.000000000000000e+00
	-1.226274335286348e+00,1.683596877540541e-10
	1.000000000000000e+00,0.000000000000000e+00
	0.000000000000000e+00,0.000000000000000e+00
	1.226274335286348e-04,-1.683596877540541e-14
	1.300115327529512e-24,6.068560765295830e-14
	1.226274344654638e-12,-1.918678936205514e-15
	-1.226274347549092e-04,-4.193095994134738e-14
	-1.226274335286348e-04,1.683596877540541e-14
	-1.300115327529512e-24,-6.068560765295830e-14
	-1.226274335286348e-04,1.683596877540541e-14
10		1.258925411794167e+00,0.000000000000000e+00
	-1.226274335286348e+00,1.722812886612994e-10
	1.000000000000000e+00,0.000000000000000e+00
	0.000000000000000e+00,0.000000000000000e+00
	1.226274335286348e-04,-1.722812886612994e-14
	1.361387875214698e-24,6.209915704357154e-14
	1.226274344654638e-12,-1.963370709855805e-15
	-1.226274347549092e-04,-4.290765746758579e-14
	-1.226274335286348e-04,1.722812886612994e-14
	-1.361387875214698e-24,-6.209915704357154e-14
	-1.226274335286348e-04,1.722812886612994e-14
11		1.288249551693134e+00,0.000000000000000e+00
	-1.226274335286348e+00,1.762942353882055e-10
	1.000000000000000e+00,0.000000000000000e+00
	0.000000000000000e+00,0.000000000000000e+00
	1.226274335286348e-04,-1.762942353882055e-14
	1.425548109107666e-24,6.354563222922879e-14
	1.226274344654638e-12,-2.009103488644726e-15
	-1.226274347549092e-04,-4.390710520176352e-14
	-1.226274335286348e-04,1.762942353882055e-14
	-1.425548109107666e-24,-6.354563222922879e-14
	-1.226274335286348e-04,1.762942353882055e-14
12		1.318256738556407e+00,0.000000000000000e+00
	-1.226274335286348e+00,1.804006556522444e-10
	1.000000000000000e+00,0.000000000000000e+00
	0.000000000000000e+00,0.000000000000000e+00
	1.226274335286348e-04,-1.804006556522444e-14
	1.492732121666615e-24,6.502580015021985e-14
	1.226274344654638e-12,-2.055901520696967e-15
	-1.226274347549092e-04,-4.492983306429845e-14
	-1.226274335286348e-04,1.804006556522444e-14
	-1.492732121666615e-24,-6.502580015021985e-14
	-1.226274335286348e-04,1.804006556522444e-14
13		1.348962882591653e+00,0.000000000000000e+00
	-1.226274335286348e+00,1.846027267317951e-10
	1.000000000000000e+00,0.000000000000000e+00
	0.000000000000000e+00,0.000000000000000e+00
	1.226274335286348e-04,-1.846027267317951e-14
	1.563082419189702e-24,6.654044561116879e-14
	1.226274344654638e-12,-2.103789618948547e-15
	-1.226274347549092e-04,-4.597638331904073e-14
	-1.226274335286348e-04,1.846027267317951e-14
	-1.563082419189702e-24,-6.654044561116879e-14
	-1.226274335286348e-04,1.846027267317951e-14
14		1.380384264602885e+00,0.000000000000000e+00
	-1.226274335286348e+00,1.889026766205650e-10
	1.000000000000000e+00,0.000000000000000e+00
	0.000000000000000e+00,0.000000000000000e+00
	1.226274335286348e-04,-1.889026766205650e-14
	1.636748224090000e-24,6.809037169714769e-14
	1.226274344654638e-12,-2.152793174303050e-15
	-1.226274347549092e-04,-4.704731086078814e-14
	-1.226274335286348e-04,1.889026766205650e-14
	-1.636748224090000e-24,-6.809037169714769e-14
	-1.226274335286348e-04,1.889026766205650e-14
15		1.412537544622754e+00,0.000000000000000e+00
	-1.226274335286348e+00,1.933027852089016e-10
	1.000000000000000e+00,0.000000000000000e+00
	0.000000000000000e+00,0.000000000000000e+00
	1.226274335286348e-04,-1.933027852089016e-14
	1.713885791416250e-24,6.967640019948303e-14
	1.226274344654638e-12,-2.202938169094159e-15
	-1.226274347549092e-04,-4.814318350949872e-14
	-1.226274335286348e-04,1.933027852089016e-14
	-1.713885791416250e-24,-6.967640019948303e-14
	-1.226274335286348e-04,1.933027852089016e-14
16		1.445439770745927e+00,0.000000000000000e+00
	-1.226274335286348e+00,1.978053854926207e-10
	1.000000000000000e+00,0.000000000000000e+00
	0.000000000000000e+00,0.000000000000000e+00
	1.226274335286348e-04,-1.978053854926208e-14
	1.794658740290764e-24,7.129937205148031e-14
	1.226274344654638e-12,-2.254251190861846e-15
	-1.226274347549092e-04,-4.926458231135639e-14
	-1.226274335286348e-04,1.978053854926208e-14
	-1.794658740290764e-24,-7.129937205148031e-14
	-1.226274335286348e-04,1.978053854926208e-14
17		1.479108388168207e+00,0.000000000000000e+00
	-1.226274335286348e+00,2.024128648099919e-10
	1.000000000000000e+00,0.000000000000000e+00
	0.000000000000000e+00,0.000000000000000e+00
	1.226274335286348e-04,-2.024128648099919e-14
	1.879238400967524e-24,7.296014777429806e-14
	1.226274344654638e-12,-2.306759446449472e-15
	-1.226274347549092e-04,-5.041210184684939e-14
	-1.226274335286348e-04,2.024128648099919e-14
	-1.879238400967524e-24,-7.296014777429806e-14
	-1.226274335286348e-04,2.024128648099919e-14
18		1.513561248436208e+00,0.000000000000000e+00
	-1.226274335286348e+00,2.071276661075364e-10
	1.000000000000000e+00,0.000000000000000e+00
	0.000000000000000e+00,0.000000000000000e+00
	1.226274335286348e-04,-2.071276661075364e-14
	1.967804178246618e-24,7.465960793320746e-14
	1.226274344654638e-12,-2.360490776429176e-15
	-1.226274347549092e-04,-5.158635054602465e-14
	-1.226274335286348e-04,2.071276661075364e-14
	-1.967804178246618e-24,-7.465960793320746e-14
	-1.226274335286348e-04,2.071276661075364e-14
19		1.548816618912481e+00,0.000000000000000e+00
	-1.226274335286348e+00,2.119522892353099e-10
	1.000000000000000e+00,0.000000000000000e+00
	0.000000000000000e+00,0.000000000000000e+00
	1.226274335286348e-04,-2.119522892353099e-14
	2.060543932015874e-24,7.639865360447979e-14
	1.226274344654638e-12,-2.415473669863334e-15
	-1.226274347549092e-04,-5.278795101108547e-14
	-1.226274335286348e-04,2.119522892353099e-14
	-2.060543932015874e-24,-7.639865360447979e-14
	-1.226274335286348e-04,2.119522892353099e-14
20		1.584893192461113e+00,0.000000000000000e+00
	-1.226274335286348e+00,2.168892922723561e-10
	1.000000000000000e+00,0.000000000000000e+00
	0.000000000000000e+00,0.000000000000000e+00
	1.226274335286348e-04,-2.168892922723561e-14
	2.157654375726873e-24,7.817820685314894e-14
	1.226274344654638e-12,-2.471737279409813e-15
	-1.226274347549092e-04,-5.401754034650351e-14
	-1.226274335286348e-04,2.168892922723561e-14
	-2.157654375726873e-24,-7.817820685314894e-14
	-1.226274335286348e-04,2.168892922723561e-14
21		1.621810097358929e+00,0.000000000000000e+00
	-1.226274335286348e+00,2.219412928830343e-10
	1.000000000000000e+00,0.000000000000000e+00
	0.000000000000000e+00,0.000000000000000e+00
	1.226274335286348e-04,-2.219412928830343e-14
	2.259341493650551e-24,7.999921122190254e-14
	1.226274344654638e-12,-2.529311436779173e-15
	-1.226274347549092e-04,-5.527577049681994e-14
	-1.226274335286348e-04,2.219412928830344e-14
	-2.259341493650551e-24,-7.999921122190254e-14
	-1.226274335286348e-04,2.219412928830344e-14
22		1.659586907437560e+00,0.000000000000000e+00
	-1.226274335286348e+00,2.271109697049394e-10
	1.000000000000000e+00,0.000000000000000e+00
	0.000000000000000e+00,0.000000000000000e+00
	1.226274335286348e-04,-2.271109697049395e-14
	2.365820977797452e-24,8.186263223136073e-14
	1.226274344654638e-12,-2.588226668551683e-15
	-1.226274347549092e-04,-5.656330859231510e-14
	-1.226274335286348e-04,2.271109697049395e-14
	-2.365820977797452e-24,-8.186263223136073e-14
	-1.226274335286348e-04,2.271109697049395e-14
23		1.698243652461743e+00,0.000000000000000e+00
	-1.226274335286348e+00,2.324010637691512e-10
	1.000000000000000e+00,0.000000000000000e+00
	0.000000000000000e+00,0.000000000000000e+00
	1.226274335286348e-04,-2.324010637691512e-14
	2.477318685429406e-24,8.376945789200804e-14
	1.226274344654638e-12,-2.648514212363106e-15
	-1.226274347549092e-04,-5.788083730272981e-14
	-1.226274335286348e-04,2.324010637691512e-14
	-2.477318685429406e-24,-8.376945789200804e-14
	-1.226274335286348e-04,2.324010637691512e-14
24		1.737800828749374e+00,0.000000000000000e+00
	-1.226274335286348e+00,2.378143799535650e-10
	1.000000000000000e+00,0.000000000000000e+00
	0.000000000000000e+00,0.000000000000000e+00
	1.226274335286348e-04,-2.378143799535650e-14
	2.594071118133056e-24,8.572069922804952e-14
	1.226274344654638e-12,-2.710206033467139e-15
	-1.226274347549092e-04,-5.922905519922588e-14
	-1.226274335286348e-04,2.378143799535650e-14
	-2.594071118133056e-24,-8.572069922804952e-14
	-1.226274335286348e-04,2.378143799535650e-14
25		1.778279410038922e+00,0.000000000000000e+00
	-1.226274335286348e+00,2.433537884700758e-10
	1.000000000000000e+00,0.000000000000000e+00
	0.000000000000000e+00,0.000000000000000e+00
	1.226274335286348e-04,-2.433537884700758e-14
	2.716325923471441e-24,8.771739081346933e-14
	1.226274344654638e-12,-2.773334841683953e-15
	-1.226274347549092e-04,-6.060867712477780e-14
	-1.226274335286348e-04,2.433537884700758e-14
	-2.716325923471441e-24,-8.771739081346933e-14
	-1.226274335286348e-04,2.433537884700758e-14
26		1.819700858609982e+00,0.000000000000000e+00
	-1.226274335286348e+00,2.490222263864015e-10
	1.000000000000000e+00,0.000000000000000e+00
	0.000000000000000e+00,0.000000000000000e+00
	1.226274335286348e-04,-2.490222263864015e-14
	2.844342420277668e-24,8.976059132057535e-14
	1.226274344654638e-12,-2.837934108743233e-15
	-1.226274347549092e-04,-6.202043457319197e-14
	-1.226274335286348e-04,2.490222263864015e-14
	-2.844342420277668e-24,-8.976059132057535e-14
	-1.226274335286348e-04,2.490222263864015e-14
27		1.862087136662866e+00,0.000000000000000e+00
	-1.226274335286348e+00,2.548226991833562e-10
	1.000000000000000e+00,0.000000000000000e+00
	0.000000000000000e+00,0.000000000000000e+00
	1.226274335286348e-04,-2.548226991833562e-14
	2.978392148704936e-24,9.185138408132143e-14
	1.226274344654638e-12,-2.904038086031467e-15
	-1.226274347549092e-04,-6.346507607695435e-14
	-1.226274335286348e-04,2.548226991833562e-14
	-2.978392148704936e-24,-9.185138408132143e-14
	-1.226274335286348e-04,2.548226991833562e-14
28		1.905460717963246e+00,0.000000000000000e+00
	-1.226274335286348e+00,2.607582823483949e-10
	1.000000000000000e+00,0.000000000000000e+00
	0.000000000000000e+00,0.000000000000000e+00
	1.226274335286348e-04,-2.607582823483950e-14
	3.118759446199597e-24,9.399087766170424e-14
	1.226274344654638e-12,-2.971681822752426e-15
	-1.226274347549092e-04,-6.494336760411231e-14
	-1.226274335286348e-04,2.607582823483950e-14
	-3.118759446199597e-24,-9.399087766170424e-14
	-1.226274335286348e-04,2.607582823483950e-14
29		1.949844599758044e+00,0.000000000000000e+00
	-1.226274335286348e+00,2.668321230062789e-10
	1.000000000000000e+00,0.000000000000000e+00
	0.000000000000000e+00,0.000000000000000e+00
	1.226274335286348e-04,-2.668321230062789e-14
	3.265742050619013e-24,9.618020644953963e-14
	1.226274344654638e-12,-3.040901184510657e-15
	-1.226274347549092e-04,-6.645609296440108e-14
	-1.226274335286348e-04,2.668321230062789e-14
	-3.265742050619013e-24,-9.618020644953963e-14
	-1.226274335286348e-04,2.668321230062789e-14
30		1.995262314968878e+00,0.000000000000000e+00
	-1.226274335286348e+00,2.730474415877214e-10
	1.000000000000000e+00,0.000000000000000e+00
	0.000000000000000e+00,0.000000000000000e+00
	1.226274335286348e-04,-2.730474415877214e-14
	3.419651731773454e-24,9.842053125593008e-14
	1.226274344654638e-12,-3.111732872327999e-15
	-1.226274347549092e-04,-6.800405422482994e-14
	-1.226274335286348e-04,2.730474415877214e-14
	-3.419651731773454e-24,-9.842053125593008e-14
	-1.226274335286348e-04,2.730474415877214e-14
31		2.041737944669527e+00,0.000000000000000e+00
	-1.226274335286348e+00,2.794075335369038e-10
	1.000000000000000e+00,0.000000000000000e+00
	0.000000000000000e+00,0.000000000000000e+00
	1.226274335286348e-04,-2.794075335369037e-14
	3.580814952731679e-24,1.007130399307422e-13
	1.226274344654638e-12,-3.184214442102908e-15
	-1.226274347549092e-04,-6.958807213494889e-14
	-1.226274335286348e-04,2.794075335369038e-14
	-3.580814952731679e-24,-1.007130399307422e-13
	-1.226274335286348e-04,2.794075335369038e-14
32		2.089296130854037e+00,0.000000000000000e+00
	-1.226274335286348e+00,2.859157710587634e-10
	1.000000000000000e+00,0.000000000000000e+00
	0.000000000000000e+00,0.000000000000000e+00
	1.226274335286348e-04,-2.859157710587634e-14
	3.749573562292875e-24,1.030589479924202e-13
	1.226274344654638e-12,-3.258384324523074e-15
	-1.226274347549092e-04,-7.120898656202082e-14
	-1.226274335286348e-04,2.859157710587634e-14
	-3.749573562292875e-24,-1.030589479924202e-13
	-1.226274335286348e-04,2.859157710587634e-14
33		2.137962089502230e+00,0.000000000000000e+00
	-1.226274335286348e+00,2.925756049069811e-10
	1.000000000000000e+00,0.000000000000000e+00
	0.000000000000000e+00,0.000000000000000e+00
	1.226274335286348e-04,-2.925756049069811e-14
	3.926285520093776e-24,1.054594992724703e-13
	1.226274344654638e-12,-3.334281845441924e-15
	-1.226274347549092e-04,-7.286765693633029e-14
	-1.226274335286348e-04,2.925756049069811e-14
	-3.926285520093776e-24,-1.054594992724703e-13
	-1.226274335286348e-04,2.925756049069811e-14
34		2.187761623949550e+00,0.000000000000000e+00
	-1.226274335286348e+00,2.993905662136163e-10
	1.000000000000000e+00,0.000000000000000e+00
	0.000000000000000e+00,0.000000000000000e+00
	1.226274335286348e-04,-2.993905662136163e-14
	4.111325655889066e-24,1.079159665749561e-13
	1.226274344654638e-12,-3.411947246729644e-15
	-1.226274347549092e-04,-7.456496270686488e-14
	-1.226274335286348e-04,2.993905662136163e-14
	-4.111325655889066e-24,-1.079159665749561e-13
	-1.226274335286348e-04,2.993905662136163e-14
35		2.238721138568337e+00,0.000000000000000e+00
	-1.226274335286348e+00,3.063642683613606e-10
	1.000000000000000e+00,0.000000000000000e+00
	0.000000000000000e+00,0.000000000000000e+00
	1.226274335286348e-04,-3.063642683613607e-14
	4.305086464615530e-24,1.104296523513567e-13
	1.226274344654638e-12,-3.491421707610077e-15
	-1.226274347549092e-04,-7.630180380761059e-14
	-1.226274335286348e-04,3.063642683613607e-14
	-4.305086464615530e-24,-1.104296523513567e-13
	-1.226274335286348e-04,3.063642683613607e-14
36		2.290867652767770e+00,0.000000000000000e+00
	-1.226274335286348e+00,3.135004088994007e-10
	1.000000000000000e+00,0.000000000000000e+00
	0.000000000000000e+00,0.000000000000000e+00
	1.226274335286348e-04,-3.135004088994008e-14
	4.507978938926439e-24,1.130018893911432e-13
	1.226274344654638e-12,-3.572747366494277e-15
	-1.226274347549092e-04,-7.807910113470888e-14
	-1.226274335286348e-04,3.135004088994007e-14
	-4.507978938926439e-24,-1.130018893911432e-13
	-1.226274335286348e-04,3.135004088994007e-14
37		2.344228815319919e+00,0.000000000000000e+00
	-1.226274335286348e+00,3.208027715039077e-10
	1.000000000000000e+00,0.000000000000000e+00
	0.000000000000000e+00,0.000000000000000e+00
	1.226274335286348e-04,-3.208027715039077e-14
	4.720433440962078e-24,1.156340415284418e-13
	1.226274344654638e-12,-3.655967343323128e-15
	-1.226274347549092e-04,-7.989779703472787e-14
	-1.226274335286348e-04,3.208027715039077e-14
	-4.720433440962078e-24,-1.156340415284418e-13
	-1.226274335286348e-04,3.208027715039077e-14
38		2.398832919019488e+00,0.000000000000000e+00
	-1.226274335286348e+00,3.282752279841928e-10
	1.000000000000000e+00,0.000000000000000e+00
