Title: * GA CMOS Amp | W=6.077595156391874e-06 L=8.850296729957008e-07 Vbias=1.344347779393647
Date: Sat Sep  6 22:11:44 2025
Plotname: AC Analysis
Flags: complex forward log
No. Variables: 13
No. Points:          901
Offset:    0.0000000000000000e+00
Command: Linear Technology Corporation LTspice
Variables:
	0	frequency	frequency
	1	V(out)	voltage
	2	V(g)	voltage
	3	V(vdd)	voltage
	4	V(m1#dbody)	voltage
	5	V(m1#sbody)	voltage
	6	Id(M1)	device_current
	7	Ig(M1)	device_current
	8	Ib(M1)	device_current
	9	Is(M1)	device_current
	10	I(Rload)	device_current
	11	I(Vg)	device_current
	12	I(Vdd)	device_current
Values:
0		1.000000000000000e+00,0.000000000000000e+00
	2.549512641701847e-04,1.214156275899022e-09
	1.000000000000000e+00,0.000000000000000e+00
	0.000000000000000e+00,0.000000000000000e+00
	6.304120981770337e-05,9.016174662740552e-14
	6.304120981577899e-05,9.012194523924288e-14
	-2.549512641701847e-08,-1.214156275899022e-13
	4.200783354246834e-05,1.363847755160764e-12
	-3.362197859395425e-05,-4.807346853602210e-14
	-8.360359822097066e-06,-1.194358659034840e-12
	2.549512641701847e-08,1.214156275899022e-13
	-4.200783354235682e-05,-1.363847755160764e-12
	2.549512641701847e-08,1.214156275899022e-13
1		1.023292992280754e+00,0.000000000000000e+00
	2.549512641701848e-04,1.242437608661167e-09
	1.000000000000000e+00,0.000000000000000e+00
	0.000000000000000e+00,0.000000000000000e+00
	6.304120981770337e-05,9.226188349561700e-14
	6.304120981577899e-05,9.222115501402712e-14
	-2.549512641701847e-08,-1.242437608661167e-13
	4.200783354246834e-05,1.395615850393848e-12
	-3.362197859395425e-05,-4.919324346754074e-14
	-8.360359822097066e-06,-1.222178846060191e-12
	2.549512641701848e-08,1.242437608661167e-13
	-4.200783354235682e-05,-1.395615850393848e-12
	2.549512641701848e-08,1.242437608661167e-13
2		1.047128548050899e+00,0.000000000000000e+00
	2.549512641701848e-04,1.271377698289030e-09
	1.000000000000000e+00,0.000000000000000e+00
	0.000000000000000e+00,0.000000000000000e+00
	6.304120981770337e-05,9.441093883568823e-14
	6.304120981577899e-05,9.436926166589106e-14
	-2.549512641701850e-08,-1.271377698289030e-13
	4.200783354246834e-05,1.428123919623970e-12
	-3.362197859395425e-05,-5.033910130789542e-14
	-8.360359822097066e-06,-1.250647048487172e-12
	2.549512641701848e-08,1.271377698289030e-13
	-4.200783354235682e-05,-1.428123919623970e-12
	2.549512641701848e-08,1.271377698289030e-13
3		1.071519305237606e+00,0.000000000000000e+00
	2.549512641701849e-04,1.300991889201199e-09
	1.000000000000000e+00,0.000000000000000e+00
	0.000000000000000e+00,0.000000000000000e+00
	6.304120981770337e-05,9.661005210520663e-14
	6.304120981577899e-05,9.656740414941510e-14
	-2.549512641701850e-08,-1.300991889201200e-13
	4.200783354246834e-05,1.461389199059731e-12
	-3.362197859395425e-05,-5.151164960608031e-14
	-8.360359822097066e-06,-1.279778360533531e-12
	2.549512641701849e-08,1.300991889201199e-13
	-4.200783354235682e-05,-1.461389199059731e-12
	2.549512641701849e-08,1.300991889201199e-13
4		1.096478196143185e+00,0.000000000000000e+00
	2.549512641701850e-04,1.331295883233686e-09
	1.000000000000000e+00,0.000000000000000e+00
	0.000000000000000e+00,0.000000000000000e+00
	6.304120981770337e-05,9.886038930313645e-14
	6.304120981577899e-05,9.881674794883988e-14
	-2.549512641701850e-08,-1.331295883233688e-13
	4.200783354246834e-05,1.495429326392607e-12
	-3.362197859395425e-05,-5.271151006272364e-14
	-8.360359822097066e-06,-1.309588228006514e-12
	2.549512641701850e-08,1.331295883233686e-13
	-4.200783354235682e-05,-1.495429326392607e-12
	2.549512641701850e-08,1.331295883233686e-13
5		1.122018454301963e+00,0.000000000000000e+00
	2.549512641701851e-04,1.362305747965248e-09
	1.000000000000000e+00,0.000000000000000e+00
	0.000000000000000e+00,0.000000000000000e+00
	6.304120981770337e-05,1.011631435880468e-13
	6.304120981577899e-05,1.011184856960215e-13
	-2.549512641701850e-08,-1.362305747965250e-13
	4.200783354246834e-05,1.530262350148683e-12
	-3.362197859395425e-05,-5.393931885972158e-14
	-8.360359822097066e-06,-1.340092456492437e-12
	2.549512641701851e-08,1.362305747965248e-13
	-4.200783354235682e-05,-1.530262350148683e-12
	2.549512641701851e-08,1.362305747965248e-13
6		1.148153621496882e+00,0.000000000000000e+00
	2.549512641701851e-04,1.394037925236630e-09
	1.000000000000000e+00,0.000000000000000e+00
	0.000000000000000e+00,0.000000000000000e+00
	6.304120981770337e-05,1.035195359107400e-13
	6.304120981577899e-05,1.034738378027804e-13
	-2.549512641701852e-08,-1.394037925236628e-13
	4.200783354246834e-05,1.565906739258225e-12
	-3.362197859395425e-05,-5.519572699755020e-14
	-8.360359822097066e-06,-1.371307219737012e-12
	2.549512641701851e-08,1.394037925236630e-13
	-4.200783354235682e-05,-1.565906739258225e-12
	2.549512641701851e-08,1.394037925236630e-13
7		1.174897554939529e+00,0.000000000000000e+00
	2.549512641701852e-04,1.426509239868245e-09
	1.000000000000000e+00,0.000000000000000e+00
	0.000000000000000e+00,0.000000000000000e+00
	6.304120981770337e-05,1.059308156616161e-13
	6.304120981577899e-05,1.058840531079806e-13
	-2.549512641701852e-08,-1.426509239868245e-13
	4.200783354246834e-05,1.602381392848147e-12
	-3.362197859395425e-05,-5.648140064043475e-14
	-8.360359822097066e-06,-1.403249068220888e-12
	2.549512641701852e-08,1.426509239868245e-13
	-4.200783354235682e-05,-1.602381392848148e-12
	2.549512641701852e-08,1.426509239868245e-13
8		1.202264434617413e+00,0.000000000000000e+00
	2.549512641701854e-04,1.459736908580921e-09
	1.000000000000000e+00,0.000000000000000e+00
	0.000000000000000e+00,0.000000000000000e+00
	6.304120981770337e-05,1.083982613331161e-13
	6.304120981577899e-05,1.083504095396797e-13
	-2.549512641701852e-08,-1.459736908580920e-13
	4.200783354246834e-05,1.639705650262584e-12
	-3.362197859395425e-05,-5.779702146955858e-14
	-8.360359822097066e-06,-1.435934937934933e-12
	2.549512641701854e-08,1.459736908580921e-13
	-4.200783354235682e-05,-1.639705650262584e-12
	2.549512641701854e-08,1.459736908580921e-13
9		1.230268770812381e+00,0.000000000000000e+00
	2.549512641701855e-04,1.493738549124428e-09
	1.000000000000000e+00,0.000000000000000e+00
	0.000000000000000e+00,0.000000000000000e+00
	6.304120981770337e-05,1.109231811975955e-13
	6.304120981577899e-05,1.108742147927040e-13
	-2.549512641701852e-08,-1.493738549124428e-13
	4.200783354246834e-05,1.677899301316859e-12
	-3.362197859395425e-05,-5.914328704449958e-14
	-8.360359822097066e-06,-1.469382159359917e-12
	2.549512641701855e-08,1.493738549124428e-13
	-4.200783354235682e-05,-1.677899301316859e-12
	2.549512641701855e-08,1.493738549124428e-13
10		1.258925411794167e+00,0.000000000000000e+00
	2.549512641701855e-04,1.528532189618648e-09
	1.000000000000000e+00,0.000000000000000e+00
	0.000000000000000e+00,0.000000000000000e+00
	6.304120981770337e-05,1.135069140009878e-13
	6.304120981577899e-05,1.134568070220052e-13
	-2.549512641701855e-08,-1.528532189618649e-13
	4.200783354246834e-05,1.716982596790316e-12
	-3.362197859395425e-05,-6.052091117308555e-14
	-8.360359822097066e-06,-1.503608466655365e-12
	2.549512641701855e-08,1.528532189618648e-13
	-4.200783354235682e-05,-1.716982596790316e-12
	2.549512641701855e-08,1.528532189618648e-13
11		1.288249551693134e+00,0.000000000000000e+00
	2.549512641701856e-04,1.564136278112320e-09
	1.000000000000000e+00,0.000000000000000e+00
	0.000000000000000e+00,0.000000000000000e+00
	6.304120981770337e-05,1.161508296726251e-13
	6.304120981577899e-05,1.160995555521678e-13
	-2.549512641701858e-08,-1.564136278112319e-13
	4.200783354246834e-05,1.756976259163542e-12
	-3.362197859395425e-05,-6.193062428986444e-14
	-8.360359822097066e-06,-1.538632007062445e-12
	2.549512641701856e-08,1.564136278112320e-13
	-4.200783354235682e-05,-1.756976259163542e-12
	2.549512641701856e-08,1.564136278112320e-13
12		1.318256738556407e+00,0.000000000000000e+00
	2.549512641701858e-04,1.600569692364437e-09
	1.000000000000000e+00,0.000000000000000e+00
	0.000000000000000e+00,0.000000000000000e+00
	6.304120981770337e-05,1.188563300515927e-13
	6.304120981577899e-05,1.188038616034434e-13
	-2.549512641701858e-08,-1.600569692364438e-13
	4.200783354246834e-05,1.797901493605706e-12
	-3.362197859395425e-05,-6.337317384339052e-14
	-8.360359822097066e-06,-1.574471350525872e-12
	2.549512641701858e-08,1.600569692364437e-13
	-4.200783354235682e-05,-1.797901493605706e-12
	2.549512641701858e-08,1.600569692364437e-13
13		1.348962882591653e+00,0.000000000000000e+00
	2.549512641701859e-04,1.637851749853491e-09
	1.000000000000000e+00,0.000000000000000e+00
	0.000000000000000e+00,0.000000000000000e+00
	6.304120981770337e-05,1.216248496300032e-13
	6.304120981577899e-05,1.215711590346962e-13
	-2.549512641701858e-08,-1.637851749853491e-13
	4.200783354246834e-05,1.839779999217820e-12
	-3.362197859395425e-05,-6.484932469253151e-14
	-8.360359822097066e-06,-1.611145499539939e-12
	2.549512641701859e-08,1.637851749853491e-13
	-4.200783354235682e-05,-1.839779999217820e-12
	2.549512641701859e-08,1.637851749853491e-13
14		1.380384264602885e+00,0.000000000000000e+00
	2.549512641701860e-04,1.676002218019848e-09
	1.000000000000000e+00,0.000000000000000e+00
	0.000000000000000e+00,0.000000000000000e+00
	6.304120981770337e-05,1.244578563135828e-13
	6.304120981577899e-05,1.244029151036537e-13
	-2.549512641701860e-08,-1.676002218019848e-13
	4.200783354246834e-05,1.882633980537886e-12
	-3.362197859395425e-05,-6.635985951200679e-14
	-8.360359822097066e-06,-1.648673899223895e-12
	2.549512641701860e-08,1.676002218019849e-13
	-4.200783354235682e-05,-1.882633980537887e-12
	2.549512641701860e-08,1.676002218019849e-13
15		1.412537544622754e+00,0.000000000000000e+00
	2.549512641701861e-04,1.715041324746712e-09
	1.000000000000000e+00,0.000000000000000e+00
	0.000000000000000e+00,0.000000000000000e+00
	6.304120981770337e-05,1.273568521999742e-13
	6.304120981577899e-05,1.273006312448664e-13
	-2.549512641701863e-08,-1.715041324746712e-13
	4.200783354246834e-05,1.926486159314041e-12
	-3.362197859395425e-05,-6.790557920737187e-14
	-8.360359822097066e-06,-1.687076447631998e-12
	2.549512641701861e-08,1.715041324746712e-13
	-4.200783354235682e-05,-1.926486159314041e-12
	2.549512641701861e-08,1.715041324746712e-13
16		1.445439770745927e+00,0.000000000000000e+00
	2.549512641701863e-04,1.754989769085211e-09
	1.000000000000000e+00,0.000000000000000e+00
	0.000000000000000e+00,0.000000000000000e+00
	6.304120981770337e-05,1.303233743751694e-13
	6.304120981577899e-05,1.302658438657882e-13
	-2.549512641701863e-08,-1.754989769085209e-13
	4.200783354246834e-05,1.971359786551923e-12
	-3.362197859395425e-05,-6.948730333966932e-14
	-8.360359822097066e-06,-1.726373506303732e-12
	2.549512641701863e-08,1.754989769085211e-13
	-4.200783354235682e-05,-1.971359786551923e-12
	2.549512641701863e-08,1.754989769085211e-13
17		1.479108388168207e+00,0.000000000000000e+00
	2.549512641701864e-04,1.795868732229315e-09
	1.000000000000000e+00,0.000000000000000e+00
	0.000000000000000e+00,0.000000000000000e+00
	6.304120981770337e-05,1.333589957284921e-13
	6.304120981577899e-05,1.333001251614000e-13
	-2.549512641701863e-08,-1.795868732229314e-13
	4.200783354246834e-05,2.017278654842665e-12
	-3.362197859395425e-05,-7.110587055997067e-14
	-8.360359822097066e-06,-1.766585911059763e-12
	2.549512641701864e-08,1.795868732229315e-13
	-4.200783354235682e-05,-2.017278654842666e-12
	2.549512641701864e-08,1.795868732229315e-13
18		1.513561248436208e+00,0.000000000000000e+00
	2.549512641701865e-04,1.837699888746380e-09
	1.000000000000000e+00,0.000000000000000e+00
	0.000000000000000e+00,0.000000000000000e+00
	6.304120981770337e-05,1.364653257865649e-13
	6.304120981577899e-05,1.364050839478080e-13
	-2.549512641701866e-08,-1.837699888746381e-13
	4.200783354246834e-05,2.064267110978046e-12
	-3.362197859395425e-05,-7.276213905404035e-14
	-8.360359822097066e-06,-1.807734983049367e-12
	2.549512641701866e-08,1.837699888746380e-13
	-4.200783354235682e-05,-2.064267110978046e-12
	2.549512641701866e-08,1.837699888746380e-13
19		1.548816618912481e+00,0.000000000000000e+00
	2.549512641701867e-04,1.880505418069291e-09
	1.000000000000000e+00,0.000000000000000e+00
	0.000000000000000e+00,0.000000000000000e+00
	6.304120981770337e-05,1.396440115667020e-13
	6.304120981577899e-05,1.395823665152599e-13
	-2.549512641701868e-08,-1.880505418069296e-13
	4.200783354246834e-05,2.112350068859472e-12
	-3.362197859395425e-05,-7.445698699735728e-14
	-8.360359822097066e-06,-1.849842540055185e-12
	2.549512641701867e-08,1.880505418069291e-13
	-4.200783354235682e-05,-2.112350068859472e-12
	2.549512641701867e-08,1.880505418069291e-13
20		1.584893192461113e+00,0.000000000000000e+00
	2.549512641701869e-04,1.924308016256297e-09
	1.000000000000000e+00,0.000000000000000e+00
	0.000000000000000e+00,0.000000000000000e+00
	6.304120981770337e-05,1.428967384501787e-13
	6.304120981577899e-05,1.428336575010292e-13
	-2.549512641701868e-08,-1.924308016256295e-13
	4.200783354246834e-05,2.161553022707666e-12
	-3.362197859395425e-05,-7.619131302073492e-14
	-8.360359822097066e-06,-1.892930908061301e-12
	2.549512641701869e-08,1.924308016256297e-13
	-4.200783354235682e-05,-2.161553022707666e-12
	2.549512641701869e-08,1.924308016256297e-13
21		1.621810097358929e+00,0.000000000000000e+00
	2.549512641701870e-04,1.969130908024748e-09
	1.000000000000000e+00,0.000000000000000e+00
	0.000000000000000e+00,0.000000000000000e+00
	6.304120981770337e-05,1.462252310758437e-13
	6.304120981577899e-05,1.461606807826326e-13
	-2.549512641701871e-08,-1.969130908024747e-13
	4.200783354246834e-05,2.211902060580036e-12
	-3.362197859395425e-05,-7.796603668678742e-14
	-8.360359822097066e-06,-1.937022933090774e-12
	2.549512641701870e-08,1.969130908024748e-13
	-4.200783354235682e-05,-2.211902060580037e-12
	2.549512641701870e-08,1.969130908024748e-13
22		1.659586907437560e+00,0.000000000000000e+00
	2.549512641701873e-04,2.014997859065162e-09
	1.000000000000000e+00,0.000000000000000e+00
	0.000000000000000e+00,0.000000000000000e+00
	6.304120981770337e-05,1.496312542545447e-13
	6.304120981577899e-05,1.495652003918522e-13
	-2.549512641701871e-08,-2.014997859065162e-13
	4.200783354246834e-05,2.263423878202911e-12
	-3.362197859395425e-05,-7.978209897749374e-14
	-8.360359822097066e-06,-1.982141993318901e-12
	2.549512641701873e-08,2.014997859065162e-13
	-4.200783354235682e-05,-2.263423878202911e-12
	2.549512641701873e-08,2.014997859065162e-13
23		1.698243652461743e+00,0.000000000000000e+00
	2.549512641701874e-04,2.061933188642103e-09
	1.000000000000000e+00,0.000000000000000e+00
	0.000000000000000e+00,0.000000000000000e+00
	6.304120981770337e-05,1.531166139048554e-13
	6.304120981577899e-05,1.530490214500491e-13
	-2.549512641701876e-08,-2.061933188642102e-13
	4.200783354246834e-05,2.316145793125966e-12
	-3.362197859395425e-05,-8.164046279311888e-14
	-8.360359822097068e-06,-2.028312011468637e-12
	2.549512641701874e-08,2.061933188642103e-13
	-4.200783354235682e-05,-2.316145793125967e-12
	2.549512641701874e-08,2.061933188642103e-13
24		1.737800828749374e+00,0.000000000000000e+00
	2.549512641701876e-04,2.109961782488574e-09
	1.000000000000000e+00,0.000000000000000e+00
	0.000000000000000e+00,0.000000000000000e+00
	6.304120981770337e-05,1.566831580105965e-13
	6.304120981577899e-05,1.566139911252620e-13
	-2.549512641701876e-08,-2.109961782488575e-13
	4.200783354246834e-05,2.370095759206350e-12
	-3.362197859395425e-05,-8.354211346275619e-14
	-8.360359822097068e-06,-2.075557467494737e-12
	2.549512641701876e-08,2.109961782488574e-13
	-4.200783354235682e-05,-2.370095759206350e-12
	2.549512641701876e-08,2.109961782488574e-13
25		1.778279410038922e+00,0.000000000000000e+00
	2.549512641701878e-04,2.159109106000767e-09
	1.000000000000000e+00,0.000000000000000e+00
	0.000000000000000e+00,0.000000000000000e+00
	6.304120981770337e-05,1.603327776006614e-13
	6.304120981577899e-05,1.602619996116008e-13
	-2.549512641701876e-08,-2.159109106000766e-13
	4.200783354246834e-05,2.425302381430191e-12
	-3.362197859395425e-05,-8.548805926676205e-14
	-8.360359822097068e-06,-2.123903411563353e-12
	2.549512641701879e-08,2.159109106000767e-13
	-4.200783354235682e-05,-2.425302381430192e-12
	2.549512641701879e-08,2.159109106000767e-13
26		1.819700858609982e+00,0.000000000000000e+00
	2.549512641701881e-04,2.209401217740149e-09
	1.000000000000000e+00,0.000000000000000e+00
	0.000000000000000e+00,0.000000000000000e+00
	6.304120981770337e-05,1.640674077516655e-13
	6.304120981577899e-05,1.639949811314521e-13
	-2.549512641701879e-08,-2.209401217740145e-13
	4.200783354246834e-05,2.481794931079339e-12
	-3.362197859395425e-05,-8.747933197135938e-14
	-8.360359822097068e-06,-2.173375477333965e-12
	2.549512641701881e-08,2.209401217740149e-13
	-4.200783354235682e-05,-2.481794931079341e-12
	2.549512641701881e-08,2.209401217740149e-13
27		1.862087136662866e+00,0.000000000000000e+00
	2.549512641701883e-04,2.260864783250059e-09
	1.000000000000000e+00,0.000000000000000e+00
	0.000000000000000e+00,0.000000000000000e+00
	6.304120981770337e-05,1.678890286139484e-13
	6.304120981577899e-05,1.678149149610294e-13
	-2.549512641701882e-08,-2.260864783250060e-13
	4.200783354246834e-05,2.539603361251385e-12
	-3.362197859395425e-05,-8.951698737569378e-14
	-8.360359822097068e-06,-2.223999895550685e-12
	2.549512641701883e-08,2.260864783250059e-13
	-4.200783354235682e-05,-2.539603361251386e-12
	2.549512641701883e-08,2.260864783250059e-13
28		1.905460717963246e+00,0.000000000000000e+00
	2.549512641701885e-04,2.313527089194130e-09
	1.000000000000000e+00,0.000000000000000e+00
	0.000000000000000e+00,0.000000000000000e+00
	6.304120981770337e-05,1.717996664614764e-13
	6.304120981577899e-05,1.717238264798120e-13
	-2.549512641701884e-08,-2.313527089194132e-13
	4.200783354246834e-05,2.598758322741191e-12
	-3.362197859395425e-05,-9.160210587163217e-14
	-8.360359822097068e-06,-2.275803507950146e-12
	2.549512641701885e-08,2.313527089194131e-13
	-4.200783354235682e-05,-2.598758322741191e-12
	2.549512641701885e-08,2.313527089194131e-13
29		1.949844599758044e+00,0.000000000000000e+00
	2.549512641701888e-04,2.367416057824045e-09
	1.000000000000000e+00,0.000000000000000e+00
	0.000000000000000e+00,0.000000000000000e+00
	6.304120981770337e-05,1.758013947661997e-13
	6.304120981577899e-05,1.757237882444279e-13
	-2.549512641701887e-08,-2.367416057824046e-13
	4.200783354246834e-05,2.659291180292347e-12
	-3.362197859395425e-05,-9.373579301660093e-14
	-8.360359822097068e-06,-2.328813781493341e-12
	2.549512641701888e-08,2.367416057824046e-13
	-4.200783354235682e-05,-2.659291180292347e-12
	2.549512641701888e-08,2.367416057824046e-13
30		1.995262314968878e+00,0.000000000000000e+00
	2.549512641701890e-04,2.422560261784274e-09
	1.000000000000000e+00,0.000000000000000e+00
	0.000000000000000e+00,0.000000000000000e+00
	6.304120981770337e-05,1.798963352974346e-13
	6.304120981577899e-05,1.798169210875502e-13
	-2.549512641701890e-08,-2.422560261784274e-13
	4.200783354246834e-05,2.721234029227174e-12
	-3.362197859395425e-05,-9.591918011976699e-14
	-8.360359822097068e-06,-2.383058822928980e-12
	2.549512641701891e-08,2.422560261784274e-13
	-4.200783354235682e-05,-2.721234029227174e-12
	2.549512641701891e-08,2.422560261784274e-13
31		2.041737944669527e+00,0.000000000000000e+00
	2.549512641701893e-04,2.478988939261677e-09
	1.000000000000000e+00,0.000000000000000e+00
	0.000000000000000e+00,0.000000000000000e+00
	6.304120981770337e-05,1.840866592468536e-13
	6.304120981577899e-05,1.840053952423915e-13
	-2.549512641701892e-08,-2.478988939261674e-13
	4.200783354246834e-05,2.784619712464088e-12
	-3.362197859395425e-05,-9.815342484187296e-14
	-8.360359822097068e-06,-2.438567393696047e-12
	2.549512641701893e-08,2.478988939261677e-13
	-4.200783354235682e-05,-2.784619712464088e-12
	2.549512641701893e-08,2.478988939261677e-13
32		2.089296130854037e+00,0.000000000000000e+00
	2.549512641701896e-04,2.536732009487974e-09
	1.000000000000000e+00,0.000000000000000e+00
	0.000000000000000e+00,0.000000000000000e+00
	6.304120981770337e-05,1.883745883796804e-13
	6.304120981577899e-05,1.882914314933896e-13
	-2.549512641701895e-08,-2.536732009487973e-13
