Title: * GA CMOS Amp | W=4.459016234840827e-05 L=6.828177677525382e-07 Vbias=1.2686904847806457
Date: Sat Sep  6 22:06:37 2025
Plotname: AC Analysis
Flags: complex forward log
No. Variables: 13
No. Points:          901
Offset:    0.0000000000000000e+00
Command: Linear Technology Corporation LTspice
Variables:
	0	frequency	frequency
	1	V(out)	voltage
	2	V(g)	voltage
	3	V(vdd)	voltage
	4	V(m1#dbody)	voltage
	5	V(m1#sbody)	voltage
	6	Id(M1)	device_current
	7	Ig(M1)	device_current
	8	Ib(M1)	device_current
	9	Is(M1)	device_current
	10	I(Rload)	device_current
	11	I(Vg)	device_current
	12	I(Vdd)	device_current
Values:
0		1.000000000000000e+00,0.000000000000000e+00
	6.238110112593251e-03,6.329978492854468e-10
	1.000000000000000e+00,0.000000000000000e+00
	0.000000000000000e+00,0.000000000000000e+00
	1.851349801754756e-04,9.456615773751255e-14
	1.851349801226582e-04,8.795476711712547e-14
	-6.238110112593201e-07,-6.329978492854652e-14
	1.379707117057723e-04,8.020987058928007e-12
	-9.873865614365367e-05,-4.747445478848144e-14
	-3.860824455085928e-05,-7.910212819210979e-12
	6.238110112593251e-07,6.329978492854468e-14
	-1.379707117057788e-04,-8.020987058928006e-12
	6.238110112593251e-07,6.329978492854468e-14
1		1.023292992280754e+00,0.000000000000000e+00
	6.238110112593251e-03,6.477422633025869e-10
	1.000000000000000e+00,0.000000000000000e+00
	0.000000000000000e+00,0.000000000000000e+00
	1.851349801754756e-04,9.676888651971300e-14
	1.851349801226582e-04,9.000349682864019e-14
	-6.238110112593201e-07,-6.477422633025824e-14
	1.379707117057723e-04,8.207819848575647e-12
	-9.873865614365367e-05,-4.858027689740255e-14
	-3.860824455085928e-05,-8.094465345347985e-12
	6.238110112593251e-07,6.477422633025868e-14
	-1.379707117057788e-04,-8.207819848575645e-12
	6.238110112593251e-07,6.477422633025868e-14
2		1.047128548050899e+00,0.000000000000000e+00
	6.238110112593251e-03,6.628301188416120e-10
	1.000000000000000e+00,0.000000000000000e+00
	0.000000000000000e+00,0.000000000000000e+00
	1.851349801754756e-04,9.902292344643384e-14
	1.851349801226582e-04,9.209994758551058e-14
	-6.238110112593269e-07,-6.628301188416133e-14
	1.379707117057723e-04,8.399004532950339e-12
	-9.873865614365367e-05,-4.971185691217063e-14
	-3.860824455085928e-05,-8.283009664154007e-12
	6.238110112593251e-07,6.628301188416120e-14
	-1.379707117057788e-04,-8.399004532950336e-12
	6.238110112593251e-07,6.628301188416120e-14
3		1.071519305237606e+00,0.000000000000000e+00
	6.238110112593251e-03,6.782694156832410e-10
	1.000000000000000e+00,0.000000000000000e+00
	0.000000000000000e+00,0.000000000000000e+00
	1.851349801754756e-04,1.013294636378893e-13
	1.851349801226582e-04,9.424523095367774e-14
	-6.238110112593269e-07,-6.782694156832383e-14
	1.379707117057723e-04,8.594642480702367e-12
	-9.873865614365367e-05,-5.086979481148778e-14
	-3.860824455085928e-05,-8.475945744322555e-12
	6.238110112593251e-07,6.782694156832410e-14
	-1.379707117057788e-04,-8.594642480702368e-12
	6.238110112593251e-07,6.782694156832410e-14
4		1.096478196143185e+00,0.000000000000000e+00
	6.238110112593251e-03,6.940683399470221e-10
	1.000000000000000e+00,0.000000000000000e+00
	0.000000000000000e+00,0.000000000000000e+00
	1.851349801754756e-04,1.036897300522196e-13
	1.851349801226582e-04,9.644048439077962e-14
	-6.238110112593269e-07,-6.940683399470260e-14
	1.379707117057723e-04,8.794837421661208e-12
	-9.873865614365367e-05,-5.205470454935530e-14
	-3.860824455085928e-05,-8.673375883117150e-12
	6.238110112593251e-07,6.940683399470222e-14
	-1.379707117057788e-04,-8.794837421661206e-12
	6.238110112593251e-07,6.940683399470222e-14
5		1.122018454301963e+00,0.000000000000000e+00
	6.238110112593251e-03,7.102352684317242e-10
	1.000000000000000e+00,0.000000000000000e+00
	0.000000000000000e+00,0.000000000000000e+00
	1.851349801754756e-04,1.061049741339195e-13
	1.851349801226582e-04,9.868687184924626e-14
	-6.238110112593269e-07,-7.102352684317313e-14
	1.379707117057723e-04,8.999695501834452e-12
	-9.873865614365367e-05,-5.326721438060038e-14
	-3.860824455085928e-05,-8.875404760610678e-12
	6.238110112593251e-07,7.102352684317243e-14
	-1.379707117057788e-04,-8.999695501834451e-12
	6.238110112593251e-07,7.102352684317243e-14
6		1.148153621496882e+00,0.000000000000000e+00
	6.238110112593251e-03,7.267787730568237e-10
	1.000000000000000e+00,0.000000000000000e+00
	0.000000000000000e+00,0.000000000000000e+00
	1.851349801754756e-04,1.085764764773705e-13
	1.851349801226582e-04,1.009855843934425e-13
	-6.238110112593269e-07,-7.267787730568198e-14
	1.379707117057723e-04,9.209325339687818e-12
	-9.873865614365367e-05,-5.450796719398498e-14
	-3.860824455085928e-05,-9.082139495188151e-12
	6.238110112593251e-07,7.267787730568237e-14
	-1.379707117057788e-04,-9.209325339687817e-12
	6.238110112593251e-07,7.267787730568237e-14
7		1.174897554939529e+00,0.000000000000000e+00
	6.238110112593251e-03,7.437076254074520e-10
	1.000000000000000e+00,0.000000000000000e+00
	0.000000000000000e+00,0.000000000000000e+00
	1.851349801754756e-04,1.111055475058293e-13
	1.851349801226582e-04,1.033378408311864e-13
	-6.238110112593269e-07,-7.437076254074698e-14
	1.379707117057723e-04,9.423838083736121e-12
	-9.873865614365367e-05,-5.577762085307406e-14
	-3.860824455085928e-05,-9.293689700342299e-12
	6.238110112593251e-07,7.437076254074520e-14
	-1.379707117057788e-04,-9.423838083736119e-12
	6.238110112593251e-07,7.437076254074520e-14
8		1.202264434617413e+00,0.000000000000000e+00
	6.238110112593251e-03,7.610308013852058e-10
	1.000000000000000e+00,0.000000000000000e+00
	0.000000000000000e+00,0.000000000000000e+00
	1.851349801754756e-04,1.136935281662316e-13
	1.851349801226582e-04,1.057448883599770e-13
	-6.238110112593269e-07,-7.610308013852251e-14
	1.379707117057723e-04,9.643347471475661e-12
	-9.873865614365367e-05,-5.707684854504355e-14
	-3.860824455085928e-05,-9.510167542792096e-12
	6.238110112593251e-07,7.610308013852058e-14
	-1.379707117057788e-04,-9.643347471475662e-12
	6.238110112593251e-07,7.610308013852058e-14
9		1.230268770812381e+00,0.000000000000000e+00
	6.238110112593251e-03,7.787574859672874e-10
	1.000000000000000e+00,0.000000000000000e+00
	0.000000000000000e+00,0.000000000000000e+00
	1.851349801754756e-04,1.163417906401793e-13
	1.851349801226582e-04,1.082080032282752e-13
	-6.238110112593269e-07,-7.787574859673054e-14
	1.379707117057723e-04,9.867969889689376e-12
	-9.873865614365367e-05,-5.840633913761301e-14
	-3.860824455085928e-05,-9.731687801955032e-12
	6.238110112593251e-07,7.787574859672875e-14
	-1.379707117057788e-04,-9.867969889689373e-12
	6.238110112593251e-07,7.787574859672875e-14
10		1.258925411794167e+00,0.000000000000000e+00
	6.238110112593251e-03,7.968970780765032e-10
	1.000000000000000e+00,0.000000000000000e+00
	0.000000000000000e+00,0.000000000000000e+00
	1.851349801754756e-04,1.190517390714901e-13
	1.851349801226582e-04,1.107284914121872e-13
	-6.238110112593269e-07,-7.968970780765023e-14
	1.379707117057723e-04,1.009782443615662e-11
	-9.873865614365367e-05,-5.976679754429254e-14
	-3.860824455085928e-05,-9.958367930804681e-12
	6.238110112593251e-07,7.968970780765032e-14
	-1.379707117057788e-04,-1.009782443615662e-11
	6.238110112593251e-07,7.968970780765032e-14
11		1.288249551693134e+00,0.000000000000000e+00
	6.238110112593251e-03,8.154591955646948e-10
	1.000000000000000e+00,0.000000000000000e+00
	0.000000000000000e+00,0.000000000000000e+00
	1.851349801754756e-04,1.218248103106927e-13
	1.851349801226582e-04,1.133076893079109e-13
	-6.238110112593269e-07,-8.154591955647086e-14
	1.379707117057723e-04,1.033303298280043e-11
	-9.873865614365367e-05,-6.115894509813714e-14
	-3.860824455085928e-05,-1.019032811814583e-11
	6.238110112593251e-07,8.154591955646949e-14
	-1.379707117057788e-04,-1.033303298280043e-11
	6.238110112593251e-07,8.154591955646949e-14
12		1.318256738556407e+00,0.000000000000000e+00
	6.238110112593251e-03,8.344536803122530e-10
	1.000000000000000e+00,0.000000000000000e+00
	0.000000000000000e+00,0.000000000000000e+00
	1.851349801754756e-04,1.246624746768640e-13
	1.851349801226582e-04,1.159469644403101e-13
	-6.238110112593269e-07,-8.344536803122767e-14
	1.379707117057723e-04,1.057372024030558e-11
	-9.873865614365367e-05,-6.258351993420713e-14
	-3.860824455085928e-05,-1.042769135234015e-11
	6.238110112593251e-07,8.344536803122531e-14
	-1.379707117057788e-04,-1.057372024030558e-11
	6.238110112593251e-07,8.344536803122531e-14
13		1.348962882591653e+00,0.000000000000000e+00
	6.238110112593251e-03,8.538906034464134e-10
	1.000000000000000e+00,0.000000000000000e+00
	0.000000000000000e+00,0.000000000000000e+00
	1.851349801754756e-04,1.275662367372119e-13
	1.851349801226582e-04,1.186477161879952e-13
	-6.238110112593269e-07,-8.538906034464133e-14
	1.379707117057723e-04,1.082001382424187e-11
	-9.873865614365367e-05,-6.404127738093704e-14
	-3.860824455085928e-05,-1.067058348651629e-11
	6.238110112593251e-07,8.538906034464135e-14
	-1.379707117057788e-04,-1.082001382424187e-11
	6.238110112593251e-07,8.538906034464135e-14
14		1.380384264602885e+00,0.000000000000000e+00
	6.238110112593251e-03,8.737802706810994e-10
	1.000000000000000e+00,0.000000000000000e+00
	0.000000000000000e+00,0.000000000000000e+00
	1.851349801754756e-04,1.305376361048167e-13
	1.851349801226582e-04,1.214113765252912e-13
	-6.238110112593269e-07,-8.737802706810991e-14
	1.379707117057723e-04,1.107204432272759e-11
	-9.873865614365367e-05,-6.553299036062084e-14
	-3.860824455085928e-05,-1.091913330529886e-11
	6.238110112593251e-07,8.737802706810995e-14
	-1.379707117057788e-04,-1.107204432272759e-11
	6.238110112593251e-07,8.737802706810995e-14
15		1.412537544622754e+00,0.000000000000000e+00
	6.238110112593251e-03,8.941332277811492e-10
	1.000000000000000e+00,0.000000000000000e+00
	0.000000000000000e+00,0.000000000000000e+00
	1.851349801754756e-04,1.335782482549540e-13
	1.851349801226582e-04,1.242394107814905e-13
	-6.238110112593269e-07,-8.941332277811656e-14
	1.379707117057723e-04,1.132994536566905e-11
	-9.873865614365367e-05,-6.705944979922553e-14
	-3.860824455085928e-05,-1.117347259309171e-11
	6.238110112593251e-07,8.941332277811493e-14
	-1.379707117057788e-04,-1.132994536566905e-11
	6.238110112593251e-07,8.941332277811493e-14
16		1.445439770745927e+00,0.000000000000000e+00
	6.238110112593251e-03,9.149602661538212e-10
	1.000000000000000e+00,0.000000000000000e+00
	0.000000000000000e+00,0.000000000000000e+00
	1.851349801754756e-04,1.366896853604333e-13
	1.851349801226582e-04,1.271333184177892e-13
	-6.238110112593269e-07,-9.149602661538346e-14
	1.379707117057723e-04,1.159385369561294e-11
	-9.873865614365367e-05,-6.862146504575048e-14
	-3.860824455085928e-05,-1.143373620395181e-11
	6.238110112593251e-07,9.149602661538212e-14
	-1.379707117057788e-04,-1.159385369561294e-11
	6.238110112593251e-07,9.149602661538212e-14
17		1.479108388168207e+00,0.000000000000000e+00
	6.238110112593251e-03,9.362724285705388e-10
	1.000000000000000e+00,0.000000000000000e+00
	0.000000000000000e+00,0.000000000000000e+00
	1.851349801754756e-04,1.398735971463926e-13
	1.851349801226582e-04,1.300946338223215e-13
	-6.238110112593269e-07,-9.362724285705298e-14
	1.379707117057723e-04,1.186390924024905e-11
	-9.873865614365367e-05,-7.021986430135519e-14
	-3.860824455085928e-05,-1.170006213309064e-11
	6.238110112593251e-07,9.362724285705388e-14
	-1.379707117057788e-04,-1.186390924024905e-11
	6.238110112593251e-07,9.362724285705388e-14
18		1.513561248436208e+00,0.000000000000000e+00
	6.238110112593251e-03,9.580810150219153e-10
	1.000000000000000e+00,0.000000000000000e+00
	0.000000000000000e+00,0.000000000000000e+00
	1.851349801754756e-04,1.431316717650049e-13
	1.851349801226582e-04,1.331249271237123e-13
	-6.238110112593269e-07,-9.580810150219259e-14
	1.379707117057723e-04,1.214025518660174e-11
	-9.873865614365367e-05,-7.185549505848227e-14
	-3.860824455085928e-05,-1.197259159004106e-11
	6.238110112593251e-07,9.580810150219153e-14
	-1.379707117057788e-04,-1.214025518660174e-11
	6.238110112593251e-07,9.580810150219153e-14
19		1.548816618912481e+00,0.000000000000000e+00
	6.238110112593251e-03,9.803975887091580e-10
	1.000000000000000e+00,0.000000000000000e+00
	0.000000000000000e+00,0.000000000000000e+00
	1.851349801754756e-04,1.464656366905585e-13
	1.851349801226582e-04,1.362258050235809e-13
	-6.238110112593269e-07,-9.803975887091522e-14
	1.379707117057723e-04,1.242303805694964e-11
	-9.873865614365367e-05,-7.352922455020926e-14
	-3.860824455085929e-05,-1.225146907352851e-11
	6.238110112593251e-07,9.803975887091580e-14
	-1.379707117057788e-04,-1.242303805694963e-11
	6.238110112593251e-07,9.803975887091580e-14
20		1.584893192461113e+00,0.000000000000000e+00
	6.238110112593251e-03,1.003233982175030e-09
	1.000000000000000e+00,0.000000000000000e+00
	0.000000000000000e+00,0.000000000000000e+00
	1.851349801754756e-04,1.498772596353874e-13
	1.851349801226582e-04,1.393989116484347e-13
	-6.238110112593269e-07,-1.003233982175042e-13
	1.379707117057723e-04,1.271240778651368e-11
	-9.873865614365367e-05,-7.524194021006712e-14
	-3.860824455085929e-05,-1.253684244808611e-11
	6.238110112593251e-07,1.003233982175030e-13
	-1.379707117057788e-04,-1.271240778651368e-11
	6.238110112593251e-07,1.003233982175030e-13
21		1.621810097358929e+00,0.000000000000000e+00
	6.238110112593251e-03,1.026602303577623e-09
	1.000000000000000e+00,0.000000000000000e+00
	0.000000000000000e+00,0.000000000000000e+00
	1.851349801754756e-04,1.533683494871351e-13
	1.851349801226582e-04,1.426459294214072e-13
	-6.238110112593201e-07,-1.026602303577619e-13
	1.379707117057723e-04,1.300851780295474e-11
	-9.873865614365367e-05,-7.699455014256916e-14
	-3.860824455085929e-05,-1.282886302245441e-11
	6.238110112593252e-07,1.026602303577624e-13
	-1.379707117057788e-04,-1.300851780295474e-11
	6.238110112593252e-07,1.026602303577624e-13
22		1.659586907437560e+00,0.000000000000000e+00
	6.238110112593251e-03,1.050514943110261e-09
	1.000000000000000e+00,0.000000000000000e+00
	0.000000000000000e+00,0.000000000000000e+00
	1.851349801754756e-04,1.569407572678510e-13
	1.851349801226582e-04,1.459685799543011e-13
	-6.238110112593201e-07,-1.050514943110273e-13
	1.379707117057723e-04,1.331152510772302e-11
	-9.873865614365367e-05,-7.878798360470018e-14
	-3.860824455085929e-05,-1.312768562980729e-11
	6.238110112593252e-07,1.050514943110261e-13
	-1.379707117057788e-04,-1.331152510772302e-11
	6.238110112593252e-07,1.050514943110261e-13
23		1.698243652461743e+00,0.000000000000000e+00
	6.238110112593251e-03,1.074984579570945e-09
	1.000000000000000e+00,0.000000000000000e+00
	0.000000000000000e+00,0.000000000000000e+00
	1.851349801754756e-04,1.605963771154267e-13
	1.851349801226582e-04,1.493686249604092e-13
	-6.238110112593201e-07,-1.074984579570950e-13
	1.379707117057723e-04,1.362159035930228e-11
	-9.873865614365367e-05,-8.062319149862063e-14
	-3.860824455085929e-05,-1.343346870984656e-11
	6.238110112593252e-07,1.074984579570945e-13
	-1.379707117057788e-04,-1.362159035930227e-11
	6.238110112593252e-07,1.074984579570945e-13
24		1.737800828749374e+00,0.000000000000000e+00
	6.238110112593251e-03,1.100024187084821e-09
	1.000000000000000e+00,0.000000000000000e+00
	0.000000000000000e+00,0.000000000000000e+00
	1.851349801754756e-04,1.643371472878934e-13
	1.851349801226582e-04,1.528478671885989e-13
	-6.238110112593201e-07,-1.100024187084828e-13
	1.379707117057723e-04,1.393887795839310e-11
	-9.873865614365367e-05,-8.250114687584775e-14
	-3.860824455085929e-05,-1.374637439280877e-11
	6.238110112593252e-07,1.100024187084821e-13
	-1.379707117057788e-04,-1.393887795839309e-11
	6.238110112593252e-07,1.100024187084821e-13
25		1.778279410038922e+00,0.000000000000000e+00
	6.238110112593251e-03,1.125647041983231e-09
	1.000000000000000e+00,0.000000000000000e+00
	0.000000000000000e+00,0.000000000000000e+00
	1.851349801754756e-04,1.681650511911115e-13
	1.851349801226582e-04,1.564081513791527e-13
	-6.238110112593201e-07,-1.125647041983245e-13
	1.379707117057723e-04,1.426355613508032e-11
	-9.873865614365367e-05,-8.442284545318025e-14
	-3.860824455085929e-05,-1.406656858542882e-11
	6.238110112593252e-07,1.125647041983231e-13
	-1.379707117057788e-04,-1.426355613508032e-11
	6.238110112593252e-07,1.125647041983231e-13
26		1.819700858609982e+00,0.000000000000000e+00
	6.238110112593251e-03,1.151866729843000e-09
	1.000000000000000e+00,0.000000000000000e+00
	0.000000000000000e+00,0.000000000000000e+00
	1.851349801754756e-04,1.720821184303986e-13
	1.851349801226582e-04,1.600513652418742e-13
	-6.238110112593269e-07,-1.151866729843011e-13
	1.379707117057723e-04,1.459579703803085e-11
	-9.873865614365367e-05,-8.638930614064044e-14
	-3.860824455085929e-05,-1.439422105890591e-11
	6.238110112593252e-07,1.151866729843000e-13
	-1.379707117057788e-04,-1.459579703803085e-11
	6.238110112593252e-07,1.151866729843000e-13
27		1.862087136662866e+00,0.000000000000000e+00
	6.238110112593251e-03,1.178697152689690e-09
	1.000000000000000e+00,0.000000000000000e+00
	0.000000000000000e+00,0.000000000000000e+00
	1.851349801754756e-04,1.760904258866537e-13
	1.851349801226582e-04,1.637794404569773e-13
	-6.238110112593269e-07,-1.178697152689689e-13
	1.379707117057723e-04,1.493577682576915e-11
	-9.873865614365365e-05,-8.840157158171408e-14
	-3.860824455085929e-05,-1.472950553891847e-11
	6.238110112593252e-07,1.178697152689690e-13
	-1.379707117057788e-04,-1.493577682576915e-11
	6.238110112593252e-07,1.178697152689690e-13
28		1.905460717963246e+00,0.000000000000000e+00
	6.238110112593251e-03,1.206152536368638e-09
	1.000000000000000e+00,0.000000000000000e+00
	0.000000000000000e+00,0.000000000000000e+00
	1.851349801754756e-04,1.801920988175462e-13
	1.851349801226582e-04,1.675943536992879e-13
	-6.238110112593269e-07,-1.206152536368644e-13
	1.379707117057723e-04,1.528367576007886e-11
	-9.873865614365365e-05,-9.046070870617349e-14
	-3.860824455085929e-05,-1.507259979773582e-11
	6.238110112593252e-07,1.206152536368638e-13
	-1.379707117057788e-04,-1.528367576007886e-11
	6.238110112593252e-07,1.206152536368638e-13
29		1.949844599758044e+00,0.000000000000000e+00
	6.238110112593251e-03,1.234247438087685e-09
	1.000000000000000e+00,0.000000000000000e+00
	0.000000000000000e+00,0.000000000000000e+00
	1.851349801754756e-04,1.843893119843562e-13
	1.851349801226582e-04,1.714981276863035e-13
	-6.238110112593269e-07,-1.234247438087710e-13
	1.379707117057723e-04,1.563967830157993e-11
	-9.873865614365365e-05,-9.256780929577796e-14
	-3.860824455085929e-05,-1.542368574847538e-11
	6.238110112593252e-07,1.234247438087685e-13
	-1.379707117057788e-04,-1.563967830157993e-11
	6.238110112593252e-07,1.234247438087685e-13
30		1.995262314968878e+00,0.000000000000000e+00
	6.238110112593251e-03,1.262996754135602e-09
	1.000000000000000e+00,0.000000000000000e+00
	0.000000000000000e+00,0.000000000000000e+00
	1.851349801754756e-04,1.886842908050614e-13
	1.851349801226582e-04,1.754928322506643e-13
	-6.238110112593269e-07,-1.262996754135606e-13
	1.379707117057723e-04,1.600397320753211e-11
	-9.873865614365365e-05,-9.472399056315081e-14
	-3.860824455085929e-05,-1.578294954155539e-11
	6.238110112593252e-07,1.262996754135602e-13
	-1.379707117057788e-04,-1.600397320753210e-11
	6.238110112593252e-07,1.262996754135602e-13
31		2.041737944669527e+00,0.000000000000000e+00
	6.238110112593251e-03,1.292415727780300e-09
	1.000000000000000e+00,0.000000000000000e+00
	0.000000000000000e+00,0.000000000000000e+00
	1.851349801754756e-04,1.930793125342832e-13
	1.851349801226582e-04,1.795805854376067e-13
	-6.238110112593269e-07,-1.292415727780294e-13
	1.379707117057723e-04,1.637675363191654e-11
	-9.873865614365365e-05,-9.693039574414050e-14
	-3.860824455085929e-05,-1.615058166339438e-11
	6.238110112593252e-07,1.292415727780300e-13
	-1.379707117057788e-04,-1.637675363191654e-11
	6.238110112593252e-07,1.292415727780300e-13
32		2.089296130854037e+00,0.000000000000000e+00
	6.238110112593252e-03,1.322519957351012e-09
	1.000000000000000e+00,0.000000000000000e+00
	0.000000000000000e+00,0.000000000000000e+00
	1.851349801754756e-04,1.975767074707176e-13
	1.851349801226582e-04,1.837635546279782e-13
