LTspice 24.0.9 for Windows
Circuit: * GA CMOS Amp | W=9.14847411454924e-06 L=9.48806149089698e-07 Vbias=0.5472518141385732
Start Time: Mon Sep  8 18:45:43 2025
solver = Normal
Maximum thread count: 2
tnom = 27
temp = 27
method = modified trap
AsciiRawFile = 1
Instance "m1": Length shorter than recommended for a level 3 MOSFET.
Direct Newton iteration for .op point succeeded.
Semiconductor Device Operating Points:
                        --- MOSFET Transistors ---
Name:          m1
Model:        n_1u
Id:          1.71e-08
Vgs:         5.47e-01
Vds:         1.80e+00
Vbs:         0.00e+00
Vth:         8.20e-01
Vdsat:       4.80e-02
Gm:          3.09e-07
Gds:         1.00e-09
Gmb:         8.59e-08
Cbd:         0.00e+00
Cbs:         0.00e+00
Cgsov:       1.83e-15
Cgdov:       1.83e-15
Cgbov:       7.49e-17
Cgs:         1.74e-15
Cgd:         0.00e+00
Cgb:         4.61e-15



gain_db: MAX(db(v(out)/v(g)))=(35.1383dB,151.472°) FROM 1 TO 1e+09
gain_lin: MAX(mag(v(out)/v(g)))=(-18.8428dB,0°) FROM 1 TO 1e+09

Measurement "fc" FAIL'ed

Total elapsed time: 0.595 seconds.

