Title: * GA CMOS Amp | W=2.8534789766759692e-05 L=6.949864943104594e-07 Vbias=1.2189986113285713
Date: Sat Sep  6 22:06:47 2025
Plotname: AC Analysis
Flags: complex forward log
No. Variables: 13
No. Points:          901
Offset:    0.0000000000000000e+00
Command: Linear Technology Corporation LTspice
Variables:
	0	frequency	frequency
	1	V(out)	voltage
	2	V(g)	voltage
	3	V(vdd)	voltage
	4	V(m1#dbody)	voltage
	5	V(m1#sbody)	voltage
	6	Id(M1)	device_current
	7	Ig(M1)	device_current
	8	Ib(M1)	device_current
	9	Is(M1)	device_current
	10	I(Rload)	device_current
	11	I(Vg)	device_current
	12	I(Vdd)	device_current
Values:
0		1.000000000000000e+00,0.000000000000000e+00
	6.048103202712104e-03,6.600801588181208e-10
	1.000000000000000e+00,0.000000000000000e+00
	0.000000000000000e+00,0.000000000000000e+00
	7.914627495075794e-05,8.068643241563696e-14
	7.914627490230505e-05,7.664621446927711e-14
	-6.048103202712063e-07,-6.600801588181172e-14
	6.294139034747374e-05,5.214776265601613e-12
	-4.221134664971766e-05,-4.118138523586334e-14
	-2.012523337748488e-05,-5.107586864483938e-12
	6.048103202712104e-07,6.600801588181208e-14
	-6.294139034748736e-05,-5.214776265601613e-12
	6.048103202712104e-07,6.600801588181208e-14
1		1.023292992280754e+00,0.000000000000000e+00
	6.048103202712104e-03,6.754554008621502e-10
	1.000000000000000e+00,0.000000000000000e+00
	0.000000000000000e+00,0.000000000000000e+00
	7.914627495075794e-05,8.256586086305600e-14
	7.914627490230505e-05,7.843153415125902e-14
	-6.048103202712063e-07,-6.754554008621441e-14
	6.294139034747374e-05,5.336244008902131e-12
	-4.221134664971766e-05,-4.214062292427306e-14
	-2.012523337748488e-05,-5.226557845891644e-12
	6.048103202712104e-07,6.754554008621503e-14
	-6.294139034748736e-05,-5.336244008902131e-12
	6.048103202712104e-07,6.754554008621503e-14
2		1.047128548050899e+00,0.000000000000000e+00
	6.048103202712104e-03,6.911887783004259e-10
	1.000000000000000e+00,0.000000000000000e+00
	0.000000000000000e+00,0.000000000000000e+00
	7.914627495075794e-05,8.448906682279295e-14
	7.914627490230505e-05,8.025843927081196e-14
	-6.048103202712063e-07,-6.911887783004192e-14
	6.294139034747374e-05,5.460541099409708e-12
	-4.221134664971766e-05,-4.312220412875431e-14
	-2.012523337748488e-05,-5.348300017450912e-12
	6.048103202712104e-07,6.911887783004259e-14
	-6.294139034748736e-05,-5.460541099409708e-12
	6.048103202712104e-07,6.911887783004259e-14
3		1.071519305237606e+00,0.000000000000000e+00
	6.048103202712104e-03,7.072886331779216e-10
	1.000000000000000e+00,0.000000000000000e+00
	0.000000000000000e+00,0.000000000000000e+00
	7.914627495075794e-05,8.645707000410438e-14
	7.914627490230505e-05,8.212789847721237e-14
	-6.048103202712063e-07,-7.072886331779142e-14
	6.294139034747374e-05,5.587733441086998e-12
	-4.221134664971766e-05,-4.412664929665449e-14
	-2.012523337748488e-05,-5.472877928472552e-12
	6.048103202712104e-07,7.072886331779216e-14
	-6.294139034748736e-05,-5.587733441086998e-12
	6.048103202712104e-07,7.072886331779216e-14
4		1.096478196143185e+00,0.000000000000000e+00
	6.048103202712104e-03,7.237635018507999e-10
	1.000000000000000e+00,0.000000000000000e+00
	0.000000000000000e+00,0.000000000000000e+00
	7.914627495075794e-05,8.847091386832659e-14
	7.914627490230505e-05,8.404090298247662e-14
	-6.048103202712063e-07,-7.237635018507970e-14
	6.294139034747374e-05,5.717888472997149e-12
	-4.221134664971766e-05,-4.515449099809700e-14
	-2.012523337748488e-05,-5.600357631813972e-12
	6.048103202712104e-07,7.237635018508000e-14
	-6.294139034748736e-05,-5.717888472997151e-12
	6.048103202712104e-07,7.237635018508000e-14
5		1.122018454301963e+00,0.000000000000000e+00
	6.048103202712104e-03,7.406221195125022e-10
	1.000000000000000e+00,0.000000000000000e+00
	0.000000000000000e+00,0.000000000000000e+00
	7.914627495075794e-05,9.053166618213281e-14
	7.914627490230505e-05,8.599846708691507e-14
	-6.048103202712063e-07,-7.406221195124993e-14
	6.294139034747374e-05,5.851075205060885e-12
	-4.221134664971766e-05,-4.620627420835707e-14
	-2.012523337748488e-05,-5.730806718901279e-12
	6.048103202712104e-07,7.406221195125023e-14
	-6.294139034748736e-05,-5.851075205060884e-12
	6.048103202712104e-07,7.406221195125023e-14
6		1.148153621496882e+00,0.000000000000000e+00
	6.048103202712104e-03,7.578734248252626e-10
	1.000000000000000e+00,0.000000000000000e+00
	0.000000000000000e+00,0.000000000000000e+00
	7.914627495075794e-05,9.264041958367703e-14
	7.914627490230505e-05,8.800162871692727e-14
	-6.048103202712063e-07,-7.578734248252656e-14
	6.294139034747374e-05,5.987364254646481e-12
	-4.221134664971766e-05,-4.728255659681473e-14
	-2.012523337748488e-05,-5.864294355567139e-12
	6.048103202712104e-07,7.578734248252626e-14
	-6.294139034748736e-05,-5.987364254646479e-12
	6.048103202712104e-07,7.578734248252626e-14
7		1.174897554939529e+00,0.000000000000000e+00
	6.048103202712104e-03,7.755265646595060e-10
	1.000000000000000e+00,0.000000000000000e+00
	0.000000000000000e+00,0.000000000000000e+00
	7.914627495075794e-05,9.479829216192544e-14
	7.914627490230505e-05,9.005144997532444e-14
	-6.048103202712063e-07,-7.755265646595101e-14
	6.294139034747374e-05,6.126827884012024e-12
	-4.221134664971766e-05,-4.838390882263865e-14
	-2.012523337748488e-05,-6.000891318723434e-12
	6.048103202712104e-07,7.755265646595060e-14
	-6.294139034748736e-05,-6.126827884012023e-12
	6.048103202712104e-07,7.755265646595060e-14
8		1.202264434617413e+00,0.000000000000000e+00
	6.048103202712104e-03,7.935908989436397e-10
	1.000000000000000e+00,0.000000000000000e+00
	0.000000000000000e+00,0.000000000000000e+00
	7.914627495075794e-05,9.700642804948186e-14
	7.914627490230505e-05,9.214901770447039e-14
	-6.048103202712063e-07,-7.935908989436400e-14
	6.294139034747374e-05,6.269540038619825e-12
	-4.221134664971766e-05,-4.951091483735709e-14
	-2.012523337748488e-05,-6.140670033888104e-12
	6.048103202712104e-07,7.935908989436398e-14
	-6.294139034748736e-05,-6.269540038619825e-12
	6.048103202712104e-07,7.935908989436398e-14
9		1.230268770812381e+00,0.000000000000000e+00
	6.048103202712104e-03,8.120760056268107e-10
	1.000000000000000e+00,0.000000000000000e+00
	0.000000000000000e+00,0.000000000000000e+00
	7.914627495075794e-05,9.926599802922195e-14
	7.914627490230505e-05,9.429544406253969e-14
	-6.048103202712063e-07,-8.120760056268117e-14
	6.294139034747374e-05,6.415576386343276e-12
	-4.221134664971766e-05,-5.066417219447673e-14
	-2.012523337748488e-05,-6.283704613586118e-12
	6.048103202712104e-07,8.120760056268107e-14
	-6.294139034748736e-05,-6.415576386343275e-12
	6.048103202712104e-07,8.120760056268107e-14
10		1.258925411794167e+00,0.000000000000000e+00
	6.048103202712104e-03,8.309916857572617e-10
	1.000000000000000e+00,0.000000000000000e+00
	0.000000000000000e+00,0.000000000000000e+00
	7.914627495075794e-05,1.015782001550580e-13
	7.914627490230505e-05,9.649186711319871e-14
	-6.048103202712063e-07,-8.309916857572585e-14
	6.294139034747374e-05,6.565014357586959e-12
	-4.221134664971766e-05,-5.184429236631347e-14
	-2.012523337748488e-05,-6.430070896644919e-12
	6.048103202712104e-07,8.309916857572618e-14
	-6.294139034748736e-05,-6.565014357586958e-12
	6.048103202712104e-07,8.309916857572618e-14
11		1.288249551693134e+00,0.000000000000000e+00
	6.048103202712104e-03,8.503479686789766e-10
	1.000000000000000e+00,0.000000000000000e+00
	0.000000000000000e+00,0.000000000000000e+00
	7.914627495075794e-05,1.039442603871627e-13
	7.914627490230505e-05,9.873945142902202e-14
	-6.048103202712063e-07,-8.503479686789761e-14
	6.294139034747374e-05,6.717933186341272e-12
	-4.221134664971766e-05,-5.305190106820318e-14
	-2.012523337748488e-05,-6.579846488405171e-12
	6.048103202712104e-07,8.503479686789766e-14
	-6.294139034748736e-05,-6.717933186341271e-12
	6.048103202712104e-07,8.503479686789766e-14
12		1.318256738556407e+00,0.000000000000000e+00
	6.048103202712104e-03,8.701551173493709e-10
	1.000000000000000e+00,0.000000000000000e+00
	0.000000000000000e+00,0.000000000000000e+00
	7.914627495075794e-05,1.063654332419895e-13
	7.914627490230505e-05,1.010393887089641e-13
	-6.048103202712063e-07,-8.701551173493669e-14
	6.294139034747374e-05,6.874413952193340e-12
	-4.221134664971766e-05,-5.428763859026415e-14
	-2.012523337748488e-05,-6.733110801868140e-12
	6.048103202712104e-07,8.701551173493709e-14
	-6.294139034748736e-05,-6.874413952193342e-12
	6.048103202712104e-07,8.701551173493709e-14
13		1.348962882591653e+00,0.000000000000000e+00
	6.048103202712104e-03,8.904236337808485e-10
	1.000000000000000e+00,0.000000000000000e+00
	0.000000000000000e+00,0.000000000000000e+00
	7.914627495075794e-05,1.088430024574343e-13
	7.914627490230505e-05,1.033928984102141e-13
	-6.048103202712063e-07,-8.904236337808488e-14
	6.294139034747375e-05,7.034539623316489e-12
	-4.221134664971766e-05,-5.555216013688755e-14
	-2.012523337748488e-05,-6.889945099801516e-12
	6.048103202712104e-07,8.904236337808485e-14
	-6.294139034748736e-05,-7.034539623316488e-12
	6.048103202712104e-07,8.904236337808485e-14
14		1.380384264602885e+00,0.000000000000000e+00
	6.048103202712104e-03,9.111642646091070e-10
	1.000000000000000e+00,0.000000000000000e+00
	0.000000000000000e+00,0.000000000000000e+00
	7.914627495075794e-05,1.113782816734894e-13
	7.914627490230505e-05,1.058012283947681e-13
	-6.048103202712063e-07,-9.111642646091049e-14
	6.294139034747375e-05,7.198395100461059e-12
	-4.221134664971766e-05,-5.684613617413530e-14
	-2.012523337748488e-05,-7.050432537826013e-12
	6.048103202712104e-07,9.111642646091070e-14
	-6.294139034748736e-05,-7.198395100461060e-12
	6.048103202712104e-07,9.111642646091070e-14
15		1.412537544622754e+00,0.000000000000000e+00
	6.048103202712104e-03,9.323880067911457e-10
	1.000000000000000e+00,0.000000000000000e+00
	0.000000000000000e+00,0.000000000000000e+00
	7.914627495075794e-05,1.139726151287536e-13
	7.914627490230505e-05,1.082656555910617e-13
	-6.048103202712063e-07,-9.323880067911471e-14
	6.294139034747375e-05,7.366067261969917e-12
	-4.221134664971766e-05,-5.817025278523012e-14
	-2.012523337748488e-05,-7.214658208505573e-12
	6.048103202712104e-07,9.323880067911458e-14
	-6.294139034748736e-05,-7.366067261969917e-12
	6.048103202712104e-07,9.323880067911458e-14
16		1.445439770745927e+00,0.000000000000000e+00
	6.048103202712104e-03,9.541061134359992e-10
	1.000000000000000e+00,0.000000000000000e+00
	0.000000000000000e+00,0.000000000000000e+00
	7.914627495075794e-05,1.166273783731650e-13
	7.914627490230505e-05,1.107874866710151e-13
	-6.048103202712063e-07,-9.541061134360054e-14
	6.294139034747375e-05,7.537645009842498e-12
	-4.221134664971766e-05,-5.952521203432599e-14
	-2.012523337748488e-05,-7.382709186464570e-12
	6.048103202712104e-07,9.541061134359993e-14
	-6.294139034748736e-05,-7.537645009842496e-12
	6.048103202712104e-07,9.541061134359993e-14
17		1.479108388168207e+00,0.000000000000000e+00
	6.048103202712104e-03,9.763300997712845e-10
	1.000000000000000e+00,0.000000000000000e+00
	0.000000000000000e+00,0.000000000000000e+00
	7.914627495075794e-05,1.193439789973357e-13
	7.914627490230505e-05,1.133680587428472e-13
	-6.048103202712063e-07,-9.763300997712900e-14
	6.294139034747375e-05,7.713219316871823e-12
	-4.221134664971766e-05,-6.091173233875180e-14
	-2.012523337748488e-05,-7.554674574555942e-12
	6.048103202712104e-07,9.763300997712845e-14
	-6.294139034748736e-05,-7.713219316871821e-12
	6.048103202712104e-07,9.763300997712845e-14
18		1.513561248436208e+00,0.000000000000000e+00
	6.048103202712104e-03,9.990717492487249e-10
	1.000000000000000e+00,0.000000000000000e+00
	0.000000000000000e+00,0.000000000000000e+00
	7.914627495075794e-05,1.221238573788752e-13
	7.914627490230505e-05,1.160087400600284e-13
	-6.048103202712063e-07,-9.990717492487248e-14
	6.294139034747375e-05,7.892883274879480e-12
	-4.221134664971766e-05,-6.233054884992572e-14
	-2.012523337748488e-05,-7.730645551104682e-12
	6.048103202712104e-07,9.990717492487250e-14
	-6.294139034748736e-05,-7.892883274879481e-12
	6.048103202712104e-07,9.990717492487250e-14
19		1.548816618912481e+00,0.000000000000000e+00
	6.048103202712105e-03,1.022343119791895e-09
	1.000000000000000e+00,0.000000000000000e+00
	0.000000000000000e+00,0.000000000000000e+00
	7.914627495075794e-05,1.249684874460973e-13
	7.914627490230505e-05,1.187109307467467e-13
	-6.048103202712029e-07,-1.022343119791890e-13
	6.294139034747375e-05,8.076732144074141e-12
	-4.221134664971766e-05,-6.378241384314220e-14
	-2.012523337748488e-05,-7.910715418251809e-12
	6.048103202712105e-07,1.022343119791895e-13
	-6.294139034748736e-05,-8.076732144074141e-12
	6.048103202712105e-07,1.022343119791895e-13
20		1.584893192461113e+00,0.000000000000000e+00
	6.048103202712105e-03,1.046156550189490e-09
	1.000000000000000e+00,0.000000000000000e+00
	0.000000000000000e+00,0.000000000000000e+00
	7.914627495075794e-05,1.278793774595167e-13
	7.914627490230505e-05,1.214760635402717e-13
	-6.048103202712063e-07,-1.046156550189478e-13
	6.294139034747375e-05,8.264863403559779e-12
	-4.221134664971766e-05,-6.526809711643837e-14
	-2.012523337748488e-05,-8.094979651424392e-12
	6.048103202712105e-07,1.046156550189490e-13
	-6.294139034748736e-05,-8.264863403559782e-12
	6.048103202712105e-07,1.046156550189490e-13
21		1.621810097358929e+00,0.000000000000000e+00
	6.048103202712105e-03,1.070524666637514e-09
	1.000000000000000e+00,0.000000000000000e+00
	0.000000000000000e+00,0.000000000000000e+00
	7.914627495075793e-05,1.308580708115488e-13
	7.914627490230504e-05,1.243056045506117e-13
	-6.048103202712063e-07,-1.070524666637528e-13
	6.294139034747374e-05,8.457376803020387e-12
	-4.221134664971765e-05,-6.678838639875109e-14
	-2.012523337748488e-05,-8.283535949957882e-12
	6.048103202712105e-07,1.070524666637514e-13
	-6.294139034748736e-05,-8.457376803020384e-12
	6.048103202712105e-07,1.070524666637514e-13
22		1.659586907437560e+00,0.000000000000000e+00
	6.048103202712105e-03,1.095460389433859e-09
	1.000000000000000e+00,0.000000000000000e+00
	0.000000000000000e+00,0.000000000000000e+00
	7.914627495075793e-05,1.339061468448366e-13
	7.914627490230504e-05,1.272010540378636e-13
	-6.048103202712063e-07,-1.095460389433859e-13
	6.294139034747374e-05,8.654374415608569e-12
	-4.221134664971765e-05,-6.834408776758122e-14
	-2.012523337748488e-05,-8.476484288897602e-12
	6.048103202712105e-07,1.095460389433859e-13
	-6.294139034748736e-05,-8.654374415608566e-12
	6.048103202712105e-07,1.095460389433859e-13
23		1.698243652461743e+00,0.000000000000000e+00
	6.048103202712105e-03,1.120976939828813e-09
	1.000000000000000e+00,0.000000000000000e+00
	0.000000000000000e+00,0.000000000000000e+00
	7.914627495075793e-05,1.370252216896390e-13
	7.914627490230504e-05,1.301639472076713e-13
	-6.048103202712063e-07,-1.120976939828816e-13
	6.294139034747375e-05,8.855960692066096e-12
	-4.221134664971765e-05,-6.993602607638669e-14
	-2.012523337748489e-05,-8.673926972006828e-12
	6.048103202712105e-07,1.120976939828813e-13
	-6.294139034748736e-05,-8.855960692066094e-12
	6.048103202712105e-07,1.120976939828813e-13
24		1.737800828749374e+00,0.000000000000000e+00
	6.048103202712105e-03,1.147087847035149e-09
	1.000000000000000e+00,0.000000000000000e+00
	0.000000000000000e+00,0.000000000000000e+00
	7.914627495075793e-05,1.402169491207243e-13
	7.914627490230504e-05,1.331958550252120e-13
	-6.048103202712063e-07,-1.147087847035153e-13
	6.294139034747375e-05,9.062242516105048e-12
	-4.221134664971765e-05,-7.156504539193055e-14
	-2.012523337748489e-05,-8.875968686009602e-12
	6.048103202712105e-07,1.147087847035149e-13
	-6.294139034748736e-05,-9.062242516105051e-12
	6.048103202712105e-07,1.147087847035149e-13
25		1.778279410038922e+00,0.000000000000000e+00
	6.048103202712105e-03,1.173806955401485e-09
	1.000000000000000e+00,0.000000000000000e+00
	0.000000000000000e+00,0.000000000000000e+00
	7.914627495075793e-05,1.434830214342242e-13
	7.914627490230504e-05,1.362983850481428e-13
	-6.048103202712063e-07,-1.173806955401479e-13
	6.294139034747375e-05,9.273329261079008e-12
	-4.221134664971765e-05,-7.323200944181661e-14
	-2.012523337748489e-05,-9.082716556097044e-12
	6.048103202712105e-07,1.173806955401485e-13
	-6.294139034748736e-05,-9.273329261079007e-12
	6.048103202712105e-07,1.173806955401485e-13
26		1.819700858609982e+00,0.000000000000000e+00
	6.048103202712105e-03,1.201148431752748e-09
	1.000000000000000e+00,0.000000000000000e+00
	0.000000000000000e+00,0.000000000000000e+00
	7.914627495075793e-05,1.468251703449109e-13
	7.914627490230504e-05,1.394731822789484e-13
	-6.048103202712063e-07,-1.201148431752748e-13
	6.294139034747375e-05,9.489332847974214e-12
	-4.221134664971765e-05,-7.493780207244896e-14
	-2.012523337748489e-05,-9.294280202726489e-12
	6.048103202712105e-07,1.201148431752748e-13
	-6.294139034748736e-05,-9.489332847974212e-12
	6.048103202712105e-07,1.201148431752748e-13
27		1.862087136662866e+00,0.000000000000000e+00
	6.048103202712105e-03,1.229126772901604e-09
	1.000000000000000e+00,0.000000000000000e+00
	0.000000000000000e+00,0.000000000000000e+00
	7.914627495075793e-05,1.502451679043753e-13
	7.914627490230504e-05,1.427219300371441e-13
	-6.048103202712063e-07,-1.229126772901609e-13
	6.294139034747375e-05,9.710367804751578e-12
	-4.221134664971765e-05,-7.668332771765917e-14
	-2.012523337748489e-05,-9.510771799743759e-12
	6.048103202712105e-07,1.229126772901604e-13
	-6.294139034748736e-05,-9.710367804751581e-12
	6.048103202712105e-07,1.229126772901604e-13
28		1.905460717963246e+00,0.000000000000000e+00
	6.048103202712105e-03,1.257756813334870e-09
	1.000000000000000e+00,0.000000000000000e+00
	0.000000000000000e+00,0.000000000000000e+00
	7.914627495075793e-05,1.537448274405925e-13
	7.914627490230504e-05,1.460463508517937e-13
	-6.048103202712063e-07,-1.257756813334867e-13
	6.294139034747375e-05,9.936551327070942e-12
	-4.221134664971765e-05,-7.846951187824916e-14
	-2.012523337748489e-05,-9.732306133859207e-12
	6.048103202712105e-07,1.257756813334870e-13
	-6.294139034748736e-05,-9.936551327070941e-12
	6.048103202712105e-07,1.257756813334870e-13
29		1.949844599758044e+00,0.000000000000000e+00
	6.048103202712105e-03,1.287053733078945e-09
	1.000000000000000e+00,0.000000000000000e+00
	0.000000000000000e+00,0.000000000000000e+00
	7.914627495075793e-05,1.573260045193721e-13
	7.914627490230504e-05,1.494482073748168e-13
	-6.048103202712063e-07,-1.287053733078941e-13
	6.294139034747375e-05,1.016800334042972e-11
	-4.221134664971765e-05,-8.029730161270376e-14
	-2.012523337748489e-05,-9.959000665509126e-12
	6.048103202712105e-07,1.287053733078945e-13
	-6.294139034748736e-05,-1.016800334042972e-11
	6.048103202712105e-07,1.287053733078945e-13
30		1.995262314968878e+00,0.000000000000000e+00
	6.048103202712105e-03,1.317033065748468e-09
	1.000000000000000e+00,0.000000000000000e+00
	0.000000000000000e+00,0.000000000000000e+00
	7.914627495075793e-05,1.609905979282037e-13
	7.914627490230504e-05,1.529293033155710e-13
	-6.048103202712063e-07,-1.317033065748457e-13
	6.294139034747375e-05,1.040484656374903e-11
	-4.221134664971765e-05,-8.216766603933384e-14
	-2.012523337748489e-05,-1.019097559113485e-11
	6.048103202712105e-07,1.317033065748468e-13
	-6.294139034748736e-05,-1.040484656374903e-11
	6.048103202712105e-07,1.317033065748468e-13
31		2.041737944669527e+00,0.000000000000000e+00
	6.048103202712106e-03,1.347710706782445e-09
	1.000000000000000e+00,0.000000000000000e+00
	0.000000000000000e+00,0.000000000000000e+00
	7.914627495075793e-05,1.647405506830194e-13
	7.914627490230504e-05,1.564914843972017e-13
	-6.048103202712063e-07,-1.347710706782439e-13
	6.294139034747375e-05,1.064720657444087e-11
	-4.221134664971765e-05,-8.408159685011565e-14
	-2.012523337748489e-05,-1.042835390691251e-11
	6.048103202712106e-07,1.347710706782445e-13
	-6.294139034748736e-05,-1.064720657444087e-11
	6.048103202712106e-07,1.347710706782445e-13
32		2.089296130854037e+00,0.000000000000000e+00
	6.048103202712106e-03,1.379102921872218e-09
	1.000000000000000e+00,0.000000000000000e+00
	0.000000000000000e+00,0.000000000000000e+00
	7.914627495075793e-05,1.685778510584061e-13
	7.914627490230504e-05,1.601366393352695e-13
