Title: * GA CMOS Amp | W=2.8896907567920647e-06 L=9.024837296293633e-07 Vbias=1.449122097576023
Date: Sat Sep  6 22:16:17 2025
Plotname: AC Analysis
Flags: complex forward log
No. Variables: 13
No. Points:          901
Offset:    0.0000000000000000e+00
Command: Linear Technology Corporation LTspice
Variables:
	0	frequency	frequency
	1	V(out)	voltage
	2	V(g)	voltage
	3	V(vdd)	voltage
	4	V(m1#dbody)	voltage
	5	V(m1#sbody)	voltage
	6	Id(M1)	device_current
	7	Ig(M1)	device_current
	8	Ib(M1)	device_current
	9	Is(M1)	device_current
	10	I(Rload)	device_current
	11	I(Vg)	device_current
	12	I(Vdd)	device_current
Values:
0		1.000000000000000e+00,0.000000000000000e+00
	-1.473055348907895e-01,1.246617602277004e-09
	1.000000000000000e+00,0.000000000000000e+00
	0.000000000000000e+00,0.000000000000000e+00
	6.738645789501399e-05,1.377994249150972e-13
	6.738645899979928e-05,1.463672699944163e-13
	1.473055348907895e-05,-1.246617602277004e-13
	4.126164674489315e-05,5.975394757707593e-13
	-3.593944475339982e-05,-7.749429079063084e-14
	-2.005275548057228e-05,-3.953834247524280e-13
	-1.473055348907895e-05,1.246617602277004e-13
	-4.126164674511656e-05,-5.975394757707592e-13
	-1.473055348907895e-05,1.246617602277004e-13
1		1.023292992280754e+00,0.000000000000000e+00
	-1.473055348907895e-01,1.275655056463894e-09
	1.000000000000000e+00,0.000000000000000e+00
	0.000000000000000e+00,0.000000000000000e+00
	6.738645789501399e-05,1.410091858559369e-13
	6.738645899979928e-05,1.497766016845513e-13
	1.473055348907895e-05,-1.275655056463894e-13
	4.126164674489315e-05,6.114579581673333e-13
	-3.593944475339982e-05,-7.929936470781952e-14
	-2.005275548057228e-05,-4.045930878131244e-13
	-1.473055348907895e-05,1.275655056463894e-13
	-4.126164674511656e-05,-6.114579581673335e-13
	-1.473055348907895e-05,1.275655056463894e-13
2		1.047128548050899e+00,0.000000000000000e+00
	-1.473055348907895e-01,1.305368879847012e-09
	1.000000000000000e+00,0.000000000000000e+00
	0.000000000000000e+00,0.000000000000000e+00
	6.738645789501399e-05,1.442937117335947e-13
	6.738645899979928e-05,1.532653469114272e-13
	1.473055348907895e-05,-1.305368879847013e-13
	4.126164674489315e-05,6.257006436669307e-13
	-3.593944475339982e-05,-8.114648419782746e-14
	-2.005275548057228e-05,-4.140172714844019e-13
	-1.473055348907895e-05,1.305368879847012e-13
	-4.126164674511656e-05,-6.257006436669307e-13
	-1.473055348907895e-05,1.305368879847012e-13
3		1.071519305237606e+00,0.000000000000000e+00
	-1.473055348907895e-01,1.335774827088826e-09
	1.000000000000000e+00,0.000000000000000e+00
	0.000000000000000e+00,0.000000000000000e+00
	6.738645789501399e-05,1.476547440471666e-13
	6.738645899979928e-05,1.568353554539421e-13
	1.473055348907895e-05,-1.335774827088825e-13
	4.126164674489315e-05,6.402750839299272e-13
	-3.593944475339982e-05,-8.303662862785775e-14
	-2.005275548057228e-05,-4.236609725931869e-13
	-1.473055348907895e-05,1.335774827088826e-13
	-4.126164674511656e-05,-6.402750839299274e-13
	-1.473055348907895e-05,1.335774827088826e-13
4		1.096478196143185e+00,0.000000000000000e+00
	-1.473055348907895e-01,1.366889019825031e-09
	1.000000000000000e+00,0.000000000000000e+00
	0.000000000000000e+00,0.000000000000000e+00
	6.738645789501399e-05,1.510940648604740e-13
	6.738645899979928e-05,1.604885201778801e-13
	1.473055348907895e-05,-1.366889019825031e-13
	4.126164674489315e-05,6.551890065174662e-13
	-3.593944475339982e-05,-8.497080017750629e-14
	-2.005275548057228e-05,-4.335293043574568e-13
	-1.473055348907895e-05,1.366889019825031e-13
	-4.126164674511656e-05,-6.551890065174663e-13
	-1.473055348907895e-05,1.366889019825031e-13
5		1.122018454301963e+00,0.000000000000000e+00
	-1.473055348907895e-01,1.398727955212463e-09
	1.000000000000000e+00,0.000000000000000e+00
	0.000000000000000e+00,0.000000000000000e+00
	6.738645789501399e-05,1.546134977469368e-13
	6.738645899979928e-05,1.642267780395331e-13
	1.473055348907895e-05,-1.398727955212463e-13
	4.126164674489315e-05,6.704503189887126e-13
	-3.593944475339982e-05,-8.695002437013046e-14
	-2.005275548057228e-05,-4.436274990973358e-13
	-1.473055348907895e-05,1.398727955212463e-13
	-4.126164674511656e-05,-6.704503189887127e-13
	-1.473055348907895e-05,1.398727955212463e-13
6		1.148153621496882e+00,0.000000000000000e+00
	-1.473055348907895e-01,1.431308514676102e-09
	1.000000000000000e+00,0.000000000000000e+00
	0.000000000000000e+00,0.000000000000000e+00
	6.738645789501399e-05,1.582149087564566e-13
	6.738645899979928e-05,1.680521111127011e-13
	1.473055348907895e-05,-1.431308514676103e-13
	4.126164674489315e-05,6.860671130935459e-13
	-3.593944475339982e-05,-8.897535061659529e-14
	-2.005275548057228e-05,-4.539609110093403e-13
	-1.473055348907895e-05,1.431308514676102e-13
	-4.126164674511656e-05,-6.860671130935459e-13
	-1.473055348907895e-05,1.431308514676102e-13
7		1.174897554939529e+00,0.000000000000000e+00
	-1.473055348907895e-01,1.464647972859830e-09
	1.000000000000000e+00,0.000000000000000e+00
	0.000000000000000e+00,0.000000000000000e+00
	6.738645789501399e-05,1.619002074048209e-13
	6.738645899979928e-05,1.719665476396136e-13
	1.473055348907895e-05,-1.464647972859831e-13
	4.126164674489315e-05,7.020476690629130e-13
	-3.593944475339982e-05,-9.104785277168501e-14
	-2.005275548057228e-05,-4.645350190052449e-13
	-1.473055348907895e-05,1.464647972859830e-13
	-4.126164674511656e-05,-7.020476690629131e-13
	-1.473055348907895e-05,1.464647972859830e-13
8		1.202264434617413e+00,0.000000000000000e+00
	-1.473055348907895e-01,1.498764006785677e-09
	1.000000000000000e+00,0.000000000000000e+00
	0.000000000000000e+00,0.000000000000000e+00
	6.738645789501399e-05,1.656713476861539e-13
	6.738645899979928e-05,1.759721631063311e-13
	1.473055348907895e-05,-1.498764006785676e-13
	4.126164674489315e-05,7.184004599991168e-13
	-3.593944475339982e-05,-9.316862970347513e-14
	-2.005275548057228e-05,-4.753554296170741e-13
	-1.473055348907895e-05,1.498764006785677e-13
	-4.126164674511656e-05,-7.184004599991170e-13
	-1.473055348907895e-05,1.498764006785677e-13
9		1.230268770812381e+00,0.000000000000000e+00
	-1.473055348907895e-01,1.533674705226407e-09
	1.000000000000000e+00,0.000000000000000e+00
	0.000000000000000e+00,0.000000000000000e+00
	6.738645789501399e-05,1.695303291089496e-13
	6.738645899979928e-05,1.800710813431945e-13
	1.473055348907895e-05,-1.533674705226407e-13
	4.126164674489315e-05,7.351341563683666e-13
	-3.593944475339982e-05,-9.533880587596659e-14
	-2.005275548057228e-05,-4.864278799697592e-13
	-1.473055348907895e-05,1.533674705226407e-13
	-4.126164674511656e-05,-7.351341563683666e-13
	-1.473055348907895e-05,1.533674705226407e-13
10		1.258925411794167e+00,0.000000000000000e+00
	-1.473055348907895e-01,1.569398578296434e-09
	1.000000000000000e+00,0.000000000000000e+00
	0.000000000000000e+00,0.000000000000000e+00
	6.738645789501399e-05,1.734791977562381e-13
	6.738645899979928e-05,1.842654756509086e-13
	1.473055348907895e-05,-1.569398578296434e-13
	4.126164674489315e-05,7.522576305979736e-13
	-3.593944475339982e-05,-9.755953194529181e-14
	-2.005275548057228e-05,-4.977582408230384e-13
	-1.473055348907895e-05,1.569398578296434e-13
	-4.126164674511656e-05,-7.522576305979737e-13
	-1.473055348907895e-05,1.569398578296434e-13
11		1.288249551693134e+00,0.000000000000000e+00
	-1.473055348907895e-01,1.605954567266120e-09
	1.000000000000000e+00,0.000000000000000e+00
	0.000000000000000e+00,0.000000000000000e+00
	6.738645789501399e-05,1.775200473704456e-13
	6.738645899979928e-05,1.885575699528547e-13
	1.473055348907895e-05,-1.605954567266120e-13
	4.126164674489315e-05,7.697799617806306e-13
	-3.593944475339982e-05,-9.983198536980750e-14
	-2.005275548057228e-05,-5.093525196842111e-13
	-1.473055348907895e-05,1.605954567266120e-13
	-4.126164674511656e-05,-7.697799617806307e-13
	-1.473055348907895e-05,1.605954567266120e-13
12		1.318256738556407e+00,0.000000000000000e+00
	-1.473055348907895e-01,1.643362054604691e-09
	1.000000000000000e+00,0.000000000000000e+00
	0.000000000000000e+00,0.000000000000000e+00
	6.738645789501399e-05,1.816550204635245e-13
	6.738645899979928e-05,1.929496399742442e-13
	1.473055348907895e-05,-1.643362054604691e-13
	4.126164674489315e-05,7.877104404882660e-13
	-3.593944475339982e-05,-1.021573710343988e-13
	-2.005275548057228e-05,-5.212168639933981e-13
	-1.473055348907895e-05,1.643362054604691e-13
	-4.126164674511656e-05,-7.877104404882661e-13
	-1.473055348907895e-05,1.643362054604691e-13
13		1.348962882591653e+00,0.000000000000000e+00
	-1.473055348907895e-01,1.681640874257082e-09
	1.000000000000000e+00,0.000000000000000e+00
	0.000000000000000e+00,0.000000000000000e+00
	6.738645789501399e-05,1.858863094529416e-13
	6.738645899979928e-05,1.974440144487387e-13
	1.473055348907895e-05,-1.681640874257082e-13
	4.126164674489315e-05,8.060585736980288e-13
	-3.593944475339982e-05,-1.045369218893252e-13
	-2.005275548057228e-05,-5.333575643829953e-13
	-1.473055348907895e-05,1.681640874257083e-13
	-4.126164674511656e-05,-8.060585736980288e-13
	-1.473055348907895e-05,1.681640874257083e-13
14		1.380384264602885e+00,0.000000000000000e+00
	-1.473055348907895e-01,1.720811322160153e-09
	1.000000000000000e+00,0.000000000000000e+00
	0.000000000000000e+00,0.000000000000000e+00
	6.738645789501399e-05,1.902161578241268e-13
	6.738645899979928e-05,2.020430763531742e-13
	1.473055348907895e-05,-1.720811322160153e-13
	4.126164674489315e-05,8.248340898330125e-13
	-3.593944475339982e-05,-1.069718996039470e-13
	-2.005275548057228e-05,-5.457810580130502e-13
	-1.473055348907895e-05,1.720811322160153e-13
	-4.126164674511656e-05,-8.248340898330127e-13
	-1.473055348907895e-05,1.720811322160153e-13
15		1.412537544622754e+00,0.000000000000000e+00
	-1.473055348907895e-01,1.760894167003864e-09
	1.000000000000000e+00,0.000000000000000e+00
	0.000000000000000e+00,0.000000000000000e+00
	6.738645789501399e-05,1.946468613199990e-13
	6.738645899979928e-05,2.067492641710486e-13
	1.473055348907895e-05,-1.760894167003864e-13
	4.126164674489315e-05,8.440469439203958e-13
	-3.593944475339982e-05,-1.094635952356794e-13
	-2.005275548057228e-05,-5.584939319843300e-13
	-1.473055348907895e-05,1.760894167003864e-13
	-4.126164674511656e-05,-8.440469439203960e-13
	-1.473055348907895e-05,1.760894167003864e-13
16		1.445439770745927e+00,0.000000000000000e+00
	-1.473055348907895e-01,1.801910661243109e-09
	1.000000000000000e+00,0.000000000000000e+00
	0.000000000000000e+00,0.000000000000000e+00
	6.738645789501399e-05,1.991807691581986e-13
	6.738645899979928e-05,2.115650731854363e-13
	1.473055348907895e-05,-1.801910661243110e-13
	4.126164674489315e-05,8.637073228697276e-13
	-3.593944475339982e-05,-1.120133299145276e-13
	-2.005275548057228e-05,-5.715029268308890e-13
	-1.473055348907895e-05,1.801910661243109e-13
	-4.126164674511656e-05,-8.637073228697276e-13
	-1.473055348907895e-05,1.801910661243109e-13
17		1.479108388168207e+00,0.000000000000000e+00
	-1.473055348907895e-01,1.843882552366053e-09
	1.000000000000000e+00,0.000000000000000e+00
	0.000000000000000e+00,0.000000000000000e+00
	6.738645789501399e-05,2.038202852766752e-13
	6.738645899979928e-05,2.164930568020219e-13
	1.473055348907895e-05,-1.843882552366054e-13
	4.126164674489315e-05,8.838256508741628e-13
	-3.593944475339982e-05,-1.146224555435683e-13
	-2.005275548057228e-05,-5.848149400939892e-13
	-1.473055348907895e-05,1.843882552366053e-13
	-4.126164674511656e-05,-8.838256508741630e-13
	-1.473055348907895e-05,1.843882552366053e-13
18		1.513561248436208e+00,0.000000000000000e+00
	-1.473055348907895e-01,1.886832094424933e-09
	1.000000000000000e+00,0.000000000000000e+00
	0.000000000000000e+00,0.000000000000000e+00
	6.738645789501399e-05,2.085678696082860e-13
	6.738645899979928e-05,2.215358279029482e-13
	1.473055348907895e-05,-1.886832094424933e-13
	4.126164674489315e-05,9.044125949375072e-13
	-3.593944475339982e-05,-1.172923555157457e-13
	-2.005275548057228e-05,-5.984370299792681e-13
	-1.473055348907895e-05,1.886832094424933e-13
	-4.126164674511656e-05,-9.044125949375075e-13
	-1.473055348907895e-05,1.886832094424933e-13
19		1.548816618912481e+00,0.000000000000000e+00
	-1.473055348907895e-01,1.930782059835453e-09
	1.000000000000000e+00,0.000000000000000e+00
	0.000000000000000e+00,0.000000000000000e+00
	6.738645789501399e-05,2.134260393850851e-13
	6.738645899979928e-05,2.266960602322021e-13
	1.473055348907895e-05,-1.930782059835453e-13
	4.126164674489315e-05,9.254790705300035e-13
	-3.593944475339982e-05,-1.200244454473654e-13
	-2.005275548057228e-05,-6.123764190990928e-13
	-1.473055348907895e-05,1.930782059835453e-13
	-4.126164674511656e-05,-9.254790705300033e-13
	-1.473055348907895e-05,1.930782059835453e-13
20		1.584893192461113e+00,0.000000000000000e+00
	-1.473055348907895e-01,1.975755751451018e-09
	1.000000000000000e+00,0.000000000000000e+00
	0.000000000000000e+00,0.000000000000000e+00
	6.738645789501399e-05,2.183973704729938e-13
	6.738645899979928e-05,2.319764898132682e-13
	1.473055348907895e-05,-1.975755751451018e-13
	4.126164674489315e-05,9.470362473758584e-13
	-3.593944475339982e-05,-1.228201739286727e-13
	-2.005275548057228e-05,-6.266404983020838e-13
	-1.473055348907895e-05,1.975755751451019e-13
	-4.126164674511656e-05,-9.470362473758584e-13
	-1.473055348907895e-05,1.975755751451019e-13
21		1.621810097358929e+00,0.000000000000000e+00
	-1.473055348907895e-01,2.021777014918223e-09
	1.000000000000000e+00,0.000000000000000e+00
	0.000000000000000e+00,0.000000000000000e+00
	6.738645789501399e-05,2.234844987375582e-13
	6.738645899979928e-05,2.373799163998050e-13
	1.473055348907895e-05,-2.021777014918222e-13
	4.126164674489315e-05,9.690955553755782e-13
	-3.593944475339982e-05,-1.256810232919141e-13
	-2.005275548057228e-05,-6.412368305918420e-13
	-1.473055348907895e-05,2.021777014918223e-13
	-4.126164674511656e-05,-9.690955553755784e-13
	-1.473055348907895e-05,2.021777014918223e-13
22		1.659586907437560e+00,0.000000000000000e+00
	-1.473055348907895e-01,2.068870251320119e-09
	1.000000000000000e+00,0.000000000000000e+00
	0.000000000000000e+00,0.000000000000000e+00
	6.738645789501399e-05,2.286901214415203e-13
	6.738645899979928e-05,2.429092049601117e-13
	1.473055348907895e-05,-2.068870251320118e-13
	4.126164674489315e-05,9.916686906662549e-13
	-3.593944475339982e-05,-1.286085103972900e-13
	-2.005275548057228e-05,-6.561731551369531e-13
	-1.473055348907895e-05,2.068870251320119e-13
	-4.126164674511656e-05,-9.916686906662551e-13
	-1.473055348907895e-05,2.068870251320119e-13
23		1.698243652461743e+00,0.000000000000000e+00
	-1.473055348907895e-01,2.117060430114001e-09
	1.000000000000000e+00,0.000000000000000e+00
	0.000000000000000e+00,0.000000000000000e+00
	6.738645789501399e-05,2.340169986749425e-13
	6.738645899979928e-05,2.485672871961718e-13
	1.473055348907895e-05,-2.117060430114000e-13
	4.126164674489315e-05,1.014767621823009e-12
	-3.593944475339982e-05,-1.316041874372134e-13
	-2.005275548057228e-05,-6.714573913743962e-13
	-1.473055348907895e-05,2.117060430114001e-13
	-4.126164674511656e-05,-1.014767621823010e-12
	-1.473055348907895e-05,2.117060430114001e-13
24		1.737800828749374e+00,0.000000000000000e+00
	-1.473055348907895e-01,2.166373102370535e-09
	1.000000000000000e+00,0.000000000000000e+00
	0.000000000000000e+00,0.000000000000000e+00
	6.738645789501399e-05,2.394679548186430e-13
	6.738645899979928e-05,2.543571630980801e-13
	1.473055348907895e-05,-2.166373102370536e-13
	4.126164674489315e-05,1.038404596204892e-12
	-3.593944475339982e-05,-1.346696427593032e-13
	-2.005275548057228e-05,-6.870976432085353e-13
	-1.473055348907895e-05,2.166373102370536e-13
	-4.126164674511656e-05,-1.038404596204892e-12
	-1.473055348907895e-05,2.166373102370536e-13
25		1.778279410038922e+00,0.000000000000000e+00
	-1.473055348907895e-01,2.216834414321285e-09
	1.000000000000000e+00,0.000000000000000e+00
	0.000000000000000e+00,0.000000000000000e+00
	6.738645789501399e-05,2.450458800417218e-13
	6.738645899979928e-05,2.602819025346783e-13
	1.473055348907895e-05,-2.216834414321286e-13
	4.126164674489315e-05,1.062592146448592e-12
	-3.593944475339982e-05,-1.378065017085477e-13
	-2.005275548057228e-05,-7.031022033079160e-13
	-1.473055348907895e-05,2.216834414321286e-13
	-4.126164674511656e-05,-1.062592146448592e-12
	-1.473055348907895e-05,2.216834414321286e-13
26		1.819700858609982e+00,0.000000000000000e+00
	-1.473055348907895e-01,2.268471121221781e-09
	1.000000000000000e+00,0.000000000000000e+00
	0.000000000000000e+00,0.000000000000000e+00
	6.738645789501399e-05,2.507537318339642e-13
	6.738645899979928e-05,2.663446468812385e-13
	1.473055348907895e-05,-2.268471121221781e-13
	4.126164674489315e-05,1.087343097113409e-12
	-3.593944475339982e-05,-1.410164274890826e-13
	-2.005275548057228e-05,-7.194795575021483e-13
	-1.473055348907895e-05,2.268471121221781e-13
	-4.126164674511656e-05,-1.087343097113409e-12
	-1.473055348907895e-05,2.268471121221781e-13
27		1.862087136662866e+00,0.000000000000000e+00
	-1.473055348907895e-01,2.321310601537514e-09
	1.000000000000000e+00,0.000000000000000e+00
	0.000000000000000e+00,0.000000000000000e+00
	6.738645789501399e-05,2.565945365739429e-13
	6.738645899979928e-05,2.725486106850633e-13
	1.473055348907895e-05,-2.321310601537514e-13
	4.126164674489315e-05,1.112670571481003e-12
	-3.593944475339982e-05,-1.443011220460453e-13
	-2.005275548057228e-05,-7.362383892812063e-13
	-1.473055348907895e-05,2.321310601537514e-13
	-4.126164674511656e-05,-1.112670571481003e-12
	-1.473055348907895e-05,2.321310601537514e-13
28		1.905460717963246e+00,0.000000000000000e+00
	-1.473055348907895e-01,2.375380871460360e-09
	1.000000000000000e+00,0.000000000000000e+00
	0.000000000000000e+00,0.000000000000000e+00
	6.738645789501399e-05,2.625713911336433e-13
	6.738645899979928e-05,2.788970833698806e-13
	1.473055348907895e-05,-2.375380871460359e-13
	4.126164674489315e-05,1.138587998513532e-12
	-3.593944475339982e-05,-1.476623269679679e-13
	-2.005275548057228e-05,-7.533875843995284e-13
	-1.473055348907895e-05,2.375380871460360e-13
	-4.126164674511656e-05,-1.138587998513533e-12
	-1.473055348907895e-05,2.375380871460360e-13
29		1.949844599758044e+00,0.000000000000000e+00
	-1.473055348907895e-01,2.430710599763137e-09
	1.000000000000000e+00,0.000000000000000e+00
	0.000000000000000e+00,0.000000000000000e+00
	6.738645789501399e-05,2.686874645204663e-13
	6.738645899979928e-05,2.853934309799402e-13
	1.473055348907895e-05,-2.430710599763137e-13
	4.126164674489315e-05,1.165109119973867e-12
	-3.593944475339982e-05,-1.511018244101910e-13
	-2.005275548057228e-05,-7.709362355873625e-13
	-1.473055348907895e-05,2.430710599763137e-13
	-4.126164674511656e-05,-1.165109119973868e-12
	-1.473055348907895e-05,2.430710599763137e-13
30		1.995262314968878e+00,0.000000000000000e+00
	-1.473055348907895e-01,2.487329123000166e-09
	1.000000000000000e+00,0.000000000000000e+00
	0.000000000000000e+00,0.000000000000000e+00
	6.738645789501399e-05,2.749459995574768e-13
	6.738645899979928e-05,2.920410979647339e-13
	1.473055348907895e-05,-2.487329123000167e-13
	4.126164674489315e-05,1.192247997711655e-12
	-3.593944475339982e-05,-1.546214380397854e-13
	-2.005275548057228e-05,-7.888936473718525e-13
	-1.473055348907895e-05,2.487329123000167e-13
	-4.126164674511656e-05,-1.192247997711655e-12
	-1.473055348907895e-05,2.487329123000167e-13
31		2.041737944669527e+00,0.000000000000000e+00
	-1.473055348907895e-01,2.545266461061904e-09
	1.000000000000000e+00,0.000000000000000e+00
	0.000000000000000e+00,0.000000000000000e+00
	6.738645789501399e-05,2.813503146027935e-13
	6.738645899979928e-05,2.988436090052894e-13
	1.473055348907895e-05,-2.545266461061904e-13
	4.126164674489315e-05,1.220019021119097e-12
	-3.593944475339982e-05,-1.582230340024853e-13
	-2.005275548057228e-05,-8.072693410104210e-13
	-1.473055348907895e-05,2.545266461061904e-13
	-4.126164674511656e-05,-1.220019021119097e-12
	-1.473055348907895e-05,2.545266461061904e-13
32		2.089296130854037e+00,0.000000000000000e+00
	-1.473055348907895e-01,2.604553333091881e-09
	1.000000000000000e+00,0.000000000000000e+00
	0.000000000000000e+00,0.000000000000000e+00
	6.738645789501399e-05,2.879038053090240e-13
