LTspice 24.0.9 for Windows
Circuit: * GA CMOS Amp | W=2.3221765381406217e-05 L=1e-06 Vbias=0.9226201835938725
Start Time: Mon Sep  8 18:44:52 2025
solver = Normal
Maximum thread count: 2
tnom = 27
temp = 27
method = modified trap
AsciiRawFile = 1
Direct Newton iteration for .op point succeeded.
Semiconductor Device Operating Points:
                        --- MOSFET Transistors ---
Name:          m1
Model:        n_1u
Id:          4.07e-05
Vgs:         9.23e-01
Vds:         1.39e+00
Vbs:         0.00e+00
Vth:         8.10e-01
Vdsat:       1.39e-01
Gm:          4.55e-04
Gds:         4.64e-06
Gmb:         1.09e-04
Cbd:         0.00e+00
Cbs:         0.00e+00
Cgsov:       4.64e-15
Cgdov:       4.64e-15
Cgbov:       8.00e-17
Cgs:         2.14e-14
Cgd:         0.00e+00
Cgb:         0.00e+00



gain_db: MAX(db(v(out)/v(g)))=(29.5796dB,64.917°) FROM 1 TO 1e+09
gain_lin: MAX(mag(v(out)/v(g)))=(12.7725dB,0°) FROM 1 TO 1e+09

Measurement "fc" FAIL'ed

Total elapsed time: 0.482 seconds.

