LTspice 24.0.9 for Windows
Circuit: * GA CMOS Amp | W=1.8687349102183846e-05 L=1e-06 Vbias=0.8660617135963599
Start Time: Sat Sep  6 22:06:44 2025
solver = Normal
Maximum thread count: 2
tnom = 27
temp = 27
method = modified trap
AsciiRawFile = 1
Direct Newton iteration for .op point succeeded.
Semiconductor Device Operating Points:
                        --- BSIM4 MOSFETS ---
Name:      m1
Model:      n
Id:      1.70e-04
Vgs:     8.66e-01
Vds:     1.02e-01
Vbs:     0.00e+00
Vth:     2.36e-01
Vdsat:   4.60e-01
Gm:      6.69e-05
Gds:     1.45e-03
Gmb      1.38e-04
Cbd:     9.05e-15
Cbs:     1.49e-14


.measure op idd find i(vdd)
  Error: FIND can not be evaluated over an interval.

gain_db: MAX(db(v(out)/v(g)))=(31.7739dB,135.291°) FROM 1 TO 1e+09
gain_lin: MAX(mag(v(out)/v(g)))=(-1.83802dB,0°) FROM 1 TO 1e+09

Measurement "fc" FAIL'ed

Total elapsed time: 0.786 seconds.

