Title: * GA CMOS Amp | W=6.335566074331904e-06 L=6.962970289134319e-07 Vbias=1.302363559646491
Date: Mon Sep  8 18:46:10 2025
Plotname: AC Analysis
Flags: complex forward log
No. Variables: 11
No. Points:          901
Offset:    0.0000000000000000e+00
Command: Linear Technology Corporation LTspice
Variables:
	0	frequency	frequency
	1	V(out)	voltage
	2	V(g)	voltage
	3	V(vdd)	voltage
	4	Id(M1)	device_current
	5	Ig(M1)	device_current
	6	Ib(M1)	device_current
	7	Is(M1)	device_current
	8	I(Rload)	device_current
	9	I(Vg)	device_current
	10	I(Vdd)	device_current
Values:
0		1.000000000000000e+00,0.000000000000000e+00
	-2.066130345204288e+00,5.186400027780364e-10
	1.000000000000000e+00,0.000000000000000e+00
	0.000000000000000e+00,0.000000000000000e+00
	2.066130345204288e-04,-5.186400027780364e-14
	1.138373124411728e-23,9.508799331420242e-14
	2.066130334313007e-12,2.100629547489081e-15
	-2.066130365865591e-04,-4.532462258388786e-14
	-2.066130345204288e-04,5.186400027780365e-14
	-1.138373124411728e-23,-9.508799331420242e-14
	-2.066130345204288e-04,5.186400027780365e-14
1		1.023292992280754e+00,0.000000000000000e+00
	-2.066130345204288e+00,5.307206803592356e-10
	1.000000000000000e+00,0.000000000000000e+00
	0.000000000000000e+00,0.000000000000000e+00
	2.066130345204288e-04,-5.307206803592355e-14
	1.192022996905419e-23,9.730287720846253e-14
	2.066130334313007e-12,2.149559495323471e-15
	-2.066130365865591e-04,-4.638036866786245e-14
	-2.066130345204288e-04,5.307206803592356e-14
	-1.192022996905419e-23,-9.730287720846253e-14
	-2.066130345204288e-04,5.307206803592356e-14
2		1.047128548050899e+00,0.000000000000000e+00
	-2.066130345204288e+00,5.430827530700798e-10
	1.000000000000000e+00,0.000000000000000e+00
	0.000000000000000e+00,0.000000000000000e+00
	2.066130345204288e-04,-5.430827530700797e-14
	1.248201309992853e-23,9.956935237617441e-14
	2.066130334313007e-12,2.199629168055062e-15
	-2.066130365865591e-04,-4.746070623722150e-14
	-2.066130345204288e-04,5.430827530700798e-14
	-1.248201309992853e-23,-9.956935237617441e-14
	-2.066130345204288e-04,5.430827530700798e-14
3		1.071519305237606e+00,0.000000000000000e+00
	-2.066130345204288e+00,5.557327754451518e-10
	1.000000000000000e+00,0.000000000000000e+00
	0.000000000000000e+00,0.000000000000000e+00
	2.066130345204288e-04,-5.557327754451517e-14
	1.307027225408046e-23,1.018886205324723e-13
	2.066130334313007e-12,2.250865113287089e-15
	-2.066130365865591e-04,-4.856620810124423e-14
	-2.066130345204288e-04,5.557327754451518e-14
	-1.307027225408046e-23,-1.018886205324723e-13
	-2.066130345204288e-04,5.557327754451518e-14
4		1.096478196143185e+00,0.000000000000000e+00
	-2.066130345204288e+00,5.686774546937576e-10
	1.000000000000000e+00,0.000000000000000e+00
	0.000000000000000e+00,0.000000000000000e+00
	2.066130345204288e-04,-5.686774546937576e-14
	1.368625520804522e-23,1.042619113840319e-13
	2.066130334313007e-12,2.303294496995876e-15
	-2.066130365865591e-04,-4.969746041165199e-14
	-2.066130345204288e-04,5.686774546937576e-14
	-1.368625520804522e-23,-1.042619113840319e-13
	-2.066130345204288e-04,5.686774546937576e-14
5		1.122018454301963e+00,0.000000000000000e+00
	-2.066130345204288e+00,5.819236542561783e-10
	1.000000000000000e+00,0.000000000000000e+00
	0.000000000000000e+00,0.000000000000000e+00
	2.066130345204288e-04,-5.819236542561782e-14
	1.433126854425447e-23,1.066904832810768e-13
	2.066130334313007e-12,2.356945117934708e-15
	-2.066130365865591e-04,-5.085506297339370e-14
	-2.066130345204288e-04,5.819236542561783e-14
	-1.433126854425447e-23,-1.066904832810768e-13
	-2.066130345204288e-04,5.819236542561783e-14
6		1.148153621496882e+00,0.000000000000000e+00
	-2.066130345204288e+00,5.954783974427557e-10
	1.000000000000000e+00,0.000000000000000e+00
	0.000000000000000e+00,0.000000000000000e+00
	2.066130345204288e-04,-5.954783974427557e-14
	1.500668042247271e-23,1.091756238845728e-13
	2.066130334313007e-12,2.411845422372968e-15
	-2.066130365865591e-04,-5.203962956267023e-14
	-2.066130345204288e-04,5.954783974427557e-14
	-1.500668042247271e-23,-1.091756238845728e-13
	-2.066130345204288e-04,5.954783974427557e-14
7		1.174897554939529e+00,0.000000000000000e+00
	-2.066130345204288e+00,6.093488711577457e-10
	1.000000000000000e+00,0.000000000000000e+00
	0.000000000000000e+00,0.000000000000000e+00
	2.066130345204288e-04,-6.093488711577455e-14
	1.571392348184770e-23,1.117186508489627e-13
	2.066130334313007e-12,2.468024519178648e-15
	-2.066130365865591e-04,-5.325178825236681e-14
	-2.066130345204288e-04,6.093488711577457e-14
	-1.571392348184770e-23,-1.117186508489627e-13
	-2.066130345204288e-04,6.093488711577457e-14
8		1.202264434617413e+00,0.000000000000000e+00
	-2.066130345204288e+00,6.235424297099093e-10
	1.000000000000000e+00,0.000000000000000e+00
	0.000000000000000e+00,0.000000000000000e+00
	2.066130345204288e-04,-6.235424297099092e-14
	1.645449787973012e-23,1.143209125208039e-13
	2.066130334313007e-12,2.525512195252594e-15
	-2.066130365865591e-04,-5.449218174506555e-14
	-2.066130345204288e-04,6.235424297099093e-14
	-1.645449787973012e-23,-1.143209125208039e-13
	-2.066130345204288e-04,6.235424297099093e-14
9		1.230268770812381e+00,0.000000000000000e+00
	-2.066130345204288e+00,6.380665987118647e-10
	1.000000000000000e+00,0.000000000000000e+00
	0.000000000000000e+00,0.000000000000000e+00
	2.066130345204288e-04,-6.380665987118649e-14
	1.722997447370840e-23,1.169837886536797e-13
	2.066130334313007e-12,2.584338931321550e-15
	-2.066130365865591e-04,-5.576146771381479e-14
	-2.066130345204288e-04,6.380665987118648e-14
	-1.722997447370840e-23,-1.169837886536797e-13
	-2.066130345204288e-04,6.380665987118648e-14
10		1.258925411794167e+00,0.000000000000000e+00
	-2.066130345204288e+00,6.529290790702673e-10
	1.000000000000000e+00,0.000000000000000e+00
	0.000000000000000e+00,0.000000000000000e+00
	2.066130345204288e-04,-6.529290790702673e-14
	1.804199815360834e-23,1.197086911397633e-13
	2.066130334313007e-12,2.644535918099659e-15
	-2.066130365865591e-04,-5.706031915083620e-14
	-2.066130345204288e-04,6.529290790702673e-14
	-1.804199815360834e-23,-1.197086911397633e-13
	-2.066130345204288e-04,6.529290790702673e-14
11		1.288249551693134e+00,0.000000000000000e+00
	-2.066130345204288e+00,6.681377510689311e-10
	1.000000000000000e+00,0.000000000000000e+00
	0.000000000000000e+00,0.000000000000000e+00
	2.066130345204288e-04,-6.681377510689310e-14
	1.889229133052492e-23,1.224970647584210e-13
	2.066130334313007e-12,2.706135072826140e-15
	-2.066130365865591e-04,-5.838942472435401e-14
	-2.066130345204288e-04,6.681377510689312e-14
	-1.889229133052492e-23,-1.224970647584210e-13
	-2.066130345204288e-04,6.681377510689312e-14
12		1.318256738556407e+00,0.000000000000000e+00
	-2.066130345204288e+00,6.837006785470600e-10
	1.000000000000000e+00,0.000000000000000e+00
	0.000000000000000e+00,0.000000000000000e+00
	2.066130345204288e-04,-6.837006785470601e-14
	1.978265759028715e-23,1.253503879422539e-13
	2.066130334313007e-12,2.769169056188179e-15
	-2.066130365865591e-04,-5.974948914373606e-14
	-2.066130345204288e-04,6.837006785470600e-14
	-1.978265759028715e-23,-1.253503879422539e-13
	-2.066130345204288e-04,6.837006785470600e-14
13		1.348962882591653e+00,0.000000000000000e+00
	-2.066130345204288e+00,6.996261131748032e-10
	1.000000000000000e+00,0.000000000000000e+00
	0.000000000000000e+00,0.000000000000000e+00
	2.066130345204288e-04,-6.996261131748030e-14
	2.071498551910550e-23,1.282701735609824e-13
	2.066130334313007e-12,2.833671289638045e-15
	-2.066130365865591e-04,-6.114123353314011e-14
	-2.066130345204288e-04,6.996261131748032e-14
	-2.071498551910550e-23,-1.282701735609824e-13
	-2.066130345204288e-04,6.996261131748032e-14
14		1.380384264602885e+00,0.000000000000000e+00
	-2.066130345204288e+00,7.159224988283979e-10
	1.000000000000000e+00,0.000000000000000e+00
	0.000000000000000e+00,0.000000000000000e+00
	2.066130345204288e-04,-7.159224988283980e-14
	2.169125270951636e-23,1.312579697235893e-13
	2.066130334313007e-12,2.899675973113841e-15
	-2.066130365865591e-04,-6.256539581386335e-14
	-2.066130345204288e-04,7.159224988283979e-14
	-2.169125270951636e-23,-1.312579697235893e-13
	-2.066130345204288e-04,7.159224988283979e-14
15		1.412537544622754e+00,0.000000000000000e+00
	-2.066130345204288e+00,7.325984760672258e-10
	1.000000000000000e+00,0.000000000000000e+00
	0.000000000000000e+00,0.000000000000000e+00
	2.066130345204288e-04,-7.325984760672261e-14
	2.271352995512099e-23,1.343153605991483e-13
	2.066130334313007e-12,2.967218103172222e-15
	-2.066130365865591e-04,-6.402273109559796e-14
	-2.066130345204288e-04,7.325984760672258e-14
	-2.271352995512099e-23,-1.343153605991483e-13
	-2.066130345204288e-04,7.325984760672258e-14
16		1.445439770745927e+00,0.000000000000000e+00
	-2.066130345204288e+00,7.496628867151520e-10
	1.000000000000000e+00,0.000000000000000e+00
	0.000000000000000e+00,0.000000000000000e+00
	2.066130345204288e-04,-7.496628867151519e-14
	2.378398564301646e-23,1.374439672567710e-13
	2.066130334313007e-12,3.036333491544761e-15
	-2.066130365865591e-04,-6.551401207680053e-14
	-2.066130345204288e-04,7.496628867151520e-14
	-2.378398564301646e-23,-1.374439672567710e-13
	-2.066130345204288e-04,7.496628867151520e-14
17		1.479108388168207e+00,0.000000000000000e+00
	-2.066130345204288e+00,7.671247785485758e-10
	1.000000000000000e+00,0.000000000000000e+00
	0.000000000000000e+00,0.000000000000000e+00
	2.066130345204288e-04,-7.671247785485759e-14
	2.490489035323526e-23,1.406454485251192e-13
	2.066130334313007e-12,3.107058784125100e-15
	-2.066130365865591e-04,-6.704002945438667e-14
	-2.066130345204288e-04,7.671247785485759e-14
	-2.490489035323526e-23,-1.406454485251192e-13
	-2.066130345204288e-04,7.671247785485759e-14
18		1.513561248436208e+00,0.000000000000000e+00
	-2.066130345204288e+00,7.849934100936829e-10
	1.000000000000000e+00,0.000000000000000e+00
	0.000000000000000e+00,0.000000000000000e+00
	2.066130345204288e-04,-7.849934100936829e-14
	2.607862167495009e-23,1.439215018719380e-13
	2.066130334313007e-12,3.179431480399555e-15
	-2.066130365865591e-04,-6.860159234296923e-14
	-2.066130345204288e-04,7.849934100936830e-14
	-2.607862167495009e-23,-1.439215018719380e-13
	-2.066130345204288e-04,7.849934100936830e-14
19		1.548816618912481e+00,0.000000000000000e+00
	-2.066130345204288e+00,8.032782555354381e-10
	1.000000000000000e+00,0.000000000000000e+00
	0.000000000000000e+00,0.000000000000000e+00
	2.066130345204288e-04,-8.032782555354379e-14
	2.730766924965921e-23,1.472738643040756e-13
	2.066130334313007e-12,3.253489953329690e-15
	-2.066130365865591e-04,-7.019952870386146e-14
	-2.066130345204288e-04,8.032782555354381e-14
	-2.730766924965921e-23,-1.472738643040756e-13
	-2.066130345204288e-04,8.032782555354381e-14
20		1.584893192461113e+00,0.000000000000000e+00
	-2.066130345204288e+00,8.219890097409226e-10
	1.000000000000000e+00,0.000000000000000e+00
	0.000000000000000e+00,0.000000000000000e+00
	2.066130345204288e-04,-8.219890097409223e-14
	2.859464005204984e-23,1.507043132884672e-13
	2.066130334313007e-12,3.329273469698078e-15
	-2.066130365865591e-04,-7.183468578407308e-14
	-2.066130345204288e-04,8.219890097409226e-14
	-2.859464005204984e-23,-1.507043132884672e-13
	-2.066130345204288e-04,8.219890097409226e-14
21		1.621810097358929e+00,0.000000000000000e+00
	-2.066130345204288e+00,8.411355933996826e-10
	1.000000000000000e+00,0.000000000000000e+00
	0.000000000000000e+00,0.000000000000000e+00
	2.066130345204288e-04,-8.411355933996824e-14
	2.994226391974104e-23,1.542146676945718e-13
	2.066130334313007e-12,3.406822210928317e-15
	-2.066130365865591e-04,-7.350793056553188e-14
	-2.066130345204288e-04,8.411355933996827e-14
	-2.994226391974104e-23,-1.542146676945718e-13
	-2.066130345204288e-04,8.411355933996827e-14
22		1.659586907437560e+00,0.000000000000000e+00
	-2.066130345204288e+00,8.607281582838089e-10
	1.000000000000000e+00,0.000000000000000e+00
	0.000000000000000e+00,0.000000000000000e+00
	2.066130345204288e-04,-8.607281582838089e-14
	3.135339934363528e-23,1.578067887587606e-13
	2.066130334313007e-12,3.486177294389366e-15
	-2.066130365865591e-04,-7.522015022476903e-14
	-2.066130345204288e-04,8.607281582838090e-14
	-3.135339934363528e-23,-1.578067887587606e-13
	-2.066130345204288e-04,8.607281582838090e-14
23		1.698243652461743e+00,0.000000000000000e+00
	-2.066130345204288e+00,8.807770926305415e-10
	1.000000000000000e+00,0.000000000000000e+00
	0.000000000000000e+00,0.000000000000000e+00
	2.066130345204288e-04,-8.807770926305414e-14
	3.283103953116083e-23,1.614825810711690e-13
	2.066130334313007e-12,3.567380795196918e-15
	-2.066130365865591e-04,-7.697225260331173e-14
	-2.066130345204288e-04,8.807770926305415e-14
	-3.283103953116083e-23,-1.614825810711690e-13
	-2.066130345204288e-04,8.807770926305415e-14
24		1.737800828749374e+00,0.000000000000000e+00
	-2.066130345204288e+00,9.012930266502494e-10
	1.000000000000000e+00,0.000000000000000e+00
	0.000000000000000e+00,0.000000000000000e+00
	2.066130345204288e-04,-9.012930266502495e-14
	3.437831875526611e-23,1.652439935855359e-13
	2.066130334313007e-12,3.650475768521949e-15
	-2.066130365865591e-04,-7.876516668903292e-14
	-2.066130345204288e-04,9.012930266502495e-14
	-3.437831875526611e-23,-1.652439935855359e-13
	-2.066130345204288e-04,9.012930266502495e-14
25		1.778279410038922e+00,0.000000000000000e+00
	-2.066130345204288e+00,9.222868381627113e-10
	1.000000000000000e+00,0.000000000000000e+00
	0.000000000000000e+00,0.000000000000000e+00
	2.066130345204288e-04,-9.222868381627114e-14
	3.599851900263282e-23,1.690930206525648e-13
	2.066130334313007e-12,3.735506272419223e-15
	-2.066130365865591e-04,-8.059984310871289e-14
	-2.066130345204288e-04,9.222868381627114e-14
	-3.599851900263282e-23,-1.690930206525648e-13
	-2.066130345204288e-04,9.222868381627114e-14
26		1.819700858609982e+00,0.000000000000000e+00
	-2.066130345204288e+00,9.437696583646764e-10
	1.000000000000000e+00,0.000000000000000e+00
	0.000000000000000e+00,0.000000000000000e+00
	2.066130345204288e-04,-9.437696583646765e-14
	3.769507693520961e-23,1.730317030773544e-13
	2.066130334313007e-12,3.822517391187399e-15
	-2.066130365865591e-04,-8.247725463207411e-14
	-2.066130345204288e-04,9.437696583646765e-14
	-3.769507693520961e-23,-1.730317030773544e-13
	-2.066130345204288e-04,9.437696583646765e-14
27		1.862087136662866e+00,0.000000000000000e+00
	-2.066130345204288e+00,9.657528777317747e-10
	1.000000000000000e+00,0.000000000000000e+00
	0.000000000000000e+00,0.000000000000000e+00
	2.066130345204288e-04,-9.657528777317747e-14
	3.947159117983299e-23,1.770621292014609e-13
	2.066130334313007e-12,3.911555259273346e-15
	-2.066130365865591e-04,-8.439839668755681e-14
	-2.066130345204288e-04,9.657528777317748e-14
	-3.947159117983299e-23,-1.770621292014609e-13
	-2.066130345204288e-04,9.657528777317748e-14
28		1.905460717963246e+00,0.000000000000000e+00
	-2.066130345204288e+00,9.882481520578969e-10
	1.000000000000000e+00,0.000000000000000e+00
	0.000000000000000e+00,0.000000000000000e+00
	2.066130345204288e-04,-9.882481520578968e-14
	4.133182996139721e-23,1.811864360101644e-13
	2.066130334313007e-12,4.002667085733329e-15
	-2.066130365865591e-04,-8.636428789010809e-14
	-2.066130345204288e-04,9.882481520578970e-14
	-4.133182996139721e-23,-1.811864360101644e-13
	-2.066130345204288e-04,9.882481520578970e-14
29		1.949844599758044e+00,0.000000000000000e+00
	-2.066130345204288e+00,1.011267408635251e-09
	1.000000000000000e+00,0.000000000000000e+00
	0.000000000000000e+00,0.000000000000000e+00
	2.066130345204288e-04,-1.011267408635251e-13
	4.327973909576453e-23,1.854068102655266e-13
	2.066130334313007e-12,4.095901179263771e-15
	-2.066130365865591e-04,-8.837597058126521e-14
	-2.066130345204288e-04,1.011267408635251e-13
	-4.327973909576453e-23,-1.854068102655266e-13
	-2.066130345204288e-04,1.011267408635251e-13
30		1.995262314968878e+00,0.000000000000000e+00
	-2.066130345204288e+00,1.034822852578370e-09
	1.000000000000000e+00,0.000000000000000e+00
	0.000000000000000e+00,0.000000000000000e+00
	2.066130345204288e-04,-1.034822852578370e-13
	4.531945035936964e-23,1.897254896658407e-13
	2.066130334313007e-12,4.191306973815110e-15
	-2.066130365865591e-04,-9.043451138181876e-14
	-2.066130345204288e-04,1.034822852578370e-13
	-4.531945035936964e-23,-1.897254896658407e-13
	-2.066130345204288e-04,1.034822852578370e-13
31		2.041737944669527e+00,0.000000000000000e+00
	-2.066130345204288e+00,1.058926973295426e-09
	1.000000000000000e+00,0.000000000000000e+00
	0.000000000000000e+00,0.000000000000000e+00
	2.066130345204288e-04,-1.058926973295426e-13
	4.745529025327155e-23,1.941447640320894e-13
	2.066130334313007e-12,4.288935054802441e-15
	-2.066130365865591e-04,-9.254100175734922e-14
	-2.066130345204288e-04,1.058926973295426e-13
	-4.745529025327155e-23,-1.941447640320894e-13
	-2.066130345204288e-04,1.058926973295426e-13
32		2.089296130854037e+00,0.000000000000000e+00
	-2.066130345204288e+00,1.083592551110279e-09
	1.000000000000000e+00,0.000000000000000e+00
	0.000000000000000e+00,0.000000000000000e+00
	2.066130345204288e-04,-1.083592551110279e-13
	4.969178918024226e-23,1.986669765220377e-13
	2.066130334313007e-12,4.388837185926610e-15
	-2.066130365865591e-04,-9.469655859693644e-14
	-2.066130345204288e-04,1.083592551110279e-13
	-4.969178918024226e-23,-1.986669765220377e-13
	-2.066130345204288e-04,1.083592551110279e-13
33		2.137962089502230e+00,0.000000000000000e+00
	-2.066130345204288e+00,1.108832664038773e-09
	1.000000000000000e+00,0.000000000000000e+00
	0.000000000000000e+00,0.000000000000000e+00
	2.066130345204288e-04,-1.108832664038773e-13
	5.203369105435845e-23,2.032945248726063e-13
	2.066130334313007e-12,4.491066336619885e-15
	-2.066130365865591e-04,-9.690232480534884e-14
	-2.066130345204288e-04,1.108832664038773e-13
	-5.203369105435845e-23,-2.032945248726063e-13
	-2.066130345204288e-04,1.108832664038773e-13
34		2.187761623949550e+00,0.000000000000000e+00
	-2.066130345204288e+00,1.134660694722876e-09
	1.000000000000000e+00,0.000000000000000e+00
	0.000000000000000e+00,0.000000000000000e+00
	2.066130345204288e-04,-1.134660694722876e-13
	5.448596336347945e-23,2.080298626711835e-13
	2.066130334313007e-12,4.595676710131107e-15
	-2.066130365865591e-04,-9.915946990902696e-14
	-2.066130345204288e-04,1.134660694722876e-13
	-5.448596336347945e-23,-2.080298626711835e-13
	-2.066130345204288e-04,1.134660694722876e-13
35		2.238721138568337e+00,0.000000000000000e+00
	-2.066130345204288e+00,1.161090337526331e-09
	1.000000000000000e+00,0.000000000000000e+00
	0.000000000000000e+00,0.000000000000000e+00
	2.066130345204288e-04,-1.161090337526331e-13
	5.705380770595474e-23,2.128755006565497e-13
	2.066130334313007e-12,4.702723772265004e-15
	-2.066130365865591e-04,-1.014691906761816e-13
	-2.066130345204288e-04,1.161090337526331e-13
	-5.705380770595474e-23,-2.128755006565497e-13
	-2.066130345204288e-04,1.161090337526331e-13
36		2.290867652767770e+00,0.000000000000000e+00
	-2.066130345204288e+00,1.188135605795590e-09
	1.000000000000000e+00,0.000000000000000e+00
	0.000000000000000e+00,0.000000000000000e+00
	2.066130345204288e-04,-1.188135605795590e-13
	5.974267082391160e-23,2.178340080501044e-13
	2.066130334313007e-12,4.812264280790940e-15
	-2.066130365865591e-04,-1.038327117513363e-13
	-2.066130345204288e-04,1.188135605795590e-13
	-5.974267082391160e-23,-2.178340080501044e-13
	-2.066130345204288e-04,1.188135605795590e-13
37		2.344228815319919e+00,0.000000000000000e+00
	-2.066130345204288e+00,1.215810839289876e-09
	1.000000000000000e+00,0.000000000000000e+00
	0.000000000000000e+00,0.000000000000000e+00
	2.066130345204288e-04,-1.215810839289876e-13
	6.255825615652539e-23,2.229080139181012e-13
	2.066130334313007e-12,4.924356315536351e-15
	-2.066130365865591e-04,-1.062512863046499e-13
	-2.066130345204288e-04,1.215810839289876e-13
	-6.255825615652539e-23,-2.229080139181012e-13
	-2.066130345204288e-04,1.215810839289876e-13
38		2.398832919019488e+00,0.000000000000000e+00
	-2.066130345204288e+00,1.244130711784313e-09
	1.000000000000000e+00,0.000000000000000e+00
	0.000000000000000e+00,0.000000000000000e+00
