LTspice 24.0.9 for Windows
Circuit: * GA CMOS Amp | W=2.803516744425162e-06 L=7.474480234180476e-07 Vbias=1.5
Start Time: Sat Sep  6 22:15:37 2025
solver = Normal
Maximum thread count: 2
tnom = 27
temp = 27
method = modified trap
AsciiRawFile = 1
Direct Newton iteration for .op point succeeded.
Semiconductor Device Operating Points:
                        --- BSIM4 MOSFETS ---
Name:      m1
Model:      n
Id:      1.28e-04
Vgs:     1.50e+00
Vds:     5.15e-01
Vbs:     0.00e+00
Vth:     2.41e-01
Vdsat:   8.68e-01
Gm:      1.57e-05
Gds:     1.46e-04
Gmb      6.41e-05
Cbd:     1.22e-15
Cbs:     2.24e-15


.measure op idd find i(vdd)
  Error: FIND can not be evaluated over an interval.

gain_db: MAX(db(v(out)/v(g)))=(31.4144dB,132.842°) FROM 1 TO 1e+09
gain_lin: MAX(mag(v(out)/v(g)))=(-2.61889dB,0°) FROM 1 TO 1e+09

Measurement "fc" FAIL'ed

Total elapsed time: 0.514 seconds.

