LTspice 24.0.9 for Windows
Circuit: * GA CMOS Amp | W=1.6500393905016513e-05 L=1e-06 Vbias=0.6384329863975982
Start Time: Mon Sep  8 18:47:40 2025
solver = Normal
Maximum thread count: 2
tnom = 27
temp = 27
method = modified trap
AsciiRawFile = 1
Direct Newton iteration for .op point succeeded.
Semiconductor Device Operating Points:
                        --- MOSFET Transistors ---
Name:          m1
Model:        n_1u
Id:          1.59e-07
Vgs:         6.38e-01
Vds:         1.80e+00
Vbs:         0.00e+00
Vth:         8.14e-01
Vdsat:       4.85e-02
Gm:          2.87e-06
Gds:         8.35e-09
Gmb:         7.49e-07
Cbd:         0.00e+00
Cbs:         0.00e+00
Cgsov:       3.30e-15
Cgdov:       3.30e-15
Cgbov:       8.00e-17
Cgs:         7.58e-15
Cgd:         0.00e+00
Cgb:         5.71e-15



gain_db: MAX(db(v(out)/v(g)))=(32.2933dB,138.496°) FROM 1 TO 1e+09
gain_lin: MAX(mag(v(out)/v(g)))=(-13.7669dB,0°) FROM 1 TO 1e+09

Measurement "fc" FAIL'ed

Total elapsed time: 0.413 seconds.

