Title: * GA CMOS Amp | W=9.707056112004151e-06 L=5.562890199988281e-07 Vbias=1.09654503581918
Date: Mon Sep  8 18:46:13 2025
Plotname: AC Analysis
Flags: complex forward log
No. Variables: 11
No. Points:          901
Offset:    0.0000000000000000e+00
Command: Linear Technology Corporation LTspice
Variables:
	0	frequency	frequency
	1	V(out)	voltage
	2	V(g)	voltage
	3	V(vdd)	voltage
	4	Id(M1)	device_current
	5	Ig(M1)	device_current
	6	Ib(M1)	device_current
	7	Is(M1)	device_current
	8	I(Rload)	device_current
	9	I(Vg)	device_current
	10	I(Vdd)	device_current
Values:
0		1.000000000000000e+00,0.000000000000000e+00
	-2.514173981012824e+00,5.882549565733640e-10
	1.000000000000000e+00,0.000000000000000e+00
	0.000000000000000e+00,0.000000000000000e+00
	2.514173981012824e-04,-5.882549565733640e-14
	1.670607684483737e-23,1.331373171774653e-13
	2.514175553944981e-12,3.214905810087082e-15
	-2.514174006154580e-04,-7.752672733021601e-14
	-2.514173981012824e-04,5.882549565733640e-14
	-1.670607684483737e-23,-1.331373171774653e-13
	-2.514173981012824e-04,5.882549565733640e-14
1		1.023292992280754e+00,0.000000000000000e+00
	-2.514173981012824e+00,6.019571747359426e-10
	1.000000000000000e+00,0.000000000000000e+00
	0.000000000000000e+00,0.000000000000000e+00
	2.514173981012824e-04,-6.019571747359428e-14
	1.749340999016131e-23,1.362384836787603e-13
	2.514175553944981e-12,3.289790586304830e-15
	-2.514174006154580e-04,-7.933255679147087e-14
	-2.514173981012824e-04,6.019571747359427e-14
	-1.749340999016131e-23,-1.362384836787603e-13
	-2.514173981012824e-04,6.019571747359427e-14
2		1.047128548050899e+00,0.000000000000000e+00
	-2.514173981012824e+00,6.159785585604115e-10
	1.000000000000000e+00,0.000000000000000e+00
	0.000000000000000e+00,0.000000000000000e+00
	2.514173981012824e-04,-6.159785585604116e-14
	1.831784900345671e-23,1.394118856274313e-13
	2.514175553944981e-12,3.366419653036914e-15
	-2.514174006154580e-04,-8.118044942442709e-14
	-2.514173981012824e-04,6.159785585604116e-14
	-1.831784900345671e-23,-1.394118856274313e-13
	-2.514173981012824e-04,6.159785585604116e-14
3		1.071519305237606e+00,0.000000000000000e+00
	-2.514173981012824e+00,6.303265423700692e-10
	1.000000000000000e+00,0.000000000000000e+00
	0.000000000000000e+00,0.000000000000000e+00
	2.514173981012824e-04,-6.303265423700691e-14
	1.918114263040524e-23,1.426592056031965e-13
	2.514175553944981e-12,3.444833640028869e-15
	-2.514174006154580e-04,-8.307138500621841e-14
	-2.514173981012824e-04,6.303265423700692e-14
	-1.918114263040524e-23,-1.426592056031965e-13
	-2.514173981012824e-04,6.303265423700692e-14
4		1.096478196143185e+00,0.000000000000000e+00
	-2.514173981012824e+00,6.450087336558495e-10
	1.000000000000000e+00,0.000000000000000e+00
	0.000000000000000e+00,0.000000000000000e+00
	2.514173981012824e-04,-6.450087336558497e-14
	2.008512203253344e-23,1.459821653780902e-13
	2.514175553944981e-12,3.525074123414552e-15
	-2.514174006154580e-04,-8.500636613591979e-14
	-2.514173981012824e-04,6.450087336558496e-14
	-2.008512203253344e-23,-1.459821653780902e-13
	-2.514173981012824e-04,6.450087336558496e-14
5		1.122018454301963e+00,0.000000000000000e+00
	-2.514173981012824e+00,6.600329171099143e-10
	1.000000000000000e+00,0.000000000000000e+00
	0.000000000000000e+00,0.000000000000000e+00
	2.514173981012824e-04,-6.600329171099145e-14
	2.103170467135188e-23,1.493825268293699e-13
	2.514175553944981e-12,3.607183647760339e-15
	-2.514174006154580e-04,-8.698641876613875e-14
	-2.514173981012824e-04,6.600329171099144e-14
	-2.103170467135188e-23,-1.493825268293699e-13
	-2.514173981012824e-04,6.600329171099144e-14
6		1.148153621496882e+00,0.000000000000000e+00
	-2.514173981012824e+00,6.754070587531991e-10
	1.000000000000000e+00,0.000000000000000e+00
	0.000000000000000e+00,0.000000000000000e+00
	2.514173981012824e-04,-6.754070587531992e-14
	2.202289837554801e-23,1.528620928736859e-13
	2.514175553944981e-12,3.691205748622889e-15
	-2.514174006154580e-04,-8.901259274698885e-14
	-2.514173981012824e-04,6.754070587531991e-14
	-2.202289837554801e-23,-1.528620928736859e-13
	-2.514173981012824e-04,6.754070587531991e-14
7		1.174897554939529e+00,0.000000000000000e+00
	-2.514173981012824e+00,6.911393101591042e-10
	1.000000000000000e+00,0.000000000000000e+00
	0.000000000000000e+00,0.000000000000000e+00
	2.514173981012824e-04,-6.911393101591042e-14
	2.306080559986011e-23,1.564227084230126e-13
	2.514175553944981e-12,3.777184975632231e-15
	-2.514174006154580e-04,-9.108596238273437e-14
	-2.514173981012824e-04,6.911393101591043e-14
	-2.306080559986011e-23,-1.564227084230126e-13
	-2.514173981012824e-04,6.911393101591043e-14
8		1.202264434617413e+00,0.000000000000000e+00
	-2.514173981012824e+00,7.072380127755660e-10
	1.000000000000000e+00,0.000000000000000e+00
	0.000000000000000e+00,0.000000000000000e+00
	2.514173981012824e-04,-7.072380127755662e-14
	2.414762788466557e-23,1.600662613628445e-13
	2.514175553944981e-12,3.865166916112638e-15
	-2.514174006154580e-04,-9.320762700140048e-14
	-2.514173981012824e-04,7.072380127755661e-14
	-2.414762788466557e-23,-1.600662613628445e-13
	-2.514173981012824e-04,7.072380127755661e-14
9		1.230268770812381e+00,0.000000000000000e+00
	-2.514173981012824e+00,7.237117023478032e-10
	1.000000000000000e+00,0.000000000000000e+00
	0.000000000000000e+00,0.000000000000000e+00
	2.514173981012824e-04,-7.237117023478033e-14
	2.528567052574327e-23,1.637946835531784e-13
	2.514175553944981e-12,3.955198219253459e-15
	-2.514174006154580e-04,-9.537871153765150e-14
	-2.514173981012824e-04,7.237117023478032e-14
	-2.528567052574327e-23,-1.637946835531784e-13
	-2.514173981012824e-04,7.237117023478032e-14
10		1.258925411794167e+00,0.000000000000000e+00
	-2.514173981012824e+00,7.405691134440819e-10
	1.000000000000000e+00,0.000000000000000e+00
	0.000000000000000e+00,0.000000000000000e+00
	2.514173981012824e-04,-7.405691134440821e-14
	2.647734746411498e-23,1.676099518528111e-13
	2.514175553944981e-12,4.047326620843385e-15
	-2.514174006154580e-04,-9.760036712924629e-14
	-2.514173981012824e-04,7.405691134440820e-14
	-2.647734746411498e-23,-1.676099518528111e-13
	-2.514173981012824e-04,7.405691134440820e-14
11		1.288249551693134e+00,0.000000000000000e+00
	-2.514173981012824e+00,7.578191840869001e-10
	1.000000000000000e+00,0.000000000000000e+00
	0.000000000000000e+00,0.000000000000000e+00
	2.514173981012824e-04,-7.578191840868999e-14
	2.772518640633789e-23,1.715140891674962e-13
	2.514175553944981e-12,4.141600968580381e-15
	-2.514174006154580e-04,-9.987377172738662e-14
	-2.514173981012824e-04,7.578191840869002e-14
	-2.772518640633789e-23,-1.715140891674962e-13
	-2.514173981012824e-04,7.578191840869002e-14
12		1.318256738556407e+00,0.000000000000000e+00
	-2.514173981012824e+00,7.754710604920435e-10
	1.000000000000000e+00,0.000000000000000e+00
	0.000000000000000e+00,0.000000000000000e+00
	2.514173981012824e-04,-7.754710604920437e-14
	2.903183418610912e-23,1.755091655225153e-13
	2.514175553944981e-12,4.238071247971524e-15
	-2.514174006154580e-04,-1.022001307212824e-13
	-2.514173981012824e-04,7.754710604920436e-14
	-2.903183418610912e-23,-1.755091655225153e-13
	-2.514173981012824e-04,7.754710604920436e-14
13		1.348962882591653e+00,0.000000000000000e+00
	-2.514173981012824e+00,7.935341019180330e-10
	1.000000000000000e+00,0.000000000000000e+00
	0.000000000000000e+00,0.000000000000000e+00
	2.514173981012824e-04,-7.935341019180330e-14
	3.040006237855492e-23,1.795972991602329e-13
	2.514175553944981e-12,4.336788608835761e-15
	-2.514174006154580e-04,-1.045806775772653e-13
	-2.514173981012824e-04,7.935341019180330e-14
	-3.040006237855492e-23,-1.795972991602329e-13
	-2.514173981012824e-04,7.935341019180330e-14
14		1.380384264602885e+00,0.000000000000000e+00
	-2.514173981012824e+00,8.120178856285249e-10
	1.000000000000000e+00,0.000000000000000e+00
	0.000000000000000e+00,0.000000000000000e+00
	2.514173981012824e-04,-8.120178856285252e-14
	3.183277317911299e-23,1.837806576632164e-13
	2.514175553944981e-12,4.437805392424678e-15
	-2.514174006154580e-04,-1.070166744927886e-13
	-2.514173981012824e-04,8.120178856285249e-14
	-3.183277317911299e-23,-1.837806576632164e-13
	-2.514173981012824e-04,8.120178856285249e-14
15		1.412537544622754e+00,0.000000000000000e+00
	-2.514173981012824e+00,8.309322119703044e-10
	1.000000000000000e+00,0.000000000000000e+00
	0.000000000000000e+00,0.000000000000000e+00
	2.514173981012824e-04,-8.309322119703045e-14
	3.333300555947820e-23,1.880614591035177e-13
	2.514175553944981e-12,4.541175159173888e-15
	-2.514174006154580e-04,-1.095094130656611e-13
	-2.514173981012824e-04,8.309322119703044e-14
	-3.333300555947820e-23,-1.880614591035177e-13
	-2.514173981012824e-04,8.309322119703044e-14
16		1.445439770745927e+00,0.000000000000000e+00
	-2.514173981012824e+00,8.502871095695584e-10
	1.000000000000000e+00,0.000000000000000e+00
	0.000000000000000e+00,0.000000000000000e+00
	2.514173981012824e-04,-8.502871095695585e-14
	3.490394171366895e-23,1.924419732187232e-13
	2.514175553944981e-12,4.646952717102070e-15
	-2.514174006154580e-04,-1.120602149788694e-13
	-2.514173981012824e-04,8.502871095695584e-14
	-3.490394171366895e-23,-1.924419732187232e-13
	-2.514173981012824e-04,8.502871095695584e-14
17		1.479108388168207e+00,0.000000000000000e+00
	-2.514173981012824e+00,8.700928406491868e-10
	1.000000000000000e+00,0.000000000000000e+00
	0.000000000000000e+00,0.000000000000000e+00
	2.514173981012824e-04,-8.700928406491869e-14
	3.654891380788740e-23,1.969245226154000e-13
	2.514175553944981e-12,4.755194150870536e-15
	-2.514174006154580e-04,-1.146704327013519e-13
	-2.514173981012824e-04,8.700928406491869e-14
	-3.654891380788740e-23,-1.969245226154000e-13
	-2.514173981012824e-04,8.700928406491869e-14
18		1.513561248436208e+00,0.000000000000000e+00
	-2.514173981012824e+00,8.903599064699679e-10
	1.000000000000000e+00,0.000000000000000e+00
	0.000000000000000e+00,0.000000000000000e+00
	2.514173981012824e-04,-8.903599064699679e-14
	3.827141104849061e-23,2.015114840005717e-13
	2.514175553944981e-12,4.865956851520258e-15
	-2.514174006154580e-04,-1.173414502050952e-13
	-2.514173981012824e-04,8.903599064699679e-14
	-3.827141104849061e-23,-2.015114840005717e-13
	-2.514173981012824e-04,8.903599064699679e-14
19		1.548816618912481e+00,0.000000000000000e+00
	-2.514173981012824e+00,9.110990528984658e-10
	1.000000000000000e+00,0.000000000000000e+00
	0.000000000000000e+00,0.000000000000000e+00
	2.514173981012824e-04,-9.110990528984658e-14
	4.007508708306512e-23,2.062052894418804e-13
	2.514175553944981e-12,4.979299546901199e-15
	-2.514174006154580e-04,-1.200746836989350e-13
	-2.514173981012824e-04,9.110990528984658e-14
	-4.007508708306512e-23,-2.062052894418804e-13
	-2.514173981012824e-04,9.110990528984658e-14
20		1.584893192461113e+00,0.000000000000000e+00
	-2.514173981012824e+00,9.323212761046322e-10
	1.000000000000000e+00,0.000000000000000e+00
	0.000000000000000e+00,0.000000000000000e+00
	2.514173981012824e-04,-9.323212761046322e-14
	4.196376775030334e-23,2.110084276571008e-13
	2.514175553944981e-12,5.095282332810762e-15
	-2.514174006154580e-04,-1.228715823794483e-13
	-2.514173981012824e-04,9.323212761046323e-14
	-4.196376775030334e-23,-2.110084276571008e-13
	-2.514173981012824e-04,9.323212761046323e-14
21		1.621810097358929e+00,0.000000000000000e+00
	-2.514173981012824e+00,9.540378283921199e-10
	1.000000000000000e+00,0.000000000000000e+00
	0.000000000000000e+00,0.000000000000000e+00
	2.514173981012824e-04,-9.540378283921202e-14
	4.394145919512028e-23,2.159234453336916e-13
	2.514175553944981e-12,5.213966704857168e-15
	-2.514174006154580e-04,-1.257336291993368e-13
	-2.514173981012824e-04,9.540378283921199e-14
	-4.394145919512028e-23,-2.159234453336916e-13
	-2.514173981012824e-04,9.540378283921199e-14
22		1.659586907437560e+00,0.000000000000000e+00
	-2.514173981012824e+00,9.762602241644051e-10
	1.000000000000000e+00,0.000000000000000e+00
	0.000000000000000e+00,0.000000000000000e+00
	2.514173981012824e-04,-9.762602241644056e-14
	4.601235636622415e-23,2.209529484790832e-13
	2.514175553944981e-12,5.335415591065536e-15
	-2.514174006154580e-04,-1.286623416537082e-13
	-2.514173981012824e-04,9.762602241644051e-14
	-4.601235636622415e-23,-2.209529484790832e-13
	-2.514173981012824e-04,9.762602241644051e-14
23		1.698243652461743e+00,0.000000000000000e+00
	-2.514173981012824e+00,9.990002460298739e-10
	1.000000000000000e+00,0.000000000000000e+00
	0.000000000000000e+00,0.000000000000000e+00
	2.514173981012824e-04,-9.990002460298743e-14
	4.818085191416487e-23,2.260996038024163e-13
	2.514175553944981e-12,5.459693385242843e-15
	-2.514174006154580e-04,-1.316592725846717e-13
	-2.514173981012824e-04,9.990002460298740e-14
	-4.818085191416487e-23,-2.260996038024163e-13
	-2.514173981012824e-04,9.990002460298740e-14
24		1.737800828749374e+00,0.000000000000000e+00
	-2.514173981012824e+00,1.022269951049119e-09
	1.000000000000000e+00,0.000000000000000e+00
	0.000000000000000e+00,0.000000000000000e+00
	2.514173981012824e-04,-1.022269951049120e-13
	5.045154550873484e-23,2.313661401284675e-13
	2.514175553944981e-12,5.586865981120603e-15
	-2.514174006154580e-04,-1.347260110046762e-13
	-2.514173981012824e-04,1.022269951049119e-13
	-5.045154550873484e-23,-2.313661401284675e-13
	-2.514173981012824e-04,1.022269951049119e-13
25		1.778279410038922e+00,0.000000000000000e+00
	-2.514173981012824e+00,1.046081677127753e-09
	1.000000000000000e+00,0.000000000000000e+00
	0.000000000000000e+00,0.000000000000000e+00
	2.514173981012824e-04,-1.046081677127753e-13
	5.282925359548541e-23,2.367553498445078e-13
	2.514175553944981e-12,5.717000807292442e-15
	-2.514174006154580e-04,-1.378641829390249e-13
	-2.514173981012824e-04,1.046081677127753e-13
	-5.282925359548541e-23,-2.367553498445078e-13
	-2.514173981012824e-04,1.046081677127753e-13
26		1.819700858609982e+00,0.000000000000000e+00
	-2.514173981012824e+00,1.070448049558128e-09
	1.000000000000000e+00,0.000000000000000e+00
	0.000000000000000e+00,0.000000000000000e+00
	2.514173981012824e-04,-1.070448049558128e-13
	5.531901961205337e-23,2.422700903808632e-13
	2.514175553944981e-12,5.850166862965719e-15
	-2.514174006154580e-04,-1.410754522880160e-13
	-2.514173981012824e-04,1.070448049558128e-13
	-5.531901961205337e-23,-2.422700903808632e-13
	-2.514173981012824e-04,1.070448049558128e-13
27		1.862087136662866e+00,0.000000000000000e+00
	-2.514173981012824e+00,1.095381987713434e-09
	1.000000000000000e+00,0.000000000000000e+00
	0.000000000000000e+00,0.000000000000000e+00
	2.514173981012824e-04,-1.095381987713434e-13
	5.792612468596870e-23,2.479132857259622e-13
	2.514175553944981e-12,5.986434754545891e-15
	-2.514174006154580e-04,-1.443615217091647e-13
	-2.514173981012824e-04,1.095381987713434e-13
	-5.792612468596870e-23,-2.479132857259622e-13
	-2.514173981012824e-04,1.095381987713434e-13
28		1.905460717963246e+00,0.000000000000000e+00
	-2.514173981012824e+00,1.120896711897720e-09
	1.000000000000000e+00,0.000000000000000e+00
	0.000000000000000e+00,0.000000000000000e+00
	2.514173981012824e-04,-1.120896711897720e-13
	6.065609883663375e-23,2.536879279766734e-13
	2.514175553944981e-12,6.125876733072819e-15
	-2.514174006154580e-04,-1.477241335199742e-13
	-2.514173981012824e-04,1.120896711897720e-13
	-6.065609883663375e-23,-2.536879279766734e-13
	-2.514173981012824e-04,1.120896711897720e-13
29		1.949844599758044e+00,0.000000000000000e+00
	-2.514173981012824e+00,1.147005750355476e-09
	1.000000000000000e+00,0.000000000000000e+00
	0.000000000000000e+00,0.000000000000000e+00
	2.514173981012824e-04,-1.147005750355477e-13
	6.351473270523618e-23,2.595970789247546e-13
	2.514175553944981e-12,6.268566732529144e-15
	-2.514174006154580e-04,-1.511650706217361e-13
	-2.514173981012824e-04,1.147005750355476e-13
	-6.351473270523618e-23,-2.595970789247546e-13
	-2.514173981012824e-04,1.147005750355476e-13
30		1.995262314968878e+00,0.000000000000000e+00
	-2.514173981012824e+00,1.173722946444487e-09
	1.000000000000000e+00,0.000000000000000e+00
	0.000000000000000e+00,0.000000000000000e+00
	2.514173981012824e-04,-1.173722946444487e-13
	6.650808983747493e-23,2.656438716802552e-13
	2.514175553944981e-12,6.414580409041346e-15
	-2.514174006154580e-04,-1.546861574448478e-13
	-2.514173981012824e-04,1.173722946444487e-13
	-6.650808983747493e-23,-2.656438716802552e-13
	-2.514173981012824e-04,1.173722946444487e-13
31		2.041737944669527e+00,0.000000000000000e+00
	-2.514173981012824e+00,1.201062465975762e-09
	1.000000000000000e+00,0.000000000000000e+00
	0.000000000000000e+00,0.000000000000000e+00
	2.514173981012824e-04,-1.201062465975762e-13
	6.964251954515388e-23,2.718315123327330e-13
	2.514175553944981e-12,6.563995180993362e-15
	-2.514174006154580e-04,-1.582892609161501e-13
	-2.514173981012824e-04,1.201062465975762e-13
	-6.964251954515388e-23,-2.718315123327330e-13
	-2.514173981012824e-04,1.201062465975762e-13
32		2.089296130854037e+00,0.000000000000000e+00
	-2.514173981012824e+00,1.229038804724439e-09
	1.000000000000000e+00,0.000000000000000e+00
	0.000000000000000e+00,0.000000000000000e+00
	2.514173981012824e-04,-1.229038804724439e-13
	7.292467037392338e-23,2.781632816511651e-13
	2.514175553944981e-12,6.716890270075190e-15
	-2.514174006154580e-04,-1.619762914487963e-13
	-2.514173981012824e-04,1.229038804724439e-13
	-7.292467037392338e-23,-2.781632816511651e-13
	-2.514173981012824e-04,1.229038804724439e-13
33		2.137962089502230e+00,0.000000000000000e+00
	-2.514173981012824e+00,1.257666796115633e-09
	1.000000000000000e+00,0.000000000000000e+00
	0.000000000000000e+00,0.000000000000000e+00
	2.514173981012824e-04,-1.257666796115633e-13
	7.636150420573683e-23,2.846425368234549e-13
	2.514175553944981e-12,6.873346743286773e-15
	-2.514174006154580e-04,-1.657492039551783e-13
	-2.514173981012824e-04,1.257666796115633e-13
	-7.636150420573683e-23,-2.846425368234549e-13
	-2.514173981012824e-04,1.257666796115633e-13
34		2.187761623949550e+00,0.000000000000000e+00
	-2.514173981012824e+00,1.286961619089315e-09
	1.000000000000000e+00,0.000000000000000e+00
	0.000000000000000e+00,0.000000000000000e+00
	2.514173981012824e-04,-1.286961619089315e-13
	7.996031102593587e-23,2.912727132364579e-13
	2.514175553944981e-12,7.033447555921022e-15
	-2.514174006154580e-04,-1.696099988834474e-13
	-2.514173981012824e-04,1.286961619089315e-13
	-7.996031102593587e-23,-2.912727132364579e-13
	-2.514173981012824e-04,1.286961619089315e-13
35		2.238721138568337e+00,0.000000000000000e+00
	-2.514173981012824e+00,1.316938806148389e-09
	1.000000000000000e+00,0.000000000000000e+00
	0.000000000000000e+00,0.000000000000000e+00
	2.514173981012824e-04,-1.316938806148389e-13
	8.372872438628655e-23,2.980573262974690e-13
	2.514175553944981e-12,7.197277595548194e-15
	-2.514174006154580e-04,-1.735607232781783e-13
	-2.514173981012824e-04,1.316938806148389e-13
	-8.372872438628655e-23,-2.980573262974690e-13
	-2.514173981012824e-04,1.316938806148389e-13
36		2.290867652767770e+00,0.000000000000000e+00
	-2.514173981012824e+00,1.347614251594229e-09
	1.000000000000000e+00,0.000000000000000e+00
	0.000000000000000e+00,0.000000000000000e+00
	2.514173981012824e-04,-1.347614251594229e-13
	8.767473759676618e-23,3.049999732981381e-13
	2.514175553944981e-12,7.364923727023711e-15
	-2.514174006154580e-04,-1.776034718657390e-13
	-2.514173981012824e-04,1.347614251594229e-13
	-8.767473759676618e-23,-3.049999732981381e-13
	-2.514173981012824e-04,1.347614251594229e-13
37		2.344228815319919e+00,0.000000000000000e+00
	-2.514173981012824e+00,1.379004219954048e-09
	1.000000000000000e+00,0.000000000000000e+00
	0.000000000000000e+00,0.000000000000000e+00
	2.514173981012824e-04,-1.379004219954048e-13
	9.180672068044537e-23,3.121043353218019e-13
	2.514175553944981e-12,7.536474838545639e-15
	-2.514174006154580e-04,-1.817403881649427e-13
	-2.514173981012824e-04,1.379004219954048e-13
	-9.180672068044537e-23,-3.121043353218019e-13
	-2.514173981012824e-04,1.379004219954048e-13
38		2.398832919019488e+00,0.000000000000000e+00
	-2.514173981012824e+00,1.411125354604565e-09
	1.000000000000000e+00,0.000000000000000e+00
	0.000000000000000e+00,0.000000000000000e+00
