LTspice 24.0.9 for Windows
Circuit: * GA CMOS Amp | W=2.058644377353076e-06 L=1e-06 Vbias=1.2811489770233844
Start Time: Sat Sep  6 22:07:15 2025
solver = Normal
Maximum thread count: 2
tnom = 27
temp = 27
method = modified trap
AsciiRawFile = 1
Direct Newton iteration for .op point succeeded.
Semiconductor Device Operating Points:
                        --- BSIM4 MOSFETS ---
Name:      m1
Model:      n
Id:      7.79e-05
Vgs:     1.28e+00
Vds:     1.02e+00
Vbs:     0.00e+00
Vth:     2.35e-01
Vdsat:   7.30e-01
Gm:      5.15e-05
Gds:     6.46e-06
Gmb      5.03e-05
Cbd:     8.16e-16
Cbs:     1.65e-15


.measure op idd find i(vdd)
  Error: FIND can not be evaluated over an interval.

gain_db: MAX(db(v(out)/v(g)))=(28.9558dB,103.31°) FROM 1 TO 1e+09
gain_lin: MAX(mag(v(out)/v(g)))=(3.29859dB,0°) FROM 1 TO 1e+09
fc: mag(v(out)/v(g))=1 AT 6.30599e+08

Total elapsed time: 0.571 seconds.

