LTspice 24.0.9 for Windows
Circuit: * GA CMOS Amp | W=1.6127481107302573e-05 L=7.197000852626343e-07 Vbias=1.2005344154409805
Start Time: Mon Sep  8 18:44:57 2025
solver = Normal
Maximum thread count: 2
tnom = 27
temp = 27
method = modified trap
AsciiRawFile = 1
Instance "m1": Length shorter than recommended for a level 3 MOSFET.
Direct Newton iteration for .op point succeeded.
Semiconductor Device Operating Points:
                        --- MOSFET Transistors ---
Name:          m1
Model:        n_1u
Id:          1.66e-04
Vgs:         1.20e+00
Vds:         1.38e-01
Vbs:         0.00e+00
Vth:         7.84e-01
Vdsat:       3.18e-01
Gm:          4.08e-04
Gds:         7.93e-04
Gmb:         8.85e-05
Cbd:         0.00e+00
Cbs:         0.00e+00
Cgsov:       3.23e-15
Cgdov:       3.23e-15
Cgbov:       5.20e-17
Cgs:         8.39e-15
Cgd:         5.71e-15
Cgb:         0.00e+00



gain_db: MAX(db(v(out)/v(g)))=(28.9816dB,104.011°) FROM 1 TO 1e+09
gain_lin: MAX(mag(v(out)/v(g)))=(-6.74317dB,0°) FROM 1 TO 1e+09

Measurement "fc" FAIL'ed

Total elapsed time: 0.469 seconds.

