Title: * GA CMOS Amp | W=1.4562334140374785e-05 L=7.131331647511722e-07 Vbias=0.8143766028154436
Date: Sat Sep  6 22:05:02 2025
Plotname: AC Analysis
Flags: complex forward log
No. Variables: 13
No. Points:          901
Offset:    0.0000000000000000e+00
Command: Linear Technology Corporation LTspice
Variables:
	0	frequency	frequency
	1	V(out)	voltage
	2	V(g)	voltage
	3	V(vdd)	voltage
	4	V(m1#dbody)	voltage
	5	V(m1#sbody)	voltage
	6	Id(M1)	device_current
	7	Ig(M1)	device_current
	8	Ib(M1)	device_current
	9	Is(M1)	device_current
	10	I(Rload)	device_current
	11	I(Vg)	device_current
	12	I(Vdd)	device_current
Values:
0		1.000000000000000e+00,0.000000000000000e+00
	-5.718412226121522e-02,8.146789223458562e-10
	1.000000000000000e+00,0.000000000000000e+00
	0.000000000000000e+00,0.000000000000000e+00
	1.754611103644897e-07,1.957348335952742e-14
	1.754615430895201e-07,3.860183407975240e-14
	5.718412226121526e-06,-8.146789223458598e-14
	1.866265781701465e-06,2.648450628516826e-12
	-9.357946087015226e-08,-1.931912667196082e-14
	-7.491098546952838e-06,-2.547663609610279e-12
	-5.718412226121522e-06,8.146789223458562e-14
	-1.866265781746979e-06,-2.648450628516826e-12
	-5.718412226121522e-06,8.146789223458562e-14
1		1.023292992280754e+00,0.000000000000000e+00
	-5.718412226121522e-02,8.336552321953512e-10
	1.000000000000000e+00,0.000000000000000e+00
	0.000000000000000e+00,0.000000000000000e+00
	1.754611103644896e-07,2.002940835632834e-14
	1.754615430895200e-07,3.950098630299499e-14
	5.718412226121526e-06,-8.336552321953525e-14
	1.866265781701465e-06,2.710140968562827e-12
	-9.357946087015222e-08,-1.976912694040170e-14
	-7.491098546952838e-06,-2.607006318402890e-12
	-5.718412226121522e-06,8.336552321953512e-14
	-1.866265781746979e-06,-2.710140968562827e-12
	-5.718412226121522e-06,8.336552321953512e-14
2		1.047128548050899e+00,0.000000000000000e+00
	-5.718412226121522e-02,8.530735570836879e-10
	1.000000000000000e+00,0.000000000000000e+00
	0.000000000000000e+00,0.000000000000000e+00
	1.754611103644895e-07,2.049595321056037e-14
	1.754615430895200e-07,4.042108247203283e-14
	5.718412226121526e-06,-8.530735570836881e-14
	1.866265781701465e-06,2.773268261223316e-12
	-9.357946087015218e-08,-2.022960906162172e-14
	-7.491098546952838e-06,-2.667731296453325e-12
	-5.718412226121522e-06,8.530735570836879e-14
	-1.866265781746979e-06,-2.773268261223316e-12
	-5.718412226121522e-06,8.530735570836879e-14
3		1.071519305237606e+00,0.000000000000000e+00
	-5.718412226121522e-02,8.729441928637536e-10
	1.000000000000000e+00,0.000000000000000e+00
	0.000000000000000e+00,0.000000000000000e+00
	1.754611103644894e-07,2.097336529048063e-14
	1.754615430895199e-07,4.136261043403360e-14
	5.718412226121526e-06,-8.729441928637538e-14
	1.866265781701465e-06,2.837865977424450e-12
	-9.357946087015215e-08,-2.070081718933675e-14
	-7.491098546952838e-06,-2.729870740948738e-12
	-5.718412226121522e-06,8.729441928637536e-14
	-1.866265781746979e-06,-2.837865977424451e-12
	-5.718412226121522e-06,8.729441928637536e-14
4		1.096478196143185e+00,0.000000000000000e+00
	-5.718412226121522e-02,8.932776752096580e-10
	1.000000000000000e+00,0.000000000000000e+00
	0.000000000000000e+00,0.000000000000000e+00
	1.754611103644894e-07,2.146189772629326e-14
	1.754615430895198e-07,4.232606939958541e-14
	5.718412226121526e-06,-8.932776752096583e-14
	1.866265781701465e-06,2.903968367730413e-12
	-9.357946087015210e-08,-2.118300116433328e-14
	-7.491098546952838e-06,-2.793457599045114e-12
	-5.718412226121522e-06,8.932776752096581e-14
	-1.866265781746979e-06,-2.903968367730413e-12
	-5.718412226121522e-06,8.932776752096581e-14
5		1.122018454301963e+00,0.000000000000000e+00
	-5.718412226121522e-02,9.140847852028865e-10
	1.000000000000000e+00,0.000000000000000e+00
	0.000000000000000e+00,0.000000000000000e+00
	1.754611103644893e-07,2.196180954436213e-14
	1.754615430895198e-07,4.331197020738461e-14
	5.718412226121526e-06,-9.140847852028908e-14
	1.866265781701465e-06,2.971610480503512e-12
	-9.357946087015207e-08,-2.167641664693730e-14
	-7.491098546952838e-06,-2.858525585336286e-12
	-5.718412226121522e-06,9.140847852028866e-14
	-1.866265781746979e-06,-2.971610480503512e-12
	-5.718412226121522e-06,9.140847852028866e-14
6		1.148153621496882e+00,0.000000000000000e+00
	-5.718412226121522e-02,9.353765550485724e-10
	1.000000000000000e+00,0.000000000000000e+00
	0.000000000000000e+00,0.000000000000000e+00
	1.754611103644892e-07,2.247336580455035e-14
	1.754615430895197e-07,4.432083559508946e-14
	5.718412226121526e-06,-9.353765550485697e-14
	1.866265781701464e-06,3.040828180487288e-12
	-9.357946087015203e-08,-2.218132525256882e-14
	-7.491098546952838e-06,-2.925109199729862e-12
	-5.718412226121522e-06,9.353765550485724e-14
	-1.866265781746979e-06,-3.040828180487287e-12
	-5.718412226121522e-06,9.353765550485724e-14
7		1.174897554939529e+00,0.000000000000000e+00
	-5.718412226121522e-02,9.571642739249170e-10
	1.000000000000000e+00,0.000000000000000e+00
	0.000000000000000e+00,0.000000000000000e+00
	1.754611103644891e-07,2.299683774075831e-14
	1.754615430895196e-07,4.535320047648246e-14
	5.718412226121526e-06,-9.571642739249196e-14
	1.866265781701464e-06,3.111658167822478e-12
	-9.357946087015199e-08,-2.269799469045380e-14
	-7.491098546952838e-06,-2.993243745739532e-12
	-5.718412226121522e-06,9.571642739249171e-14
	-1.866265781746979e-06,-3.111658167822479e-12
	-5.718412226121522e-06,9.571642739249171e-14
8		1.202264434617413e+00,0.000000000000000e+00
	-5.718412226121522e-02,9.794594939688639e-10
	1.000000000000000e+00,0.000000000000000e+00
	0.000000000000000e+00,0.000000000000000e+00
	1.754611103644890e-07,2.353250290473559e-14
	1.754615430895195e-07,4.640961222508871e-14
	5.718412226121526e-06,-9.794594939688626e-14
	1.866265781701464e-06,3.184137997505913e-12
	-9.357946087015194e-08,-2.322669890556716e-14
	-7.491098546952838e-06,-3.062965349203459e-12
	-5.718412226121522e-06,9.794594939688639e-14
	-1.866265781746979e-06,-3.184137997505913e-12
	-5.718412226121522e-06,9.794594939688639e-14
9		1.230268770812381e+00,0.000000000000000e+00
	-5.718412226121522e-02,1.002274036401192e-09
	1.000000000000000e+00,0.000000000000000e+00
	0.000000000000000e+00,0.000000000000000e+00
	1.754611103644889e-07,2.408064531324236e-14
	1.754615430895195e-07,4.749063096440043e-14
	5.718412226121526e-06,-1.002274036401193e-13
	1.866265781701464e-06,3.258306099302673e-12
	-9.357946087015191e-08,-2.376771822388191e-14
	-7.491098546952838e-06,-3.134310977438672e-12
	-5.718412226121522e-06,1.002274036401192e-13
	-1.866265781746979e-06,-3.258306099302674e-12
	-5.718412226121522e-06,1.002274036401192e-13
10		1.258925411794167e+00,0.000000000000000e+00
	-5.718412226121522e-02,1.025619997794285e-09
	1.000000000000000e+00,0.000000000000000e+00
	0.000000000000000e+00,0.000000000000000e+00
	1.754611103644888e-07,2.464155559863930e-14
	1.754615430895194e-07,4.859682986486236e-14
	5.718412226121526e-06,-1.025619997794280e-13
	1.866265781701464e-06,3.334201798122065e-12
	-9.357946087015185e-08,-2.432133950100193e-14
	-7.491098546952838e-06,-3.207318458841635e-12
	-5.718412226121522e-06,1.025619997794286e-13
	-1.866265781746979e-06,-3.334201798122066e-12
	-5.718412226121522e-06,1.025619997794286e-13
11		1.288249551693134e+00,0.000000000000000e+00
	-5.718412226121522e-02,1.049509756485895e-09
	1.000000000000000e+00,0.000000000000000e+00
	0.000000000000000e+00,0.000000000000000e+00
	1.754611103644887e-07,2.521553116298420e-14
	1.754615430895193e-07,4.972879544777375e-14
	5.718412226121526e-06,-1.049509756485892e-13
	1.866265781701464e-06,3.411865334868199e-12
	-9.357946087015181e-08,-2.488785627425638e-14
	-7.491098546952838e-06,-3.282026502945353e-12
	-5.718412226121522e-06,1.049509756485895e-13
	-1.866265781746979e-06,-3.411865334868200e-12
	-5.718412226121522e-06,1.049509756485895e-13
12		1.318256738556407e+00,0.000000000000000e+00
	-5.718412226121522e-02,1.073955979142297e-09
	1.000000000000000e+00,0.000000000000000e+00
	0.000000000000000e+00,0.000000000000000e+00
	1.754611103644885e-07,2.580287633571870e-14
	1.754615430895192e-07,5.088712789626994e-14
	5.718412226121526e-06,-1.073955979142298e-13
	1.866265781701464e-06,3.491337887776256e-12
	-9.357946087015174e-08,-2.546756891833715e-14
	-7.491098546952838e-06,-3.358474720943689e-12
	-5.718412226121522e-06,1.073955979142297e-13
	-1.866265781746979e-06,-3.491337887776256e-12
	-5.718412226121522e-06,1.073955979142297e-13
13		1.348962882591653e+00,0.000000000000000e+00
	-5.718412226121522e-02,1.098971627474328e-09
	1.000000000000000e+00,0.000000000000000e+00
	0.000000000000000e+00,0.000000000000000e+00
	1.754611103644884e-07,2.640390253502783e-14
	1.754615430895191e-07,5.207244137354748e-14
	5.718412226121526e-06,-1.098971627474330e-13
	1.866265781701464e-06,3.572661594245733e-12
	-9.357946087015169e-08,-2.606078480456155e-14
	-7.491098546952838e-06,-3.436703646693739e-12
	-5.718412226121522e-06,1.098971627474328e-13
	-1.866265781746979e-06,-3.572661594245734e-12
	-5.718412226121522e-06,1.098971627474328e-13
14		1.380384264602885e+00,0.000000000000000e+00
	-5.718412226121522e-02,1.124569965109856e-09
	1.000000000000000e+00,0.000000000000000e+00
	0.000000000000000e+00,0.000000000000000e+00
	1.754611103644883e-07,2.701892843295802e-14
	1.754615430895190e-07,5.328536434850155e-14
	5.718412226121526e-06,-1.124569965109855e-13
	1.866265781701464e-06,3.655879573182246e-12
	-9.357946087015162e-08,-2.666781846384460e-14
	-7.491098546952838e-06,-3.516754758207416e-12
	-5.718412226121522e-06,1.124569965109856e-13
	-1.866265781746979e-06,-3.655879573182247e-12
	-5.718412226121522e-06,1.124569965109856e-13
15		1.412537544622754e+00,0.000000000000000e+00
	-5.718412226121522e-02,1.150764564626327e-09
	1.000000000000000e+00,0.000000000000000e+00
	0.000000000000000e+00,0.000000000000000e+00
	1.754611103644882e-07,2.764828012438115e-14
	1.754615430895189e-07,5.452653992894837e-14
	5.718412226121526e-06,-1.150764564626328e-13
	1.866265781701464e-06,3.741035947859747e-12
	-9.357946087015157e-08,-2.728899175346747e-14
	-7.491098546952838e-06,-3.598670499643647e-12
	-5.718412226121522e-06,1.150764564626327e-13
	-1.866265781746979e-06,-3.741035947859748e-12
	-5.718412226121522e-06,1.150764564626327e-13
16		1.445439770745927e+00,0.000000000000000e+00
	-5.718412226121522e-02,1.177569314747133e-09
	1.000000000000000e+00,0.000000000000000e+00
	0.000000000000000e+00,0.000000000000000e+00
	1.754611103644880e-07,2.829229129989452e-14
	1.754615430895188e-07,5.579662620260960e-14
	5.718412226121526e-06,-1.177569314747136e-13
	1.866265781701464e-06,3.828175869315267e-12
	-9.357946087015150e-08,-2.792463402773056e-14
	-7.491098546952838e-06,-3.682494303812823e-12
	-5.718412226121522e-06,1.177569314747133e-13
	-1.866265781746979e-06,-3.828175869315267e-12
	-5.718412226121522e-06,1.177569314747133e-13
17		1.479108388168207e+00,0.000000000000000e+00
	-5.718412226121522e-02,1.204998427705591e-09
	1.000000000000000e+00,0.000000000000000e+00
	0.000000000000000e+00,0.000000000000000e+00
	1.754611103644879e-07,2.895130342274778e-14
	1.754615430895186e-07,5.709629658603910e-14
	5.718412226121526e-06,-1.204998427705596e-13
	1.866265781701464e-06,3.917345540288597e-12
	-9.357946087015144e-08,-2.857508231258137e-14
	-7.491098546952838e-06,-3.768270615205456e-12
	-5.718412226121522e-06,1.204998427705591e-13
	-1.866265781746979e-06,-3.917345540288597e-12
	-5.718412226121522e-06,1.204998427705591e-13
18		1.513561248436208e+00,0.000000000000000e+00
	-5.718412226121522e-02,1.233066446780459e-09
	1.000000000000000e+00,0.000000000000000e+00
	0.000000000000000e+00,0.000000000000000e+00
	1.754611103644877e-07,2.962566590989162e-14
	1.754615430895185e-07,5.842624018167735e-14
	5.718412226121526e-06,-1.233066446780454e-13
	1.866265781701464e-06,4.008592239719585e-12
	-9.357946087015137e-08,-2.924068148431024e-14
	-7.491098546952838e-06,-3.856044913557230e-12
	-5.718412226121522e-06,1.233066446780459e-13
	-1.866265781746979e-06,-4.008592239719587e-12
	-5.718412226121522e-06,1.233066446780459e-13
19		1.548816618912481e+00,0.000000000000000e+00
	-5.718412226121522e-02,1.261788254006973e-09
	1.000000000000000e+00,0.000000000000000e+00
	0.000000000000000e+00,0.000000000000000e+00
	1.754611103644875e-07,3.031573631724293e-14
	1.754615430895184e-07,5.978716214322265e-14
	5.718412226121526e-06,-1.261788254006968e-13
	1.866265781701464e-06,4.101964347816064e-12
	-9.357946087015129e-08,-2.992178445240827e-14
	-7.491098546952838e-06,-3.945863737962958e-12
	-5.718412226121522e-06,1.261788254006973e-13
	-1.866265781746979e-06,-4.101964347816064e-12
	-5.718412226121522e-06,1.261788254006973e-13
20		1.584893192461113e+00,0.000000000000000e+00
	-5.718412226121522e-02,1.291179078067503e-09
	1.000000000000000e+00,0.000000000000000e+00
	0.000000000000000e+00,0.000000000000000e+00
	1.754611103644874e-07,3.102188052926583e-14
	1.754615430895182e-07,6.117978404951291e-14
	5.718412226121526e-06,-1.291179078067494e-13
	1.866265781701464e-06,4.197511371705672e-12
	-9.357946087015121e-08,-3.061875234668459e-14
	-7.491098546952838e-06,-4.037774711552238e-12
	-5.718412226121522e-06,1.291179078067503e-13
	-1.866265781746979e-06,-4.197511371705674e-12
	-5.718412226121522e-06,1.291179078067503e-13
21		1.621810097358929e+00,0.000000000000000e+00
	-5.718412226121522e-02,1.321254502366001e-09
	1.000000000000000e+00,0.000000000000000e+00
	0.000000000000000e+00,0.000000000000000e+00
	1.754611103644872e-07,3.174447295296851e-14
	1.754615430895181e-07,6.260484428711643e-14
	5.718412226121526e-06,-1.321254502366007e-13
	1.866265781701463e-06,4.295283971685191e-12
	-9.357946087015113e-08,-3.133195470874224e-14
	-7.491098546952838e-06,-4.131826566739849e-12
	-5.718412226121522e-06,1.321254502366001e-13
	-1.866265781746979e-06,-4.295283971685191e-12
	-5.718412226121522e-06,1.321254502366001e-13
22		1.659586907437560e+00,0.000000000000000e+00
	-5.718412226121522e-02,1.352030473290523e-09
	1.000000000000000e+00,0.000000000000000e+00
	0.000000000000000e+00,0.000000000000000e+00
	1.754611103644870e-07,3.248389671641863e-14
	1.754615430895179e-07,6.406309844183408e-14
	5.718412226121526e-06,-1.352030473290530e-13
	1.866265781701463e-06,4.395333988081300e-12
	-9.357946087015105e-08,-3.206176968791393e-14
	-7.491098546952838e-06,-4.228069171064333e-12
	-5.718412226121522e-06,1.352030473290523e-13
	-1.866265781746979e-06,-4.395333988081302e-12
	-5.718412226121522e-06,1.352030473290523e-13
23		1.698243652461743e+00,0.000000000000000e+00
	-5.718412226121522e-02,1.383523308668224e-09
	1.000000000000000e+00,0.000000000000000e+00
	0.000000000000000e+00,0.000000000000000e+00
	1.754611103644868e-07,3.324054387188300e-14
	1.754615430895177e-07,6.555531969932092e-14
	5.718412226121526e-06,-1.383523308668228e-13
	1.866265781701463e-06,4.497714468737015e-12
	-9.357946087015096e-08,-3.280858424176183e-14
	-7.491098546952838e-06,-4.326553553628431e-12
	-5.718412226121522e-06,1.383523308668224e-13
	-1.866265781746979e-06,-4.497714468737015e-12
	-5.718412226121522e-06,1.383523308668224e-13
24		1.737800828749374e+00,0.000000000000000e+00
	-5.718412226121522e-02,1.415749706417276e-09
	1.000000000000000e+00,0.000000000000000e+00
	0.000000000000000e+00,0.000000000000000e+00
	1.754611103644866e-07,3.401481560369879e-14
	1.754615430895176e-07,6.708229925503953e-14
	5.718412226121526e-06,-1.415749706417281e-13
	1.866265781701463e-06,4.602479697138342e-12
	-9.357946087015087e-08,-3.357279434124764e-14
	-7.491098546952838e-06,-4.427331932155366e-12
	-5.718412226121522e-06,1.415749706417276e-13
	-1.866265781746979e-06,-4.602479697138342e-12
	-5.718412226121522e-06,1.415749706417276e-13
25		1.778279410038922e+00,0.000000000000000e+00
	-5.718412226121522e-02,1.448726753400334e-09
	1.000000000000000e+00,0.000000000000000e+00
	0.000000000000000e+00,0.000000000000000e+00
	1.754611103644864e-07,3.480712244098705e-14
	1.754615430895174e-07,6.864484673376243e-14
	5.718412226121526e-06,-1.448726753400333e-13
	1.866265781701463e-06,4.709685221196112e-12
	-9.357946087015077e-08,-3.435480518068167e-14
	-7.491098546952838e-06,-4.530457740675397e-12
	-5.718412226121522e-06,1.448726753400334e-13
	-1.866265781746979e-06,-4.709685221196113e-12
	-5.718412226121522e-06,1.448726753400334e-13
26		1.819700858609982e+00,0.000000000000000e+00
	-5.718412226121522e-02,1.482471934484209e-09
	1.000000000000000e+00,0.000000000000000e+00
	0.000000000000000e+00,0.000000000000000e+00
	1.754611103644862e-07,3.561788447532019e-14
	1.754615430895172e-07,7.024379061884546e-14
	5.718412226121526e-06,-1.482471934484209e-13
	1.866265781701463e-06,4.819387882698214e-12
	-9.357946087015067e-08,-3.515503139256208e-14
	-7.491098546952838e-06,-4.635985657857231e-12
	-5.718412226121522e-06,1.482471934484209e-13
	-1.866265781746979e-06,-4.819387882698216e-12
	-5.718412226121522e-06,1.482471934484209e-13
27		1.862087136662866e+00,0.000000000000000e+00
	-5.718412226121522e-02,1.517003141810585e-09
	1.000000000000000e+00,0.000000000000000e+00
	0.000000000000000e+00,0.000000000000000e+00
	1.754611103644859e-07,3.644753158346062e-14
	1.754615430895170e-07,7.187997869150113e-14
	5.718412226121526e-06,-1.517003141810584e-13
	1.866265781701463e-06,4.931645847447864e-12
	-9.357946087015056e-08,-3.597389726741871e-14
	-7.491098546952838e-06,-4.743971635999386e-12
	-5.718412226121522e-06,1.517003141810585e-13
	-1.866265781746979e-06,-4.931645847447865e-12
	-5.718412226121522e-06,1.517003141810585e-13
28		1.905460717963246e+00,0.000000000000000e+00
	-5.718412226121522e-02,1.552338684282659e-09
	1.000000000000000e+00,0.000000000000000e+00
	0.000000000000000e+00,0.000000000000000e+00
	1.754611103644857e-07,3.729650365528674e-14
	1.754615430895168e-07,7.355427848030307e-14
	5.718412226121526e-06,-1.552338684282663e-13
	1.866265781701463e-06,5.046518636103880e-12
	-9.357946087015044e-08,-3.681183697877735e-14
	-7.491098546952838e-06,-4.854472930696836e-12
	-5.718412226121522e-06,1.552338684282659e-13
	-1.866265781746979e-06,-5.046518636103880e-12
	-5.718412226121522e-06,1.552338684282659e-13
29		1.949844599758044e+00,0.000000000000000e+00
	-5.718412226121522e-02,1.588497297272770e-09
	1.000000000000000e+00,0.000000000000000e+00
	0.000000000000000e+00,0.000000000000000e+00
	1.754611103644854e-07,3.816525082702845e-14
	1.754615430895166e-07,7.526757772116121e-14
	5.718412226121526e-06,-1.588497297272775e-13
	1.866265781701463e-06,5.164067155739331e-12
	-9.357946087015034e-08,-3.766929481336438e-14
	-7.491098546952838e-06,-4.967548131198689e-12
	-5.718412226121522e-06,1.588497297272771e-13
	-1.866265781746979e-06,-5.164067155739331e-12
	-5.718412226121522e-06,1.588497297272771e-13
30		1.995262314968878e+00,0.000000000000000e+00
	-5.718412226121522e-02,1.625498152556144e-09
	1.000000000000000e+00,0.000000000000000e+00
	0.000000000000000e+00,0.000000000000000e+00
	1.754611103644851e-07,3.905423371993547e-14
	1.754615430895164e-07,7.702078482801128e-14
	5.718412226121526e-06,-1.625498152556143e-13
	1.866265781701463e-06,5.284353732135260e-12
	-9.357946087015020e-08,-3.854672540667354e-14
	-7.491098546952838e-06,-5.083257191472973e-12
	-5.718412226121522e-06,1.625498152556144e-13
	-1.866265781746979e-06,-5.284353732135263e-12
	-5.718412226121522e-06,1.625498152556144e-13
31		2.041737944669527e+00,0.000000000000000e+00
	-5.718412226121522e-02,1.663360868476014e-09
	1.000000000000000e+00,0.000000000000000e+00
	0.000000000000000e+00,0.000000000000000e+00
	1.754611103644849e-07,3.996392368450466e-14
	1.754615430895162e-07,7.881482937446772e-14
	5.718412226121526e-06,-1.663360868476017e-13
	1.866265781701462e-06,5.407442142826662e-12
	-9.357946087015009e-08,-3.944459398401950e-14
	-7.491098546952838e-06,-5.201661461995041e-12
	-5.718412226121522e-06,1.663360868476014e-13
	-1.866265781746979e-06,-5.407442142826663e-12
	-5.718412226121522e-06,1.663360868476014e-13
32		2.089296130854037e+00,0.000000000000000e+00
	-5.718412226121522e-02,1.702105520345534e-09
	1.000000000000000e+00,0.000000000000000e+00
	0.000000000000000e+00,0.000000000000000e+00
	1.754611103644845e-07,4.089480305039650e-14
