LTspice 24.0.9 for Windows
Circuit: * GA CMOS Amp | W=1.2954158607479523e-05 L=1e-06 Vbias=1.0266998558766132
Start Time: Mon Sep  8 18:44:32 2025
solver = Normal
Maximum thread count: 2
tnom = 27
temp = 27
method = modified trap
AsciiRawFile = 1
Direct Newton iteration for .op point succeeded.
Semiconductor Device Operating Points:
                        --- MOSFET Transistors ---
Name:          m1
Model:        n_1u
Id:          5.26e-05
Vgs:         1.03e+00
Vds:         1.27e+00
Vbs:         0.00e+00
Vth:         8.17e-01
Vdsat:       2.10e-01
Gm:          3.59e-04
Gds:         7.94e-06
Gmb:         8.90e-05
Cbd:         0.00e+00
Cbs:         0.00e+00
Cgsov:       2.59e-15
Cgdov:       2.59e-15
Cgbov:       8.00e-17
Cgs:         1.19e-14
Cgd:         0.00e+00
Cgb:         0.00e+00



gain_db: MAX(db(v(out)/v(g)))=(29.3126dB,69.0622°) FROM 1 TO 1e+09
gain_lin: MAX(mag(v(out)/v(g)))=(10.4407dB,0°) FROM 1 TO 1e+09

Measurement "fc" FAIL'ed

Total elapsed time: 0.428 seconds.

