LTspice 24.0.9 for Windows
Circuit: * GA CMOS Amp | W=5e-05 L=9.999999999999997e-07 Vbias=0.9149839870413762
Start Time: Mon Sep  8 18:45:39 2025
solver = Normal
Maximum thread count: 2
tnom = 27
temp = 27
method = modified trap
AsciiRawFile = 1
Instance "m1": Length shorter than recommended for a level 3 MOSFET.
Direct Newton iteration for .op point succeeded.
Semiconductor Device Operating Points:
                        --- MOSFET Transistors ---
Name:          m1
Model:        n_1u
Id:          8.38e-05
Vgs:         9.15e-01
Vds:         9.62e-01
Vbs:         0.00e+00
Vth:         8.06e-01
Vdsat:       1.38e-01
Gm:          9.53e-04
Gds:         9.94e-06
Gmb:         2.23e-04
Cbd:         0.00e+00
Cbs:         0.00e+00
Cgsov:       1.00e-14
Cgdov:       1.00e-14
Cgbov:       8.00e-17
Cgs:         4.60e-14
Cgd:         0.00e+00
Cgb:         0.00e+00



gain_db: MAX(db(v(out)/v(g)))=(30.4007dB,55.4875°) FROM 1 TO 1e+09
gain_lin: MAX(mag(v(out)/v(g)))=(18.7629dB,0°) FROM 1 TO 1e+09

Measurement "fc" FAIL'ed

Total elapsed time: 0.536 seconds.

