LTspice 24.0.9 for Windows
Circuit: * GA CMOS Amp | W=2.394002711850071e-06 L=6.56932556270173e-07 Vbias=1.2739714805233828
Start Time: Sat Sep  6 22:13:27 2025
solver = Normal
Maximum thread count: 2
tnom = 27
temp = 27
method = modified trap
AsciiRawFile = 1
Direct Newton iteration for .op point succeeded.
Semiconductor Device Operating Points:
                        --- BSIM4 MOSFETS ---
Name:      m1
Model:      n
Id:      1.23e-04
Vgs:     1.27e+00
Vds:     5.68e-01
Vbs:     0.00e+00
Vth:     2.43e-01
Vdsat:   7.22e-01
Gm:      5.39e-05
Gds:     8.11e-05
Gmb      7.55e-05
Cbd:     1.03e-15
Cbs:     1.92e-15


.measure op idd find i(vdd)
  Error: FIND can not be evaluated over an interval.

gain_db: MAX(db(v(out)/v(g)))=(29.3345dB,111.311°) FROM 1 TO 1e+09
gain_lin: MAX(mag(v(out)/v(g)))=(-2.56562dB,0°) FROM 1 TO 1e+09

Measurement "fc" FAIL'ed

Total elapsed time: 0.829 seconds.

