Title: * GA CMOS Amp | W=1.8184615081976767e-05 L=9.139229241195388e-07 Vbias=1.2947836622548312
Date: Sat Sep  6 22:06:09 2025
Plotname: AC Analysis
Flags: complex forward log
No. Variables: 13
No. Points:          901
Offset:    0.0000000000000000e+00
Command: Linear Technology Corporation LTspice
Variables:
	0	frequency	frequency
	1	V(out)	voltage
	2	V(g)	voltage
	3	V(vdd)	voltage
	4	V(m1#dbody)	voltage
	5	V(m1#sbody)	voltage
	6	Id(M1)	device_current
	7	Ig(M1)	device_current
	8	Ib(M1)	device_current
	9	Is(M1)	device_current
	10	I(Rload)	device_current
	11	I(Vg)	device_current
	12	I(Vdd)	device_current
Values:
0		1.000000000000000e+00,0.000000000000000e+00
	1.449889121770559e-02,1.157976499587003e-09
	1.000000000000000e+00,0.000000000000000e+00
	0.000000000000000e+00,0.000000000000000e+00
	1.321530567305254e-04,1.174630379591446e-13
	1.321530566206023e-04,1.113964007182198e-13
	-1.449889121770559e-06,-1.157976499586998e-13
	9.381411094596420e-05,4.311322266394304e-12
	-7.048163025827111e-05,-5.985209509943073e-14
	-2.188259156592253e-05,-4.135672521336173e-12
	1.449889121770559e-06,1.157976499587003e-13
	-9.381411094605552e-05,-4.311322266394304e-12
	1.449889121770559e-06,1.157976499587003e-13
1		1.023292992280754e+00,0.000000000000000e+00
	1.449889121770559e-02,1.184949237253178e-09
	1.000000000000000e+00,0.000000000000000e+00
	0.000000000000000e+00,0.000000000000000e+00
	1.321530567305254e-04,1.201991035956009e-13
	1.321530566206023e-04,1.139911562202531e-13
	-1.449889121770559e-06,-1.184949237253169e-13
	9.381411094596420e-05,4.411745862665269e-12
	-7.048163025827111e-05,-6.124622948856873e-14
	-2.188259156592253e-05,-4.232004709451383e-12
	1.449889121770559e-06,1.184949237253178e-13
	-9.381411094605552e-05,-4.411745862665270e-12
	1.449889121770559e-06,1.184949237253178e-13
2		1.047128548050899e+00,0.000000000000000e+00
	1.449889121770559e-02,1.212550250689602e-09
	1.000000000000000e+00,0.000000000000000e+00
	0.000000000000000e+00,0.000000000000000e+00
	1.321530567305254e-04,1.229989003878068e-13
	1.321530566206023e-04,1.166463513421657e-13
	-1.449889121770559e-06,-1.212550250689591e-13
	9.381411094596420e-05,4.514508624988979e-12
	-7.048163025827111e-05,-6.267283743927126e-14
	-2.188259156592253e-05,-4.330580762480749e-12
	1.449889121770559e-06,1.212550250689602e-13
	-9.381411094605552e-05,-4.514508624988981e-12
	1.449889121770559e-06,1.212550250689602e-13
3		1.071519305237606e+00,0.000000000000000e+00
	1.449889121770559e-02,1.240794174318941e-09
	1.000000000000000e+00,0.000000000000000e+00
	0.000000000000000e+00,0.000000000000000e+00
	1.321530567305254e-04,1.258639128250812e-13
	1.321530566206023e-04,1.193633939035569e-13
	-1.449889121770559e-06,-1.240794174318944e-13
	9.381411094596420e-05,4.619665039542246e-12
	-7.048163025827111e-05,-6.413267535795716e-14
	-2.188259156592253e-05,-4.431452946752395e-12
	1.449889121770559e-06,1.240794174318941e-13
	-9.381411094605552e-05,-4.619665039542246e-12
	1.449889121770559e-06,1.240794174318941e-13
4		1.096478196143185e+00,0.000000000000000e+00
	1.449889121770559e-02,1.269695983443356e-09
	1.000000000000000e+00,0.000000000000000e+00
	0.000000000000000e+00,0.000000000000000e+00
	1.321530567305254e-04,1.287956599749413e-13
	1.321530566206023e-04,1.221437245163571e-13
	-1.449889121770559e-06,-1.269695983443358e-13
	9.381411094596420e-05,4.727270861647973e-12
	-7.048163025827111e-05,-6.562651727001415e-14
	-2.188259156592253e-05,-4.534674746033623e-12
	1.449889121770559e-06,1.269695983443356e-13
	-9.381411094605552e-05,-4.727270861647971e-12
	1.449889121770559e-06,1.269695983443356e-13
5		1.122018454301963e+00,0.000000000000000e+00
	1.449889121770559e-02,1.299271002184608e-09
	1.000000000000000e+00,0.000000000000000e+00
	0.000000000000000e+00,0.000000000000000e+00
	1.321530567305254e-04,1.317956962885322e-13
	1.321530566206023e-04,1.249888173486591e-13
	-1.449889121770559e-06,-1.299271002184605e-13
	9.381411094596420e-05,4.837383145337373e-12
	-7.048163025827111e-05,-6.715515523019738e-14
	-2.188259156592253e-05,-4.640300889888716e-12
	1.449889121770559e-06,1.299271002184608e-13
	-9.381411094605552e-05,-4.837383145337373e-12
	1.449889121770559e-06,1.299271002184608e-13
6		1.148153621496882e+00,0.000000000000000e+00
	1.449889121770559e-02,1.329534911609101e-09
	1.000000000000000e+00,0.000000000000000e+00
	0.000000000000000e+00,0.000000000000000e+00
	1.321530567305254e-04,1.348656124248176e-13
	1.321530566206023e-04,1.279001809063421e-13
	-1.449889121770559e-06,-1.329534911609097e-13
	9.381411094596420e-05,4.950060273600767e-12
	-7.048163025827111e-05,-6.871939974258721e-14
	-2.188259156592253e-05,-4.748387382697270e-12
	1.449889121770559e-06,1.329534911609101e-13
	-9.381411094605552e-05,-4.950060273600767e-12
	1.449889121770559e-06,1.329534911609101e-13
7		1.174897554939529e+00,0.000000000000000e+00
	1.449889121770559e-02,1.360503758042205e-09
	1.000000000000000e+00,0.000000000000000e+00
	0.000000000000000e+00,0.000000000000000e+00
	1.321530567305254e-04,1.380070360939681e-13
	1.321530566206023e-04,1.308793588329005e-13
	-1.449889121770559e-06,-1.360503758042197e-13
	9.381411094596420e-05,5.065361989343016e-12
	-7.048163025827111e-05,-7.032008019032934e-14
	-2.188259156592253e-05,-4.858991533348468e-12
	1.449889121770559e-06,1.360503758042205e-13
	-9.381411094605552e-05,-5.065361989343017e-12
	1.449889121770559e-06,1.360503758042205e-13
8		1.202264434617413e+00,0.000000000000000e+00
	1.449889121770559e-02,1.392193961576219e-09
	1.000000000000000e+00,0.000000000000000e+00
	0.000000000000000e+00,0.000000000000000e+00
	1.321530567305254e-04,1.412216329203947e-13
	1.321530566206023e-04,1.339279307279053e-13
	-1.449889121770559e-06,-1.392193961576220e-13
	9.381411094596420e-05,5.183349427060011e-12
	-7.048163025827111e-05,-7.195804527538470e-14
	-2.188259156592253e-05,-4.972171985627004e-12
	1.449889121770559e-06,1.392193961576219e-13
	-9.381411094605552e-05,-5.183349427060009e-12
	1.449889121770559e-06,1.392193961576219e-13
9		1.230268770812381e+00,0.000000000000000e+00
	1.449889121770559e-02,1.424622324776526e-09
	1.000000000000000e+00,0.000000000000000e+00
	0.000000000000000e+00,0.000000000000000e+00
	1.321530567305254e-04,1.445111073258849e-13
	1.321530566206023e-04,1.370475129845278e-13
	-1.449889121770559e-06,-1.424622324776520e-13
	9.381411094596420e-05,5.304085145252969e-12
	-7.048163025827111e-05,-7.363416346852238e-14
	-2.188259156592253e-05,-5.087988749306794e-12
	1.449889121770559e-06,1.424622324776526e-13
	-9.381411094605552e-05,-5.304085145252969e-12
	1.449889121770559e-06,1.424622324776526e-13
10		1.258925411794167e+00,0.000000000000000e+00
	1.449889121770559e-02,1.457806041590536e-09
	1.000000000000000e+00,0.000000000000000e+00
	0.000000000000000e+00,0.000000000000000e+00
	1.321530567305254e-04,1.478772034333100e-13
	1.321530566206023e-04,1.402397596465730e-13
	-1.449889121770559e-06,-1.457806041590534e-13
	9.381411094596420e-05,5.427633159597810e-12
	-7.048163025827111e-05,-7.534932346979447e-14
	-2.188259156592253e-05,-5.206503231968962e-12
	1.449889121770559e-06,1.457806041590536e-13
	-9.381411094605552e-05,-5.427633159597810e-12
	1.449889121770559e-06,1.457806041590536e-13
11		1.288249551693134e+00,0.000000000000000e+00
	1.449889121770559e-02,1.491762706464141e-09
	1.000000000000000e+00,0.000000000000000e+00
	0.000000000000000e+00,0.000000000000000e+00
	1.321530567305254e-04,1.513217059913816e-13
	1.321530566206023e-04,1.435063632854754e-13
	-1.449889121770555e-06,-1.491762706464134e-13
	9.381411094596420e-05,5.554058976887087e-12
	-7.048163025827111e-05,-7.710443467973644e-14
	-2.188259156592253e-05,-5.327778271560937e-12
	1.449889121770559e-06,1.491762706464141e-13
	-9.381411094605552e-05,-5.554058976887087e-12
	1.449889121770559e-06,1.491762706464141e-13
12		1.318256738556407e+00,0.000000000000000e+00
	1.449889121770559e-02,1.526510323670527e-09
	1.000000000000000e+00,0.000000000000000e+00
	0.000000000000000e+00,0.000000000000000e+00
	1.321530567305254e-04,1.548464413209494e-13
	1.321530566206023e-04,1.468490558977231e-13
	-1.449889121770555e-06,-1.526510323670526e-13
	9.381411094596420e-05,5.683429629762570e-12
	-7.048163025827111e-05,-7.890042768154346e-14
	-2.188259156592253e-05,-5.451878169713974e-12
	1.449889121770559e-06,1.526510323670527e-13
	-9.381411094605552e-05,-5.683429629762570e-12
	1.449889121770559e-06,1.526510323670527e-13
13		1.348962882591653e+00,0.000000000000000e+00
	1.449889121770559e-02,1.562067316856276e-09
	1.000000000000000e+00,0.000000000000000e+00
	0.000000000000000e+00,0.000000000000000e+00
	1.321530567305254e-04,1.584532782833405e-13
	1.321530566206023e-04,1.502696098231848e-13
	-1.449889121770559e-06,-1.562067316856279e-13
	9.381411094596420e-05,5.815813712256840e-12
	-7.048163025827111e-05,-8.073825473447785e-14
	-2.188259156592253e-05,-5.578868725836734e-12
	1.449889121770559e-06,1.562067316856277e-13
	-9.381411094605552e-05,-5.815813712256839e-12
	1.449889121770559e-06,1.562067316856277e-13
14		1.380384264602885e+00,0.000000000000000e+00
	1.449889121770559e-02,1.598452538809828e-09
	1.000000000000000e+00,0.000000000000000e+00
	0.000000000000000e+00,0.000000000000000e+00
	1.321530567305254e-04,1.621441292712545e-13
	1.321530566206023e-04,1.537698386848282e-13
	-1.449889121770559e-06,-1.598452538809825e-13
	9.381411094596420e-05,5.951281416162743e-12
	-7.048163025827111e-05,-8.261889027876961e-14
	-2.188259156592253e-05,-5.708817272002991e-12
	1.449889121770559e-06,1.598452538809828e-13
	-9.381411094605552e-05,-5.951281416162744e-12
	1.449889121770559e-06,1.598452538809828e-13
15		1.412537544622754e+00,0.000000000000000e+00
	1.449889121770559e-02,1.635685281457477e-09
	1.000000000000000e+00,0.000000000000000e+00
	0.000000000000000e+00,0.000000000000000e+00
	1.321530567305254e-04,1.659209512227395e-13
	1.321530566206023e-04,1.573515983503267e-13
	-1.449889121770559e-06,-1.635685281457471e-13
	9.381411094596420e-05,6.089904568250017e-12
	-7.048163025827111e-05,-8.454333145227747e-14
	-2.188259156592253e-05,-5.841792708651993e-12
	1.449889121770559e-06,1.635685281457477e-13
	-9.381411094605552e-05,-6.089904568250017e-12
	1.449889121770559e-06,1.635685281457477e-13
16		1.445439770745927e+00,0.000000000000000e+00
	1.449889121770559e-02,1.673785286092209e-09
	1.000000000000000e+00,0.000000000000000e+00
	0.000000000000000e+00,0.000000000000000e+00
	1.321530567305254e-04,1.697857466587861e-13
	1.321530566206023e-04,1.610167879160651e-13
	-1.449889121770559e-06,-1.673785286092208e-13
	9.381411094596420e-05,6.231756668348794e-12
	-7.048163025827111e-05,-8.651259861918457e-14
	-2.188259156592253e-05,-5.977865541120388e-12
	1.449889121770559e-06,1.673785286092209e-13
	-9.381411094605552e-05,-6.231756668348794e-12
	1.449889121770559e-06,1.673785286092209e-13
17		1.479108388168207e+00,0.000000000000000e+00
	1.449889121770559e-02,1.712772753840795e-09
	1.000000000000000e+00,0.000000000000000e+00
	0.000000000000000e+00,0.000000000000000e+00
	1.321530567305254e-04,1.737405647450912e-13
	1.321530566206023e-04,1.647673507140658e-13
	-1.449889121770559e-06,-1.712772753840789e-13
	9.381411094596420e-05,6.376912928320178e-12
	-7.048163025827111e-05,-8.852773591100921e-14
	-2.188259156592253e-05,-6.117107917025090e-12
	1.449889121770559e-06,1.712772753840795e-13
	-9.381411094605552e-05,-6.376912928320179e-12
	1.449889121770559e-06,1.712772753840795e-13
18		1.513561248436208e+00,0.000000000000000e+00
	1.449889121770559e-02,1.752668356374694e-09
	1.000000000000000e+00,0.000000000000000e+00
	0.000000000000000e+00,0.000000000000000e+00
	1.321530567305254e-04,1.777875023785525e-13
	1.321530566206023e-04,1.686052753423689e-13
	-1.449889121770559e-06,-1.752668356374693e-13
	9.381411094596420e-05,6.525450311934582e-12
	-7.048163025827111e-05,-9.058981178021699e-14
	-2.188259156592253e-05,-6.259593664516896e-12
	1.449889121770559e-06,1.752668356374694e-13
	-9.381411094605552e-05,-6.525450311934581e-12
	1.449889121770559e-06,1.752668356374694e-13
19		1.548816618912481e+00,0.000000000000000e+00
	1.449889121770559e-02,1.793493246870452e-09
	1.000000000000000e+00,0.000000000000000e+00
	0.000000000000000e+00,0.000000000000000e+00
	1.321530567305254e-04,1.819287052990707e-13
	1.321530566206023e-04,1.725325967194131e-13
	-1.449889121770559e-06,-1.793493246870455e-13
	9.381411094596420e-05,6.677447575678919e-12
	-7.048163025827111e-05,-9.269991956672857e-14
	-2.188259156592253e-05,-6.405398331425145e-12
	1.449889121770559e-06,1.793493246870452e-13
	-9.381411094605552e-05,-6.677447575678919e-12
	1.449889121770559e-06,1.793493246870452e-13
20		1.584893192461113e+00,0.000000000000000e+00
	1.449889121770559e-02,1.835269071225390e-09
	1.000000000000000e+00,0.000000000000000e+00
	0.000000000000000e+00,0.000000000000000e+00
	1.321530567305254e-04,1.861663692272495e-13
	1.321530566206023e-04,1.765513971629769e-13
	-1.449889121770559e-06,-1.835269071225384e-13
	9.381411094596420e-05,6.832985310514349e-12
	-7.048163025827111e-05,-9.485917807762290e-14
	-2.188259156592253e-05,-6.554599225314187e-12
	1.449889121770559e-06,1.835269071225390e-13
	-9.381411094605552e-05,-6.832985310514347e-12
	1.449889121770559e-06,1.835269071225390e-13
21		1.621810097358929e+00,0.000000000000000e+00
	1.449889121770559e-02,1.878017979534550e-09
	1.000000000000000e+00,0.000000000000000e+00
	0.000000000000000e+00,0.000000000000000e+00
	1.321530567305254e-04,1.905027410285959e-13
	1.321530566206023e-04,1.806638074942504e-13
	-1.449889121770559e-06,-1.878017979534541e-13
	9.381411094596420e-05,6.992145984606665e-12
	-7.048163025827111e-05,-9.706873218034364e-14
	-2.188259156592253e-05,-6.707275454472867e-12
	1.449889121770559e-06,1.878017979534550e-13
	-9.381411094605552e-05,-6.992145984606664e-12
	1.449889121770559e-06,1.878017979534550e-13
22		1.659586907437560e+00,0.000000000000000e+00
	1.449889121770559e-02,1.921762637834966e-09
	1.000000000000000e+00,0.000000000000000e+00
	0.000000000000000e+00,0.000000000000000e+00
	1.321530567305254e-04,1.949401199048375e-13
	1.321530566206023e-04,1.848720081676257e-13
	-1.449889121770555e-06,-1.921762637834963e-13
	9.381411094596421e-05,7.155013987052014e-12
	-7.048163025827111e-05,-9.932975340972300e-14
	-2.188259156592254e-05,-6.863507969858795e-12
	1.449889121770559e-06,1.921762637834966e-13
	-9.381411094605552e-05,-7.155013987052016e-12
	1.449889121770559e-06,1.921762637834966e-13
23		1.698243652461743e+00,0.000000000000000e+00
	1.449889121770559e-02,1.966526240123497e-09
	1.000000000000000e+00,0.000000000000000e+00
	0.000000000000000e+00,0.000000000000000e+00
	1.321530567305254e-04,1.994808586129902e-13
	1.321530566206023e-04,1.891782304268017e-13
	-1.449889121770555e-06,-1.966526240123511e-13
	9.381411094596421e-05,7.321675672621107e-12
	-7.048163025827111e-05,-1.016434405891449e-13
	-2.188259156592254e-05,-7.023379608019610e-12
	1.449889121770559e-06,1.966526240123497e-13
	-9.381411094605552e-05,-7.321675672621104e-12
	1.449889121770559e-06,1.966526240123497e-13
24		1.737800828749374e+00,0.000000000000000e+00
	1.449889121770559e-02,2.012332520654594e-09
	1.000000000000000e+00,0.000000000000000e+00
	0.000000000000000e+00,0.000000000000000e+00
	1.321530567305254e-04,2.041273647128207e-13
	1.321530566206023e-04,1.935847574878199e-13
	-1.449889121770559e-06,-2.012332520654581e-13
	9.381411094596421e-05,7.492219407545651e-12
	-7.048163025827111e-05,-1.040110204661771e-13
	-2.188259156592254e-05,-7.186975135014016e-12
	1.449889121770559e-06,2.012332520654594e-13
	-9.381411094605552e-05,-7.492219407545651e-12
	1.449889121770559e-06,2.012332520654594e-13
25		1.778279410038922e+00,0.000000000000000e+00
	1.449889121770559e-02,2.059205766524512e-09
	1.000000000000000e+00,0.000000000000000e+00
	0.000000000000000e+00,0.000000000000000e+00
	1.321530567305254e-04,2.088821018433671e-13
	1.321530566206023e-04,1.980939257496553e-13
	-1.449889121770559e-06,-2.059205766524515e-13
	9.381411094596421e-05,7.666735616371330e-12
	-7.048163025827111e-05,-1.064337483630091e-13
	-2.188259156592254e-05,-7.354381291355869e-12
	1.449889121770559e-06,2.059205766524512e-13
	-9.381411094605552e-05,-7.666735616371331e-12
	1.449889121770559e-06,2.059205766524512e-13
26		1.819700858609982e+00,0.000000000000000e+00
	1.449889121770559e-02,2.107170830548651e-09
	1.000000000000000e+00,0.000000000000000e+00
	0.000000000000000e+00,0.000000000000000e+00
	1.321530567305254e-04,2.137475910291924e-13
	1.321530566206023e-04,2.027081260330063e-13
	-1.449889121770559e-06,-2.107170830548664e-13
	9.381411094596421e-05,7.845316829902049e-12
	-7.048163025827111e-05,-1.089129088420404e-13
	-2.188259156592254e-05,-7.525686838005143e-12
	1.449889121770559e-06,2.107170830548651e-13
	-9.381411094605552e-05,-7.845316829902049e-12
	1.449889121770559e-06,2.107170830548651e-13
27		1.862087136662866e+00,0.000000000000000e+00
	1.449889121770559e-02,2.156253144438852e-09
	1.000000000000000e+00,0.000000000000000e+00
	0.000000000000000e+00,0.000000000000000e+00
	1.321530567305254e-04,2.187264120170651e-13
	1.321530566206023e-04,2.074298048479393e-13
	-1.449889121770559e-06,-2.156253144438854e-13
	9.381411094596421e-05,8.028057734261030e-12
	-7.048163025827111e-05,-1.114498163869725e-13
	-2.188259156592254e-05,-7.700982603430171e-12
	1.449889121770559e-06,2.156253144438852e-13
	-9.381411094605552e-05,-8.028057734261026e-12
	1.449889121770559e-06,2.156253144438852e-13
28		1.905460717963246e+00,0.000000000000000e+00
	1.449889121770559e-02,2.206478732287617e-09
	1.000000000000000e+00,0.000000000000000e+00
	0.000000000000000e+00,0.000000000000000e+00
	1.321530567305254e-04,2.238212046437756e-13
	1.321530566206023e-04,2.122614656910606e-13
	-1.449889121770559e-06,-2.206478732287618e-13
	9.381411094596421e-05,8.215055221094617e-12
	-7.048163025827111e-05,-1.140458160997658e-13
	-2.188259156592254e-05,-7.880361531766089e-12
	1.449889121770559e-06,2.206478732287617e-13
	-9.381411094605552e-05,-8.215055221094617e-12
	1.449889121770559e-06,2.206478732287617e-13
29		1.949844599758044e+00,0.000000000000000e+00
	1.449889121770559e-02,2.257874224366441e-09
	1.000000000000000e+00,0.000000000000000e+00
	0.000000000000000e+00,0.000000000000000e+00
	1.321530567305254e-04,2.290346702358122e-13
	1.321530566206023e-04,2.172056703729041e-13
	-1.449889121770555e-06,-2.257874224366441e-13
	9.381411094596421e-05,8.406408438945546e-12
	-7.048163025827111e-05,-1.167022844138299e-13
	-2.188259156592254e-05,-8.063918732095073e-12
	1.449889121770560e-06,2.257874224366441e-13
	-9.381411094605552e-05,-8.406408438945545e-12
	1.449889121770560e-06,2.257874224366441e-13
30		1.995262314968878e+00,0.000000000000000e+00
	1.449889121770559e-02,2.310466871245522e-09
	1.000000000000000e+00,0.000000000000000e+00
	0.000000000000000e+00,0.000000000000000e+00
	1.321530567305254e-04,2.343695730416401e-13
	1.321530566206022e-04,2.222650403762361e-13
	-1.449889121770555e-06,-2.310466871245521e-13
	9.381411094596420e-05,8.602218845822766e-12
	-7.048163025827110e-05,-1.194206298238276e-13
	-2.188259156592255e-05,-8.251751528874387e-12
	1.449889121770560e-06,2.310466871245522e-13
	-9.381411094605552e-05,-8.602218845822768e-12
	1.449889121770560e-06,2.310466871245522e-13
31		2.041737944669527e+00,0.000000000000000e+00
	1.449889121770559e-02,2.364284558242382e-09
	1.000000000000000e+00,0.000000000000000e+00
	0.000000000000000e+00,0.000000000000000e+00
	1.321530567305254e-04,2.398287416973426e-13
	1.321530566206022e-04,2.274422582460013e-13
	-1.449889121770559e-06,-2.364284558242380e-13
	9.381411094596420e-05,8.802590262995875e-12
	-7.048163025827110e-05,-1.222022936324768e-13
	-2.188259156592255e-05,-8.443959513539160e-12
	1.449889121770560e-06,2.364284558242382e-13
	-9.381411094605552e-05,-8.802590262995875e-12
	1.449889121770560e-06,2.364284558242382e-13
32		2.089296130854037e+00,0.000000000000000e+00
	1.449889121770559e-02,2.419355820207028e-09
	1.000000000000000e+00,0.000000000000000e+00
	0.000000000000000e+00,0.000000000000000e+00
	1.321530567305254e-04,2.454150707264018e-13
	1.321530566206022e-04,2.327400690116428e-13
