Title: * GA CMOS Amp | W=1.76049306229839e-05 L=9.526541503115229e-07 Vbias=1.441442295486102
Date: Mon Sep  8 18:43:44 2025
Plotname: AC Analysis
Flags: complex forward log
No. Variables: 11
No. Points:          901
Offset:    0.0000000000000000e+00
Command: Linear Technology Corporation LTspice
Variables:
	0	frequency	frequency
	1	V(out)	voltage
	2	V(g)	voltage
	3	V(vdd)	voltage
	4	Id(M1)	device_current
	5	Ig(M1)	device_current
	6	Ib(M1)	device_current
	7	Is(M1)	device_current
	8	I(Rload)	device_current
	9	I(Vg)	device_current
	10	I(Vdd)	device_current
Values:
0		1.000000000000000e+00,0.000000000000000e+00
	-1.933746704433537e-01,9.079215434533748e-11
	1.000000000000000e+00,0.000000000000000e+00
	0.000000000000000e+00,0.000000000000000e+00
	1.933746704433538e-05,-9.079215434533762e-15
	8.350186482981524e-24,2.061734579342438e-13
	1.943479014873684e-13,6.723207346500784e-16
	-1.933746723868329e-05,-1.977665632343601e-13
	-1.933746704433537e-05,9.079215434533749e-15
	-8.350186482981524e-24,-2.061734579342438e-13
	-1.933746704433537e-05,9.079215434533749e-15
1		1.023292992280754e+00,0.000000000000000e+00
	-1.933746704433537e-01,9.290697529565648e-11
	1.000000000000000e+00,0.000000000000000e+00
	0.000000000000000e+00,0.000000000000000e+00
	1.933746704433538e-05,-9.290697529565643e-15
	8.743718647878692e-24,2.109758546984025e-13
	1.943479014873684e-13,6.879810963324488e-16
	-1.933746723868329e-05,-2.023731382651693e-13
	-1.933746704433537e-05,9.290697529565648e-15
	-8.743718647878692e-24,-2.109758546984025e-13
	-1.933746704433537e-05,9.290697529565648e-15
2		1.047128548050899e+00,0.000000000000000e+00
	-1.933746704433537e-01,9.507105675404640e-11
	1.000000000000000e+00,0.000000000000000e+00
	0.000000000000000e+00,0.000000000000000e+00
	1.933746704433538e-05,-9.507105675404645e-15
	9.155797412318786e-24,2.158901136533179e-13
	1.943479014873684e-13,7.040062346986505e-16
	-1.933746723868329e-05,-2.070870142126119e-13
	-1.933746704433537e-05,9.507105675404640e-15
	-9.155797412318786e-24,-2.158901136533179e-13
	-1.933746704433537e-05,9.507105675404640e-15
3		1.071519305237606e+00,0.000000000000000e+00
	-1.933746704433537e-01,9.728554614514153e-11
	1.000000000000000e+00,0.000000000000000e+00
	0.000000000000000e+00,0.000000000000000e+00
	1.933746704433538e-05,-9.728554614514133e-15
	9.587296850609551e-24,2.209188404041357e-13
	1.943479014873684e-13,7.204046464890803e-16
	-1.933746723868329e-05,-2.119106904361107e-13
	-1.933746704433537e-05,9.728554614514154e-15
	-9.587296850609551e-24,-2.209188404041357e-13
	-1.933746704433537e-05,9.728554614514154e-15
4		1.096478196143185e+00,0.000000000000000e+00
	-1.933746704433537e-01,9.955161762052924e-11
	1.000000000000000e+00,0.000000000000000e+00
	0.000000000000000e+00,0.000000000000000e+00
	1.933746704433538e-05,-9.955161762052934e-15
	1.003913223091174e-23,2.260647012483424e-13
	1.943479014873684e-13,7.371850263587843e-16
	-1.933746723868329e-05,-2.168467245126482e-13
	-1.933746704433537e-05,9.955161762052925e-15
	-1.003913223091174e-23,-2.260647012483424e-13
	-1.933746704433537e-05,9.955161762052925e-15
5		1.122018454301963e+00,0.000000000000000e+00
	-1.933746704433537e-01,1.018704726813008e-10
	1.000000000000000e+00,0.000000000000000e+00
	0.000000000000000e+00,0.000000000000000e+00
	1.933746704433538e-05,-1.018704726813010e-14
	1.051226195664560e-23,2.313304245894711e-13
	1.943479014873684e-13,7.543562714872708e-16
	-1.933746723868329e-05,-2.218977335928282e-13
	-1.933746704433537e-05,1.018704726813008e-14
	-1.051226195664560e-23,-2.313304245894711e-13
	-1.933746704433537e-05,1.018704726813008e-14
6		1.148153621496882e+00,0.000000000000000e+00
	-1.933746704433537e-01,1.042433408151031e-10
	1.000000000000000e+00,0.000000000000000e+00
	0.000000000000000e+00,0.000000000000000e+00
	1.933746704433538e-05,-1.042433408151032e-14
	1.100768959939301e-23,2.367188023837372e-13
	1.943479014873684e-13,7.719274862959363e-16
	-1.933746723868329e-05,-2.270663957885228e-13
	-1.933746704433537e-05,1.042433408151031e-14
	-1.100768959939301e-23,-2.367188023837372e-13
	-1.933746704433537e-05,1.042433408151031e-14
7		1.174897554939529e+00,0.000000000000000e+00
	-1.933746704433537e-01,1.066714801480294e-10
	1.000000000000000e+00,0.000000000000000e+00
	0.000000000000000e+00,0.000000000000000e+00
	1.933746704433538e-05,-1.066714801480295e-14
	1.152646602760739e-23,2.422326916203709e-13
	1.943479014873684e-13,7.899079872755156e-16
	-1.933746723868329e-05,-2.323554515928435e-13
	-1.933746704433537e-05,1.066714801480294e-14
	-1.152646602760739e-23,-2.422326916203709e-13
	-1.933746704433537e-05,1.066714801480294e-14
8		1.202264434617413e+00,0.000000000000000e+00
	-1.933746704433537e-01,1.091561781116940e-10
	1.000000000000000e+00,0.000000000000000e+00
	0.000000000000000e+00,0.000000000000000e+00
	1.933746704433538e-05,-1.091561781116941e-14
	1.206969163564655e-23,2.478750158364305e-13
	1.943479014873684e-13,8.083073079255881e-16
	-1.933746723868329e-05,-2.377677053331867e-13
	-1.933746704433537e-05,1.091561781116940e-14
	-1.206969163564655e-23,-2.478750158364305e-13
	-1.933746704433537e-05,1.091561781116940e-14
9		1.230268770812381e+00,0.000000000000000e+00
	-1.933746704433537e-01,1.116987521258463e-10
	1.000000000000000e+00,0.000000000000000e+00
	0.000000000000000e+00,0.000000000000000e+00
	1.933746704433538e-05,-1.116987521258466e-14
	1.263851867785666e-23,2.536487666669003e-13
	1.943479014873684e-13,8.271352038096234e-16
	-1.933746723868329e-05,-2.433060266581253e-13
	-1.933746704433537e-05,1.116987521258463e-14
	-1.263851867785666e-23,-2.536487666669003e-13
	-1.933746704433537e-05,1.116987521258463e-14
10		1.258925411794167e+00,0.000000000000000e+00
	-1.933746704433537e-01,1.143005502968836e-10
	1.000000000000000e+00,0.000000000000000e+00
	0.000000000000000e+00,0.000000000000000e+00
	1.933746704433538e-05,-1.143005502968836e-14
	1.323415371265822e-23,2.595570054308952e-13
	1.943479014873684e-13,8.464016577271073e-16
	-1.933746723868329e-05,-2.489733520589339e-13
	-1.933746704433537e-05,1.143005502968836e-14
	-1.323415371265822e-23,-2.595570054308952e-13
	-1.933746704433537e-05,1.143005502968836e-14
11		1.288249551693134e+00,0.000000000000000e+00
	-1.933746704433537e-01,1.169629521326348e-10
	1.000000000000000e+00,0.000000000000000e+00
	0.000000000000000e+00,0.000000000000000e+00
	1.933746704433538e-05,-1.169629521326349e-14
	1.385786016181822e-23,2.656028647548127e-13
	1.943479014873684e-13,8.661168850070127e-16
	-1.933746723868329e-05,-2.547726864265562e-13
	-1.933746704433537e-05,1.169629521326348e-14
	-1.385786016181822e-23,-2.656028647548127e-13
	-1.933746704433537e-05,1.169629521326348e-14
12		1.318256738556407e+00,0.000000000000000e+00
	-1.933746704433537e-01,1.196873692737945e-10
	1.000000000000000e+00,0.000000000000000e+00
	0.000000000000000e+00,0.000000000000000e+00
	1.933746704433538e-05,-1.196873692737945e-14
	1.451096099033712e-23,2.717895502332927e-13
	1.943479014873684e-13,8.862913389237021e-16
	-1.933746723868329e-05,-2.607071046448370e-13
	-1.933746704433537e-05,1.196873692737945e-14
	-1.451096099033712e-23,-2.717895502332927e-13
	-1.933746704433537e-05,1.196873692737945e-14
13		1.348962882591653e+00,0.000000000000000e+00
	-1.933746704433537e-01,1.224752462423928e-10
	1.000000000000000e+00,0.000000000000000e+00
	0.000000000000000e+00,0.000000000000000e+00
	1.933746704433538e-05,-1.224752462423928e-14
	1.519484151263495e-23,2.781203421288665e-13
	1.943479014873684e-13,9.069357162396788e-16
	-1.933746723868329e-05,-2.667797532208669e-13
	-1.933746704433537e-05,1.224752462423928e-14
	-1.519484151263495e-23,-2.781203421288665e-13
	-1.933746704433537e-05,1.224752462423928e-14
14		1.380384264602885e+00,0.000000000000000e+00
	-1.933746704433537e-01,1.253280612077003e-10
	1.000000000000000e+00,0.000000000000000e+00
	0.000000000000000e+00,0.000000000000000e+00
	1.933746704433538e-05,-1.253280612077005e-14
	1.591095233098897e-23,2.845985971111949e-13
	1.943479014873684e-13,9.280609628772070e-16
	-1.933746723868329e-05,-2.729938519533021e-13
	-1.933746704433537e-05,1.253280612077003e-14
	-1.591095233098897e-23,-2.845985971111949e-13
	-1.933746704433537e-05,1.253280612077003e-14
15		1.412537544622754e+00,0.000000000000000e+00
	-1.933746704433537e-01,1.282473267699731e-10
	1.000000000000000e+00,0.000000000000000e+00
	0.000000000000000e+00,0.000000000000000e+00
	1.933746704433538e-05,-1.282473267699732e-14
	1.666081241245556e-23,2.912277500368194e-13
	1.943479014873684e-13,9.496782797216264e-16
	-1.933746723868329e-05,-2.793526956395437e-13
	-1.933746704433537e-05,1.282473267699731e-14
	-1.666081241245556e-23,-2.912277500368194e-13
	-1.933746704433537e-05,1.282473267699731e-14
16		1.445439770745927e+00,0.000000000000000e+00
	-1.933746704433537e-01,1.312345907624534e-10
	1.000000000000000e+00,0.000000000000000e+00
	0.000000000000000e+00,0.000000000000000e+00
	1.933746704433538e-05,-1.312345907624535e-14
	1.744601231080298e-23,2.980113157703684e-13
	1.943479014873684e-13,9.717991285603011e-16
	-1.933746723868329e-05,-2.858596558226833e-13
	-1.933746704433537e-05,1.312345907624534e-14
	-1.744601231080298e-23,-2.980113157703684e-13
	-1.933746704433537e-05,1.312345907624534e-14
17		1.479108388168207e+00,0.000000000000000e+00
	-1.933746704433537e-01,1.342914370720512e-10
	1.000000000000000e+00,0.000000000000000e+00
	0.000000000000000e+00,0.000000000000000e+00
	1.933746704433538e-05,-1.342914370720510e-14
	1.826821754028925e-23,3.049528910481849e-13
	1.943479014873684e-13,9.944352381603579e-16
	-1.933746723868329e-05,-2.925181825791402e-13
	-1.933746704433537e-05,1.342914370720512e-14
	-1.826821754028925e-23,-3.049528910481849e-13
	-1.933746704433537e-05,1.342914370720512e-14
18		1.513561248436208e+00,0.000000000000000e+00
	-1.933746704433537e-01,1.374194864791418e-10
	1.000000000000000e+00,0.000000000000000e+00
	0.000000000000000e+00,0.000000000000000e+00
	1.933746704433538e-05,-1.374194864791421e-14
	1.912917210844105e-23,3.120561563853640e-13
	1.943479014873684e-13,1.017598610486551e-15
	-1.933746723868329e-05,-2.993318063479363e-13
	-1.933746704433537e-05,1.374194864791418e-14
	-1.912917210844105e-23,-3.120561563853640e-13
	-1.933746704433537e-05,1.374194864791418e-14
19		1.548816618912481e+00,0.000000000000000e+00
	-1.933746704433537e-01,1.406203975169257e-10
	1.000000000000000e+00,0.000000000000000e+00
	0.000000000000000e+00,0.000000000000000e+00
	1.933746704433538e-05,-1.406203975169257e-14
	2.003070221532764e-23,3.193248780272100e-13
	1.943479014873684e-13,1.041301527065487e-15
	-1.933746723868329e-05,-3.063041398025829e-13
	-1.933746704433537e-05,1.406203975169257e-14
	-2.003070221532764e-23,-3.193248780272100e-13
	-1.933746704433537e-05,1.406203975169257e-14
20		1.584893192461113e+00,0.000000000000000e+00
	-1.933746704433537e-01,1.438958673508040e-10
	1.000000000000000e+00,0.000000000000000e+00
	0.000000000000000e+00,0.000000000000000e+00
	1.933746704433538e-05,-1.438958673508042e-14
	2.097472012717597e-23,3.267629099461506e-13
	1.943479014873684e-13,1.065556555497429e-15
	-1.933746723868329e-05,-3.134388797665676e-13
	-1.933746704433537e-05,1.438958673508040e-14
	-2.097472012717597e-23,-3.267629099461506e-13
	-1.933746704433537e-05,1.438958673508040e-14
21		1.621810097358929e+00,0.000000000000000e+00
	-1.933746704433537e-01,1.472476326782387e-10
	1.000000000000000e+00,0.000000000000000e+00
	0.000000000000000e+00,0.000000000000000e+00
	1.933746704433538e-05,-1.472476326782390e-14
	2.196322823254375e-23,3.343741958851630e-13
	1.943479014873684e-13,1.090376556119278e-15
	-1.933746723868329e-05,-3.207398091734584e-13
	-1.933746704433537e-05,1.472476326782387e-14
	-2.196322823254375e-23,-3.343741958851630e-13
	-1.933746704433537e-05,1.472476326782387e-14
22		1.659586907437560e+00,0.000000000000000e+00
	-1.933746704433537e-01,1.506774706495722e-10
	1.000000000000000e+00,0.000000000000000e+00
	0.000000000000000e+00,0.000000000000000e+00
	1.933746704433538e-05,-1.506774706495724e-14
	2.299832328965406e-23,3.421627714487995e-13
	1.943479014873684e-13,1.115774688824043e-15
	-1.933746723868329e-05,-3.282107990726663e-13
	-1.933746704433537e-05,1.506774706495722e-14
	-2.299832328965406e-23,-3.421627714487995e-13
	-1.933746704433537e-05,1.506774706495722e-14
23		1.698243652461743e+00,0.000000000000000e+00
	-1.933746704433537e-01,1.541871998102963e-10
	1.000000000000000e+00,0.000000000000000e+00
	0.000000000000000e+00,0.000000000000000e+00
	1.933746704433538e-05,-1.541871998102965e-14
	2.408220087390065e-23,3.501327662429178e-13
	1.943479014873684e-13,1.141764420037906e-15
	-1.933746723868329e-05,-3.358558106819261e-13
	-1.933746704433537e-05,1.541871998102963e-14
	-2.408220087390065e-23,-3.501327662429178e-13
	-1.933746704433537e-05,1.541871998102963e-14
24		1.737800828749374e+00,0.000000000000000e+00
	-1.933746704433537e-01,1.577786810652686e-10
	1.000000000000000e+00,0.000000000000000e+00
	0.000000000000000e+00,0.000000000000000e+00
	1.933746704433538e-05,-1.577786810652686e-14
	2.521716003495768e-23,3.582884060642531e-13
	1.943479014873684e-13,1.168359529860309e-15
	-1.933746723868329e-05,-3.436788974875866e-13
	-1.933746704433537e-05,1.577786810652686e-14
	-2.521716003495768e-23,-3.582884060642531e-13
	-1.933746704433537e-05,1.577786810652686e-14
25		1.778279410038922e+00,0.000000000000000e+00
	-1.933746704433537e-01,1.614538186653895e-10
	1.000000000000000e+00,0.000000000000000e+00
	0.000000000000000e+00,0.000000000000000e+00
	1.933746704433538e-05,-1.614538186653892e-14
	2.640560817337241e-23,3.666340151409915e-13
	1.943479014873684e-13,1.195574119370444e-15
	-1.933746723868329e-05,-3.516842073938230e-13
	-1.933746704433537e-05,1.614538186653895e-14
	-2.640560817337241e-23,-3.666340151409915e-13
	-1.933746704433537e-05,1.614538186653895e-14
26		1.819700858609982e+00,0.000000000000000e+00
	-1.933746704433537e-01,1.652145612172606e-10
	1.000000000000000e+00,0.000000000000000e+00
	0.000000000000000e+00,0.000000000000000e+00
	1.933746704433538e-05,-1.652145612172606e-14
	2.765006614698441e-23,3.751740184255325e-13
	1.943479014873684e-13,1.223422618104070e-15
	-1.933746723868329e-05,-3.598759849219105e-13
	-1.933746704433537e-05,1.652145612172606e-14
	-2.765006614698441e-23,-3.751740184255325e-13
	-1.933746704433537e-05,1.652145612172606e-14
27		1.862087136662866e+00,0.000000000000000e+00
	-1.933746704433537e-01,1.690629027163624e-10
	1.000000000000000e+00,0.000000000000000e+00
	0.000000000000000e+00,0.000000000000000e+00
	1.933746704433538e-05,-1.690629027163629e-14
	2.895317361800311e-23,3.839129439406579e-13
	1.943479014873684e-13,1.251919791703615e-15
	-1.933746723868329e-05,-3.682585734607252e-13
	-1.933746704433537e-05,1.690629027163624e-14
	-2.895317361800311e-23,-3.839129439406579e-13
	-1.933746704433537e-05,1.690629027163624e-14
28		1.905460717963246e+00,0.000000000000000e+00
	-1.933746704433537e-01,1.730008836042966e-10
	1.000000000000000e+00,0.000000000000000e+00
	0.000000000000000e+00,0.000000000000000e+00
	1.933746704433538e-05,-1.730008836042969e-14
	3.031769465208521e-23,3.928554251803492e-13
	1.943479014873684e-13,1.281080749747872e-15
	-1.933746723868329e-05,-3.768364175696674e-13
	-1.933746704433537e-05,1.730008836042966e-14
	-3.031769465208521e-23,-3.928554251803492e-13
	-1.933746704433537e-05,1.730008836042966e-14
29		1.949844599758044e+00,0.000000000000000e+00
	-1.933746704433537e-01,1.770305918506551e-10
	1.000000000000000e+00,0.000000000000000e+00
	0.000000000000000e+00,0.000000000000000e+00
	1.933746704433538e-05,-1.770305918506553e-14
	3.174652358128852e-23,4.020062035665275e-13
	1.943479014873684e-13,1.310920953762781e-15
	-1.933746723868329e-05,-3.856140653352248e-13
	-1.933746704433537e-05,1.770305918506551e-14
	-3.174652358128852e-23,-4.020062035665275e-13
	-1.933746704433537e-05,1.770305918506551e-14
30		1.995262314968878e+00,0.000000000000000e+00
	-1.933746704433537e-01,1.811541640600897e-10
	1.000000000000000e+00,0.000000000000000e+00
	0.000000000000000e+00,0.000000000000000e+00
	1.933746704433538e-05,-1.811541640600898e-14
	3.324269114333827e-23,4.113701309630178e-13
	1.943479014873684e-13,1.341456225419528e-15
	-1.933746723868329e-05,-3.945961707824284e-13
	-1.933746704433537e-05,1.811541640600898e-14
	-3.324269114333827e-23,-4.113701309630178e-13
	-1.933746704433537e-05,1.811541640600898e-14
31		2.041737944669527e+00,0.000000000000000e+00
	-1.933746704433537e-01,1.853737866051678e-10
	1.000000000000000e+00,0.000000000000000e+00
	0.000000000000000e+00,0.000000000000000e+00
	1.933746704433538e-05,-1.853737866051682e-14
	3.480937091022829e-23,4.209521722480722e-13
	1.943479014873684e-13,1.372702754923103e-15
	-1.933746723868329e-05,-4.037874963424785e-13
	-1.933746704433537e-05,1.853737866051678e-14
	-3.480937091022829e-23,-4.209521722480722e-13
	-1.933746704433537e-05,1.853737866051678e-14
32		2.089296130854037e+00,0.000000000000000e+00
	-1.933746704433537e-01,1.896916967856162e-10
	1.000000000000000e+00,0.000000000000000e+00
	0.000000000000000e+00,0.000000000000000e+00
	1.933746704433538e-05,-1.896916967856163e-14
	3.644988601979258e-23,4.307574079468132e-13
	1.943479014873684e-13,1.404677109597325e-15
	-1.933746723868329e-05,-4.131929153778489e-13
	-1.933746704433537e-05,1.896916967856162e-14
	-3.644988601979258e-23,-4.307574079468132e-13
	-1.933746704433537e-05,1.896916967856162e-14
33		2.137962089502230e+00,0.000000000000000e+00
	-1.933746704433537e-01,1.941101840145667e-10
	1.000000000000000e+00,0.000000000000000e+00
	0.000000000000000e+00,0.000000000000000e+00
	1.933746704433538e-05,-1.941101840145661e-14
	3.816771622452619e-23,4.407910369249960e-13
	1.943479014873684e-13,1.437396242668136e-15
	-1.933746723868329e-05,-4.228174147662075e-13
	-1.933746704433537e-05,1.941101840145667e-14
	-3.816771622452619e-23,-4.407910369249960e-13
	-1.933746704433537e-05,1.941101840145667e-14
34		2.187761623949550e+00,0.000000000000000e+00
	-1.933746704433537e-01,1.986315910324337e-10
	1.000000000000000e+00,0.000000000000000e+00
	0.000000000000000e+00,0.000000000000000e+00
	1.933746704433538e-05,-1.986315910324339e-14
	3.996650527260686e-23,4.510583791455155e-13
	1.943479014873684e-13,1.470877502253001e-15
	-1.933746723868329e-05,-4.326660975445251e-13
	-1.933746704433537e-05,1.986315910324338e-14
	-3.996650527260686e-23,-4.510583791455155e-13
	-1.933746704433537e-05,1.986315910324338e-14
35		2.238721138568337e+00,0.000000000000000e+00
	-1.933746704433537e-01,2.032583151490661e-10
	1.000000000000000e+00,0.000000000000000e+00
	0.000000000000000e+00,0.000000000000000e+00
	1.933746704433538e-05,-2.032583151490660e-14
	4.185006863677343e-23,4.615648784891214e-13
	1.943479014873684e-13,1.505138640558958e-15
	-1.933746723868329e-05,-4.427441856147738e-13
	-1.933746704433537e-05,2.032583151490662e-14
	-4.185006863677343e-23,-4.615648784891214e-13
	-1.933746704433537e-05,2.032583151490662e-14
36		2.290867652767770e+00,0.000000000000000e+00
	-1.933746704433537e-01,2.079928095148324e-10
	1.000000000000000e+00,0.000000000000000e+00
	0.000000000000000e+00,0.000000000000000e+00
	1.933746704433538e-05,-2.079928095148323e-14
	4.382240160745505e-23,4.723161056408357e-13
	1.943479014873684e-13,1.540197823294944e-15
	-1.933746723868329e-05,-4.530570225126474e-13
	-1.933746704433537e-05,2.079928095148324e-14
	-4.382240160745505e-23,-4.723161056408357e-13
	-1.933746704433537e-05,2.079928095148324e-14
37		2.344228815319919e+00,0.000000000000000e+00
	-1.933746704433537e-01,2.128375844213138e-10
	1.000000000000000e+00,0.000000000000000e+00
	0.000000000000000e+00,0.000000000000000e+00
	1.933746704433538e-05,-2.128375844213140e-14
	4.588768776731781e-23,4.833177610436036e-13
	1.943479014873684e-13,1.576073639303731e-15
	-1.933746723868329e-05,-4.636100762407759e-13
	-1.933746704433537e-05,2.128375844213138e-14
	-4.588768776731781e-23,-4.833177610436036e-13
	-1.933746704433537e-05,2.128375844213138e-14
38		2.398832919019488e+00,0.000000000000000e+00
	-1.933746704433537e-01,2.177952086322938e-10
	1.000000000000000e+00,0.000000000000000e+00
	0.000000000000000e+00,0.000000000000000e+00
