LTspice 24.0.9 for Windows
Circuit: * GA CMOS Amp | W=1e-06 L=4.267071479890621e-07 Vbias=0.7663167124643506
Start Time: Mon Sep  8 18:46:41 2025
solver = Normal
Maximum thread count: 2
tnom = 27
temp = 27
method = modified trap
AsciiRawFile = 1
Instance "m1": Length shorter than recommended for a level 3 MOSFET.
Instance "m1": Width narrower than recommended for a level 3 MOSFET.
Direct Newton iteration for .op point succeeded.
Semiconductor Device Operating Points:
                        --- MOSFET Transistors ---
Name:          m1
Model:        n_1u
Id:          1.48e-07
Vgs:         7.66e-01
Vds:         1.80e+00
Vbs:         0.00e+00
Vth:         8.62e-01
Vdsat:       3.98e-02
Gm:          2.80e-06
Gds:         6.26e-08
Gmb:         9.26e-07
Cbd:         0.00e+00
Cbs:         0.00e+00
Cgsov:       2.00e-16
Cgdov:       2.00e-16
Cgbov:       2.27e-17
Cgs:         1.90e-16
Cgd:         0.00e+00
Cgb:         5.34e-17



gain_db: MAX(db(v(out)/v(g)))=(32.3279dB,138.697°) FROM 1 TO 1e+09
gain_lin: MAX(mag(v(out)/v(g)))=(-30.2622dB,0°) FROM 1 TO 1e+09

Measurement "fc" FAIL'ed

Total elapsed time: 0.424 seconds.

