Title: * GA CMOS Amp | W=1e-06 L=9.8798865524993e-07 Vbias=1.2977725707939884
Date: Sat Sep  6 22:07:58 2025
Plotname: AC Analysis
Flags: complex forward log
No. Variables: 13
No. Points:          901
Offset:    0.0000000000000000e+00
Command: Linear Technology Corporation LTspice
Variables:
	0	frequency	frequency
	1	V(out)	voltage
	2	V(g)	voltage
	3	V(vdd)	voltage
	4	V(m1#dbody)	voltage
	5	V(m1#sbody)	voltage
	6	Id(M1)	device_current
	7	Ig(M1)	device_current
	8	Ib(M1)	device_current
	9	Is(M1)	device_current
	10	I(Rload)	device_current
	11	I(Vg)	device_current
	12	I(Vdd)	device_current
Values:
0		1.000000000000000e+00,0.000000000000000e+00
	-2.403927336762929e-01,7.043892116570350e-10
	1.000000000000000e+00,0.000000000000000e+00
	0.000000000000000e+00,0.000000000000000e+00
	8.077535764094674e-06,6.552742225760221e-14
	8.077537567039916e-06,6.976806663669557e-14
	2.403927336762929e-05,-7.043892116570349e-14
	5.279263407961113e-06,2.133321379647390e-13
	-4.308019918813623e-06,-3.692704774842315e-14
	-2.501051685677677e-05,-1.059661690506124e-13
	-2.403927336762929e-05,7.043892116570350e-14
	-5.279263408652923e-06,-2.133321379647390e-13
	-2.403927336762929e-05,7.043892116570350e-14
1		1.023292992280754e+00,0.000000000000000e+00
	-2.403927336762929e-01,7.207965441268089e-10
	1.000000000000000e+00,0.000000000000000e+00
	0.000000000000000e+00,0.000000000000000e+00
	8.077535764094674e-06,6.705375199842625e-14
	8.077537567039916e-06,7.139317367430726e-14
	2.403927336762929e-05,-7.207965441268088e-14
	5.279263407961113e-06,2.183012818075885e-13
	-4.308019918813623e-06,-3.778718918657822e-14
	-2.501051685677677e-05,-1.084344382083294e-13
	-2.403927336762929e-05,7.207965441268089e-14
	-5.279263408652923e-06,-2.183012818075885e-13
	-2.403927336762929e-05,7.207965441268089e-14
2		1.047128548050899e+00,0.000000000000000e+00
	-2.403927336762929e-01,7.375860524651487e-10
	1.000000000000000e+00,0.000000000000000e+00
	0.000000000000000e+00,0.000000000000000e+00
	8.077535764094674e-06,6.861563452612118e-14
	8.077537567039916e-06,7.305613431760143e-14
	2.403927336762929e-05,-7.375860524651485e-14
	5.279263407961113e-06,2.233861718796113e-13
	-4.308019918813623e-06,-3.866736589261257e-14
	-2.501051685677677e-05,-1.109602007404839e-13
	-2.403927336762929e-05,7.375860524651487e-14
	-5.279263408652923e-06,-2.233861718796113e-13
	-2.403927336762929e-05,7.375860524651487e-14
3		1.071519305237606e+00,0.000000000000000e+00
	-2.403927336762929e-01,7.547666386916112e-10
	1.000000000000000e+00,0.000000000000000e+00
	0.000000000000000e+00,0.000000000000000e+00
	8.077535764094674e-06,7.021389797147717e-14
	8.077537567039916e-06,7.475783029032303e-14
	2.403927336762929e-05,-7.547666386916113e-14
	5.279263407961113e-06,2.285895042568303e-13
	-4.308019918813623e-06,-3.956804454786628e-14
	-2.501051685677677e-05,-1.135447958398029e-13
	-2.403927336762929e-05,7.547666386916113e-14
	-5.279263408652923e-06,-2.285895042568303e-13
	-2.403927336762929e-05,7.547666386916113e-14
4		1.096478196143185e+00,0.000000000000000e+00
	-2.403927336762929e-01,7.723474121804254e-10
	1.000000000000000e+00,0.000000000000000e+00
	0.000000000000000e+00,0.000000000000000e+00
	8.077535764094674e-06,7.184938975492846e-14
	8.077537567039916e-06,7.649916385420148e-14
	2.403927336762929e-05,-7.723474121804254e-14
	5.279263407961113e-06,2.339140378149460e-13
	-4.308019918813623e-06,-4.048970270408427e-14
	-2.501051685677677e-05,-1.161895938928192e-13
	-2.403927336762929e-05,7.723474121804254e-14
	-5.279263408652923e-06,-2.339140378149461e-13
	-2.403927336762929e-05,7.723474121804254e-14
5		1.122018454301963e+00,0.000000000000000e+00
	-2.403927336762929e-01,7.903376944904047e-10
	1.000000000000000e+00,0.000000000000000e+00
	0.000000000000000e+00,0.000000000000000e+00
	8.077535764094674e-06,7.352297703586688e-14
	8.077537567039916e-06,7.828105828734152e-14
	2.403927336762929e-05,-7.903376944904047e-14
	5.279263407961113e-06,2.393625956921296e-13
	-4.308019918813623e-06,-4.143282903662053e-14
	-2.501051685677677e-05,-1.188959972064687e-13
	-2.403927336762929e-05,7.903376944904047e-14
	-5.279263408652923e-06,-2.393625956921296e-13
	-2.403927336762929e-05,7.903376944904047e-14
6		1.148153621496882e+00,0.000000000000000e+00
	-2.403927336762929e-01,8.087470243073588e-10
	1.000000000000000e+00,0.000000000000000e+00
	0.000000000000000e+00,0.000000000000000e+00
	8.077535764094674e-06,7.523554717242139e-14
	8.077537567039916e-06,8.010445837375783e-14
	2.403927336762929e-05,-8.087470243073588e-14
	5.279263407961113e-06,2.449380667858877e-13
	-4.308019918813623e-06,-4.239792360354034e-14
	-2.501051685677677e-05,-1.216654407516115e-13
	-2.403927336762929e-05,8.087470243073588e-14
	-5.279263408652923e-06,-2.449380667858877e-13
	-2.403927336762929e-05,8.087470243073588e-14
7		1.174897554939529e+00,0.000000000000000e+00
	-2.403927336762929e-01,8.275851625016329e-10
	1.000000000000000e+00,0.000000000000000e+00
	0.000000000000000e+00,0.000000000000000e+00
	8.077535764094674e-06,7.698800819194692e-14
	8.077537567039916e-06,8.197033090431175e-14
	2.403927336762929e-05,-8.275851625016330e-14
	5.279263407961113e-06,2.506434072847942e-13
	-4.308019918813623e-06,-4.338549811075761e-14
	-2.501051685677677e-05,-1.244993929238733e-13
	-2.403927336762929e-05,8.275851625016330e-14
	-5.279263408652923e-06,-2.506434072847942e-13
	-2.403927336762929e-05,8.275851625016330e-14
8		1.202264434617413e+00,0.000000000000000e+00
	-2.403927336762929e-01,8.468620973034501e-10
	1.000000000000000e+00,0.000000000000000e+00
	0.000000000000000e+00,0.000000000000000e+00
	8.077535764094674e-06,7.878128927247259e-14
	8.077537567039916e-06,8.387966518931676e-14
	2.403927336762929e-05,-8.468620973034501e-14
	5.279263407961113e-06,2.564816422359008e-13
	-4.308019918813623e-06,-4.439607618334816e-14
	-2.501051685677677e-05,-1.273993563222077e-13
	-2.403927336762929e-05,8.468620973034502e-14
	-5.279263408652923e-06,-2.564816422359008e-13
	-2.403927336762929e-05,8.468620973034502e-14
9		1.230268770812381e+00,0.000000000000000e+00
	-2.403927336762929e-01,8.665880495988025e-10
	1.000000000000000e+00,0.000000000000000e+00
	0.000000000000000e+00,0.000000000000000e+00
	8.077535764094674e-06,8.061634123536413e-14
	8.077537567039916e-06,8.583347358308375e-14
	2.403927336762929e-05,-8.665880495988025e-14
	5.279263407961113e-06,2.624558671486568e-13
	-4.308019918813623e-06,-4.543019364318265e-14
	-2.501051685677677e-05,-1.303668685455939e-13
	-2.403927336762929e-05,8.665880495988025e-14
	-5.279263408652923e-06,-2.624558671486568e-13
	-2.403927336762929e-05,8.665880495988025e-14
10		1.258925411794167e+00,0.000000000000000e+00
	-2.403927336762929e-01,8.867734783487012e-10
	1.000000000000000e+00,0.000000000000000e+00
	0.000000000000000e+00,0.000000000000000e+00
	8.077535764094674e-06,8.249413704946213e-14
	8.077537567039916e-06,8.783279202068483e-14
	2.403927336762929e-05,-8.867734783487014e-14
	5.279263407961113e-06,2.685692496361891e-13
	-4.308019918813623e-06,-4.648839879302648e-14
	-2.501051685677677e-05,-1.334035030082925e-13
	-2.403927336762929e-05,8.867734783487012e-14
	-5.279263408652923e-06,-2.685692496361892e-13
	-2.403927336762929e-05,8.867734783487012e-14
11		1.288249551693134e+00,0.000000000000000e+00
	-2.403927336762929e-01,9.074290861346551e-10
	1.000000000000000e+00,0.000000000000000e+00
	0.000000000000000e+00,0.000000000000000e+00
	8.077535764094674e-06,8.441567234696271e-14
	8.077537567039916e-06,8.987868056721973e-14
	2.403927336762929e-05,-9.074290861346550e-14
	5.279263407961113e-06,2.748250310948128e-13
	-4.308019918813623e-06,-4.757125270725706e-14
	-2.501051685677677e-05,-1.365108697740902e-13
	-2.403927336762929e-05,9.074290861346552e-14
	-5.279263408652923e-06,-2.748250310948128e-13
	-2.403927336762929e-05,9.074290861346552e-14
12		1.318256738556407e+00,0.000000000000000e+00
	-2.403927336762929e-01,9.285658248333213e-10
	1.000000000000000e+00,0.000000000000000e+00
	0.000000000000000e+00,0.000000000000000e+00
	8.077535764094674e-06,8.638196595131521e-14
	8.077537567039916e-06,9.197222397987636e-14
	2.403927336762929e-05,-9.285658248333214e-14
	5.279263407961113e-06,2.812265284226623e-13
	-4.308019918813623e-06,-4.867932952935302e-14
	-2.501051685677677e-05,-1.396906164099771e-13
	-2.403927336762929e-05,9.285658248333213e-14
	-5.279263408652923e-06,-2.812265284226624e-13
	-2.403927336762929e-05,9.285658248333213e-14
13		1.348962882591653e+00,0.000000000000000e+00
	-2.403927336762929e-01,9.501949014233360e-10
	1.000000000000000e+00,0.000000000000000e+00
	0.000000000000000e+00,0.000000000000000e+00
	8.077535764094674e-06,8.839406041741555e-14
	8.077537567039916e-06,9.411453228308341e-14
	2.403927336762929e-05,-9.501949014233360e-14
	5.279263407961113e-06,2.877771357783546e-13
	-4.308019918813623e-06,-4.981321677631253e-14
	-2.501051685677677e-05,-1.429444288597085e-13
	-2.403927336762929e-05,9.501949014233360e-14
	-5.279263408652923e-06,-2.877771357783546e-13
	-2.403927336762929e-05,9.501949014233360e-14
14		1.380384264602885e+00,0.000000000000000e+00
	-2.403927336762929e-01,9.723277839274018e-10
	1.000000000000000e+00,0.000000000000000e+00
	0.000000000000000e+00,0.000000000000000e+00
	8.077535764094674e-06,9.045302258438291e-14
	8.077537567039916e-06,9.630674135706006e-14
	2.403927336762929e-05,-9.723277839274018e-14
	5.279263407961113e-06,2.944803263806175e-13
	-4.308019918813623e-06,-5.097351565016270e-14
	-2.501051685677677e-05,-1.462740323377146e-13
	-2.403927336762929e-05,9.723277839274018e-14
	-5.279263408652923e-06,-2.944803263806175e-13
	-2.403927336762929e-05,9.723277839274018e-14
15		1.412537544622754e+00,0.000000000000000e+00
	-2.403927336762929e-01,9.949762074927857e-10
	1.000000000000000e+00,0.000000000000000e+00
	0.000000000000000e+00,0.000000000000000e+00
	8.077535764094674e-06,9.255994414121184e-14
	8.077537567039916e-06,9.855001354007465e-14
	2.403927336762929e-05,-9.949762074927855e-14
	5.279263407961113e-06,3.013396543498351e-13
	-4.308019918813623e-06,-5.216084135672485e-14
	-2.501051685677677e-05,-1.496811922438317e-13
	-2.403927336762929e-05,9.949762074927857e-14
	-5.279263408652923e-06,-3.013396543498351e-13
	-2.403927336762929e-05,9.949762074927857e-14
16		1.445439770745927e+00,0.000000000000000e+00
	-2.403927336762929e-01,1.018152180613449e-09
	1.000000000000000e+00,0.000000000000000e+00
	0.000000000000000e+00,0.000000000000000e+00
	8.077535764094674e-06,9.471594220560008e-14
	8.077537567039916e-06,1.008455382447318e-13
	2.403927336762929e-05,-1.018152180613449e-13
	5.279263407961113e-06,3.083587565924908e-13
	-4.308019918813623e-06,-5.337582343180465e-14
	-2.501051685677677e-05,-1.531677150993413e-13
	-2.403927336762929e-05,1.018152180613449e-13
	-5.279263408652923e-06,-3.083587565924909e-13
	-2.403927336762929e-05,1.018152180613449e-13
17		1.479108388168207e+00,0.000000000000000e+00
	-2.403927336762929e-01,1.041867991497111e-09
	1.000000000000000e+00,0.000000000000000e+00
	0.000000000000000e+00,0.000000000000000e+00
	8.077535764094674e-06,9.692215991625947e-14
	8.077537567039916e-06,1.031945325886148e-13
	2.403927336762929e-05,-1.041867991497111e-13
	5.279263407961113e-06,3.155413547295027e-13
	-4.308019918813623e-06,-5.461910607498057e-14
	-2.501051685677677e-05,-1.567354495048110e-13
	-2.403927336762929e-05,1.041867991497111e-13
	-5.279263408652923e-06,-3.155413547295027e-13
	-2.403927336762929e-05,1.041867991497111e-13
18		1.513561248436208e+00,0.000000000000000e+00
	-2.403927336762929e-01,1.066136214580618e-09
	1.000000000000000e+00,0.000000000000000e+00
	0.000000000000000e+00,0.000000000000000e+00
	8.077535764094674e-06,9.917976703902293e-14
	8.077537567039916e-06,1.055982420396175e-13
	2.403927336762929e-05,-1.066136214580618e-13
	5.279263407961113e-06,3.228912570694756e-13
	-4.308019918813623e-06,-5.589134849116679e-14
	-2.501051685677677e-05,-1.603862871202471e-13
	-2.403927336762929e-05,1.066136214580618e-13
	-5.279263408652923e-06,-3.228912570694757e-13
	-2.403927336762929e-05,1.066136214580618e-13
19		1.548816618912481e+00,0.000000000000000e+00
	-2.403927336762929e-01,1.090969717197076e-09
	1.000000000000000e+00,0.000000000000000e+00
	0.000000000000000e+00,0.000000000000000e+00
	8.077535764094674e-06,1.014899605870699e-13
	8.077537567039916e-06,1.080579410763075e-13
	2.403927336762929e-05,-1.090969717197076e-13
	5.279263407961113e-06,3.304123606279180e-13
	-4.308019918813623e-06,-5.719322524013249e-14
	-2.501051685677677e-05,-1.641221636680779e-13
	-2.403927336762929e-05,1.090969717197076e-13
	-5.279263408652923e-06,-3.304123606279180e-13
	-2.403927336762929e-05,1.090969717197076e-13
20		1.584893192461113e+00,0.000000000000000e+00
	-2.403927336762929e-01,1.116381666398284e-09
	1.000000000000000e+00,0.000000000000000e+00
	0.000000000000000e+00,0.000000000000000e+00
	8.077535764094674e-06,1.038539654555986e-13
	8.077537567039916e-06,1.105749338636721e-13
	2.403927336762929e-05,-1.116381666398285e-13
	5.279263407961113e-06,3.381086531934898e-13
	-4.308019918813623e-06,-5.852542659416233e-14
	-2.501051685677677e-05,-1.679450599594991e-13
	-2.403927336762929e-05,1.116381666398285e-13
	-5.279263408652923e-06,-3.381086531934898e-13
	-2.403927336762929e-05,1.116381666398285e-13
21		1.621810097358929e+00,0.000000000000000e+00
	-2.403927336762929e-01,1.142385535936075e-09
	1.000000000000000e+00,0.000000000000000e+00
	0.000000000000000e+00,0.000000000000000e+00
	8.077535764094674e-06,1.062730350712815e-13
	8.077537567039916e-06,1.131505549446035e-13
	2.403927336762929e-05,-1.142385535936075e-13
	5.279263407961113e-06,3.459842154423819e-13
	-4.308019918813623e-06,-5.988865890404796e-14
	-2.501051685677677e-05,-1.718570029447264e-13
	-2.403927336762929e-05,1.142385535936075e-13
	-5.279263408652923e-06,-3.459842154423819e-13
	-2.403927336762929e-05,1.142385535936075e-13
22		1.659586907437560e+00,0.000000000000000e+00
	-2.403927336762929e-01,1.168995113406279e-09
	1.000000000000000e+00,0.000000000000000e+00
	0.000000000000000e+00,0.000000000000000e+00
	8.077535764094674e-06,1.087484520568492e-13
	8.077537567039916e-06,1.157861699474912e-13
	2.403927336762929e-05,-1.168995113406279e-13
	5.279263407961113e-06,3.540432231019441e-13
	-4.308019918813623e-06,-6.128364497360469e-14
	-2.501051685677677e-05,-1.758600667877115e-13
	-2.403927336762929e-05,1.168995113406279e-13
	-5.279263408652923e-06,-3.540432231019441e-13
	-2.403927336762929e-05,1.168995113406279e-13
23		1.698243652461743e+00,0.000000000000000e+00
	-2.403927336762929e-01,1.196224507559091e-09
	1.000000000000000e+00,0.000000000000000e+00
	0.000000000000000e+00,0.000000000000000e+00
	8.077535764094674e-06,1.112815289111533e-13
	8.077537567039916e-06,1.184831763102962e-13
	2.403927336762929e-05,-1.196224507559091e-13
	5.279263407961113e-06,3.622899491647110e-13
	-4.308019918813623e-06,-6.271112444291132e-14
	-2.501051685677677e-05,-1.799563739658906e-13
	-2.403927336762929e-05,1.196224507559091e-13
	-5.279263408652923e-06,-3.622899491647110e-13
	-2.403927336762929e-05,1.196224507559091e-13
24		1.737800828749374e+00,0.000000000000000e+00
	-2.403927336762929e-01,1.224088155779713e-09
	1.000000000000000e+00,0.000000000000000e+00
	0.000000000000000e+00,0.000000000000000e+00
	8.077535764094674e-06,1.138736087050713e-13
	8.077537567039916e-06,1.212430040214911e-13
	2.403927336762929e-05,-1.224088155779714e-13
	5.279263407961113e-06,3.707287661539993e-13
	-4.308019918813623e-06,-6.417185418047747e-14
	-2.501051685677677e-05,-1.841480963955505e-13
	-2.403927336762929e-05,1.224088155779713e-13
	-5.279263408652923e-06,-3.707287661539993e-13
	-2.403927336762929e-05,1.224088155779713e-13
25		1.778279410038922e+00,0.000000000000000e+00
	-2.403927336762929e-01,1.252600831743253e-09
	1.000000000000000e+00,0.000000000000000e+00
	0.000000000000000e+00,0.000000000000000e+00
	8.077535764094674e-06,1.165260657936202e-13
	8.077537567039916e-06,1.240671163782592e-13
	2.403927336762929e-05,-1.252600831743253e-13
	5.279263407961113e-06,3.793641484422780e-13
	-4.308019918813623e-06,-6.566660868454502e-14
	-2.501051685677677e-05,-1.884374565834077e-13
	-2.403927336762929e-05,1.252600831743253e-13
	-5.279263408652923e-06,-3.793641484422780e-13
	-2.403927336762929e-05,1.252600831743253e-13
26		1.819700858609982e+00,0.000000000000000e+00
	-2.403927336762929e-01,1.281777653247915e-09
	1.000000000000000e+00,0.000000000000000e+00
	0.000000000000000e+00,0.000000000000000e+00
	8.077535764094674e-06,1.192403065446576e-13
	8.077537567039916e-06,1.269570107623534e-13
	2.403927336762929e-05,-1.281777653247915e-13
	5.279263407961113e-06,3.882006746235388e-13
	-4.308019918813623e-06,-6.719618049373741e-14
	-2.501051685677677e-05,-1.928267288050099e-13
	-2.403927336762929e-05,1.281777653247915e-13
	-5.279263408652923e-06,-3.882006746235389e-13
	-2.403927336762929e-05,1.281777653247915e-13
27		1.862087136662866e+00,0.000000000000000e+00
	-2.403927336762929e-01,1.311634090230662e-09
	1.000000000000000e+00,0.000000000000000e+00
	0.000000000000000e+00,0.000000000000000e+00
	8.077535764094674e-06,1.220177700845570e-13
	8.077537567039916e-06,1.299142194340285e-13
	2.403927336762929e-05,-1.311634090230662e-13
	5.279263407961113e-06,3.972430299409284e-13
	-4.308019918813623e-06,-6.876138060727419e-14
	-2.501051685677677e-05,-1.973182403105881e-13
	-2.403927336762929e-05,1.311634090230662e-13
	-5.279263408652923e-06,-3.972430299409284e-13
	-2.403927336762929e-05,1.311634090230662e-13
28		1.905460717963246e+00,0.000000000000000e+00
	-2.403927336762929e-01,1.342185972969578e-09
	1.000000000000000e+00,0.000000000000000e+00
	0.000000000000000e+00,0.000000000000000e+00
	8.077535764094674e-06,1.248599290612515e-13
	8.077537567039916e-06,1.329403103444655e-13
	2.403927336762929e-05,-1.342185972969578e-13
	5.279263407961113e-06,4.064960087709258e-13
	-4.308019918813623e-06,-7.036303891497343e-14
	-2.501051685677677e-05,-2.019143725589946e-13
	-2.403927336762929e-05,1.342185972969578e-13
	-5.279263408652923e-06,-4.064960087709259e-13
	-2.403927336762929e-05,1.342185972969578e-13
29		1.949844599758044e+00,0.000000000000000e+00
	-2.403927336762929e-01,1.373449500477296e-09
	1.000000000000000e+00,0.000000000000000e+00
	0.000000000000000e+00,0.000000000000000e+00
	8.077535764094674e-06,1.277682904250507e-13
	8.077537567039916e-06,1.360368879671202e-13
	2.403927336762929e-05,-1.373449500477295e-13
	5.279263407961113e-06,4.159645171653843e-13
	-4.308019918813623e-06,-7.200200463727030e-14
	-2.501051685677677e-05,-2.066175624803845e-13
	-2.403927336762929e-05,1.373449500477295e-13
	-5.279263408652923e-06,-4.159645171653844e-13
	-2.403927336762929e-05,1.373449500477295e-13
30		1.995262314968878e+00,0.000000000000000e+00
	-2.403927336762929e-01,1.405441249089918e-09
	1.000000000000000e+00,0.000000000000000e+00
	0.000000000000000e+00,0.000000000000000e+00
	8.077535764094674e-06,1.307443962276466e-13
	8.077537567039916e-06,1.392055941484361e-13
	2.403927336762929e-05,-1.405441249089918e-13
	5.279263407961113e-06,4.256535754527853e-13
	-4.308019918813623e-06,-7.367914677548508e-14
	-2.501051685677677e-05,-2.114303037683084e-13
	-2.403927336762929e-05,1.405441249089918e-13
	-5.279263408652923e-06,-4.256535754527853e-13
	-2.403927336762929e-05,1.405441249089918e-13
31		2.041737944669527e+00,0.000000000000000e+00
	-2.403927336762929e-01,1.438178181256023e-09
	1.000000000000000e+00,0.000000000000000e+00
	0.000000000000000e+00,0.000000000000000e+00
	8.077535764094674e-06,1.337898244397290e-13
	8.077537567039916e-06,1.424481089783734e-13
	2.403927336762929e-05,-1.438178181256023e-13
	5.279263407961113e-06,4.355683209000823e-13
	-4.308019918813623e-06,-7.539535457257899e-14
	-2.501051685677677e-05,-2.163551482019010e-13
	-2.403927336762929e-05,1.438178181256023e-13
	-5.279263408652923e-06,-4.355683209000823e-13
	-2.403927336762929e-05,1.438178181256023e-13
32		2.089296130854037e+00,0.000000000000000e+00
	-2.403927336762929e-01,1.471677654530369e-09
	1.000000000000000e+00,0.000000000000000e+00
	0.000000000000000e+00,0.000000000000000e+00
	8.077535764094674e-06,1.369061897876470e-13
