LTspice 24.0.9 for Windows
Circuit: * GA CMOS Amp | W=2.6404909169444896e-06 L=9.521680833386582e-07 Vbias=1.467937092088978
Start Time: Sat Sep  6 22:14:54 2025
solver = Normal
Maximum thread count: 2
tnom = 27
temp = 27
method = modified trap
AsciiRawFile = 1
Direct Newton iteration for .op point succeeded.
Semiconductor Device Operating Points:
                        --- BSIM4 MOSFETS ---
Name:      m1
Model:      n
Id:      1.10e-04
Vgs:     1.47e+00
Vds:     7.05e-01
Vbs:     0.00e+00
Vth:     2.36e-01
Vdsat:   8.50e-01
Gm:      3.60e-05
Gds:     4.92e-05
Gmb      5.86e-05
Cbd:     1.11e-15
Cbs:     2.11e-15


.measure op idd find i(vdd)
  Error: FIND can not be evaluated over an interval.

gain_db: MAX(db(v(out)/v(g)))=(29.6001dB,115.369°) FROM 1 TO 1e+09
gain_lin: MAX(mag(v(out)/v(g)))=(2.11199dB,0°) FROM 1 TO 1e+09
fc: mag(v(out)/v(g))=1 AT 7.60893e+08

Total elapsed time: 1.744 seconds.

