Title: * GA CMOS Amp | W=1.6541624074028518e-05 L=3.6299476348067417e-07 Vbias=1.3881024665676192
Date: Sat Sep  6 22:10:32 2025
Plotname: AC Analysis
Flags: complex forward log
No. Variables: 13
No. Points:          901
Offset:    0.0000000000000000e+00
Command: Linear Technology Corporation LTspice
Variables:
	0	frequency	frequency
	1	V(out)	voltage
	2	V(g)	voltage
	3	V(vdd)	voltage
	4	V(m1#dbody)	voltage
	5	V(m1#sbody)	voltage
	6	Id(M1)	device_current
	7	Ig(M1)	device_current
	8	Ib(M1)	device_current
	9	Is(M1)	device_current
	10	I(Rload)	device_current
	11	I(Vg)	device_current
	12	I(Vdd)	device_current
Values:
0		1.000000000000000e+00,0.000000000000000e+00
	6.069859122215630e-03,1.940435315361760e-10
	1.000000000000000e+00,0.000000000000000e+00
	0.000000000000000e+00,0.000000000000000e+00
	7.944769650402495e-05,2.498218158902464e-14
	7.944769645508791e-05,2.262963619909630e-14
	-6.069859122215601e-07,-1.940435315361769e-14
	5.407299486303380e-05,1.634342255149218e-12
	-4.237210481134354e-05,-1.224579331260420e-14
	-1.109390413946869e-05,-1.602692108682996e-12
	6.069859122215631e-07,1.940435315361759e-14
	-5.407299486301365e-05,-1.634342255149217e-12
	6.069859122215631e-07,1.940435315361759e-14
1		1.023292992280754e+00,0.000000000000000e+00
	6.069859122215630e-03,1.985633860183784e-10
	1.000000000000000e+00,0.000000000000000e+00
	0.000000000000000e+00,0.000000000000000e+00
	7.944769650402495e-05,2.556409135193419e-14
	7.944769645508791e-05,2.315674814039813e-14
	-6.069859122215601e-07,-1.985633860183778e-14
	5.407299486303380e-05,1.672410976682518e-12
	-4.237210481134354e-05,-1.253103448170640e-14
	-1.109390413946869e-05,-1.640023603598974e-12
	6.069859122215631e-07,1.985633860183784e-14
	-5.407299486301365e-05,-1.672410976682518e-12
	6.069859122215631e-07,1.985633860183784e-14
2		1.047128548050899e+00,0.000000000000000e+00
	6.069859122215630e-03,2.031885214361448e-10
	1.000000000000000e+00,0.000000000000000e+00
	0.000000000000000e+00,0.000000000000000e+00
	7.944769650402495e-05,2.615955553445928e-14
	7.944769645508791e-05,2.369613809607978e-14
	-6.069859122215601e-07,-2.031885214361453e-14
	5.407299486303380e-05,1.711366432652633e-12
	-4.237210481134354e-05,-1.282291977115865e-14
	-1.109390413946869e-05,-1.678224660737859e-12
	6.069859122215631e-07,2.031885214361448e-14
	-5.407299486301365e-05,-1.711366432652633e-12
	6.069859122215631e-07,2.031885214361448e-14
3		1.071519305237606e+00,0.000000000000000e+00
	6.069859122215630e-03,2.079213900974948e-10
	1.000000000000000e+00,0.000000000000000e+00
	0.000000000000000e+00,0.000000000000000e+00
	7.944769650402495e-05,2.676888985959140e-14
	7.944769645508791e-05,2.424809205783546e-14
	-6.069859122215601e-07,-2.079213900974949e-14
	5.407299486303380e-05,1.751229277757952e-12
	-4.237210481134354e-05,-1.312160394240498e-14
	-1.109390413946869e-05,-1.717315534805798e-12
	6.069859122215631e-07,2.079213900974948e-14
	-5.407299486301365e-05,-1.751229277757952e-12
	6.069859122215631e-07,2.079213900974948e-14
4		1.096478196143185e+00,0.000000000000000e+00
	6.069859122215630e-03,2.127645014320394e-10
	1.000000000000000e+00,0.000000000000000e+00
	0.000000000000000e+00,0.000000000000000e+00
	7.944769650402495e-05,2.739241740445521e-14
	7.944769645508791e-05,2.481290267896163e-14
	-6.069859122215601e-07,-2.127645014320398e-14
	5.407299486303380e-05,1.792020647806598e-12
	-4.237210481134354e-05,-1.342724536174653e-14
	-1.109390413946869e-05,-1.757316952301648e-12
	6.069859122215631e-07,2.127645014320394e-14
	-5.407299486301365e-05,-1.792020647806598e-12
	6.069859122215631e-07,2.127645014320394e-14
5		1.122018454301963e+00,0.000000000000000e+00
	6.069859122215630e-03,2.177204233215144e-10
	1.000000000000000e+00,0.000000000000000e+00
	0.000000000000000e+00,0.000000000000000e+00
	7.944769650402495e-05,2.803046877160839e-14
	7.944769645508791e-05,2.539086942952579e-14
	-6.069859122215601e-07,-2.177204233215143e-14
	5.407299486303380e-05,1.833762170922909e-12
	-4.237210481134354e-05,-1.374000608430949e-14
	-1.109390413946869e-05,-1.798250122506449e-12
	6.069859122215631e-07,2.177204233215144e-14
	-5.407299486301365e-05,-1.833762170922910e-12
	6.069859122215631e-07,2.177204233215144e-14
6		1.148153621496882e+00,0.000000000000000e+00
	6.069859122215630e-03,2.227917834613049e-10
	1.000000000000000e+00,0.000000000000000e+00
	0.000000000000000e+00,0.000000000000000e+00
	7.944769650402495e-05,2.868338226433139e-14
	7.944769645508791e-05,2.598229875514937e-14
	-6.069859122215601e-07,-2.227917834613047e-14
	5.407299486303380e-05,1.876475979014956e-12
	-4.237210481134354e-05,-1.406005193996882e-14
	-1.109390413946869e-05,-1.840136748728856e-12
	6.069859122215631e-07,2.227917834613049e-14
	-5.407299486301365e-05,-1.876475979014956e-12
	6.069859122215631e-07,2.227917834613049e-14
7		1.174897554939529e+00,0.000000000000000e+00
	6.069859122215630e-03,2.279812707536845e-10
	1.000000000000000e+00,0.000000000000000e+00
	0.000000000000000e+00,0.000000000000000e+00
	7.944769650402495e-05,2.935150406600037e-14
	7.944769645508791e-05,2.658750423948931e-14
	-6.069859122215601e-07,-2.279812707536868e-14
	5.407299486303380e-05,1.920184719509172e-12
	-4.237210481134354e-05,-1.438755262127351e-14
	-1.109390413946869e-05,-1.882999039812529e-12
	6.069859122215631e-07,2.279812707536845e-14
	-5.407299486301365e-05,-1.920184719509171e-12
	6.069859122215631e-07,2.279812707536845e-14
8		1.202264434617413e+00,0.000000000000000e+00
	6.069859122215630e-03,2.332916367335066e-10
	1.000000000000000e+00,0.000000000000000e+00
	0.000000000000000e+00,0.000000000000000e+00
	7.944769650402495e-05,3.003518842363824e-14
	7.944769645508791e-05,2.720680677050425e-14
	-6.069859122215601e-07,-2.332916367335063e-14
	5.407299486303380e-05,1.964911567358321e-12
	-4.237210481134354e-05,-1.472268177341978e-14
	-1.109390413946869e-05,-1.926859721911550e-12
	6.069859122215631e-07,2.332916367335066e-14
	-5.407299486301365e-05,-1.964911567358321e-12
	6.069859122215631e-07,2.332916367335066e-14
9		1.230268770812381e+00,0.000000000000000e+00
	6.069859122215630e-03,2.387256970271046e-10
	1.000000000000000e+00,0.000000000000000e+00
	0.000000000000000e+00,0.000000000000000e+00
	7.944769650402495e-05,3.073479783574104e-14
	7.944769645508791e-05,2.784053471059357e-14
	-6.069859122215601e-07,-2.387256970271057e-14
	5.407299486303380e-05,2.010680237329162e-12
	-4.237210481134354e-05,-1.506561708632005e-14
	-1.109390413946869e-05,-1.971742050540132e-12
	6.069859122215631e-07,2.387256970271046e-14
	-5.407299486301365e-05,-2.010680237329162e-12
	6.069859122215631e-07,2.387256970271046e-14
10		1.258925411794167e+00,0.000000000000000e+00
	6.069859122215630e-03,2.442863328451747e-10
	1.000000000000000e+00,0.000000000000000e+00
	0.000000000000000e+00,0.000000000000000e+00
	7.944769650402495e-05,3.145070324447949e-14
	7.944769645508791e-05,2.848902407069950e-14
	-6.069859122215601e-07,-2.442863328451730e-14
	5.407299486303380e-05,2.057514996576335e-12
	-4.237210481134354e-05,-1.541654038881650e-14
	-1.109390413946869e-05,-2.017669822903002e-12
	6.069859122215631e-07,2.442863328451747e-14
	-5.407299486301365e-05,-2.057514996576336e-12
	6.069859122215631e-07,2.442863328451747e-14
11		1.288249551693134e+00,0.000000000000000e+00
	6.069859122215630e-03,2.499764925104311e-10
	1.000000000000000e+00,0.000000000000000e+00
	0.000000000000000e+00,0.000000000000000e+00
	7.944769650402495e-05,3.218328423237746e-14
	7.944769645508791e-05,2.915261868846454e-14
	-6.069859122215601e-07,-2.499764925104314e-14
	5.407299486303380e-05,2.105440677509124e-12
	-4.237210481134354e-05,-1.577563774508914e-14
	-1.109390413946869e-05,-2.064667390512992e-12
	6.069859122215631e-07,2.499764925104311e-14
	-5.407299486301365e-05,-2.105440677509125e-12
	6.069859122215631e-07,2.499764925104311e-14
12		1.318256738556407e+00,0.000000000000000e+00
	6.069859122215630e-03,2.557991930208466e-10
	1.000000000000000e+00,0.000000000000000e+00
	0.000000000000000e+00,0.000000000000000e+00
	7.944769650402495e-05,3.293292922357154e-14
	7.944769645508791e-05,2.983167041053870e-14
	-6.069859122215601e-07,-2.557991930208463e-14
	5.407299486303380e-05,2.154482690957929e-12
	-4.237210481134354e-05,-1.614309955330947e-14
	-1.109390413946869e-05,-2.112759672102536e-12
	6.069859122215631e-07,2.557991930208466e-14
	-5.407299486301365e-05,-2.154482690957930e-12
	6.069859122215631e-07,2.557991930208466e-14
13		1.348962882591653e+00,0.000000000000000e+00
	6.069859122215630e-03,2.617575216493043e-10
	1.000000000000000e+00,0.000000000000000e+00
	0.000000000000000e+00,0.000000000000000e+00
	7.944769650402495e-05,3.370003568975881e-14
	7.944769645508791e-05,3.052653927913338e-14
	-6.069859122215601e-07,-2.617575216493014e-14
	5.407299486303380e-05,2.204667039647431e-12
	-4.237210481134354e-05,-1.651912064659216e-14
	-1.109390413946869e-05,-2.161972166835909e-12
	6.069859122215631e-07,2.617575216493043e-14
	-5.407299486301365e-05,-2.204667039647432e-12
	6.069859122215631e-07,2.617575216493043e-14
14		1.380384264602885e+00,0.000000000000000e+00
	6.069859122215630e-03,2.678546375805109e-10
	1.000000000000000e+00,0.000000000000000e+00
	0.000000000000000e+00,0.000000000000000e+00
	7.944769650402495e-05,3.448501036094150e-14
	7.944769645508791e-05,3.123759372292037e-14
	-6.069859122215601e-07,-2.678546375805097e-14
	5.407299486303380e-05,2.256020331983573e-12
	-4.237210481134354e-05,-1.690390039629808e-14
	-1.109390413946869e-05,-2.212330967829223e-12
	6.069859122215631e-07,2.678546375805109e-14
	-5.407299486301365e-05,-2.256020331983573e-12
	6.069859122215631e-07,2.678546375805109e-14
15		1.412537544622754e+00,0.000000000000000e+00
	6.069859122215630e-03,2.740937735860379e-10
	1.000000000000000e+00,0.000000000000000e+00
	0.000000000000000e+00,0.000000000000000e+00
	7.944769650402495e-05,3.528826944108064e-14
	7.944769645508791e-05,3.196521075237769e-14
	-6.069859122215601e-07,-2.740937735860416e-14
	5.407299486303380e-05,2.308569796161690e-12
	-4.237210481134354e-05,-1.729764281774369e-14
	-1.109390413946869e-05,-2.263862775985343e-12
	6.069859122215631e-07,2.740937735860379e-14
	-5.407299486301365e-05,-2.308569796161690e-12
	6.069859122215631e-07,2.740937735860379e-14
16		1.445439770745927e+00,0.000000000000000e+00
	6.069859122215630e-03,2.804782377383802e-10
	1.000000000000000e+00,0.000000000000000e+00
	0.000000000000000e+00,0.000000000000000e+00
	7.944769650402495e-05,3.611023882877290e-14
	7.944769645508791e-05,3.270977615968550e-14
	-6.069859122215601e-07,-2.804782377383765e-14
	5.407299486303380e-05,2.362343294603265e-12
	-4.237210481134354e-05,-1.770055667837262e-14
	-1.109390413946869e-05,-2.316594914151055e-12
	6.069859122215631e-07,2.804782377383802e-14
	-5.407299486301365e-05,-2.362343294603266e-12
	6.069859122215631e-07,2.804782377383802e-14
17		1.479108388168207e+00,0.000000000000000e+00
	6.069859122215630e-03,2.870114151649398e-10
	1.000000000000000e+00,0.000000000000000e+00
	0.000000000000000e+00,0.000000000000000e+00
	7.944769650402495e-05,3.695135434306769e-14
	7.944769645508791e-05,3.347168472327825e-14
	-6.069859122215601e-07,-2.870114151649393e-14
	5.407299486303380e-05,2.417369338728951e-12
	-4.237210481134354e-05,-1.811285560844701e-14
	-1.109390413946869e-05,-2.370555341604010e-12
	6.069859122215631e-07,2.870114151649398e-14
	-5.407299486301365e-05,-2.417369338728951e-12
	6.069859122215631e-07,2.870114151649398e-14
18		1.513561248436208e+00,0.000000000000000e+00
	6.069859122215630e-03,2.936967698428651e-10
	1.000000000000000e+00,0.000000000000000e+00
	0.000000000000000e+00,0.000000000000000e+00
	7.944769650402495e-05,3.781206195454417e-14
	7.944769645508791e-05,3.425134041716140e-14
	-6.069859122215601e-07,-2.936967698428665e-14
	5.407299486303380e-05,2.473677104075697e-12
	-4.237210481134354e-05,-1.853475821431698e-14
	-1.109390413946869e-05,-2.425772668877093e-12
	6.069859122215631e-07,2.936967698428651e-14
	-5.407299486301365e-05,-2.473677104075696e-12
	6.069859122215631e-07,2.936967698428651e-14
19		1.548816618912481e+00,0.000000000000000e+00
	6.069859122215630e-03,3.005378464356974e-10
	1.000000000000000e+00,0.000000000000000e+00
	0.000000000000000e+00,0.000000000000000e+00
	7.944769650402495e-05,3.869281802177077e-14
	7.944769645508791e-05,3.504915662510383e-14
	-6.069859122215601e-07,-3.005378464356927e-14
	5.407299486303380e-05,2.531296445766009e-12
	-4.237210481134354e-05,-1.896648819432871e-14
	-1.109390413946869e-05,-2.482276172928111e-12
	6.069859122215631e-07,3.005378464356974e-14
	-5.407299486301365e-05,-2.531296445766010e-12
	6.069859122215631e-07,3.005378464356974e-14
20		1.584893192461113e+00,0.000000000000000e+00
	6.069859122215630e-03,3.075382721727985e-10
	1.000000000000000e+00,0.000000000000000e+00
	0.000000000000000e+00,0.000000000000000e+00
	7.944769650402495e-05,3.959408953327250e-14
	7.944769645508791e-05,3.586555635981931e-14
	-6.069859122215601e-07,-3.075382721727988e-14
	5.407299486303380e-05,2.590257914337537e-12
	-4.237210481134354e-05,-1.940827445743222e-14
	-1.109390413946869e-05,-2.540095812662825e-12
	6.069859122215631e-07,3.075382721727985e-14
	-5.407299486301365e-05,-2.590257914337538e-12
	6.069859122215631e-07,3.075382721727985e-14
21		1.621810097358929e+00,0.000000000000000e+00
	6.069859122215630e-03,3.147017587725559e-10
	1.000000000000000e+00,0.000000000000000e+00
	0.000000000000000e+00,0.000000000000000e+00
	7.944769650402495e-05,4.051635435513450e-14
	7.944769645508791e-05,3.670097248725352e-14
	-6.069859122215601e-07,-3.147017587725550e-14
	5.407299486303380e-05,2.650592771941364e-12
	-4.237210481134354e-05,-1.986035124455194e-14
	-1.109390413946869e-05,-2.599262244819557e-12
	6.069859122215631e-07,3.147017587725559e-14
	-5.407299486301365e-05,-2.650592771941365e-12
	6.069859122215631e-07,3.147017587725559e-14
22		1.659586907437560e+00,0.000000000000000e+00
	6.069859122215630e-03,3.220321044103848e-10
	1.000000000000000e+00,0.000000000000000e+00
	0.000000000000000e+00,0.000000000000000e+00
	7.944769650402495e-05,4.146010148437294e-14
	7.944769645508791e-05,3.755584795609529e-14
	-6.069859122215601e-07,-3.220321044103865e-14
	5.407299486303380e-05,2.712333008917617e-12
	-4.237210481134354e-05,-2.032295825278436e-14
	-1.109390413946869e-05,-2.659806840223794e-12
	6.069859122215631e-07,3.220321044103848e-14
	-5.407299486301365e-05,-2.712333008917617e-12
	6.069859122215631e-07,3.220321044103848e-14
23		1.698243652461743e+00,0.000000000000000e+00
	6.069859122215630e-03,3.295331957325710e-10
	1.000000000000000e+00,0.000000000000000e+00
	0.000000000000000e+00,0.000000000000000e+00
	7.944769650402495e-05,4.242583130820773e-14
	7.944769645508791e-05,3.843063603263380e-14
	-6.069859122215601e-07,-3.295331957325683e-14
	5.407299486303380e-05,2.775511360757169e-12
	-4.237210481134354e-05,-2.079634076248855e-14
	-1.109390413946869e-05,-2.721761700421424e-12
	6.069859122215631e-07,3.295331957325710e-14
	-5.407299486301365e-05,-2.775511360757170e-12
	6.069859122215631e-07,3.295331957325710e-14
24		1.737800828749374e+00,0.000000000000000e+00
	6.069859122215630e-03,3.372090099170218e-10
	1.000000000000000e+00,0.000000000000000e+00
	0.000000000000000e+00,0.000000000000000e+00
	7.944769650402495e-05,4.341405586937438e-14
	7.944769645508791e-05,3.932580054108641e-14
	-6.069859122215601e-07,-3.372090099170261e-14
	5.407299486303380e-05,2.840161325458432e-12
	-4.237210481134354e-05,-2.128074976733713e-14
	-1.109390413946869e-05,-2.785159674699392e-12
	6.069859122215631e-07,3.372090099170219e-14
	-5.407299486301365e-05,-2.840161325458431e-12
	6.069859122215631e-07,3.372090099170219e-14
25		1.778279410038922e+00,0.000000000000000e+00
	6.069859122215630e-03,3.450636167820198e-10
	1.000000000000000e+00,0.000000000000000e+00
	0.000000000000000e+00,0.000000000000000e+00
	7.944769650402495e-05,4.442529913761596e-14
	7.944769645508791e-05,4.024181610952442e-14
	-6.069859122215601e-07,-3.450636167820206e-14
	5.407299486303380e-05,2.906317181288431e-12
	-4.237210481134354e-05,-2.177644210739638e-14
	-1.109390413946869e-05,-2.850034377502832e-12
	6.069859122215631e-07,3.450636167820198e-14
	-5.407299486301365e-05,-2.906317181288431e-12
	6.069859122215631e-07,3.450636167820198e-14
26		1.819700858609982e+00,0.000000000000000e+00
	6.069859122215630e-03,3.531011809440925e-10
	1.000000000000000e+00,0.000000000000000e+00
	0.000000000000000e+00,0.000000000000000e+00
	7.944769650402495e-05,4.546009728749862e-14
	7.944769645508791e-05,4.117916842152708e-14
	-6.069859122215601e-07,-3.531011809440913e-14
	5.407299486303380e-05,2.974014004957605e-12
	-4.237210481134354e-05,-2.228368060530624e-14
	-1.109390413946869e-05,-2.916420206257890e-12
	6.069859122215631e-07,3.531011809440925e-14
	-5.407299486301365e-05,-2.974014004957605e-12
	6.069859122215631e-07,3.531011809440925e-14
27		1.862087136662866e+00,0.000000000000000e+00
	6.069859122215630e-03,3.613259640261484e-10
	1.000000000000000e+00,0.000000000000000e+00
	0.000000000000000e+00,0.000000000000000e+00
	7.944769650402495e-05,4.651899898269866e-14
	7.944769645508791e-05,4.213835447369758e-14
	-6.069859122215601e-07,-3.613259640261480e-14
	5.407299486303380e-05,3.043287690217937e-12
	-4.237210481134354e-05,-2.280273420563243e-14
	-1.109390413946869e-05,-2.984352359609690e-12
	6.069859122215631e-07,3.613259640261485e-14
	-5.407299486301365e-05,-3.043287690217938e-12
	6.069859122215631e-07,3.613259640261485e-14
28		1.905460717963246e+00,0.000000000000000e+00
	6.069859122215630e-03,3.697423269170454e-10
	1.000000000000000e+00,0.000000000000000e+00
	0.000000000000000e+00,0.000000000000000e+00
	7.944769650402495e-05,4.760256566691107e-14
	7.944769645508791e-05,4.311988283917710e-14
	-6.069859122215601e-07,-3.697423269170494e-14
	5.407299486303380e-05,3.114174966894298e-12
	-4.237210481134354e-05,-2.333387811746431e-14
	-1.109390413946869e-05,-3.053866856085129e-12
	6.069859122215631e-07,3.697423269170454e-14
	-5.407299486301365e-05,-3.114174966894298e-12
	6.069859122215631e-07,3.697423269170454e-14
29		1.949844599758044e+00,0.000000000000000e+00
	6.069859122215630e-03,3.783547320837923e-10
	1.000000000000000e+00,0.000000000000000e+00
	0.000000000000000e+00,0.000000000000000e+00
	7.944769650402495e-05,4.871137186153452e-14
	7.944769645508791e-05,4.412427393729707e-14
	-6.069859122215601e-07,-3.783547320837948e-14
	5.407299486303380e-05,3.186713420359085e-12
	-4.237210481134354e-05,-2.387739396033447e-14
	-1.109390413946869e-05,-3.125000553190371e-12
	6.069859122215631e-07,3.783547320837924e-14
	-5.407299486301365e-05,-3.186713420359085e-12
	6.069859122215631e-07,3.783547320837924e-14
30		1.995262314968878e+00,0.000000000000000e+00
	6.069859122215630e-03,3.871677459376068e-10
	1.000000000000000e+00,0.000000000000000e+00
	0.000000000000000e+00,0.000000000000000e+00
	7.944769650402495e-05,4.984600547029019e-14
	7.944769645508791e-05,4.515206030951242e-14
	-6.069859122215601e-07,-3.871677459376083e-14
	5.407299486303380e-05,3.260941511460484e-12
	-4.237210481134354e-05,-2.443356991353707e-14
	-1.109390413946869e-05,-3.197791166953186e-12
	6.069859122215631e-07,3.871677459376068e-14
	-5.407299486301365e-05,-3.260941511460484e-12
	6.069859122215631e-07,3.871677459376068e-14
31		2.041737944669527e+00,0.000000000000000e+00
	6.069859122215630e-03,3.961860412550885e-10
	1.000000000000000e+00,0.000000000000000e+00
	0.000000000000000e+00,0.000000000000000e+00
	7.944769650402495e-05,5.100706809093608e-14
	7.944769645508791e-05,4.620378690176203e-14
	-6.069859122215601e-07,-3.961860412550877e-14
	5.407299486303380e-05,3.336898596914924e-12
	-4.237210481134354e-05,-2.500270086892435e-14
	-1.109390413946869e-05,-3.272277291920490e-12
	6.069859122215631e-07,3.961860412550885e-14
	-5.407299486301365e-05,-3.336898596914923e-12
	6.069859122215631e-07,3.961860412550885e-14
32		2.089296130854037e+00,0.000000000000000e+00
	6.069859122215630e-03,4.054143996557859e-10
	1.000000000000000e+00,0.000000000000000e+00
	0.000000000000000e+00,0.000000000000000e+00
	7.944769650402495e-05,5.219517533424216e-14
	7.944769645508791e-05,4.728001135340638e-14
