LTspice 24.0.9 for Windows
Circuit: * GA CMOS Amp | W=1.0718147501069572e-06 L=6.314531625674658e-07 Vbias=1.1798193888854602
Start Time: Mon Sep  8 18:46:19 2025
solver = Normal
Maximum thread count: 2
tnom = 27
temp = 27
method = modified trap
AsciiRawFile = 1
Instance "m1": Length shorter than recommended for a level 3 MOSFET.
Instance "m1": Width narrower than recommended for a level 3 MOSFET.
Direct Newton iteration for .op point succeeded.
Semiconductor Device Operating Points:
                        --- MOSFET Transistors ---
Name:          m1
Model:        n_1u
Id:          8.39e-06
Vgs:         1.18e+00
Vds:         1.72e+00
Vbs:         0.00e+00
Vth:         9.42e-01
Vdsat:       1.82e-01
Gm:          4.86e-05
Gds:         3.15e-06
Gmb:         2.13e-05
Cbd:         0.00e+00
Cbs:         0.00e+00
Cgsov:       2.14e-16
Cgdov:       2.14e-16
Cgbov:       4.31e-17
Cgs:         5.32e-16
Cgd:         0.00e+00
Cgb:         0.00e+00



gain_db: MAX(db(v(out)/v(g)))=(28.9621dB,103.485°) FROM 1 TO 1e+09
gain_lin: MAX(mag(v(out)/v(g)))=(-6.54086dB,0°) FROM 1 TO 1e+09

Measurement "fc" FAIL'ed

Total elapsed time: 0.475 seconds.

