Title: * GA CMOS Amp | W=1.5527274481776948e-06 L=6.22127038914818e-07 Vbias=1.4000244823851957
Date: Mon Sep  8 18:47:09 2025
Plotname: AC Analysis
Flags: complex forward log
No. Variables: 11
No. Points:          901
Offset:    0.0000000000000000e+00
Command: Linear Technology Corporation LTspice
Variables:
	0	frequency	frequency
	1	V(out)	voltage
	2	V(g)	voltage
	3	V(vdd)	voltage
	4	Id(M1)	device_current
	5	Ig(M1)	device_current
	6	Ib(M1)	device_current
	7	Is(M1)	device_current
	8	I(Rload)	device_current
	9	I(Vg)	device_current
	10	I(Vdd)	device_current
Values:
0		1.000000000000000e+00,0.000000000000000e+00
	-8.325249017347434e-01,2.960660323213328e-11
	1.000000000000000e+00,0.000000000000000e+00
	0.000000000000000e+00,0.000000000000000e+00
	8.325249017347434e-05,-2.960660323213328e-15
	5.776884411223893e-26,1.071867979415160e-14
	8.325248991710929e-13,-4.514512809795795e-16
	-8.325249100599924e-05,-7.306568189958692e-15
	-8.325249017347434e-05,2.960660323213328e-15
	-5.776884411223893e-26,-1.071867979415160e-14
	-8.325249017347434e-05,2.960660323213328e-15
1		1.023292992280754e+00,0.000000000000000e+00
	-8.325249017347434e-01,3.029622961267872e-11
	1.000000000000000e+00,0.000000000000000e+00
	0.000000000000000e+00,0.000000000000000e+00
	8.325249017347434e-05,-3.029622961267872e-15
	6.049140585782752e-26,1.096834991985665e-14
	8.325248991710929e-13,-4.619669321825727e-16
	-8.325249100599924e-05,-7.476760026406203e-15
	-8.325249017347434e-05,3.029622961267872e-15
	-6.049140585782752e-26,-1.096834991985665e-14
	-8.325249017347434e-05,3.029622961267872e-15
2		1.047128548050899e+00,0.000000000000000e+00
	-8.325249017347434e-01,3.100191945518279e-11
	1.000000000000000e+00,0.000000000000000e+00
	0.000000000000000e+00,0.000000000000000e+00
	8.325249017347434e-05,-3.100191945518279e-15
	6.334227798546460e-26,1.122383560987248e-14
	8.325248991710929e-13,-4.727275243678638e-16
	-8.325249100599924e-05,-7.650916139986334e-15
	-8.325249017347434e-05,3.100191945518280e-15
	-6.334227798546460e-26,-1.122383560987248e-14
	-8.325249017347434e-05,3.100191945518280e-15
3		1.071519305237606e+00,0.000000000000000e+00
	-8.325249017347434e-01,3.172404692574092e-11
	1.000000000000000e+00,0.000000000000000e+00
	0.000000000000000e+00,0.000000000000000e+00
	8.325249017347434e-05,-3.172404692574092e-15
	6.632750757715598e-26,1.148527232609369e-14
	8.325248991710929e-13,-4.837387629438657e-16
	-8.325249100599924e-05,-7.829128870575732e-15
	-8.325249017347434e-05,3.172404692574093e-15
	-6.632750757715598e-26,-1.148527232609369e-14
	-8.325249017347434e-05,3.172404692574093e-15
4		1.096478196143185e+00,0.000000000000000e+00
	-8.325249017347434e-01,3.246299490589648e-11
	1.000000000000000e+00,0.000000000000000e+00
	0.000000000000000e+00,0.000000000000000e+00
	8.325249017347434e-05,-3.246299490589648e-15
	6.945342670510235e-26,1.175279868572775e-14
	8.325248991710929e-13,-4.950064862150185e-16
	-8.325249100599924e-05,-8.011492708923080e-15
	-8.325249017347434e-05,3.246299490589648e-15
	-6.945342670510235e-26,-1.175279868572775e-14
	-8.325249017347434e-05,3.246299490589648e-15
5		1.122018454301963e+00,0.000000000000000e+00
	-8.325249017347434e-01,3.321915519564970e-11
	1.000000000000000e+00,0.000000000000000e+00
	0.000000000000000e+00,0.000000000000000e+00
	8.325249017347434e-05,-3.321915519564970e-15
	7.272666586287343e-26,1.202655653479166e-14
	8.325248991710929e-13,-5.065366684773473e-16
	-8.325249100599924e-05,-8.198104346749345e-15
	-8.325249017347434e-05,3.321915519564970e-15
	-7.272666586287343e-26,-1.202655653479166e-14
	-8.325249017347434e-05,3.321915519564970e-15
6		1.148153621496882e+00,0.000000000000000e+00
	-8.325249017347434e-01,3.399292872119514e-11
	1.000000000000000e+00,0.000000000000000e+00
	0.000000000000000e+00,0.000000000000000e+00
	8.325249017347434e-05,-3.399292872119514e-15
	7.615416802957356e-26,1.230669102332062e-14
	8.325248991710929e-13,-5.183354231861107e-16
	-8.325249100599924e-05,-8.389062728014993e-15
	-8.325249017347434e-05,3.399292872119514e-15
	-7.615416802957356e-26,-1.230669102332062e-14
	-8.325249017347434e-05,3.399292872119514e-15
7		1.174897554939529e+00,0.000000000000000e+00
	-8.325249017347434e-01,3.478472574749816e-11
	1.000000000000000e+00,0.000000000000000e+00
	0.000000000000000e+00,0.000000000000000e+00
	8.325249017347434e-05,-3.478472574749815e-15
	7.974320339683161e-26,1.259335068232845e-14
	8.325248991710929e-13,-5.304090061972243e-16
	-8.325249100599924e-05,-8.584469101381409e-15
	-8.325249017347434e-05,3.478472574749817e-15
	-7.974320339683161e-26,-1.259335068232845e-14
	-8.325249017347434e-05,3.478472574749817e-15
8		1.202264434617413e+00,0.000000000000000e+00
	-8.325249017347434e-01,3.559496609582279e-11
	1.000000000000000e+00,0.000000000000000e+00
	0.000000000000000e+00,0.000000000000000e+00
	8.325249017347434e-05,-3.559496609582278e-15
	8.350138478985183e-26,1.288668750256076e-14
	8.325248991710929e-13,-5.427638190842203e-16
	-8.325249100599924e-05,-8.784427073894259e-15
	-8.325249017347434e-05,3.559496609582279e-15
	-8.350138478985183e-26,-1.288668750256076e-14
	-8.325249017347434e-05,3.559496609582279e-15
9		1.230268770812381e+00,0.000000000000000e+00
	-8.325249017347434e-01,3.642407936632649e-11
	1.000000000000000e+00,0.000000000000000e+00
	0.000000000000000e+00,0.000000000000000e+00
	8.325249017347434e-05,-3.642407936632649e-15
	8.743668381523701e-26,1.318685701508239e-14
	8.325248991710929e-13,-5.554064125324202e-16
	-8.325249100599924e-05,-8.989042665917325e-15
	-8.325249017347434e-05,3.642407936632649e-15
	-8.743668381523701e-26,-1.318685701508239e-14
	-8.325249017347434e-05,3.642407936632649e-15
10		1.258925411794167e+00,0.000000000000000e+00
	-8.325249017347434e-01,3.727250516583991e-11
	1.000000000000000e+00,0.000000000000000e+00
	0.000000000000000e+00,0.000000000000000e+00
	8.325249017347434e-05,-3.727250516583991e-15
	9.155744776983474e-26,1.349401837374212e-14
	8.325248991710929e-13,-5.683434898122206e-16
	-8.325249100599924e-05,-9.198424367345907e-15
	-8.325249017347434e-05,3.727250516583992e-15
	-9.155744776983474e-26,-1.349401837374212e-14
	-8.325249017347434e-05,3.727250516583992e-15
11		1.288249551693134e+00,0.000000000000000e+00
	-8.325249017347434e-01,3.814069334095219e-11
	1.000000000000000e+00,0.000000000000000e+00
	0.000000000000000e+00,0.000000000000000e+00
	8.325249017347434e-05,-3.814069334095219e-15
	9.587241734647314e-26,1.380833443955805e-14
	8.325248991710929e-13,-5.815819103332321e-16
	-8.325249100599924e-05,-9.412683195129597e-15
	-8.325249017347434e-05,3.814069334095219e-15
	-9.587241734647314e-26,-1.380833443955805e-14
	-8.325249017347434e-05,3.814069334095219e-15
12		1.318256738556407e+00,0.000000000000000e+00
	-8.325249017347434e-01,3.902910421652559e-11
	1.000000000000000e+00,0.000000000000000e+00
	0.000000000000000e+00,0.000000000000000e+00
	8.325249017347434e-05,-3.902910421652560e-15
	1.003907451741423e-25,1.412997186706875e-14
	8.325248991710929e-13,-5.951286932812521e-16
	-8.325249100599924e-05,-9.631932752134934e-15
	-8.325249017347434e-05,3.902910421652560e-15
	-1.003907451741423e-25,-1.412997186706874e-14
	-8.325249017347434e-05,3.902910421652560e-15
13		1.348962882591653e+00,0.000000000000000e+00
	-8.325249017347434e-01,3.993820883976587e-11
	1.000000000000000e+00,0.000000000000000e+00
	0.000000000000000e+00,0.000000000000000e+00
	8.325249017347434e-05,-3.993820883976588e-15
	1.051220152319474e-25,1.445910119269565e-14
	8.325248991710929e-13,-6.089910213399066e-16
	-8.325249100599924e-05,-9.856289287379156e-15
	-8.325249017347434e-05,3.993820883976588e-15
	-1.051220152319474e-25,-1.445910119269565e-14
	-8.325249017347434e-05,3.993820883976588e-15
14		1.380384264602885e+00,0.000000000000000e+00
	-8.325249017347434e-01,4.086848922997769e-11
	1.000000000000000e+00,0.000000000000000e+00
	0.000000000000000e+00,0.000000000000000e+00
	8.325249017347434e-05,-4.086848922997769e-15
	1.100762631780137e-25,1.479589692516376e-14
	8.325248991710929e-13,-6.231762444990267e-16
	-8.325249100599924e-05,-1.008587175766696e-14
	-8.325249017347434e-05,4.086848922997770e-15
	-1.100762631780137e-25,-1.479589692516375e-14
	-8.325249017347434e-05,4.086848922997770e-15
15		1.412537544622754e+00,0.000000000000000e+00
	-8.325249017347434e-01,4.182043863413765e-11
	1.000000000000000e+00,0.000000000000000e+00
	0.000000000000000e+00,0.000000000000000e+00
	8.325249017347434e-05,-4.182043863413765e-15
	1.152639976364621e-25,1.514053763802843e-14
	8.325248991710929e-13,-6.376918839516930e-16
	-8.325249100599924e-05,-1.032080189066297e-14
	-8.325249017347434e-05,4.182043863413765e-15
	-1.152639976364621e-25,-1.514053763802843e-14
	-8.325249017347434e-05,4.182043863413765e-15
16		1.445439770745927e+00,0.000000000000000e+00
	-8.325249017347434e-01,4.279456178842036e-11
	1.000000000000000e+00,0.000000000000000e+00
	0.000000000000000e+00,0.000000000000000e+00
	8.325249017347434e-05,-4.279456178842036e-15
	1.206962224876109e-25,1.549320606435749e-14
	8.325248991710929e-13,-6.525456360820765e-16
	-8.325249100599924e-05,-1.056120424943337e-14
	-8.325249017347434e-05,4.279456178842036e-15
	-1.206962224876109e-25,-1.549320606435748e-14
	-8.325249017347434e-05,4.279456178842036e-15
17		1.479108388168207e+00,0.000000000000000e+00
	-8.325249017347434e-01,4.379137518581628e-11
	1.000000000000000e+00,0.000000000000000e+00
	0.000000000000000e+00,0.000000000000000e+00
	8.325249017347434e-05,-4.379137518581629e-15
	1.263844602086803e-25,1.585408919361870e-14
	8.325248991710929e-13,-6.677453765461760e-16
	-8.325249100599924e-05,-1.080720629849089e-14
	-8.325249017347434e-05,4.379137518581628e-15
	-1.263844602086803e-25,-1.585408919361869e-14
	-8.325249017347434e-05,4.379137518581628e-15
18		1.513561248436208e+00,0.000000000000000e+00
	-8.325249017347434e-01,4.481140734998311e-11
	1.000000000000000e+00,0.000000000000000e+00
	0.000000000000000e+00,0.000000000000000e+00
	8.325249017347434e-05,-4.481140734998311e-15
	1.323407763145121e-25,1.622337837082405e-14
	8.325248991710929e-13,-6.832991644475765e-16
	-8.325249100599924e-05,-1.105893847137816e-14
	-8.325249017347434e-05,4.481140734998312e-15
	-1.323407763145121e-25,-1.622337837082405e-14
	-8.325249017347434e-05,4.481140734998312e-15
19		1.548816618912481e+00,0.000000000000000e+00
	-8.325249017347434e-01,4.585519911547600e-11
	1.000000000000000e+00,0.000000000000000e+00
	0.000000000000000e+00,0.000000000000000e+00
	8.325249017347434e-05,-4.585519911547600e-15
	1.385778049501439e-25,1.660126939798341e-14
	8.325248991710929e-13,-6.992152466105018e-16
	-8.325249100599924e-05,-1.131653423982530e-14
	-8.325249017347434e-05,4.585519911547600e-15
	-1.385778049501439e-25,-1.660126939798340e-14
	-8.325249017347434e-05,4.585519911547600e-15
20		1.584893192461113e+00,0.000000000000000e+00
	-8.325249017347434e-01,4.692330391450522e-11
	1.000000000000000e+00,0.000000000000000e+00
	0.000000000000000e+00,0.000000000000000e+00
	8.325249017347434e-05,-4.692330391450522e-15
	1.451087756895250e-25,1.698796263792135e-14
	8.325248991710929e-13,-7.155020619523837e-16
	-8.325249100599924e-05,-1.158013018451845e-14
	-8.325249017347434e-05,4.692330391450522e-15
	-1.451087756895250e-25,-1.698796263792135e-14
	-8.325249017347434e-05,4.692330391450522e-15
21		1.621810097358929e+00,0.000000000000000e+00
	-8.325249017347434e-01,4.801628807037327e-11
	1.000000000000000e+00,0.000000000000000e+00
	0.000000000000000e+00,0.000000000000000e+00
	8.325249017347434e-05,-4.801628807037326e-15
	1.519475415972159e-25,1.738366312051219e-14
	8.325248991710929e-13,-7.321682459583040e-16
	-8.325249100599924e-05,-1.184986606751656e-14
	-8.325249017347434e-05,4.801628807037326e-15
	-1.519475415972159e-25,-1.738366312051219e-14
	-8.325249017347434e-05,4.801628807037326e-15
22		1.659586907437560e+00,0.000000000000000e+00
	-8.325249017347434e-01,4.913473109774694e-11
	1.000000000000000e+00,0.000000000000000e+00
	0.000000000000000e+00,0.000000000000000e+00
	8.325249017347434e-05,-4.913473109774694e-15
	1.591086086125963e-25,1.778858065138951e-14
	8.325248991710929e-13,-7.492226352596239e-16
	-8.325249100599924e-05,-1.212588490635519e-14
	-8.325249017347434e-05,4.913473109774694e-15
	-1.591086086125963e-25,-1.778858065138951e-14
	-8.325249017347434e-05,4.913473109774694e-15
23		1.698243652461743e+00,0.000000000000000e+00
	-8.325249017347434e-01,5.027922600992369e-11
	1.000000000000000e+00,0.000000000000000e+00
	0.000000000000000e+00,0.000000000000000e+00
	8.325249017347434e-05,-5.027922600992370e-15
	1.666071663189069e-25,1.820292992318790e-14
	8.325248991710929e-13,-7.666742723192908e-16
	-8.325249100599924e-05,-1.240833304987624e-14
	-8.325249017347434e-05,5.027922600992369e-15
	-1.666071663189069e-25,-1.820292992318790e-14
	-8.325249017347434e-05,5.027922600992369e-15
24		1.737800828749374e+00,0.000000000000000e+00
	-8.325249017347434e-01,5.145037963325513e-11
	1.000000000000000e+00,0.000000000000000e+00
	0.000000000000000e+00,0.000000000000000e+00
	8.325249017347434e-05,-5.145037963325513e-15
	1.744591201623916e-25,1.862693062937582e-14
	8.325248991710929e-13,-7.845324102262774e-16
	-8.325249100599924e-05,-1.269736025582403e-14
	-8.325249017347434e-05,5.145037963325513e-15
	-1.744591201623916e-25,-1.862693062937582e-14
	-8.325249017347434e-05,5.145037963325513e-15
25		1.778279410038922e+00,0.000000000000000e+00
	-8.325249017347434e-01,5.264881292889442e-11
	1.000000000000000e+00,0.000000000000000e+00
	0.000000000000000e+00,0.000000000000000e+00
	8.325249017347434e-05,-5.264881292889442e-15
	1.826811251898826e-25,1.906080758074002e-14
	8.325248991710929e-13,-8.028065176016806e-16
	-8.325249100599924e-05,-1.299311977024890e-14
	-8.325249017347434e-05,5.264881292889442e-15
	-1.826811251898826e-25,-1.906080758074001e-14
	-8.325249017347434e-05,5.264881292889442e-15
26		1.819700858609982e+00,0.000000000000000e+00
	-8.325249017347434e-01,5.387516132203801e-11
	1.000000000000000e+00,0.000000000000000e+00
	0.000000000000000e+00,0.000000000000000e+00
	8.325249017347434e-05,-5.387516132203802e-15
	1.912906213763863e-25,1.950479082458313e-14
	8.325248991710929e-13,-8.215062836191156e-16
	-8.325249100599924e-05,-1.329576840876021e-14
	-8.325249017347434e-05,5.387516132203802e-15
	-1.912906213763863e-25,-1.950479082458313e-14
	-8.325249017347434e-05,5.387516132203802e-15
27		1.862087136662866e+00,0.000000000000000e+00
	-8.325249017347434e-01,5.513007503883663e-11
	1.000000000000000e+00,0.000000000000000e+00
	0.000000000000000e+00,0.000000000000000e+00
	8.325249017347434e-05,-5.513007503883661e-15
	2.003058706176098e-25,1.995911576669787e-14
	8.325248991710929e-13,-8.406416231420479e-16
	-8.325249100599924e-05,-1.360546663967216e-14
	-8.325249017347434e-05,5.513007503883663e-15
	-2.003058706176098e-25,-1.995911576669787e-14
	-8.325249017347434e-05,5.513007503883663e-15
28		1.905460717963246e+00,0.000000000000000e+00
	-8.325249017347434e-01,5.641421945115364e-11
	1.000000000000000e+00,0.000000000000000e+00
	0.000000000000000e+00,0.000000000000000e+00
	8.325249017347434e-05,-5.641421945115363e-15
	2.097459954658890e-25,2.042402329618224e-14
	8.325248991710929e-13,-8.602226819807752e-16
	-8.325249100599924e-05,-1.392237866908610e-14
	-8.325249017347434e-05,5.641421945115364e-15
	-2.097459954658890e-25,-2.042402329618224e-14
	-8.325249017347434e-05,5.641421945115364e-15
29		1.949844599758044e+00,0.000000000000000e+00
	-8.325249017347434e-01,5.772827542935414e-11
	1.000000000000000e+00,0.000000000000000e+00
	0.000000000000000e+00,0.000000000000000e+00
	8.325249017347434e-05,-5.772827542935413e-15
	2.196310196916870e-25,2.089975991316216e-14
	8.325248991710929e-13,-8.802598422718814e-16
	-8.325249100599924e-05,-1.424667252795486e-14
	-8.325249017347434e-05,5.772827542935415e-15
	-2.196310196916870e-25,-2.089975991316215e-14
	-8.325249017347434e-05,5.772827542935415e-15
30		1.995262314968878e+00,0.000000000000000e+00
	-8.325249017347434e-01,5.907293970331133e-11
	1.000000000000000e+00,0.000000000000000e+00
	0.000000000000000e+00,0.000000000000000e+00
	8.325249017347434e-05,-5.907293970331132e-15
	2.299819107566947e-25,2.138657785948906e-14
	8.325248991710929e-13,-9.007637279829815e-16
	-8.325249100599924e-05,-1.457852016117494e-14
	-8.325249017347434e-05,5.907293970331133e-15
	-2.299819107566947e-25,-2.138657785948905e-14
	-8.325249017347434e-05,5.907293970331133e-15
31		2.041737944669527e+00,0.000000000000000e+00
	-8.325249017347434e-01,6.044892523182200e-11
	1.000000000000000e+00,0.000000000000000e+00
	0.000000000000000e+00,0.000000000000000e+00
	8.325249017347434e-05,-6.044892523182199e-15
	2.408206242886291e-25,2.188473525248188e-14
	8.325248991710929e-13,-9.217452105456690e-16
	-8.325249100599924e-05,-1.491809751875401e-14
	-8.325249017347434e-05,6.044892523182200e-15
	-2.408206242886291e-25,-2.188473525248187e-14
	-8.325249017347434e-05,6.044892523182200e-15
32		2.089296130854037e+00,0.000000000000000e+00
	-8.325249017347434e-01,6.185696158062672e-11
	1.000000000000000e+00,0.000000000000000e+00
	0.000000000000000e+00,0.000000000000000e+00
	8.325249017347434e-05,-6.185696158062671e-15
	2.521701506520635e-25,2.239449622178429e-14
	8.325248991710929e-13,-9.432154146197324e-16
	-8.325249100599924e-05,-1.526558464910188e-14
	-8.325249017347434e-05,6.185696158062672e-15
	-2.521701506520635e-25,-2.239449622178428e-14
	-8.325249017347434e-05,6.185696158062672e-15
33		2.137962089502230e+00,0.000000000000000e+00
	-8.325249017347434e-01,6.329779530923516e-11
	1.000000000000000e+00,0.000000000000000e+00
	0.000000000000000e+00,0.000000000000000e+00
	8.325249017347434e-05,-6.329779530923516e-15
	2.640545637140718e-25,2.291613104940969e-14
	8.325248991710929e-13,-9.651857239915583e-16
	-8.325249100599924e-05,-1.562116579449461e-14
	-8.325249017347434e-05,6.329779530923516e-15
	-2.640545637140718e-25,-2.291613104940968e-14
	-8.325249017347434e-05,6.329779530923516e-15
34		2.187761623949550e+00,0.000000000000000e+00
	-8.325249017347434e-01,6.477219036676192e-11
	1.000000000000000e+00,0.000000000000000e+00
	0.000000000000000e+00,0.000000000000000e+00
	8.325249017347434e-05,-6.477219036676193e-15
	2.764990719081297e-25,2.344991631304833e-14
	8.325248991710929e-13,-9.876677876099859e-16
	-8.325249100599924e-05,-1.598502948876215e-14
	-8.325249017347434e-05,6.477219036676192e-15
	-2.764990719081297e-25,-2.344991631304833e-14
	-8.325249017347434e-05,6.477219036676192e-15
35		2.238721138568337e+00,0.000000000000000e+00
	-8.325249017347434e-01,6.628092849698244e-11
	1.000000000000000e+00,0.000000000000000e+00
	0.000000000000000e+00,0.000000000000000e+00
	8.325249017347434e-05,-6.628092849698244e-15
	2.895300717045811e-25,2.399613503271250e-14
	8.325248991710929e-13,-1.010673525762733e-15
	-8.325249100599924e-05,-1.635736865725152e-14
	-8.325249017347434e-05,6.628092849698244e-15
	-2.895300717045811e-25,-2.399613503271250e-14
	-8.325249017347434e-05,6.628092849698244e-15
36		2.290867652767770e+00,0.000000000000000e+00
	-8.325249017347434e-01,6.782480965282387e-11
	1.000000000000000e+00,0.000000000000000e+00
	0.000000000000000e+00,0.000000000000000e+00
	8.325249017347434e-05,-6.782480965282387e-15
	3.031752036010909e-25,2.455507682079740e-14
	8.325248991710929e-13,-1.034215136396691e-15
	-8.325249100599924e-05,-1.673838071911833e-14
	-8.325249017347434e-05,6.782480965282387e-15
	-3.031752036010909e-25,-2.455507682079740e-14
	-8.325249017347434e-05,6.782480965282387e-15
37		2.344228815319919e+00,0.000000000000000e+00
	-8.325249017347434e-01,6.940465242051070e-11
	1.000000000000000e+00,0.000000000000000e+00
	0.000000000000000e+00,0.000000000000000e+00
	8.325249017347434e-05,-6.940465242051071e-15
	3.174634107518460e-25,2.512703803563756e-14
	8.325248991710929e-13,-1.058305101585418e-15
	-8.325249100599924e-05,-1.712826769200107e-14
	-8.325249017347434e-05,6.940465242051071e-15
	-3.174634107518460e-25,-2.512703803563756e-14
	-8.325249017347434e-05,6.940465242051071e-15
38		2.398832919019488e+00,0.000000000000000e+00
	-8.325249017347434e-01,7.102129445359009e-11
	1.000000000000000e+00,0.000000000000000e+00
