Title: * GA CMOS Amp | W=5e-05 L=9.999999999999997e-07 Vbias=0.9149839870413762
Date: Mon Sep  8 18:45:39 2025
Plotname: AC Analysis
Flags: complex forward log
No. Variables: 11
No. Points:          901
Offset:    0.0000000000000000e+00
Command: Linear Technology Corporation LTspice
Variables:
	0	frequency	frequency
	1	V(out)	voltage
	2	V(g)	voltage
	3	V(vdd)	voltage
	4	Id(M1)	device_current
	5	Ig(M1)	device_current
	6	Ib(M1)	device_current
	7	Is(M1)	device_current
	8	I(Rload)	device_current
	9	I(Vg)	device_current
	10	I(Vdd)	device_current
Values:
0		1.000000000000000e+00,0.000000000000000e+00
	-8.672543059517025e+00,5.528007675188450e-09
	1.000000000000000e+00,0.000000000000000e+00
	0.000000000000000e+00,0.000000000000000e+00
	8.672543059517027e-04,-5.528007675188450e-13
	3.473349660272005e-22,9.717327090375895e-13
	8.672543043951320e-12,-1.186715867040217e-14
	-8.672543146242457e-04,-4.070647828483423e-13
	-8.672543059517026e-04,5.528007675188450e-13
	-3.473349660272005e-22,-9.717327090375895e-13
	-8.672543059517026e-04,5.528007675188450e-13
1		1.023292992280754e+00,0.000000000000000e+00
	-8.672543059517025e+00,5.656771515294566e-09
	1.000000000000000e+00,0.000000000000000e+00
	0.000000000000000e+00,0.000000000000000e+00
	8.672543059517027e-04,-5.656771515294565e-13
	3.637043586633712e-22,9.943672715281584e-13
	8.672543043951320e-12,-1.214358030570632e-14
	-8.672543146242457e-04,-4.165465396929955e-13
	-8.672543059517026e-04,5.656771515294566e-13
	-3.637043586633712e-22,-9.943672715281584e-13
	-8.672543059517026e-04,5.656771515294566e-13
2		1.047128548050899e+00,0.000000000000000e+00
	-8.672543059517025e+00,5.788534650534311e-09
	1.000000000000000e+00,0.000000000000000e+00
	0.000000000000000e+00,0.000000000000000e+00
	8.672543059517027e-04,-5.788534650534311e-13
	3.808452170069594e-22,1.017529060708098e-12
	8.672543043951320e-12,-1.242644062802765e-14
	-8.672543146242457e-04,-4.262491550266393e-13
	-8.672543059517026e-04,5.788534650534311e-13
	-3.808452170069594e-22,-1.017529060708098e-12
	-8.672543059517026e-04,5.788534650534311e-13
3		1.071519305237606e+00,0.000000000000000e+00
	-8.672543059517025e+00,5.923366943466084e-09
	1.000000000000000e+00,0.000000000000000e+00
	0.000000000000000e+00,0.000000000000000e+00
	8.672543059517027e-04,-5.923366943466083e-13
	3.987938991166271e-22,1.041230357264615e-12
	8.672543043951320e-12,-1.271588961365368e-14
	-8.672543146242457e-04,-4.361777733043527e-13
	-8.672543059517026e-04,5.923366943466084e-13
	-3.987938991166271e-22,-1.041230357264615e-12
	-8.672543059517026e-04,5.923366943466084e-13
4		1.096478196143185e+00,0.000000000000000e+00
	-8.672543059517025e+00,6.061339883956311e-09
	1.000000000000000e+00,0.000000000000000e+00
	0.000000000000000e+00,0.000000000000000e+00
	8.672543059517027e-04,-6.061339883956312e-13
	4.175884765535503e-22,1.065483727938866e-12
	8.672543043951320e-12,-1.301208073226738e-14
	-8.672543146242457e-04,-4.463376588109675e-13
	-8.672543059517026e-04,6.061339883956312e-13
	-4.175884765535503e-22,-1.065483727938866e-12
	-8.672543059517026e-04,6.061339883956312e-13
5		1.122018454301963e+00,0.000000000000000e+00
	-8.672543059517025e+00,6.202526627084335e-09
	1.000000000000000e+00,0.000000000000000e+00
	0.000000000000000e+00,0.000000000000000e+00
	8.672543059517027e-04,-6.202526627084334e-13
	4.372688151363064e-22,1.090302032189015e-12
	8.672543043951320e-12,-1.331517102832059e-14
	-8.672543146242457e-04,-4.567341984522613e-13
	-8.672543059517026e-04,6.202526627084335e-13
	-4.372688151363064e-22,-1.090302032189015e-12
	-8.672543059517026e-04,6.202526627084335e-13
6		1.148153621496882e+00,0.000000000000000e+00
	-8.672543059517025e+00,6.347002031930182e-09
	1.000000000000000e+00,0.000000000000000e+00
	0.000000000000000e+00,0.000000000000000e+00
	8.672543059517027e-04,-6.347002031930182e-13
	4.578766595016178e-22,1.115698429008485e-12
	8.672543043951320e-12,-1.362532120430025e-14
	-8.672543146242457e-04,-4.673729046111662e-13
	-8.672543059517026e-04,6.347002031930183e-13
	-4.578766595016178e-22,-1.115698429008485e-12
	-8.672543059517026e-04,6.347002031930183e-13
7		1.174897554939529e+00,0.000000000000000e+00
	-8.672543059517025e+00,6.494842701265862e-09
	1.000000000000000e+00,0.000000000000000e+00
	0.000000000000000e+00,0.000000000000000e+00
	8.672543059517027e-04,-6.494842701265863e-13
	4.794557216503250e-22,1.141686383903029e-12
	8.672543043951320e-12,-1.394269570593457e-14
	-8.672543146242457e-04,-4.782594180705078e-13
	-8.672543059517026e-04,6.494842701265862e-13
	-4.794557216503250e-22,-1.141686383903029e-12
	-8.672543059517026e-04,6.494842701265862e-13
8		1.202264434617413e+00,0.000000000000000e+00
	-8.672543059517025e+00,6.646127022171160e-09
	1.000000000000000e+00,0.000000000000000e+00
	0.000000000000000e+00,0.000000000000000e+00
	8.672543059517027e-04,-6.646127022171159e-13
	5.020517736664011e-22,1.168279676030324e-12
	8.672543043951320e-12,-1.426746280938610e-14
	-8.672543146242457e-04,-4.893995110038221e-13
	-8.672543059517026e-04,6.646127022171160e-13
	-5.020517736664011e-22,-1.168279676030324e-12
	-8.672543059517026e-04,6.646127022171160e-13
9		1.230268770812381e+00,0.000000000000000e+00
	-8.672543059517025e+00,6.800935207595505e-09
	1.000000000000000e+00,0.000000000000000e+00
	0.000000000000000e+00,0.000000000000000e+00
	8.672543059517027e-04,-6.800935207595505e-13
	5.257127448056775e-22,1.195492405505860e-12
	8.672543043951320e-12,-1.459979471047093e-14
	-8.672543146242457e-04,-5.007990900358389e-13
	-8.672543059517026e-04,6.800935207595505e-13
	-5.257127448056775e-22,-1.195492405505860e-12
	-8.672543059517026e-04,6.800935207595505e-13
10		1.258925411794167e+00,0.000000000000000e+00
	-8.672543059517025e+00,6.959349338887935e-09
	1.000000000000000e+00,0.000000000000000e+00
	0.000000000000000e+00,0.000000000000000e+00
	8.672543059517027e-04,-6.959349338887936e-13
	5.504888231602221e-22,1.223339000879009e-12
	8.672543043951320e-12,-1.493986761596260e-14
	-8.672543146242457e-04,-5.124641993742524e-13
	-8.672543059517026e-04,6.959349338887936e-13
	-5.504888231602221e-22,-1.223339000879009e-12
	-8.672543059517026e-04,6.959349338887936e-13
11		1.288249551693134e+00,0.000000000000000e+00
	-8.672543059517025e+00,7.121453409317725e-09
	1.000000000000000e+00,0.000000000000000e+00
	0.000000000000000e+00,0.000000000000000e+00
	8.672543059517027e-04,-7.121453409317723e-13
	5.764325621140119e-22,1.251834226783229e-12
	8.672543043951320e-12,-1.528786183701677e-14
	-8.672543146242457e-04,-5.244010240144398e-13
	-8.672543059517026e-04,7.121453409317725e-13
	-5.764325621140119e-22,-1.251834226783229e-12
	-8.672543059517026e-04,7.121453409317725e-13
12		1.318256738556407e+00,0.000000000000000e+00
	-8.672543059517025e+00,7.287333368608711e-09
	1.000000000000000e+00,0.000000000000000e+00
	0.000000000000000e+00,0.000000000000000e+00
	8.672543059517027e-04,-7.287333368608711e-13
	6.035989918157050e-22,1.280993191764474e-12
	8.672543043951320e-12,-1.564396188477562e-14
	-8.672543146242457e-04,-5.366158930188276e-13
	-8.672543059517026e-04,7.287333368608711e-13
	-6.035989918157050e-22,-1.280993191764474e-12
	-8.672543059517026e-04,7.287333368608711e-13
13		1.348962882591653e+00,0.000000000000000e+00
	-8.672543059517025e+00,7.457077168510996e-09
	1.000000000000000e+00,0.000000000000000e+00
	0.000000000000000e+00,0.000000000000000e+00
	8.672543059517027e-04,-7.457077168510995e-13
	6.320457359049660e-22,1.310831356291943e-12
	8.672543043951320e-12,-1.600835656819818e-14
	-8.672543146242457e-04,-5.491152828726451e-13
	-8.672543059517026e-04,7.457077168510996e-13
	-6.320457359049660e-22,-1.310831356291943e-12
	-8.672543059517026e-04,7.457077168510996e-13
14		1.380384264602885e+00,0.000000000000000e+00
	-8.672543059517025e+00,7.630774809434112e-09
	1.000000000000000e+00,0.000000000000000e+00
	0.000000000000000e+00,0.000000000000000e+00
	8.672543059517027e-04,-7.630774809434111e-13
	6.618331337399297e-22,1.341364540955422e-12
	8.672543043951320e-12,-1.638123909416888e-14
	-8.672543146242457e-04,-5.619058209178419e-13
	-8.672543059517026e-04,7.630774809434113e-13
	-6.618331337399297e-22,-1.341364540955422e-12
	-8.672543059517026e-04,7.630774809434113e-13
15		1.412537544622754e+00,0.000000000000000e+00
	-8.672543059517025e+00,7.808518388166433e-09
	1.000000000000000e+00,0.000000000000000e+00
	0.000000000000000e+00,0.000000000000000e+00
	8.672543059517027e-04,-7.808518388166432e-13
	6.930243683850692e-22,1.372608934853574e-12
	8.672543043951320e-12,-1.676280716993846e-14
	-8.672543146242457e-04,-5.749942888669920e-13
	-8.672543059517026e-04,7.808518388166433e-13
	-6.930243683850692e-22,-1.372608934853574e-12
	-8.672543059517026e-04,7.808518388166433e-13
16		1.445439770745927e+00,0.000000000000000e+00
	-8.672543059517025e+00,7.990402146706120e-09
	1.000000000000000e+00,0.000000000000000e+00
	0.000000000000000e+00,0.000000000000000e+00
	8.672543059517027e-04,-7.990402146706119e-13
	7.256856006309490e-22,1.404581104177612e-12
	8.672543043951320e-12,-1.715326310795134e-14
	-8.672543146242457e-04,-5.883876263990485e-13
	-8.672543059517026e-04,7.990402146706120e-13
	-7.256856006309490e-22,-1.404581104177612e-12
	-8.672543059517026e-04,7.990402146706120e-13
17		1.479108388168207e+00,0.000000000000000e+00
	-8.672543059517025e+00,8.176522522229466e-09
	1.000000000000000e+00,0.000000000000000e+00
	0.000000000000000e+00,0.000000000000000e+00
	8.672543059517027e-04,-8.176522522229466e-13
	7.598861093301304e-22,1.437298000994914e-12
	8.672543043951320e-12,-1.755281393311471e-14
	-8.672543146242457e-04,-6.020929348388526e-13
	-8.672543059517026e-04,8.176522522229467e-13
	-7.598861093301304e-22,-1.437298000994914e-12
	-8.672543059517026e-04,8.176522522229467e-13
18		1.513561248436208e+00,0.000000000000000e+00
	-8.672543059517025e+00,8.366978198223169e-09
	1.000000000000000e+00,0.000000000000000e+00
	0.000000000000000e+00,0.000000000000000e+00
	8.672543059517027e-04,-8.366978198223168e-13
	7.956984383469067e-22,1.470776972237232e-12
	8.672543043951320e-12,-1.796167149256449e-14
	-8.672543146242457e-04,-6.161174809223506e-13
	-8.672543059517026e-04,8.366978198223170e-13
	-7.956984383469067e-22,-1.470776972237232e-12
	-8.672543059517026e-04,8.366978198223170e-13
19		1.548816618912481e+00,0.000000000000000e+00
	-8.672543059517025e+00,8.561870156807619e-09
	1.000000000000000e+00,0.000000000000000e+00
	0.000000000000000e+00,0.000000000000000e+00
	8.672543059517027e-04,-8.561870156807618e-13
	8.331985504325645e-22,1.505035768898264e-12
	8.672543043951320e-12,-1.838005256799008e-14
	-8.672543146242457e-04,-6.304687006495126e-13
	-8.672543059517026e-04,8.561870156807619e-13
	-8.331985504325645e-22,-1.505035768898264e-12
	-8.672543059517026e-04,8.561870156807619e-13
20		1.584893192461113e+00,0.000000000000000e+00
	-8.672543059517025e+00,8.761301732278958e-09
	1.000000000000000e+00,0.000000000000000e+00
	0.000000000000000e+00,0.000000000000000e+00
	8.672543059517027e-04,-8.761301732278957e-13
	8.724659883525654e-22,1.540092555445471e-12
	8.672543043951320e-12,-1.880817899057621e-14
	-8.672543146242457e-04,-6.451542032269988e-13
	-8.672543059517026e-04,8.761301732278958e-13
	-8.724659883525654e-22,-1.540092555445471e-12
	-8.672543059517026e-04,8.761301732278958e-13
21		1.621810097358929e+00,0.000000000000000e+00
	-8.672543059517025e+00,8.965378665898288e-09
	1.000000000000000e+00,0.000000000000000e+00
	0.000000000000000e+00,0.000000000000000e+00
	8.672543059517027e-04,-8.965378665898290e-13
	9.135840436074147e-22,1.575965919451109e-12
	8.672543043951320e-12,-1.924627775861838e-14
	-8.672543146242457e-04,-6.601817751026614e-13
	-8.672543059517026e-04,8.965378665898289e-13
	-9.135840436074147e-22,-1.575965919451109e-12
	-8.672543059517026e-04,8.965378665898289e-13
22		1.659586907437560e+00,0.000000000000000e+00
	-8.672543059517025e+00,9.174209161957097e-09
	1.000000000000000e+00,0.000000000000000e+00
	0.000000000000000e+00,0.000000000000000e+00
	8.672543059517027e-04,-9.174209161957096e-13
	9.566399331051020e-22,1.612674881447615e-12
	8.672543043951320e-12,-1.969458115788337e-14
	-8.672543146242457e-04,-6.755593840940222e-13
	-8.672543059517026e-04,9.174209161957098e-13
	-9.566399331051020e-22,-1.612674881447615e-12
	-8.672543059517026e-04,9.174209161957098e-13
23		1.698243652461743e+00,0.000000000000000e+00
	-8.672543059517025e+00,9.387903945148585e-09
	1.000000000000000e+00,0.000000000000000e+00
	0.000000000000000e+00,0.000000000000000e+00
	8.672543059517027e-04,-9.387903945148584e-13
	1.001724984159855e-21,1.650238905012540e-12
	8.672543043951320e-12,-2.015332688476674e-14
	-8.672543146242457e-04,-6.912951836129153e-13
	-8.672543059517026e-04,9.387903945148586e-13
	-1.001724984159855e-21,-1.650238905012540e-12
	-8.672543059517026e-04,9.387903945148586e-13
24		1.737800828749374e+00,0.000000000000000e+00
	-8.672543059517025e+00,9.606576319275393e-09
	1.000000000000000e+00,0.000000000000000e+00
	0.000000000000000e+00,0.000000000000000e+00
	8.672543059517027e-04,-9.606576319275392e-13
	1.048934828209619e-21,1.688677907088398e-12
	8.672543043951320e-12,-2.062275817232528e-14
	-8.672543146242457e-04,-7.073975169885333e-13
	-8.672543059517026e-04,9.606576319275394e-13
	-1.048934828209619e-21,-1.688677907088398e-12
	-8.672543059517026e-04,9.606576319275394e-13
25		1.778279410038922e+00,0.000000000000000e+00
	-8.672543059517025e+00,9.830342227324751e-09
	1.000000000000000e+00,0.000000000000000e+00
	0.000000000000000e+00,0.000000000000000e+00
	8.672543059517027e-04,-9.830342227324747e-13
	1.098369603663158e-21,1.728012268542888e-12
	8.672543043951320e-12,-2.110312391924104e-14
	-8.672543146242457e-04,-7.238749218911719e-13
	-8.672543059517026e-04,9.830342227324751e-13
	-1.098369603663158e-21,-1.728012268542888e-12
	-8.672543059517026e-04,9.830342227324751e-13
26		1.819700858609982e+00,0.000000000000000e+00
	-8.672543059517025e+00,1.005932031294299e-08
	1.000000000000000e+00,0.000000000000000e+00
	0.000000000000000e+00,0.000000000000000e+00
	8.672543059517027e-04,-1.005932031294299e-12
	1.150134168307044e-21,1.768262844975105e-12
	8.672543043951320e-12,-2.159467882179131e-14
	-8.672543146242457e-04,-7.407361348590144e-13
	-8.672543059517026e-04,1.005932031294299e-12
	-1.150134168307044e-21,-1.768262844975105e-12
	-8.672543059517026e-04,1.005932031294299e-12
27		1.862087136662866e+00,0.000000000000000e+00
	-8.672543059517025e+00,1.029363198334201e-08
	1.000000000000000e+00,0.000000000000000e+00
	0.000000000000000e+00,0.000000000000000e+00
	8.672543059517027e-04,-1.029363198334201e-12
	1.204338321723084e-21,1.809450977773455e-12
	8.672543043951320e-12,-2.209768350889288e-14
	-8.672543146242457e-04,-7.579900959303610e-13
	-8.672543059517026e-04,1.029363198334201e-12
	-1.204338321723084e-21,-1.809450977773455e-12
	-8.672543059517026e-04,1.029363198334201e-12
28		1.905460717963246e+00,0.000000000000000e+00
	-8.672543059517025e+00,1.053340147367092e-08
	1.000000000000000e+00,0.000000000000000e+00
	0.000000000000000e+00,0.000000000000000e+00
	8.672543059517027e-04,-1.053340147367092e-12
	1.261097038187950e-21,1.851598505431135e-12
	8.672543043951320e-12,-2.261240468028788e-14
	-8.672543146242457e-04,-7.756459533837550e-13
	-8.672543059517026e-04,1.053340147367092e-12
	-1.261097038187950e-21,-1.851598505431135e-12
	-8.672543059517026e-04,1.053340147367092e-12
29		1.949844599758044e+00,0.000000000000000e+00
	-8.672543059517025e+00,1.077875591288722e-08
	1.000000000000000e+00,0.000000000000000e+00
	0.000000000000000e+00,0.000000000000000e+00
	8.672543059517027e-04,-1.077875591288722e-12
	1.320530710549039e-21,1.894727775125198e-12
	8.672543043951320e-12,-2.313911524795512e-14
	-8.672543146242457e-04,-7.937130685885210e-13
	-8.672543059517026e-04,1.077875591288722e-12
	-1.320530710549039e-21,-1.894727775125198e-12
	-8.672543059517026e-04,1.077875591288722e-12
30		1.995262314968878e+00,0.000000000000000e+00
	-8.672543059517025e+00,1.102982539116223e-08
	1.000000000000000e+00,0.000000000000000e+00
	0.000000000000000e+00,0.000000000000000e+00
	8.672543059517027e-04,-1.102982539116223e-12
	1.382765405593837e-21,1.938861654565319e-12
	8.672543043951320e-12,-2.367809448080929e-14
	-8.672543146242457e-04,-8.122010209682871e-13
	-8.672543059517026e-04,1.102982539116224e-12
	-1.382765405593837e-21,-1.938861654565319e-12
	-8.672543059517026e-04,1.102982539116224e-12
31		2.041737944669527e+00,0.000000000000000e+00
	-8.672543059517025e+00,1.128674302885664e-08
	1.000000000000000e+00,0.000000000000000e+00
	0.000000000000000e+00,0.000000000000000e+00
	8.672543059517027e-04,-1.128674302885664e-12
	1.447933131454487e-21,1.984023544118560e-12
	8.672543043951320e-12,-2.422962815277384e-14
	-8.672543146242457e-04,-8.311196130801218e-13
	-8.672543059517026e-04,1.128674302885664e-12
	-1.447933131454487e-21,-1.984023544118560e-12
	-8.672543059517026e-04,1.128674302885664e-12
32		2.089296130854037e+00,0.000000000000000e+00
	-8.672543059517025e+00,1.154964504710265e-08
	1.000000000000000e+00,0.000000000000000e+00
	0.000000000000000e+00,0.000000000000000e+00
	8.672543059517027e-04,-1.154964504710265e-12
	1.516172117614729e-21,2.030237389216548e-12
	8.672543043951320e-12,-2.479400869430198e-14
	-8.672543146242457e-04,-8.504788758119805e-13
	-8.672543059517026e-04,1.154964504710265e-12
	-1.516172117614729e-21,-2.030237389216548e-12
	-8.672543059517026e-04,1.154964504710265e-12
33		2.137962089502230e+00,0.000000000000000e+00
	-8.672543059517025e+00,1.181867084003026e-08
	1.000000000000000e+00,0.000000000000000e+00
	0.000000000000000e+00,0.000000000000000e+00
	8.672543059517027e-04,-1.181867084003027e-12
	1.587627108113169e-21,2.077527693051667e-12
	8.672543043951320e-12,-2.537153534742704e-14
	-8.672543146242457e-04,-8.702890737012133e-13
	-8.672543059517026e-04,1.181867084003027e-12
	-1.587627108113169e-21,-2.077527693051667e-12
	-8.672543059517026e-04,1.181867084003027e-12
34		2.187761623949550e+00,0.000000000000000e+00
	-8.672543059517025e+00,1.209396304867586e-08
	1.000000000000000e+00,0.000000000000000e+00
	0.000000000000000e+00,0.000000000000000e+00
	8.672543059517027e-04,-1.209396304867586e-12
	1.662449668564792e-21,2.125919529568973e-12
	8.672543043951320e-12,-2.596251432442586e-14
	-8.672543146242457e-04,-8.905607103769604e-13
	-8.672543059517026e-04,1.209396304867586e-12
	-1.662449668564792e-21,-2.125919529568973e-12
	-8.672543059517026e-04,1.209396304867586e-12
35		2.238721138568337e+00,0.000000000000000e+00
	-8.672543059517025e+00,1.237566763661240e-08
	1.000000000000000e+00,0.000000000000000e+00
	0.000000000000000e+00,0.000000000000000e+00
	8.672543059517027e-04,-1.237566763661239e-12
	1.740798507651949e-21,2.175438556760727e-12
	8.672543043951320e-12,-2.656725897017334e-14
	-8.672543146242457e-04,-9.113045341293139e-13
	-8.672543059517026e-04,1.237566763661240e-12
	-1.740798507651949e-21,-2.175438556760727e-12
	-8.672543059517026e-04,1.237566763661240e-12
36		2.290867652767770e+00,0.000000000000000e+00
	-8.672543059517025e+00,1.266393396734119e-08
	1.000000000000000e+00,0.000000000000000e+00
	0.000000000000000e+00,0.000000000000000e+00
	8.672543059517027e-04,-1.266393396734119e-12
	1.822839813766758e-21,2.226111030270609e-12
	8.672543043951320e-12,-2.718608992828660e-14
	-8.672543146242457e-04,-9.325315436082041e-13
	-8.672543059517026e-04,1.266393396734119e-12
	-1.822839813766758e-21,-2.226111030270609e-12
	-8.672543059517026e-04,1.266393396734119e-12
37		2.344228815319919e+00,0.000000000000000e+00
	-8.672543059517025e+00,1.295891488348645e-08
	1.000000000000000e+00,0.000000000000000e+00
	0.000000000000000e+00,0.000000000000000e+00
	8.672543059517027e-04,-1.295891488348644e-12
	1.908747607518958e-21,2.277963817314805e-12
	8.672543043951320e-12,-2.781933531113045e-14
	-8.672543146242457e-04,-9.542529936550297e-13
	-8.672543059517026e-04,1.295891488348645e-12
	-1.908747607518958e-21,-2.277963817314805e-12
	-8.672543059517026e-04,1.295891488348645e-12
38		2.398832919019488e+00,0.000000000000000e+00
	-8.672543059517025e+00,1.326076678783445e-08
	1.000000000000000e+00,0.000000000000000e+00
	0.000000000000000e+00,0.000000000000000e+00
