Title: * GA CMOS Amp | W=2.4820888676894923e-06 L=9.045742674560075e-07 Vbias=1.4549690766287047
Date: Sat Sep  6 22:11:26 2025
Plotname: AC Analysis
Flags: complex forward log
No. Variables: 13
No. Points:          901
Offset:    0.0000000000000000e+00
Command: Linear Technology Corporation LTspice
Variables:
	0	frequency	frequency
	1	V(out)	voltage
	2	V(g)	voltage
	3	V(vdd)	voltage
	4	V(m1#dbody)	voltage
	5	V(m1#sbody)	voltage
	6	Id(M1)	device_current
	7	Ig(M1)	device_current
	8	Ib(M1)	device_current
	9	Is(M1)	device_current
	10	I(Rload)	device_current
	11	I(Vg)	device_current
	12	I(Vdd)	device_current
Values:
0		1.000000000000000e+00,0.000000000000000e+00
	-2.550989081414968e-01,1.281273814787420e-09
	1.000000000000000e+00,0.000000000000000e+00
	0.000000000000000e+00,0.000000000000000e+00
	6.053691071671994e-05,1.320198233896016e-13
	6.053691262995696e-05,1.444997789535881e-13
	2.550989081414968e-05,-1.281273814787420e-13
	3.678622889667234e-05,5.037057544401941e-13
	-3.228635329949287e-05,-7.623681763749629e-14
	-3.000976641132916e-05,-2.993415553239559e-13
	-2.550989081414969e-05,1.281273814787420e-13
	-3.678622889680128e-05,-5.037057544401941e-13
	-2.550989081414969e-05,1.281273814787420e-13
1		1.023292992280754e+00,0.000000000000000e+00
	-2.550989081414968e-01,1.311118515864796e-09
	1.000000000000000e+00,0.000000000000000e+00
	0.000000000000000e+00,0.000000000000000e+00
	6.053691071671994e-05,1.350949601167221e-13
	6.053691262995696e-05,1.478656111893247e-13
	2.550989081414968e-05,-1.311118515864795e-13
	3.678622889667234e-05,5.154385686901410e-13
	-3.228635329949287e-05,-7.801260124223575e-14
	-3.000976641132916e-05,-3.063141158614258e-13
	-2.550989081414969e-05,1.311118515864796e-13
	-3.678622889680128e-05,-5.154385686901409e-13
	-2.550989081414969e-05,1.311118515864796e-13
2		1.047128548050899e+00,0.000000000000000e+00
	-2.550989081414968e-01,1.341658389333988e-09
	1.000000000000000e+00,0.000000000000000e+00
	0.000000000000000e+00,0.000000000000000e+00
	6.053691071671994e-05,1.382417259798896e-13
	6.053691262995696e-05,1.513098437293466e-13
	2.550989081414968e-05,-1.341658389333988e-13
	3.678622889667234e-05,5.274446752918434e-13
	-3.228635329949287e-05,-7.982974816077267e-14
	-3.000976641132916e-05,-3.134490881976719e-13
	-2.550989081414969e-05,1.341658389333988e-13
	-3.678622889680128e-05,-5.274446752918433e-13
	-2.550989081414969e-05,1.341658389333988e-13
3		1.071519305237606e+00,0.000000000000000e+00
	-2.550989081414968e-01,1.372909627840153e-09
	1.000000000000000e+00,0.000000000000000e+00
	0.000000000000000e+00,0.000000000000000e+00
	6.053691071671994e-05,1.414617894360173e-13
	6.053691262995696e-05,1.548343027513364e-13
	2.550989081414968e-05,-1.372909627840153e-13
	3.678622889667234e-05,5.397304400419412e-13
	-3.228635329949287e-05,-8.168922186845610e-14
	-3.000976641132916e-05,-3.207502553894697e-13
	-2.550989081414969e-05,1.372909627840153e-13
	-3.678622889680128e-05,-5.397304400419409e-13
	-2.550989081414969e-05,1.372909627840153e-13
4		1.096478196143185e+00,0.000000000000000e+00
	-2.550989081414968e-01,1.404888801203606e-09
	1.000000000000000e+00,0.000000000000000e+00
	0.000000000000000e+00,0.000000000000000e+00
	6.053691071671994e-05,1.447568578053721e-13
	6.053691262995696e-05,1.584408569701192e-13
	2.550989081414968e-05,-1.404888801203607e-13
	3.678622889667234e-05,5.523023770155260e-13
	-3.228635329949287e-05,-8.359200828285884e-14
	-3.000976641132916e-05,-3.282214886123064e-13
	-2.550989081414969e-05,1.404888801203607e-13
	-3.678622889680128e-05,-5.523023770155260e-13
	-2.550989081414969e-05,1.404888801203607e-13
5		1.122018454301963e+00,0.000000000000000e+00
	-2.550989081414968e-01,1.437612865205361e-09
	1.000000000000000e+00,0.000000000000000e+00
	0.000000000000000e+00,0.000000000000000e+00
	6.053691071671994e-05,1.481286781768189e-13
	6.053691262995696e-05,1.621314186284803e-13
	2.550989081414968e-05,-1.437612865205360e-13
	3.678622889667234e-05,5.651671520199909e-13
	-3.228635329949287e-05,-8.553911628652422e-14
	-3.000976641132916e-05,-3.358667492129306e-13
	-2.550989081414969e-05,1.437612865205361e-13
	-3.678622889680128e-05,-5.651671520199908e-13
	-2.550989081414969e-05,1.437612865205361e-13
6		1.148153621496882e+00,0.000000000000000e+00
	-2.550989081414968e-01,1.471099170577301e-09
	1.000000000000000e+00,0.000000000000000e+00
	0.000000000000000e+00,0.000000000000000e+00
	6.053691071671994e-05,1.515790383341498e-13
	6.053691262995696e-05,1.659079445110612e-13
	2.550989081414968e-05,-1.471099170577302e-13
	3.678622889667234e-05,5.783315861293282e-13
	-3.228635329949287e-05,-8.753157826188876e-14
	-3.000976641132916e-05,-3.436900908097093e-13
	-2.550989081414969e-05,1.471099170577302e-13
	-3.678622889680128e-05,-5.783315861293280e-13
	-2.550989081414969e-05,1.471099170577302e-13
7		1.174897554939529e+00,0.000000000000000e+00
	-2.550989081414968e-01,1.505365472201782e-09
	1.000000000000000e+00,0.000000000000000e+00
	0.000000000000000e+00,0.000000000000000e+00
	6.053691071671994e-05,1.551097677039913e-13
	6.053691262995696e-05,1.697724369818731e-13
	2.550989081414968e-05,-1.505365472201782e-13
	3.678622889667234e-05,5.918026593007550e-13
	-3.228635329949287e-05,-8.957045063866514e-14
	-3.000976641132916e-05,-3.516956614419116e-13
	-2.550989081414969e-05,1.505365472201783e-13
	-3.678622889680128e-05,-5.918026593007548e-13
	-2.550989081414969e-05,1.505365472201783e-13
8		1.202264434617413e+00,0.000000000000000e+00
	-2.550989081414968e-01,1.540429938525492e-09
	1.000000000000000e+00,0.000000000000000e+00
	0.000000000000000e+00,0.000000000000000e+00
	6.053691071671994e-05,1.587227383257900e-13
	6.053691262995696e-05,1.737269450459767e-13
	2.550989081414968e-05,-1.540429938525492e-13
	3.678622889667234e-05,6.055875140755771e-13
	-3.228635329949287e-05,-9.165681445397525e-14
	-3.000976641132916e-05,-3.598877057690527e-13
	-2.550989081414969e-05,1.540429938525492e-13
	-3.678622889680128e-05,-6.055875140755771e-13
	-2.550989081414969e-05,1.540429938525492e-13
9		1.230268770812381e+00,0.000000000000000e+00
	-2.550989081414968e-01,1.576311161192609e-09
	1.000000000000000e+00,0.000000000000000e+00
	0.000000000000000e+00,0.000000000000000e+00
	6.053691071671994e-05,1.624198658443928e-13
	6.053691262995696e-05,1.777735654358917e-13
	2.550989081414968e-05,-1.576311161192609e-13
	3.678622889667234e-05,6.196934593662607e-13
	-3.228635329949287e-05,-9.379177592553022e-14
	-3.000976641132916e-05,-3.682705673214696e-13
	-2.550989081414969e-05,1.576311161192609e-13
	-3.678622889680128e-05,-6.196934593662606e-13
	-2.550989081414969e-05,1.576311161192609e-13
10		1.258925411794167e+00,0.000000000000000e+00
	-2.550989081414968e-01,1.613028164902335e-09
	1.000000000000000e+00,0.000000000000000e+00
	0.000000000000000e+00,0.000000000000000e+00
	6.053691071671994e-05,1.662031105257473e-13
	6.053691262995696e-05,1.819144437233120e-13
	2.550989081414968e-05,-1.613028164902335e-13
	3.678622889667234e-05,6.341279743317129e-13
	-3.228635329949287e-05,-9.597646703816181e-14
	-3.000976641132916e-05,-3.768486908033175e-13
	-2.550989081414969e-05,1.613028164902335e-13
	-3.678622889680128e-05,-6.341279743317127e-13
	-2.550989081414969e-05,1.613028164902335e-13
11		1.288249551693134e+00,0.000000000000000e+00
	-2.550989081414968e-01,1.650600417496045e-09
	1.000000000000000e+00,0.000000000000000e+00
	0.000000000000000e+00,0.000000000000000e+00
	6.053691071671994e-05,1.700744782962609e-13
	6.053691262995696e-05,1.861517754567168e-13
	2.550989081414968e-05,-1.650600417496045e-13
	3.678622889667234e-05,6.488987123428319e-13
	-3.228635329949287e-05,-9.821204614401577e-14
	-3.000976641132916e-05,-3.856266244492116e-13
	-2.550989081414969e-05,1.650600417496045e-13
	-3.678622889680128e-05,-6.488987123428317e-13
	-2.550989081414969e-05,1.650600417496045e-13
12		1.318256738556407e+00,0.000000000000000e+00
	-2.550989081414968e-01,1.689047840279389e-09
	1.000000000000000e+00,0.000000000000000e+00
	0.000000000000000e+00,0.000000000000000e+00
	6.053691071671994e-05,1.740360218063689e-13
	6.053691262995696e-05,1.904878073254787e-13
	2.550989081414968e-05,-1.689047840279390e-13
	3.678622889667234e-05,6.640135050404246e-13
	-3.228635329949287e-05,-1.004996985767254e-13
	-3.000976641132916e-05,-3.946090224357603e-13
	-2.550989081414969e-05,1.689047840279389e-13
	-3.678622889680128e-05,-6.640135050404244e-13
	-2.550989081414969e-05,1.689047840279389e-13
13		1.348962882591653e+00,0.000000000000000e+00
	-2.550989081414968e-01,1.728390818584842e-09
	1.000000000000000e+00,0.000000000000000e+00
	0.000000000000000e+00,0.000000000000000e+00
	6.053691071671994e-05,1.780898415188779e-13
	6.053691262995696e-05,1.949248383510889e-13
	2.550989081414968e-05,-1.728390818584842e-13
	3.678622889667234e-05,6.794803664876478e-13
	-3.228635329949287e-05,-1.028406372798912e-13
	-3.000976641132916e-05,-4.038006473492724e-13
	-2.550989081414969e-05,1.728390818584842e-13
	-3.678622889680128e-05,-6.794803664876477e-13
	-2.550989081414969e-05,1.728390818584842e-13
14		1.380384264602885e+00,0.000000000000000e+00
	-2.550989081414968e-01,1.768650212580265e-09
	1.000000000000000e+00,0.000000000000000e+00
	0.000000000000000e+00,0.000000000000000e+00
	6.053691071671994e-05,1.822380868226578e-13
	6.053691262995696e-05,1.994652211061281e-13
	2.550989081414968e-05,-1.768650212580265e-13
	3.678622889667234e-05,6.953074974191686e-13
	-3.228635329949287e-05,-1.052361034501995e-13
	-3.000976641132916e-05,-4.132063727109425e-13
	-2.550989081414969e-05,1.768650212580265e-13
	-3.678622889680128e-05,-6.953074974191685e-13
	-2.550989081414969e-05,1.768650212580265e-13
15		1.412537544622754e+00,0.000000000000000e+00
	-2.550989081414968e-01,1.809847368329251e-09
	1.000000000000000e+00,0.000000000000000e+00
	0.000000000000000e+00,0.000000000000000e+00
	6.053691071671994e-05,1.864829571722774e-13
	6.053691262995696e-05,2.041113629616321e-13
	2.550989081414968e-05,-1.809847368329251e-13
	3.678622889667234e-05,7.115032895893038e-13
	-3.228635329949287e-05,-1.076873671955217e-13
	-3.000976641132916e-05,-4.228311855608570e-13
	-2.550989081414969e-05,1.809847368329251e-13
	-3.678622889680128e-05,-7.115032895893037e-13
	-2.550989081414969e-05,1.809847368329251e-13
16		1.445439770745927e+00,0.000000000000000e+00
	-2.550989081414968e-01,1.852004129109087e-09
	1.000000000000000e+00,0.000000000000000e+00
	0.000000000000000e+00,0.000000000000000e+00
	6.053691071671994e-05,1.908267032541835e-13
	6.053691262995696e-05,2.088657273635115e-13
	2.550989081414968e-05,-1.852004129109087e-13
	3.678622889667234e-05,7.280763302214383e-13
	-3.228635329949287e-05,-1.101957282083417e-13
	-3.000976641132916e-05,-4.326801891021880e-13
	-2.550989081414969e-05,1.852004129109087e-13
	-3.678622889680128e-05,-7.280763302214383e-13
	-2.550989081414969e-05,1.852004129109087e-13
17		1.479108388168207e+00,0.000000000000000e+00
	-2.550989081414968e-01,1.895142846992350e-09
	1.000000000000000e+00,0.000000000000000e+00
	0.000000000000000e+00,0.000000000000000e+00
	6.053691071671994e-05,1.952716281800449e-13
	6.053691262995696e-05,2.137308351387039e-13
	2.550989081414968e-05,-1.895142846992349e-13
	3.678622889667234e-05,7.450354065610860e-13
	-3.228635329949287e-05,-1.127625164548706e-13
	-3.000976641132916e-05,-4.427586054069805e-13
	-2.550989081414969e-05,1.895142846992350e-13
	-3.678622889680128e-05,-7.450354065610858e-13
	-2.550989081414969e-05,1.895142846992350e-13
18		1.513561248436208e+00,0.000000000000000e+00
	-2.550989081414968e-01,1.939286394698269e-09
	1.000000000000000e+00,0.000000000000000e+00
	0.000000000000000e+00,0.000000000000000e+00
	6.053691071671994e-05,1.998200887078930e-13
	6.053691262995696e-05,2.187092658317489e-13
	2.550989081414968e-05,-1.939286394698269e-13
	3.678622889667234e-05,7.623895105350020e-13
	-3.228635329949287e-05,-1.153890928802124e-13
	-3.000976641132916e-05,-4.530717781849628e-13
	-2.550989081414969e-05,1.939286394698269e-13
	-3.678622889680128e-05,-7.623895105350017e-13
	-2.550989081414969e-05,1.939286394698269e-13
19		1.548816618912481e+00,0.000000000000000e+00
	-2.550989081414968e-01,1.984458177720147e-09
	1.000000000000000e+00,0.000000000000000e+00
	0.000000000000000e+00,0.000000000000000e+00
	6.053691071671994e-05,2.044744964917055e-13
	6.053691262995696e-05,2.238036590724971e-13
	2.550989081414968e-05,-1.984458177720147e-13
	3.678622889667234e-05,7.801478435188216e-13
	-3.228635329949287e-05,-1.180768501299544e-13
	-3.000976641132916e-05,-4.636251756168526e-13
	-2.550989081414969e-05,1.984458177720147e-13
	-3.678622889680128e-05,-7.801478435188216e-13
	-2.550989081414969e-05,1.984458177720147e-13
20		1.584893192461113e+00,0.000000000000000e+00
	-2.550989081414968e-01,2.030682146735261e-09
	1.000000000000000e+00,0.000000000000000e+00
	0.000000000000000e+00,0.000000000000000e+00
	6.053691071671994e-05,2.092373193600979e-13
	6.053691262995696e-05,2.290167159756773e-13
	2.550989081414968e-05,-2.030682146735262e-13
	3.678622889667234e-05,7.983198212157526e-13
	-3.228635329949287e-05,-1.208272132885671e-13
	-3.000976641132916e-05,-4.744243932536593e-13
	-2.550989081414969e-05,2.030682146735262e-13
	-3.678622889680128e-05,-7.983198212157525e-13
	-2.550989081414969e-05,2.030682146735262e-13
21		1.621810097358929e+00,0.000000000000000e+00
	-2.550989081414968e-01,2.077982810303832e-09
	1.000000000000000e+00,0.000000000000000e+00
	0.000000000000000e+00,0.000000000000000e+00
	6.053691071671994e-05,2.141110826247984e-13
	6.053691262995696e-05,2.343512005730625e-13
	2.550989081414968e-05,-2.077982810303831e-13
	3.678622889667234e-05,8.169150786489040e-13
	-3.228635329949287e-05,-1.236416406350028e-13
	-3.000976641132916e-05,-4.854751569835182e-13
	-2.550989081414969e-05,2.077982810303832e-13
	-3.678622889680128e-05,-8.169150786489038e-13
	-2.550989081414969e-05,2.077982810303832e-13
22		1.659586907437560e+00,0.000000000000000e+00
	-2.550989081414968e-01,2.126385247863779e-09
	1.000000000000000e+00,0.000000000000000e+00
	0.000000000000000e+00,0.000000000000000e+00
	6.053691071671994e-05,2.190983704196017e-13
	6.053691262995696e-05,2.398099412789963e-13
	2.550989081414968e-05,-2.126385247863778e-13
	3.678622889667234e-05,8.359434752699047e-13
	-3.228635329949287e-05,-1.265216244158937e-13
	-3.000976641132916e-05,-4.967833260676332e-13
	-2.550989081414969e-05,2.126385247863779e-13
	-3.678622889680128e-05,-8.359434752699045e-13
	-2.550989081414969e-05,2.126385247863779e-13
23		1.698243652461743e+00,0.000000000000000e+00
	-2.550989081414968e-01,2.175915123028179e-09
	1.000000000000000e+00,0.000000000000000e+00
	0.000000000000000e+00,0.000000000000000e+00
	6.053691071671994e-05,2.242018270705113e-13
	6.053691262995696e-05,2.453958323900561e-13
	2.550989081414968e-05,-2.175915123028179e-13
	3.678622889667234e-05,8.554151001865135e-13
	-3.228635329949287e-05,-1.294686916367616e-13
	-3.000976641132916e-05,-5.083548962469339e-13
	-2.550989081414969e-05,2.175915123028179e-13
	-3.678622889680128e-05,-8.554151001865132e-13
	-2.550989081414969e-05,2.175915123028179e-13
24		1.737800828749374e+00,0.000000000000000e+00
	-2.550989081414968e-01,2.226598697192450e-09
	1.000000000000000e+00,0.000000000000000e+00
	0.000000000000000e+00,0.000000000000000e+00
	6.053691071671994e-05,2.294241584977957e-13
	6.053691262995696e-05,2.511118356196469e-13
	2.550989081414968e-05,-2.226598697192450e-13
	3.678622889667234e-05,8.753402775119981e-13
	-3.228635329949287e-05,-1.324844048716560e-13
	-3.000976641132916e-05,-5.201960029210972e-13
	-2.550989081414969e-05,2.226598697192450e-13
	-3.678622889680128e-05,-8.753402775119979e-13
	-2.550989081414969e-05,2.226598697192450e-13
25		1.778279410038922e+00,0.000000000000000e+00
	-2.550989081414968e-01,2.278462843458491e-09
	1.000000000000000e+00,0.000000000000000e+00
	0.000000000000000e+00,0.000000000000000e+00
	6.053691071671994e-05,2.347681336507034e-13
	6.053691262995696e-05,2.569609816683413e-13
	2.550989081414968e-05,-2.278462843458491e-13
	3.678622889667234e-05,8.957295718391184e-13
	-3.228635329949287e-05,-1.355703630916518e-13
	-3.000976641132916e-05,-5.323129244016176e-13
	-2.550989081414969e-05,2.278462843458491e-13
	-3.678622889680128e-05,-8.957295718391182e-13
	-2.550989081414969e-05,2.278462843458491e-13
26		1.819700858609982e+00,0.000000000000000e+00
	-2.550989081414968e-01,2.331535060883154e-09
	1.000000000000000e+00,0.000000000000000e+00
	0.000000000000000e+00,0.000000000000000e+00
	6.053691071671994e-05,2.402365859755961e-13
	6.053691262995696e-05,2.629463718307969e-13
	2.550989081414968e-05,-2.331535060883154e-13
	3.678622889667234e-05,9.165937938416101e-13
	-3.228635329949287e-05,-1.387282025126446e-13
	-3.000976641132916e-05,-5.447120852406500e-13
	-2.550989081414969e-05,2.331535060883154e-13
	-3.678622889680128e-05,-9.165937938416099e-13
	-2.550989081414969e-05,2.331535060883154e-13
27		1.862087136662866e+00,0.000000000000000e+00
	-2.550989081414968e-01,2.385843489058614e-09
	1.000000000000000e+00,0.000000000000000e+00
	0.000000000000000e+00,0.000000000000000e+00
	6.053691071671994e-05,2.458324149182804e-13
	6.053691262995696e-05,2.690711796401039e-13
	2.550989081414968e-05,-2.385843489058613e-13
	3.678622889667234e-05,9.379440060061498e-13
	-3.228635329949287e-05,-1.419595974628945e-13
	-3.000976641132916e-05,-5.574000596373939e-13
	-2.550989081414969e-05,2.385843489058614e-13
	-3.678622889680128e-05,-9.379440060061498e-13
	-2.550989081414969e-05,2.385843489058614e-13
28		1.905460717963246e+00,0.000000000000000e+00
	-2.550989081414968e-01,2.441416923032344e-09
	1.000000000000000e+00,0.000000000000000e+00
	0.000000000000000e+00,0.000000000000000e+00
	6.053691071671994e-05,2.515585874613311e-13
	6.053691262995696e-05,2.753386525504343e-13
	2.550989081414968e-05,-2.441416923032342e-13
	3.678622889667234e-05,9.597915284978305e-13
	-3.228635329949287e-05,-1.452662612707767e-13
	-3.000976641132916e-05,-5.703835749238197e-13
	-2.550989081414969e-05,2.441416923032344e-13
	-3.678622889680128e-05,-9.597915284978303e-13
	-2.550989081414969e-05,2.441416923032344e-13
29		1.949844599758044e+00,0.000000000000000e+00
	-2.550989081414968e-01,2.498284828574638e-09
	1.000000000000000e+00,0.000000000000000e+00
	0.000000000000000e+00,0.000000000000000e+00
	6.053691071671994e-05,2.574181396972252e-13
	6.053691262995696e-05,2.817521136588848e-13
	2.550989081414968e-05,-2.498284828574638e-13
	3.678622889667234e-05,9.821479451622639e-13
	-3.228635329949287e-05,-1.486499471732109e-13
	-3.000976641132916e-05,-5.836695151315891e-13
	-2.550989081414969e-05,2.498284828574638e-13
	-3.678622889680128e-05,-9.821479451622639e-13
	-2.550989081414969e-05,2.498284828574638e-13
30		1.995262314968878e+00,0.000000000000000e+00
	-2.550989081414968e-01,2.556477357801752e-09
	1.000000000000000e+00,0.000000000000000e+00
	0.000000000000000e+00,0.000000000000000e+00
	6.053691071671994e-05,2.634141784381188e-13
	6.053691262995696e-05,2.883149634674274e-13
	2.550989081414968e-05,-2.556477357801752e-13
	3.678622889667234e-05,1.005025109667487e-12
	-3.228635329949287e-05,-1.521124492452510e-13
	-3.000976641132916e-05,-5.972649246420606e-13
	-2.550989081414969e-05,2.556477357801752e-13
	-3.678622889680128e-05,-1.005025109667487e-12
	-2.550989081414969e-05,2.556477357801752e-13
31		2.041737944669527e+00,0.000000000000000e+00
	-2.550989081414968e-01,2.616025365162951e-09
	1.000000000000000e+00,0.000000000000000e+00
	0.000000000000000e+00,0.000000000000000e+00
	6.053691071671994e-05,2.695498828631191e-13
	6.053691262995696e-05,2.950306816858999e-13
	2.550989081414968e-05,-2.616025365162950e-13
	3.678622889667234e-05,1.028435151788936e-12
	-3.228635329949287e-05,-1.556556033513272e-13
	-3.000976641132916e-05,-6.111770119213134e-13
	-2.550989081414969e-05,2.616025365162951e-13
	-3.678622889680128e-05,-1.028435151788935e-12
	-2.550989081414969e-05,2.616025365162951e-13
32		2.089296130854037e+00,0.000000000000000e+00
	-2.550989081414968e-01,2.676960423799949e-09
	1.000000000000000e+00,0.000000000000000e+00
	0.000000000000000e+00,0.000000000000000e+00
	6.053691071671994e-05,2.758285062039279e-13
