LTspice 24.0.9 for Windows
Circuit: * GA CMOS Amp | W=2.126531848517604e-05 L=9.107441375030955e-07 Vbias=0.9684958148793767
Start Time: Mon Sep  8 18:47:45 2025
solver = Normal
Maximum thread count: 2
tnom = 27
temp = 27
method = modified trap
AsciiRawFile = 1
Instance "m1": Length shorter than recommended for a level 3 MOSFET.
Direct Newton iteration for .op point succeeded.
Semiconductor Device Operating Points:
                        --- MOSFET Transistors ---
Name:          m1
Model:        n_1u
Id:          6.85e-05
Vgs:         9.68e-01
Vds:         1.12e+00
Vbs:         0.00e+00
Vth:         8.04e-01
Vdsat:       1.77e-01
Gm:          5.68e-04
Gds:         1.15e-05
Gmb:         1.32e-04
Cbd:         0.00e+00
Cbs:         0.00e+00
Cgsov:       4.25e-15
Cgdov:       4.25e-15
Cgbov:       7.11e-17
Cgs:         1.74e-14
Cgd:         0.00e+00
Cgb:         0.00e+00



gain_db: MAX(db(v(out)/v(g)))=(29.752dB,62.6106°) FROM 1 TO 1e+09
gain_lin: MAX(mag(v(out)/v(g)))=(14.1381dB,0°) FROM 1 TO 1e+09

Measurement "fc" FAIL'ed

Total elapsed time: 0.419 seconds.

