LTspice 24.0.9 for Windows
Circuit: * GA CMOS Amp | W=4.708583068031125e-05 L=8.465808237867929e-07 Vbias=1.2583047431515741
Start Time: Sat Sep  6 22:07:03 2025
solver = Normal
Maximum thread count: 2
tnom = 27
temp = 27
method = modified trap
AsciiRawFile = 1
Direct Newton iteration for .op point succeeded.
Semiconductor Device Operating Points:
                        --- BSIM4 MOSFETS ---
Name:      m1
Model:      n
Id:      1.77e-04
Vgs:     1.26e+00
Vds:     3.38e-02
Vbs:     0.00e+00
Vth:     2.38e-01
Vdsat:   7.14e-01
Gm:     -1.99e-05
Gds:     5.26e-03
Gmb      9.95e-05
Cbd:     2.33e-14
Cbs:     3.77e-14


.measure op idd find i(vdd)
  Error: FIND can not be evaluated over an interval.

gain_db: MAX(db(v(out)/v(g)))=(32.3876dB,180°) FROM 1 TO 1e+09
gain_lin: MAX(mag(v(out)/v(g)))=(-4.19134dB,0°) FROM 1 TO 1e+09

Measurement "fc" FAIL'ed

Total elapsed time: 2.306 seconds.

