LTspice 24.0.9 for Windows
Circuit: * GA CMOS Amp | W=5.2055622753592074e-06 L=7.819887737376181e-07 Vbias=1.2482112039424695
Start Time: Sat Sep  6 22:35:45 2025
solver = Normal
Maximum thread count: 2
tnom = 27
temp = 27
method = modified trap
AsciiRawFile = 1
Direct Newton iteration for .op point succeeded.
Semiconductor Device Operating Points:
                        --- BSIM4 MOSFETS ---
Name:      m1
Model:      n
Id:      1.51e-04
Vgs:     1.25e+00
Vds:     2.89e-01
Vbs:     0.00e+00
Vth:     2.40e-01
Vdsat:   7.07e-01
Gm:      1.70e-05
Gds:     3.90e-04
Gmb      8.78e-05
Cbd:     2.39e-15
Cbs:     4.16e-15


.measure op idd find i(vdd)
  Error: FIND can not be evaluated over an interval.

gain_db: MAX(db(v(out)/v(g)))=(32.2034dB,137.966°) FROM 1 TO 1e+09
gain_lin: MAX(mag(v(out)/v(g)))=(-2.84914dB,0°) FROM 1 TO 1e+09

Measurement "fc" FAIL'ed

Total elapsed time: 3.188 seconds.

