Title: * GA CMOS Amp | W=1.4934649771968862e-05 L=4.4166428973870966e-07 Vbias=0.7485119082200092
Date: Sat Sep  6 22:04:00 2025
Plotname: AC Analysis
Flags: complex forward log
No. Variables: 13
No. Points:          901
Offset:    0.0000000000000000e+00
Command: Linear Technology Corporation LTspice
Variables:
	0	frequency	frequency
	1	V(out)	voltage
	2	V(g)	voltage
	3	V(vdd)	voltage
	4	V(m1#dbody)	voltage
	5	V(m1#sbody)	voltage
	6	Id(M1)	device_current
	7	Ig(M1)	device_current
	8	Ib(M1)	device_current
	9	Is(M1)	device_current
	10	I(Rload)	device_current
	11	I(Vg)	device_current
	12	I(Vdd)	device_current
Values:
0		1.000000000000000e+00,0.000000000000000e+00
	-4.951746925675415e-02,3.235444895708327e-10
	1.000000000000000e+00,0.000000000000000e+00
	0.000000000000000e+00,0.000000000000000e+00
	2.602442913165409e-08,-6.663844709957839e-15
	2.602481356838515e-08,1.041825515804974e-14
	4.951746925675418e-06,-3.235444895708317e-14
	8.105310858665453e-07,1.703650725467374e-12
	-1.387987495118293e-08,-4.417601956612795e-15
	-5.748398136590780e-06,-1.666878674553677e-12
	-4.951746925675416e-06,3.235444895708327e-14
	-8.105310858597115e-07,-1.703650725467373e-12
	-4.951746925675416e-06,3.235444895708327e-14
1		1.023292992280754e+00,0.000000000000000e+00
	-4.951746925675415e-02,3.310808088688867e-10
	1.000000000000000e+00,0.000000000000000e+00
	0.000000000000000e+00,0.000000000000000e+00
	2.602442913165407e-08,-6.819065593347032e-15
	2.602481356838513e-08,1.066092749502511e-14
	4.951746925675418e-06,-3.310808088688866e-14
	8.105310858665453e-07,1.743333848664786e-12
	-1.387987495118292e-08,-4.520501124887619e-15
	-5.748398136590780e-06,-1.705705266653010e-12
	-4.951746925675416e-06,3.310808088688867e-14
	-8.105310858597115e-07,-1.743333848664786e-12
	-4.951746925675416e-06,3.310808088688867e-14
2		1.047128548050899e+00,0.000000000000000e+00
	-4.951746925675415e-02,3.387926715941755e-10
	1.000000000000000e+00,0.000000000000000e+00
	0.000000000000000e+00,0.000000000000000e+00
	2.602442913165404e-08,-6.977902035574799e-15
	2.602481356838512e-08,1.090925239687243e-14
	4.951746925675418e-06,-3.387926715941724e-14
	8.105310858665453e-07,1.783941310544512e-12
	-1.387987495118291e-08,-4.625797122694777e-15
	-5.748398136590780e-06,-1.745436246262400e-12
	-4.951746925675416e-06,3.387926715941755e-14
	-8.105310858597115e-07,-1.783941310544512e-12
	-4.951746925675416e-06,3.387926715941755e-14
3		1.071519305237606e+00,0.000000000000000e+00
	-4.951746925675415e-02,3.466841666783946e-10
	1.000000000000000e+00,0.000000000000000e+00
	0.000000000000000e+00,0.000000000000000e+00
	2.602442913165402e-08,-7.140438253825338e-15
	2.602481356838510e-08,1.116336152874154e-14
	4.951746925675418e-06,-3.466841666783927e-14
	8.105310858665453e-07,1.825494641720344e-12
	-1.387987495118290e-08,-4.733545779366021e-15
	-5.748398136590780e-06,-1.786092679273138e-12
	-4.951746925675416e-06,3.466841666783946e-14
	-8.105310858597115e-07,-1.825494641720343e-12
	-4.951746925675416e-06,3.466841666783946e-14
4		1.096478196143185e+00,0.000000000000000e+00
	-4.951746925675415e-02,3.547594782966941e-10
	1.000000000000000e+00,0.000000000000000e+00
	0.000000000000000e+00,0.000000000000000e+00
	2.602442913165399e-08,-7.306760426952872e-15
	2.602481356838508e-08,1.142338962265781e-14
	4.951746925675418e-06,-3.547594782966937e-14
	8.105310858665453e-07,1.868015874318494e-12
	-1.387987495118289e-08,-4.843804224665400e-15
	-5.748398136590780e-06,-1.827696122264159e-12
	-4.951746925675416e-06,3.547594782966941e-14
	-8.105310858597115e-07,-1.868015874318494e-12
	-4.951746925675416e-06,3.547594782966941e-14
5		1.122018454301963e+00,0.000000000000000e+00
	-4.951746925675415e-02,3.630228880861834e-10
	1.000000000000000e+00,0.000000000000000e+00
	0.000000000000000e+00,0.000000000000000e+00
	2.602442913165397e-08,-7.476956741175212e-15
	2.602481356838506e-08,1.168947454895841e-14
	4.951746925675418e-06,-3.630228880861827e-14
	8.105310858665453e-07,1.911527553659320e-12
	-1.387987495118288e-08,-4.956630919080011e-15
	-5.748398136590780e-06,-1.870268633931622e-12
	-4.951746925675416e-06,3.630228880861834e-14
	-8.105310858597115e-07,-1.911527553659320e-12
	-4.951746925675416e-06,3.630228880861834e-14
6		1.148153621496882e+00,0.000000000000000e+00
	-4.951746925675415e-02,3.714787774161119e-10
	1.000000000000000e+00,0.000000000000000e+00
	0.000000000000000e+00,0.000000000000000e+00
	2.602442913165394e-08,-7.651117436830923e-15
	2.602481356838503e-08,1.196175738939339e-14
	4.951746925675418e-06,-3.714787774161136e-14
	8.105310858665453e-07,1.956052750211156e-12
	-1.387987495118287e-08,-5.072085684816698e-15
	-5.748398136590780e-06,-1.913832786784728e-12
	-4.951746925675416e-06,3.714787774161119e-14
	-8.105310858597115e-07,-1.956052750211156e-12
	-4.951746925675416e-06,3.714787774161119e-14
7		1.174897554939529e+00,0.000000000000000e+00
	-4.951746925675415e-02,3.801316297109294e-10
	1.000000000000000e+00,0.000000000000000e+00
	0.000000000000000e+00,0.000000000000000e+00
	2.602442913165390e-08,-7.829334856226174e-15
	2.602481356838501e-08,1.224038251192878e-14
	4.951746925675418e-06,-3.801316297109285e-14
	8.105310858665453e-07,2.001615071822572e-12
	-1.387987495118285e-08,-5.190229737520454e-15
	-5.748398136590780e-06,-1.958411679113959e-12
	-4.951746925675416e-06,3.801316297109294e-14
	-8.105310858597115e-07,-2.001615071822572e-12
	-4.951746925675416e-06,3.801316297109294e-14
8		1.202264434617413e+00,0.000000000000000e+00
	-4.951746925675415e-02,3.889860328274565e-10
	1.000000000000000e+00,0.000000000000000e+00
	0.000000000000000e+00,0.000000000000000e+00
	2.602442913165387e-08,-8.011703492595679e-15
	2.602481356838499e-08,1.252549764729262e-14
	4.951746925675418e-06,-3.889860328274579e-14
	8.105310858665453e-07,2.048238676239576e-12
	-1.387987495118284e-08,-5.311125718731866e-15
	-5.748398136590780e-06,-2.004028947238099e-12
	-4.951746925675416e-06,3.889860328274565e-14
	-8.105310858597115e-07,-2.048238676239576e-12
	-4.951746925675416e-06,3.889860328274565e-14
9		1.230268770812381e+00,0.000000000000000e+00
	-4.951746925675415e-02,3.980466814874276e-10
	1.000000000000000e+00,0.000000000000000e+00
	0.000000000000000e+00,0.000000000000000e+00
	2.602442913165384e-08,-8.198320040204424e-15
	2.602481356838496e-08,1.281725396730359e-14
	4.951746925675418e-06,-3.980466814874265e-14
	8.105310858665452e-07,2.095948283914366e-12
	-1.387987495118283e-08,-5.434837729100388e-15
	-5.748398136590780e-06,-2.050708778036523e-12
	-4.951746925675416e-06,3.980466814874276e-14
	-8.105310858597115e-07,-2.095948283914366e-12
	-4.951746925675416e-06,3.980466814874276e-14
10		1.258925411794167e+00,0.000000000000000e+00
	-4.951746925675415e-02,4.073183797666941e-10
	1.000000000000000e+00,0.000000000000000e+00
	0.000000000000000e+00,0.000000000000000e+00
	2.602442913165381e-08,-8.389283445616018e-15
	2.602481356838494e-08,1.311580616502450e-14
	4.951746925675418e-06,-4.073183797666971e-14
	8.105310858665452e-07,2.144769191112444e-12
	-1.387987495118281e-08,-5.561431362371498e-15
	-5.748398136590780e-06,-2.098475921773403e-12
	-4.951746925675416e-06,4.073183797666941e-14
	-8.105310858597115e-07,-2.144769191112444e-12
	-4.951746925675416e-06,4.073183797666941e-14
11		1.288249551693134e+00,0.000000000000000e+00
	-4.951746925675415e-02,4.168060436424090e-10
	1.000000000000000e+00,0.000000000000000e+00
	0.000000000000000e+00,0.000000000000000e+00
	2.602442913165377e-08,-8.584694960155799e-15
	2.602481356838491e-08,1.342131253678229e-14
	4.951746925675418e-06,-4.168060436424068e-14
	8.105310858665452e-07,2.194727283325026e-12
	-1.387987495118280e-08,-5.690973740165167e-15
	-5.748398136590780e-06,-2.147355705220620e-12
	-4.951746925675416e-06,4.168060436424091e-14
	-8.105310858597115e-07,-2.194727283325026e-12
	-4.951746925675416e-06,4.168060436424091e-14
12		1.318256738556407e+00,0.000000000000000e+00
	-4.951746925675415e-02,4.265147035995433e-10
	1.000000000000000e+00,0.000000000000000e+00
	0.000000000000000e+00,0.000000000000000e+00
	2.602442913165373e-08,-8.784658193595356e-15
	2.602481356838488e-08,1.373393506609913e-14
	4.951746925675418e-06,-4.265147035995425e-14
	8.105310858665452e-07,2.245849048993876e-12
	-1.387987495118278e-08,-5.823533547564797e-15
	-5.748398136590780e-06,-2.197374045086357e-12
	-4.951746925675416e-06,4.265147035995433e-14
	-8.105310858597115e-07,-2.245849048993876e-12
	-4.951746925675416e-06,4.265147035995433e-14
13		1.348962882591653e+00,0.000000000000000e+00
	-4.951746925675415e-02,4.364495072981157e-10
	1.000000000000000e+00,0.000000000000000e+00
	0.000000000000000e+00,0.000000000000000e+00
	2.602442913165370e-08,-8.989279169087866e-15
	2.602481356838485e-08,1.405383950957813e-14
	4.951746925675418e-06,-4.364495072981143e-14
	8.105310858665452e-07,2.298161593555830e-12
	-1.387987495118276e-08,-5.959181069534922e-15
	-5.748398136590780e-06,-2.248557461756483e-12
	-4.951746925675416e-06,4.364495072981157e-14
	-8.105310858597115e-07,-2.298161593555829e-12
	-4.951746925675416e-06,4.364495072981157e-14
14		1.380384264602885e+00,0.000000000000000e+00
	-4.951746925675415e-02,4.466157223025496e-10
	1.000000000000000e+00,0.000000000000000e+00
	0.000000000000000e+00,0.000000000000000e+00
	2.602442913165366e-08,-9.198666379382958e-15
	2.602481356838482e-08,1.438119548478971e-14
	4.951746925675418e-06,-4.466157223025482e-14
	8.105310858665452e-07,2.351692653814451e-12
	-1.387987495118275e-08,-6.097988228187225e-15
	-5.748398136590780e-06,-2.300933093356009e-12
	-4.951746925675416e-06,4.466157223025496e-14
	-8.105310858597115e-07,-2.351692653814450e-12
	-4.951746925675416e-06,4.466157223025496e-14
15		1.412537544622754e+00,0.000000000000000e+00
	-4.951746925675415e-02,4.570187388746064e-10
	1.000000000000000e+00,0.000000000000000e+00
	0.000000000000000e+00,0.000000000000000e+00
	2.602442913165361e-08,-9.412930844351152e-15
	2.602481356838479e-08,1.471617656020494e-14
	4.951746925675418e-06,-4.570187388746042e-14
	8.105310858665452e-07,2.406470612646457e-12
	-1.387987495118273e-08,-6.240028620914521e-15
	-5.748398136590780e-06,-2.354528710138082e-12
	-4.951746925675416e-06,4.570187388746064e-14
	-8.105310858597115e-07,-2.406470612646458e-12
	-4.951746925675416e-06,4.570187388746064e-14
16		1.445439770745927e+00,0.000000000000000e+00
	-4.951746925675415e-02,4.676640728313724e-10
	1.000000000000000e+00,0.000000000000000e+00
	0.000000000000000e+00,0.000000000000000e+00
	2.602442913165357e-08,-9.632186169847890e-15
	2.602481356838475e-08,1.505896034722400e-14
	4.951746925675418e-06,-4.676640728313723e-14
	8.105310858665451e-07,2.462524514050692e-12
	-1.387987495118271e-08,-6.385377559413167e-15
	-5.748398136590780e-06,-2.409372729208142e-12
	-4.951746925675416e-06,4.676640728313724e-14
	-8.105310858597115e-07,-2.462524514050692e-12
	-4.951746925675416e-06,4.676640728313724e-14
17		1.479108388168207e+00,0.000000000000000e+00
	-4.951746925675415e-02,4.785573684698196e-10
	1.000000000000000e+00,0.000000000000000e+00
	0.000000000000000e+00,0.000000000000000e+00
	2.602442913165352e-08,-9.856548607948955e-15
	2.602481356838471e-08,1.540972859434806e-14
	4.951746925675418e-06,-4.785573684698162e-14
	8.105310858665451e-07,2.519884078547643e-12
	-1.387987495118269e-08,-6.534112109614274e-15
	-5.748398136590780e-06,-2.465494229591047e-12
	-4.951746925675416e-06,4.785573684698196e-14
	-8.105310858597115e-07,-2.519884078547643e-12
	-4.951746925675416e-06,4.785573684698196e-14
18		1.513561248436208e+00,0.000000000000000e+00
	-4.951746925675415e-02,4.897044015594851e-10
	1.000000000000000e+00,0.000000000000000e+00
	0.000000000000000e+00,0.000000000000000e+00
	2.602442913165347e-08,-1.008613711858879e-14
	2.602481356838468e-08,1.576866728354473e-14
	4.951746925675418e-06,-4.897044015594870e-14
	8.105310858665451e-07,2.578579718937649e-12
	-1.387987495118267e-08,-6.686311132545100e-15
	-5.748398136590780e-06,-2.522922967649155e-12
	-4.951746925675416e-06,4.897044015594851e-14
	-8.105310858597115e-07,-2.578579718937648e-12
	-4.951746925675416e-06,4.897044015594851e-14
19		1.548816618912481e+00,0.000000000000000e+00
	-4.951746925675415e-02,5.011110824048616e-10
	1.000000000000000e+00,0.000000000000000e+00
	0.000000000000000e+00,0.000000000000000e+00
	2.602442913165342e-08,-1.032107343263470e-14
	2.602481356838464e-08,1.613596672885813e-14
	4.951746925675418e-06,-5.011110824048605e-14
	8.105310858665451e-07,2.638642556426172e-12
	-1.387987495118265e-08,-6.842055326142199e-15
	-5.748398136590780e-06,-2.581689392859544e-12
	-4.951746925675416e-06,5.011110824048616e-14
	-8.105310858597115e-07,-2.638642556426172e-12
	-4.951746925675416e-06,5.011110824048616e-14
20		1.584893192461113e+00,0.000000000000000e+00
	-4.951746925675415e-02,5.127834589791184e-10
	1.000000000000000e+00,0.000000000000000e+00
	0.000000000000000e+00,0.000000000000000e+00
	2.602442913165336e-08,-1.056148211643015e-14
	2.602481356838459e-08,1.651182167731593e-14
	4.951746925675418e-06,-5.127834589791160e-14
	8.105310858665451e-07,2.700104437124676e-12
	-1.387987495118262e-08,-7.001427268038523e-15
	-5.748398136590780e-06,-2.641824663958726e-12
	-4.951746925675416e-06,5.127834589791184e-14
	-8.105310858597115e-07,-2.700104437124676e-12
	-4.951746925675416e-06,5.127834589791184e-14
21		1.621810097358929e+00,0.000000000000000e+00
	-4.951746925675415e-02,5.247277201308173e-10
	1.000000000000000e+00,0.000000000000000e+00
	0.000000000000000e+00,0.000000000000000e+00
	2.602442913165331e-08,-1.080749063784152e-14
	2.602481356838455e-08,1.689643141218679e-14
	4.951746925675418e-06,-5.247277201308177e-14
	8.105310858665450e-07,2.762997948935851e-12
	-1.387987495118260e-08,-7.164511459347183e-15
	-5.748398136590780e-06,-2.703360665463422e-12
	-4.951746925675416e-06,5.247277201308173e-14
	-8.105310858597115e-07,-2.762997948935851e-12
	-4.951746925675416e-06,5.247277201308173e-14
22		1.659586907437560e+00,0.000000000000000e+00
	-4.951746925675415e-02,5.369501988653221e-10
	1.000000000000000e+00,0.000000000000000e+00
	0.000000000000000e+00,0.000000000000000e+00
	2.602442913165325e-08,-1.105922943384308e-14
	2.602481356838451e-08,1.728999985864316e-14
	4.951746925675418e-06,-5.369501988653204e-14
	8.105310858665450e-07,2.827356438832153e-12
	-1.387987495118257e-08,-7.331394369465138e-15
	-5.748398136590780e-06,-2.766330024576156e-12
	-4.951746925675416e-06,5.369501988653221e-14
	-8.105310858597115e-07,-2.827356438832154e-12
	-4.951746925675416e-06,5.369501988653221e-14
23		1.698243652461743e+00,0.000000000000000e+00
	-4.951746925675415e-02,5.494573757026415e-10
	1.000000000000000e+00,0.000000000000000e+00
	0.000000000000000e+00,0.000000000000000e+00
	2.602442913165319e-08,-1.131683197967668e-14
	2.602481356838446e-08,1.769273569188477e-14
	4.951746925675418e-06,-5.494573757026395e-14
	8.105310858665450e-07,2.893214030536811e-12
	-1.387987495118255e-08,-7.502164481920251e-15
	-5.748398136590780e-06,-2.830766128484627e-12
	-4.951746925675416e-06,5.494573757026415e-14
	-8.105310858597115e-07,-2.893214030536811e-12
	-4.951746925675416e-06,5.494573757026415e-14
24		1.737800828749374e+00,0.000000000000000e+00
	-4.951746925675415e-02,5.622558821134864e-10
	1.000000000000000e+00,0.000000000000000e+00
	0.000000000000000e+00,0.000000000000000e+00
	2.602442913165312e-08,-1.158043485962186e-14
	2.602481356838441e-08,1.810485244778128e-14
	4.951746925675418e-06,-5.622558821134860e-14
	8.105310858665450e-07,2.960605642616674e-12
	-1.387987495118252e-08,-7.676912341286574e-15
	-5.748398136590780e-06,-2.896703142064039e-12
	-4.951746925675416e-06,5.622558821134864e-14
	-8.105310858597115e-07,-2.960605642616674e-12
	-4.951746925675416e-06,5.622558821134864e-14
25		1.778279410038922e+00,0.000000000000000e+00
	-4.951746925675415e-02,5.753525040353646e-10
	1.000000000000000e+00,0.000000000000000e+00
	0.000000000000000e+00,0.000000000000000e+00
	2.602442913165305e-08,-1.185017783941480e-14
	2.602481356838436e-08,1.852656863609165e-14
	4.951746925675418e-06,-5.753525040353616e-14
	8.105310858665449e-07,3.029567006996501e-12
	-1.387987495118249e-08,-7.855730601192194e-15
	-5.748398136590780e-06,-2.964176025991773e-12
	-4.951746925675416e-06,5.753525040353647e-14
	-8.105310858597115e-07,-3.029567006996501e-12
	-4.951746925675416e-06,5.753525040353647e-14
26		1.819700858609982e+00,0.000000000000000e+00
	-4.951746925675415e-02,5.887541854705727e-10
	1.000000000000000e+00,0.000000000000000e+00
	0.000000000000000e+00,0.000000000000000e+00
	2.602442913165298e-08,-1.212620394035384e-14
	2.602481356838430e-08,1.895810785632100e-14
	4.951746925675418e-06,-5.887541854705724e-14
	8.105310858665449e-07,3.100134687904499e-12
	-1.387987495118246e-08,-8.038714073445450e-15
	-5.748398136590780e-06,-3.033220555283996e-12
	-4.951746925675416e-06,5.887541854705727e-14
	-8.105310858597115e-07,-3.100134687904498e-12
	-4.951746925675416e-06,5.887541854705727e-14
27		1.862087136662866e+00,0.000000000000000e+00
	-4.951746925675415e-02,6.024680321680005e-10
	1.000000000000000e+00,0.000000000000000e+00
	0.000000000000000e+00,0.000000000000000e+00
	2.602442913165291e-08,-1.240865951513133e-14
	2.602481356838425e-08,1.939969891627601e-14
	4.951746925675418e-06,-6.024680321679962e-14
	8.105310858665449e-07,3.172346101259156e-12
	-1.387987495118243e-08,-8.225959778305418e-15
	-5.748398136590780e-06,-3.103873338264050e-12
	-4.951746925675416e-06,6.024680321680005e-14
	-8.105310858597115e-07,-3.172346101259156e-12
	-4.951746925675416e-06,6.024680321680005e-14
28		1.905460717963246e+00,0.000000000000000e+00
	-4.951746925675415e-02,6.165013153906908e-10
	1.000000000000000e+00,0.000000000000000e+00
	0.000000000000000e+00,0.000000000000000e+00
	2.602442913165283e-08,-1.269769432543183e-14
	2.602481356838419e-08,1.985157595338175e-14
	4.951746925675418e-06,-6.165013153906885e-14
	8.105310858665448e-07,3.246239534507665e-12
	-1.387987495118240e-08,-8.417566995923263e-15
	-5.748398136590780e-06,-3.176171835972673e-12
	-4.951746925675416e-06,6.165013153906909e-14
	-8.105310858597115e-07,-3.246239534507665e-12
	-4.951746925675416e-06,6.165013153906909e-14
29		1.949844599758044e+00,0.000000000000000e+00
	-4.951746925675415e-02,6.308614757711609e-10
	1.000000000000000e+00,0.000000000000000e+00
	0.000000000000000e+00,0.000000000000000e+00
	2.602442913165275e-08,-1.299346162133747e-14
	2.602481356838412e-08,2.031397855882469e-14
	4.951746925675418e-06,-6.308614757711618e-14
	8.105310858665448e-07,3.321854166926432e-12
	-1.387987495118236e-08,-8.613637318982040e-15
	-5.748398136590780e-06,-3.250154382030334e-12
	-4.951746925675416e-06,6.308614757711609e-14
	-8.105310858597115e-07,-3.321854166926432e-12
	-4.951746925675416e-06,6.308614757711609e-14
30		1.995262314968878e+00,0.000000000000000e+00
	-4.951746925675415e-02,6.455561272565238e-10
	1.000000000000000e+00,0.000000000000000e+00
	0.000000000000000e+00,0.000000000000000e+00
	2.602442913165266e-08,-1.329611822258357e-14
	2.602481356838406e-08,2.078715190458678e-14
	4.951746925675418e-06,-6.455561272565185e-14
	8.105310858665448e-07,3.399230090394439e-12
	-1.387987495118233e-08,-8.814274706562295e-15
	-5.748398136590780e-06,-3.325860202962225e-12
	-4.951746925675416e-06,6.455561272565238e-14
	-8.105310858597115e-07,-3.399230090394439e-12
	-4.951746925675416e-06,6.455561272565238e-14
31		2.041737944669527e+00,0.000000000000000e+00
	-4.951746925675415e-02,6.605930611455033e-10
	1.000000000000000e+00,0.000000000000000e+00
	0.000000000000000e+00,0.000000000000000e+00
	2.602442913165257e-08,-1.360582460170620e-14
	2.602481356838399e-08,2.127134687343919e-14
	4.951746925675418e-06,-6.605930611455041e-14
	8.105310858665447e-07,3.478408330650504e-12
	-1.387987495118229e-08,-9.019585539262699e-15
	-5.748398136590780e-06,-3.403329438996691e-12
	-4.951746925675416e-06,6.605930611455032e-14
	-8.105310858597115e-07,-3.478408330650503e-12
	-4.951746925675416e-06,6.605930611455032e-14
32		2.089296130854037e+00,0.000000000000000e+00
	-4.951746925675415e-02,6.759802502194853e-10
	1.000000000000000e+00,0.000000000000000e+00
	0.000000000000000e+00,0.000000000000000e+00
