Title: * GA CMOS Amp | W=1e-06 L=6.775992578126337e-07 Vbias=1.1633308064005379
Date: Mon Sep  8 18:44:42 2025
Plotname: AC Analysis
Flags: complex forward log
No. Variables: 11
No. Points:          901
Offset:    0.0000000000000000e+00
Command: Linear Technology Corporation LTspice
Variables:
	0	frequency	frequency
	1	V(out)	voltage
	2	V(g)	voltage
	3	V(vdd)	voltage
	4	Id(M1)	device_current
	5	Ig(M1)	device_current
	6	Ib(M1)	device_current
	7	Is(M1)	device_current
	8	I(Rload)	device_current
	9	I(Vg)	device_current
	10	I(Vdd)	device_current
Values:
0		1.000000000000000e+00,0.000000000000000e+00
	-3.685280500198873e-01,1.692885185732404e-11
	1.000000000000000e+00,0.000000000000000e+00
	0.000000000000000e+00,0.000000000000000e+00
	3.685280500198874e-05,-1.692885185732404e-15
	2.127342265147165e-26,6.866272511831601e-15
	3.685280501445655e-13,-4.357763799197681e-16
	-3.685280537051679e-05,-4.737610946179429e-15
	-3.685280500198873e-05,1.692885185732404e-15
	-2.127342265147165e-26,-6.866272511831601e-15
	-3.685280500198873e-05,1.692885185732404e-15
1		1.023292992280754e+00,0.000000000000000e+00
	-3.685280500198873e-01,1.732317547295872e-11
	1.000000000000000e+00,0.000000000000000e+00
	0.000000000000000e+00,0.000000000000000e+00
	3.685280500198874e-05,-1.732317547295873e-15
	2.227600817310863e-26,7.026208544447250e-15
	3.685280501445655e-13,-4.459269157733743e-16
	-3.685280537051679e-05,-4.847964081378003e-15
	-3.685280500198873e-05,1.732317547295872e-15
	-2.227600817310863e-26,-7.026208544447250e-15
	-3.685280500198873e-05,1.732317547295872e-15
2		1.047128548050899e+00,0.000000000000000e+00
	-3.685280500198873e-01,1.772668406552850e-11
	1.000000000000000e+00,0.000000000000000e+00
	0.000000000000000e+00,0.000000000000000e+00
	3.685280500198874e-05,-1.772668406552850e-15
	2.332584409467721e-26,7.189869965836026e-15
	3.685280501445655e-13,-4.563138879802633e-16
	-3.685280537051679e-05,-4.960887671302913e-15
	-3.685280500198873e-05,1.772668406552850e-15
	-2.332584409467721e-26,-7.189869965836026e-15
	-3.685280500198873e-05,1.772668406552850e-15
3		1.071519305237606e+00,0.000000000000000e+00
	-3.685280500198873e-01,1.813959158063022e-11
	1.000000000000000e+00,0.000000000000000e+00
	0.000000000000000e+00,0.000000000000000e+00
	3.685280500198874e-05,-1.813959158063022e-15
	2.442515725892099e-26,7.357343551449871e-15
	3.685280501445655e-13,-4.669428038505894e-16
	-3.685280537051679e-05,-5.076441589536260e-15
	-3.685280500198873e-05,1.813959158063022e-15
	-2.442515725892099e-26,-7.357343551449871e-15
	-3.685280500198873e-05,1.813959158063022e-15
4		1.096478196143185e+00,0.000000000000000e+00
	-3.685280500198873e-01,1.856211694729387e-11
	1.000000000000000e+00,0.000000000000000e+00
	0.000000000000000e+00,0.000000000000000e+00
	3.685280500198874e-05,-1.856211694729387e-15
	2.557627945644881e-26,7.528718098000647e-15
	3.685280501445655e-13,-4.778192989762337e-16
	-3.685280537051679e-05,-5.194687104295026e-15
	-3.685280500198873e-05,1.856211694729387e-15
	-2.557627945644881e-26,-7.528718098000647e-15
	-3.685280500198873e-05,1.856211694729387e-15
5		1.122018454301963e+00,0.000000000000000e+00
	-3.685280500198873e-01,1.899448419406164e-11
	1.000000000000000e+00,0.000000000000000e+00
	0.000000000000000e+00,0.000000000000000e+00
	3.685280500198874e-05,-1.899448419406164e-15
	2.678165237177531e-26,7.704084470541351e-15
	3.685280501445655e-13,-4.889491402188824e-16
	-3.685280537051679e-05,-5.315686910916304e-15
	-3.685280500198873e-05,1.899448419406164e-15
	-2.678165237177531e-26,-7.704084470541351e-15
	-3.685280500198873e-05,1.899448419406164e-15
6		1.148153621496882e+00,0.000000000000000e+00
	-3.685280500198873e-01,1.943692256777083e-11
	1.000000000000000e+00,0.000000000000000e+00
	0.000000000000000e+00,0.000000000000000e+00
	3.685280500198874e-05,-1.943692256777083e-15
	2.804383276246101e-26,7.883535650643948e-15
	3.685280501445655e-13,-5.003382287676818e-16
	-3.685280537051679e-05,-5.439505165099183e-15
	-3.685280500198873e-05,1.943692256777083e-15
	-2.804383276246101e-26,-7.883535650643948e-15
	-3.685280500198873e-05,1.943692256777083e-15
7		1.174897554939529e+00,0.000000000000000e+00
	-3.685280500198873e-01,1.988966665510353e-11
	1.000000000000000e+00,0.000000000000000e+00
	0.000000000000000e+00,0.000000000000000e+00
	3.685280500198874e-05,-1.988966665510353e-15
	2.936549788233803e-26,8.067166785699447e-15
	3.685280501445655e-13,-5.119926032681342e-16
	-3.685280537051679e-05,-5.566207516920960e-15
	-3.685280500198873e-05,1.988966665510353e-15
	-2.936549788233803e-26,-8.067166785699447e-15
	-3.685280500198873e-05,1.988966665510353e-15
8		1.202264434617413e+00,0.000000000000000e+00
	-3.685280500198873e-01,2.035295650696763e-11
	1.000000000000000e+00,0.000000000000000e+00
	0.000000000000000e+00,0.000000000000000e+00
	3.685280500198874e-05,-2.035295650696763e-15
	3.074945116032439e-26,8.255075239366301e-15
	3.685280501445655e-13,-5.239184430238627e-16
	-3.685280537051679e-05,-5.695861145645676e-15
	-3.685280500198873e-05,2.035295650696763e-15
	-3.074945116032439e-26,-8.255075239366301e-15
	-3.685280500198873e-05,2.035295650696763e-15
9		1.230268770812381e+00,0.000000000000000e+00
	-3.685280500198873e-01,2.082703776577495e-11
	1.000000000000000e+00,0.000000000000000e+00
	0.000000000000000e+00,0.000000000000000e+00
	3.685280500198874e-05,-2.082703776577495e-15
	3.219862814687253e-26,8.447360643193905e-15
	3.685280501445655e-13,-5.361220712729633e-16
	-3.685280537051679e-05,-5.828534795343447e-15
	-3.685280500198873e-05,2.082703776577495e-15
	-3.219862814687253e-26,-8.447360643193905e-15
	-3.685280500198873e-05,2.082703776577495e-15
10		1.258925411794167e+00,0.000000000000000e+00
	-3.685280500198873e-01,2.131216179568412e-11
	1.000000000000000e+00,0.000000000000000e+00
	0.000000000000000e+00,0.000000000000000e+00
	3.685280500198874e-05,-2.131216179568412e-15
	3.371610274066546e-26,8.644124949448568e-15
	3.685280501445655e-13,-5.486099585406654e-16
	-3.685280537051679e-05,-5.964298811339490e-15
	-3.685280500198873e-05,2.131216179568412e-15
	-3.371610274066546e-26,-8.644124949448568e-15
	-3.685280500198873e-05,2.131216179568412e-15
11		1.288249551693134e+00,0.000000000000000e+00
	-3.685280500198873e-01,2.180858581587717e-11
	1.000000000000000e+00,0.000000000000000e+00
	0.000000000000000e+00,0.000000000000000e+00
	3.685280500198874e-05,-2.180858581587718e-15
	3.530509370876798e-26,8.845472485169948e-15
	3.685280501445655e-13,-5.613887260700970e-16
	-3.685280537051679e-05,-6.103225177512133e-15
	-3.685280500198873e-05,2.180858581587717e-15
	-3.530509370876798e-26,-8.845472485169948e-15
	-3.685280500198873e-05,2.180858581587717e-15
12		1.318256738556407e+00,0.000000000000000e+00
	-3.685280500198873e-01,2.231657303694056e-11
	1.000000000000000e+00,0.000000000000000e+00
	0.000000000000000e+00,0.000000000000000e+00
	3.685280500198874e-05,-2.231657303694057e-15
	3.696897151406316e-26,9.051510007486633e-15
	3.685280501445655e-13,-5.744651493329504e-16
	-3.685280537051679e-05,-6.245387554459626e-15
	-3.685280500198873e-05,2.231657303694056e-15
	-3.696897151406316e-26,-9.051510007486633e-15
	-3.685280500198873e-05,2.231657303694056e-15
13		1.348962882591653e+00,0.000000000000000e+00
	-3.685280500198873e-01,2.283639280042291e-11
	1.000000000000000e+00,0.000000000000000e+00
	0.000000000000000e+00,0.000000000000000e+00
	3.685280500198874e-05,-2.283639280042291e-15
	3.871126546445603e-26,9.262346760220190e-15
	3.685280501445655e-13,-5.878461616219266e-16
	-3.685280537051679e-05,-6.390861318555972e-15
	-3.685280500198873e-05,2.283639280042291e-15
	-3.871126546445603e-26,-9.262346760220190e-15
	-3.685280500198873e-05,2.283639280042291e-15
14		1.380384264602885e+00,0.000000000000000e+00
	-3.685280500198873e-01,2.336832072164343e-11
	1.000000000000000e+00,0.000000000000000e+00
	0.000000000000000e+00,0.000000000000000e+00
	3.685280500198874e-05,-2.336832072164343e-15
	4.053567119900877e-26,9.478094531807667e-15
	3.685280501445655e-13,-6.015388577268568e-16
	-3.685280537051679e-05,-6.539723601916467e-15
	-3.685280500198873e-05,2.336832072164343e-15
	-4.053567119900877e-26,-9.478094531807667e-15
	-3.685280500198873e-05,2.336832072164343e-15
15		1.412537544622754e+00,0.000000000000000e+00
	-3.685280500198873e-01,2.391263883582686e-11
	1.000000000000000e+00,0.000000000000000e+00
	0.000000000000000e+00,0.000000000000000e+00
	3.685280500198874e-05,-2.391263883582686e-15
	4.244605852688672e-26,9.698867714573320e-15
	3.685280501445655e-13,-6.155504976964605e-16
	-3.685280537051679e-05,-6.692053333294173e-15
	-3.685280500198873e-05,2.391263883582686e-15
	-4.244605852688672e-26,-9.698867714573320e-15
	-3.685280500198873e-05,2.391263883582686e-15
16		1.445439770745927e+00,0.000000000000000e+00
	-3.685280500198873e-01,2.446963574764222e-11
	1.000000000000000e+00,0.000000000000000e+00
	0.000000000000000e+00,0.000000000000000e+00
	3.685280500198874e-05,-2.446963574764223e-15
	4.444647963574237e-26,9.924783365380930e-15
	3.685280501445655e-13,-6.298885106877186e-16
	-3.685280537051679e-05,-6.847931279928988e-15
	-3.685280500198873e-05,2.446963574764222e-15
	-4.444647963574237e-26,-9.924783365380930e-15
	-3.685280500198873e-05,2.446963574764222e-15
17		1.479108388168207e+00,0.000000000000000e+00
	-3.685280500198873e-01,2.503960678422492e-11
	1.000000000000000e+00,0.000000000000000e+00
	0.000000000000000e+00,0.000000000000000e+00
	3.685280500198874e-05,-2.503960678422492e-15
	4.654117768694877e-26,1.015596126769890e-14
	3.685280501445655e-13,-6.445604989049044e-16
	-3.685280537051679e-05,-7.007440090371508e-15
	-3.685280500198873e-05,2.503960678422492e-15
	-4.654117768694877e-26,-1.015596126769890e-14
	-3.685280500198873e-05,2.503960678422492e-15
18		1.513561248436208e+00,0.000000000000000e+00
	-3.685280500198873e-01,2.562285415176299e-11
	1.000000000000000e+00,0.000000000000000e+00
	0.000000000000000e+00,0.000000000000000e+00
	3.685280500198874e-05,-2.562285415176299e-15
	4.873459581591361e-26,1.039252399511105e-14
	3.685280501445655e-13,-6.595742416303749e-16
	-3.685280537051679e-05,-7.170664338304379e-15
	-3.685280500198873e-05,2.562285415176299e-15
	-4.873459581591361e-26,-1.039252399511105e-14
	-3.685280500198873e-05,2.562285415176299e-15
19		1.548816618912481e+00,0.000000000000000e+00
	-3.685280500198873e-01,2.621968709573089e-11
	1.000000000000000e+00,0.000000000000000e+00
	0.000000000000000e+00,0.000000000000000e+00
	3.685280500198874e-05,-2.621968709573090e-15
	5.103138655656505e-26,1.063459697630673e-14
	3.685280501445655e-13,-6.749376993492563e-16
	-3.685280537051679e-05,-7.337690567384381e-15
	-3.685280500198873e-05,2.621968709573090e-15
	-5.103138655656505e-26,-1.063459697630673e-14
	-3.685280500198873e-05,2.621968709573090e-15
20		1.584893192461113e+00,0.000000000000000e+00
	-3.685280500198873e-01,2.683042206485554e-11
	1.000000000000000e+00,0.000000000000000e+00
	0.000000000000000e+00,0.000000000000000e+00
	3.685280500198874e-05,-2.683042206485555e-15
	5.343642171000016e-26,1.088230856158477e-14
	3.685280501445655e-13,-6.906590179701874e-16
	-3.685280537051679e-05,-7.508607337129028e-15
	-3.685280500198873e-05,2.683042206485554e-15
	-5.343642171000016e-26,-1.088230856158477e-14
	-3.685280500198873e-05,2.683042206485554e-15
21		1.621810097358929e+00,0.000000000000000e+00
	-3.685280500198873e-01,2.745538287890159e-11
	1.000000000000000e+00,0.000000000000000e+00
	0.000000000000000e+00,0.000000000000000e+00
	3.685280500198874e-05,-2.745538287890160e-15
	5.595480267822800e-26,1.113579009090655e-14
	3.685280501445655e-13,-7.067465331444005e-16
	-3.685280537051679e-05,-7.683505269871987e-15
	-3.685280500198873e-05,2.745538287890159e-15
	-5.595480267822800e-26,-1.113579009090655e-14
	-3.685280500198873e-05,2.745538287890159e-15
22		1.659586907437560e+00,0.000000000000000e+00
	-3.685280500198873e-01,2.809490090036500e-11
	1.000000000000000e+00,0.000000000000000e+00
	0.000000000000000e+00,0.000000000000000e+00
	3.685280500198874e-05,-2.809490090036500e-15
	5.859187128492749e-26,1.139517596353413e-14
	3.685280501445655e-13,-7.232087746853818e-16
	-3.685280537051679e-05,-7.862477098812251e-15
	-3.685280500198873e-05,2.809490090036500e-15
	-5.859187128492749e-26,-1.139517596353413e-14
	-3.685280500198873e-05,2.809490090036500e-15
23		1.698243652461743e+00,0.000000000000000e+00
	-3.685280500198873e-01,2.874931521016575e-11
	1.000000000000000e+00,0.000000000000000e+00
	0.000000000000000e+00,0.000000000000000e+00
	3.685280500198874e-05,-2.874931521016576e-15
	6.135322110617131e-26,1.166060370929057e-14
	3.685280501445655e-13,-7.400544710915037e-16
	-3.685280537051679e-05,-8.045617717182490e-15
	-3.685280500198873e-05,2.874931521016576e-15
	-6.135322110617131e-26,-1.166060370929057e-14
	-3.685280500198873e-05,2.874931521016576e-15
24		1.737800828749374e+00,0.000000000000000e+00
	-3.685280500198873e-01,2.941897278743311e-11
	1.000000000000000e+00,0.000000000000000e+00
	0.000000000000000e+00,0.000000000000000e+00
	3.685280500198874e-05,-2.941897278743311e-15
	6.424470933515098e-26,1.193221406148001e-14
	3.685280501445655e-13,-7.572925541739751e-16
	-3.685280537051679e-05,-8.233024228562719e-15
	-3.685280500198873e-05,2.941897278743311e-15
	-6.424470933515098e-26,-1.193221406148001e-14
	-3.685280500198873e-05,2.941897278743311e-15
25		1.778279410038922e+00,0.000000000000000e+00
	-3.685280500198873e-01,3.010422869347851e-11
	1.000000000000000e+00,0.000000000000000e+00
	0.000000000000000e+00,0.000000000000000e+00
	3.685280500198874e-05,-3.010422869347851e-15
	6.727246920606871e-26,1.221015103150637e-14
	3.685280501445655e-13,-7.749321637926221e-16
	-3.685280537051679e-05,-8.424795998365892e-15
	-3.685280500198873e-05,3.010422869347851e-15
	-6.727246920606871e-26,-1.221015103150637e-14
	-3.685280500198873e-05,3.010422869347851e-15
26		1.819700858609982e+00,0.000000000000000e+00
	-3.685280500198873e-01,3.080544626005375e-11
	1.000000000000000e+00,0.000000000000000e+00
	0.000000000000000e+00,0.000000000000000e+00
	3.685280500198874e-05,-3.080544626005376e-15
	7.044292300354954e-26,1.249456198523008e-14
	3.685280501445655e-13,-7.929826527019504e-16
	-3.685280537051679e-05,-8.621034706522757e-15
	-3.685280500198873e-05,3.080544626005375e-15
	-7.044292300354954e-26,-1.249456198523008e-14
	-3.685280500198873e-05,3.080544626005375e-15
27		1.862087136662866e+00,0.000000000000000e+00
	-3.685280500198873e-01,3.152299728199438e-11
	1.000000000000000e+00,0.000000000000000e+00
	0.000000000000000e+00,0.000000000000000e+00
	3.685280500198874e-05,-3.152299728199438e-15
	7.376279568516817e-26,1.278559772110345e-14
	3.685280501445655e-13,-8.114535915101109e-16
	-3.685280537051679e-05,-8.821844401393904e-15
	-3.685280500198873e-05,3.152299728199438e-15
	-7.376279568516817e-26,-1.278559772110345e-14
	-3.685280500198873e-05,3.152299728199438e-15
28		1.905460717963246e+00,0.000000000000000e+00
	-3.685280500198873e-01,3.225726221435009e-11
	1.000000000000000e+00,0.000000000000000e+00
	0.000000000000000e+00,0.000000000000000e+00
	3.685280500198874e-05,-3.225726221435010e-15
	7.723912914598526e-26,1.308341255012594e-14
	3.685280501445655e-13,-8.303547737533451e-16
	-3.685280537051679e-05,-9.027331554937586e-15
	-3.685280500198873e-05,3.225726221435010e-15
	-7.723912914598526e-26,-1.308341255012594e-14
	-3.685280500198873e-05,3.225726221435010e-15
29		1.949844599758044e+00,0.000000000000000e+00
	-3.685280500198873e-01,3.300863037410722e-11
	1.000000000000000e+00,0.000000000000000e+00
	0.000000000000000e+00,0.000000000000000e+00
	3.685280500198874e-05,-3.300863037410722e-15
	8.087929715535150e-26,1.338816437766195e-14
	3.685280501445655e-13,-8.496962210886689e-16
	-3.685280537051679e-05,-9.237605119162557e-15
	-3.685280500198873e-05,3.300863037410722e-15
	-8.087929715535150e-26,-1.338816437766195e-14
	-3.685280500198873e-05,3.300863037410722e-15
30		1.995262314968878e+00,0.000000000000000e+00
	-3.685280500198873e-01,3.377750014660956e-11
	1.000000000000000e+00,0.000000000000000e+00
	0.000000000000000e+00,0.000000000000000e+00
	3.685280500198874e-05,-3.377750014660956e-15
	8.469102099766044e-26,1.370001478716429e-14
	3.685280501445655e-13,-8.694881886074753e-16
	-3.685280537051679e-05,-9.452776583895863e-15
	-3.685280500198873e-05,3.377750014660956e-15
	-8.469102099766044e-26,-1.370001478716429e-14
	-3.685280500198873e-05,3.377750014660956e-15
31		2.041737944669527e+00,0.000000000000000e+00
	-3.685280500198873e-01,3.456427919678771e-11
	1.000000000000000e+00,0.000000000000000e+00
	0.000000000000000e+00,0.000000000000000e+00
	3.685280500198874e-05,-3.456427919678770e-15
	8.868238585022840e-26,1.401912912584793e-14
	3.685280501445655e-13,-8.897411702729138e-16
	-3.685280537051679e-05,-9.672960035896242e-15
	-3.685280500198873e-05,3.456427919678771e-15
	-8.868238585022840e-26,-1.401912912584793e-14
	-3.685280500198873e-05,3.456427919678771e-15
32		2.089296130854037e+00,0.000000000000000e+00
	-3.685280500198873e-01,3.536938468530831e-11
	1.000000000000000e+00,0.000000000000000e+00
	0.000000000000000e+00,0.000000000000000e+00
	3.685280500198874e-05,-3.536938468530832e-15
	9.286185793303930e-26,1.434567659235920e-14
	3.685280501445655e-13,-9.104659044839512e-16
	-3.685280537051679e-05,-9.898272219344417e-15
	-3.685280500198873e-05,3.536938468530831e-15
	-9.286185793303930e-26,-1.434567659235920e-14
	-3.685280500198873e-05,3.536938468530831e-15
33		2.137962089502230e+00,0.000000000000000e+00
	-3.685280500198873e-01,3.619324348975822e-11
	1.000000000000000e+00,0.000000000000000e+00
	0.000000000000000e+00,0.000000000000000e+00
	3.685280500198874e-05,-3.619324348975822e-15
	9.723830246673235e-26,1.467983032648722e-14
	3.685280501445655e-13,-9.316733797689850e-16
	-3.685280537051679e-05,-1.012883259774241e-14
	-3.685280500198873e-05,3.619324348975822e-15
	-9.723830246673235e-26,-1.467983032648722e-14
	-3.685280500198873e-05,3.619324348975822e-15
34		2.187761623949550e+00,0.000000000000000e+00
	-3.685280500198873e-01,3.703629243098061e-11
	1.000000000000000e+00,0.000000000000000e+00
	0.000000000000000e+00,0.000000000000000e+00
	3.685280500198874e-05,-3.703629243098061e-15
	1.018210024769236e-25,1.502176750096486e-14
	3.685280501445655e-13,-9.533748406121275e-16
	-3.685280537051679e-05,-1.036476341725467e-14
	-3.685280500198873e-05,3.703629243098061e-15
	-1.018210024769236e-25,-1.502176750096486e-14
	-3.685280500198873e-05,3.703629243098061e-15
35		2.238721138568337e+00,0.000000000000000e+00
	-3.685280500198873e-01,3.789897850468319e-11
	1.000000000000000e+00,0.000000000000000e+00
	0.000000000000000e+00,0.000000000000000e+00
	3.685280500198874e-05,-3.789897850468320e-15
	1.066196784847481e-25,1.537166941540812e-14
	3.685280501445655e-13,-9.755817934151678e-16
	-3.685280537051679e-05,-1.060618977152463e-14
	-3.685280500198873e-05,3.789897850468320e-15
	-1.066196784847481e-25,-1.537166941540812e-14
	-3.685280500198873e-05,3.789897850468320e-15
36		2.290867652767770e+00,0.000000000000000e+00
	-3.685280500198873e-01,3.878175911844125e-11
	1.000000000000000e+00,0.000000000000000e+00
	0.000000000000000e+00,0.000000000000000e+00
	3.685280500198874e-05,-3.878175911844125e-15
	1.116445091253880e-25,1.572972159244353e-14
	3.685280501445655e-13,-9.983060125984362e-16
	-3.685280537051679e-05,-1.085323966800096e-14
	-3.685280500198873e-05,3.878175911844125e-15
	-1.116445091253880e-25,-1.572972159244353e-14
	-3.685280500198873e-05,3.878175911844125e-15
37		2.344228815319919e+00,0.000000000000000e+00
	-3.685280500198873e-01,3.968510233422116e-11
	1.000000000000000e+00,0.000000000000000e+00
	0.000000000000000e+00,0.000000000000000e+00
	3.685280500198874e-05,-3.968510233422117e-15
	1.169061527383229e-25,1.609611387607472e-14
	3.685280501445655e-13,-1.021559546843718e-15
	-3.685280537051679e-05,-1.110604409580889e-14
	-3.685280500198873e-05,3.968510233422116e-15
	-1.169061527383229e-25,-1.609611387607472e-14
	-3.685280500198873e-05,3.968510233422116e-15
38		2.398832919019488e+00,0.000000000000000e+00
	-3.685280500198873e-01,4.060948711655311e-11
	1.000000000000000e+00,0.000000000000000e+00
	0.000000000000000e+00,0.000000000000000e+00
