Title: * GA CMOS Amp | W=1.8716846753565585e-05 L=8.556394949111987e-07 Vbias=1.5
Date: Sat Sep  6 22:09:08 2025
Plotname: AC Analysis
Flags: complex forward log
No. Variables: 13
No. Points:          901
Offset:    0.0000000000000000e+00
Command: Linear Technology Corporation LTspice
Variables:
	0	frequency	frequency
	1	V(out)	voltage
	2	V(g)	voltage
	3	V(vdd)	voltage
	4	V(m1#dbody)	voltage
	5	V(m1#sbody)	voltage
	6	Id(M1)	device_current
	7	Ig(M1)	device_current
	8	Ib(M1)	device_current
	9	Is(M1)	device_current
	10	I(Rload)	device_current
	11	I(Vg)	device_current
	12	I(Vdd)	device_current
Values:
0		1.000000000000000e+00,0.000000000000000e+00
	2.585999310475827e-02,1.022335674449571e-09
	1.000000000000000e+00,0.000000000000000e+00
	0.000000000000000e+00,0.000000000000000e+00
	5.931864486914403e-04,1.315897085146645e-13
	5.931864484948177e-04,1.203385427800687e-13
	-2.585999310475803e-06,-1.022335674449565e-13
	3.661813370798784e-04,4.149972601054463e-12
	-3.163661061162072e-04,-6.509806109206987e-14
	-4.722923165319536e-05,-3.982640972517437e-12
	2.585999310475827e-06,1.022335674449571e-13
	-3.661813370798850e-04,-4.149972601054465e-12
	2.585999310475827e-06,1.022335674449571e-13
1		1.023292992280754e+00,0.000000000000000e+00
	2.585999310475827e-02,1.046148931422865e-09
	1.000000000000000e+00,0.000000000000000e+00
	0.000000000000000e+00,0.000000000000000e+00
	5.931864486914403e-04,1.346548265793233e-13
	5.931864484948177e-04,1.231415875281221e-13
	-2.585999310475803e-06,-1.046148931422857e-13
	3.661813370798784e-04,4.246637880816166e-12
	-3.163661061162072e-04,-6.661438972657951e-14
	-4.722923165319536e-05,-4.075408597947301e-12
	2.585999310475827e-06,1.046148931422865e-13
	-3.661813370798850e-04,-4.246637880816166e-12
	2.585999310475827e-06,1.046148931422865e-13
2		1.047128548050899e+00,0.000000000000000e+00
	2.585999310475827e-02,1.070516870407017e-09
	1.000000000000000e+00,0.000000000000000e+00
	0.000000000000000e+00,0.000000000000000e+00
	5.931864486914403e-04,1.377913404154017e-13
	5.931864484948177e-04,1.260099235758544e-13
	-2.585999310475803e-06,-1.070516870407009e-13
	3.661813370798784e-04,4.345554784193175e-12
	-3.163661061162072e-04,-6.816603819226786e-14
	-4.722923165319536e-05,-4.170337058960205e-12
	2.585999310475827e-06,1.070516870407017e-13
	-3.661813370798850e-04,-4.345554784193175e-12
	2.585999310475827e-06,1.070516870407017e-13
3		1.071519305237606e+00,0.000000000000000e+00
	2.585999310475827e-02,1.095452411605824e-09
	1.000000000000000e+00,0.000000000000000e+00
	0.000000000000000e+00,0.000000000000000e+00
	5.931864486914403e-04,1.410009130440524e-13
	5.931864484948177e-04,1.289450717530052e-13
	-2.585999310475803e-06,-1.095452411605813e-13
	3.661813370798784e-04,4.446775758236979e-12
	-3.163661061162072e-04,-6.975382919368994e-14
	-4.722923165319536e-05,-4.267476687882708e-12
	2.585999310475827e-06,1.095452411605824e-13
	-3.661813370798850e-04,-4.446775758236980e-12
	2.585999310475827e-06,1.095452411605824e-13
4		1.096478196143185e+00,0.000000000000000e+00
	2.585999310475827e-02,1.120968776173292e-09
	1.000000000000000e+00,0.000000000000000e+00
	0.000000000000000e+00,0.000000000000000e+00
	5.931864486914403e-04,1.442852462231668e-13
	5.931864484948177e-04,1.319485883139893e-13
	-2.585999310475803e-06,-1.120968776173284e-13
	3.661813370798784e-04,4.550354471647837e-12
	-3.163661061162072e-04,-7.137860459865162e-14
	-4.722923165319536e-05,-4.366878989431857e-12
	2.585999310475827e-06,1.120968776173292e-13
	-3.661813370798850e-04,-4.550354471647839e-12
	2.585999310475827e-06,1.120968776173292e-13
5		1.122018454301963e+00,0.000000000000000e+00
	2.585999310475827e-02,1.147079493223663e-09
	1.000000000000000e+00,0.000000000000000e+00
	0.000000000000000e+00,0.000000000000000e+00
	5.931864486914403e-04,1.476460813496698e-13
	5.931864484948177e-04,1.350220657630434e-13
	-2.585999310475803e-06,-1.147079493223655e-13
	3.661813370798784e-04,4.656345843230626e-12
	-3.163661061162072e-04,-7.304122588457901e-14
	-4.722923165319536e-05,-4.468596668023682e-12
	2.585999310475827e-06,1.147079493223663e-13
	-3.661813370798850e-04,-4.656345843230627e-12
	2.585999310475827e-06,1.147079493223663e-13
6		1.148153621496882e+00,0.000000000000000e+00
	2.585999310475827e-02,1.173798407004733e-09
	1.000000000000000e+00,0.000000000000000e+00
	0.000000000000000e+00,0.000000000000000e+00
	5.931864486914403e-04,1.510852003828312e-13
	5.931864484948177e-04,1.381671336985935e-13
	-2.585999310475803e-06,-1.173798407004728e-13
	3.661813370798784e-04,4.764806071013519e-12
	-3.163661061162072e-04,-7.474257459528533e-14
	-4.722923165319536e-05,-4.572683655717761e-12
	2.585999310475827e-06,1.173798407004733e-13
	-3.661813370798850e-04,-4.764806071013520e-12
	2.585999310475827e-06,1.173798407004733e-13
7		1.174897554939529e+00,0.000000000000000e+00
	2.585999310475827e-02,1.201139684238256e-09
	1.000000000000000e+00,0.000000000000000e+00
	0.000000000000000e+00,0.000000000000000e+00
	5.931864486914403e-04,1.546044267890847e-13
	5.931864484948177e-04,1.413854596772887e-13
	-2.585999310475803e-06,-1.201139684238247e-13
	3.661813370798784e-04,4.875792662044927e-12
	-3.163661061162072e-04,-7.648355280837701e-14
	-4.722923165319536e-05,-4.679195140812725e-12
	2.585999310475827e-06,1.201139684238256e-13
	-3.661813370798850e-04,-4.875792662044926e-12
	2.585999310475827e-06,1.201139684238256e-13
8		1.202264434617413e+00,0.000000000000000e+00
	2.585999310475827e-02,1.229117821631325e-09
	1.000000000000000e+00,0.000000000000000e+00
	0.000000000000000e+00,0.000000000000000e+00
	5.931864486914403e-04,1.582056265088533e-13
	5.931864484948177e-04,1.446787500981627e-13
	-2.585999310475803e-06,-1.229117821631318e-13
	3.661813370798784e-04,4.989364462884497e-12
	-3.163661061162072e-04,-7.826508361354718e-14
	-4.722923165319536e-05,-4.788187597107818e-12
	2.585999310475827e-06,1.229117821631325e-13
	-3.661813370798850e-04,-4.989364462884497e-12
	2.585999310475827e-06,1.229117821631325e-13
9		1.230268770812381e+00,0.000000000000000e+00
	2.585999310475827e-02,1.257747653562721e-09
	1.000000000000000e+00,0.000000000000000e+00
	0.000000000000000e+00,0.000000000000000e+00
	5.931864486914403e-04,1.618907089458959e-13
	5.931864484948177e-04,1.480487511073884e-13
	-2.585999310475803e-06,-1.257747653562709e-13
	3.661813370798784e-04,5.105581690804334e-12
	-3.163661061162072e-04,-8.008811160201010e-14
	-4.722923165319536e-05,-4.899718813846053e-12
	2.585999310475827e-06,1.257747653562721e-13
	-3.661813370798850e-04,-5.105581690804335e-12
	2.585999310475827e-06,1.257747653562721e-13
10		1.258925411794167e+00,0.000000000000000e+00
	2.585999310475827e-02,1.287044359948294e-09
	1.000000000000000e+00,0.000000000000000e+00
	0.000000000000000e+00,0.000000000000000e+00
	5.931864486914403e-04,1.656616279796984e-13
	5.931864484948177e-04,1.514972495241080e-13
	-2.585999310475803e-06,-1.287044359948291e-13
	3.661813370798784e-04,5.224505965717000e-12
	-3.163661061162072e-04,-8.195360336733589e-14
	-4.722923165319536e-05,-5.013847926354834e-12
	2.585999310475827e-06,1.287044359948294e-13
	-3.661813370798850e-04,-5.224505965717000e-12
	2.585999310475827e-06,1.287044359948294e-13
11		1.288249551693134e+00,0.000000000000000e+00
	2.585999310475827e-02,1.317023474289558e-09
	1.000000000000000e+00,0.000000000000000e+00
	0.000000000000000e+00,0.000000000000000e+00
	5.931864486914403e-04,1.695203830014467e-13
	5.931864484948177e-04,1.550260737878286e-13
	-2.585999310475803e-06,-1.317023474289555e-13
	3.661813370798784e-04,5.346200342847201e-12
	-3.163661061162072e-04,-8.386254801795123e-14
	-4.722923165319536e-05,-5.130635447400294e-12
	2.585999310475827e-06,1.317023474289558e-13
	-3.661813370798850e-04,-5.346200342847200e-12
	2.585999310475827e-06,1.317023474289558e-13
12		1.318256738556407e+00,0.000000000000000e+00
	2.585999310475827e-02,1.347700891909756e-09
	1.000000000000000e+00,0.000000000000000e+00
	0.000000000000000e+00,0.000000000000000e+00
	5.931864486914403e-04,1.734690199741299e-13
	5.931864484948177e-04,1.586370949278841e-13
	-2.585999310475803e-06,-1.347700891909748e-13
	3.661813370798784e-04,5.470729346164505e-12
	-3.163661061162072e-04,-8.581595770157777e-14
	-4.722923165319536e-05,-5.250143299271952e-12
	2.585999310475827e-06,1.347700891909756e-13
	-3.661813370798850e-04,-5.470729346164505e-12
	2.585999310475827e-06,1.347700891909756e-13
13		1.348962882591653e+00,0.000000000000000e+00
	2.585999310475827e-02,1.379092878381776e-09
	1.000000000000000e+00,0.000000000000000e+00
	0.000000000000000e+00,0.000000000000000e+00
	5.931864486914403e-04,1.775096325173373e-13
	5.931864484948177e-04,1.623322275554805e-13
	-2.585999310475803e-06,-1.379092878381773e-13
	3.661813370798784e-04,5.598159002594811e-12
	-3.163661061162072e-04,-8.781486814188613e-14
	-4.722923165319536e-05,-5.372434846614747e-12
	2.585999310475827e-06,1.379092878381776e-13
	-3.661813370798850e-04,-5.598159002594810e-12
	2.585999310475827e-06,1.379092878381776e-13
14		1.380384264602885e+00,0.000000000000000e+00
	2.585999310475827e-02,1.411216078152365e-09
	1.000000000000000e+00,0.000000000000000e+00
	0.000000000000000e+00,0.000000000000000e+00
	5.931864486914403e-04,1.816443630173231e-13
	5.931864484948177e-04,1.661134308788480e-13
	-2.585999310475803e-06,-1.411216078152354e-13
	3.661813370798784e-04,5.728556877028684e-12
	-3.163661061162072e-04,-8.986033918765052e-14
	-4.722923165319536e-05,-5.497574930025798e-12
	2.585999310475827e-06,1.411216078152366e-13
	-3.661813370798850e-04,-5.728556877028687e-12
	2.585999310475827e-06,1.411216078152366e-13
15		1.412537544622754e+00,0.000000000000000e+00
	2.585999310475827e-02,1.444087523367245e-09
	1.000000000000000e+00,0.000000000000000e+00
	0.000000000000000e+00,0.000000000000000e+00
	5.931864486914403e-04,1.858754037629281e-13
	5.931864484948177e-04,1.699827097420386e-13
	-2.585999310475803e-06,-1.444087523367233e-13
	3.661813370798784e-04,5.861992108145174e-12
	-3.163661061162072e-04,-9.195345537469442e-14
	-4.722923165319536e-05,-5.625629900433756e-12
	2.585999310475827e-06,1.444087523367245e-13
	-3.661813370798850e-04,-5.861992108145176e-12
	2.585999310475827e-06,1.444087523367245e-13
16		1.445439770745927e+00,0.000000000000000e+00
	2.585999310475827e-02,1.477724642901771e-09
	1.000000000000000e+00,0.000000000000000e+00
	0.000000000000000e+00,0.000000000000000e+00
	5.931864486914403e-04,1.902049981079600e-13
	5.931864484948177e-04,1.739421156879215e-13
	-2.585999310475803e-06,-1.477724642901769e-13
	3.661813370798784e-04,5.998535445070042e-12
	-3.163661061162072e-04,-9.409532650092580e-14
	-4.722923165319536e-05,-5.756667654278939e-12
	2.585999310475827e-06,1.477724642901771e-13
	-3.661813370798850e-04,-5.998535445070041e-12
	2.585999310475827e-06,1.477724642901771e-13
17		1.479108388168207e+00,0.000000000000000e+00
	2.585999310475827e-02,1.512145271601962e-09
	1.000000000000000e+00,0.000000000000000e+00
	0.000000000000000e+00,0.000000000000000e+00
	5.931864486914403e-04,1.946354416606496e-13
	5.931864484948177e-04,1.779937480459383e-13
	-2.585999310475803e-06,-1.512145271601954e-13
	3.661813370798784e-04,6.138259284887887e-12
	-3.163661061162072e-04,-9.628708821476692e-14
	-4.722923165319536e-05,-5.890757669512925e-12
	2.585999310475827e-06,1.512145271601962e-13
	-3.661813370798850e-04,-6.138259284887889e-12
	2.585999310475827e-06,1.512145271601962e-13
18		1.513561248436208e+00,0.000000000000000e+00
	2.585999310475827e-02,1.547367659740765e-09
	1.000000000000000e+00,0.000000000000000e+00
	0.000000000000000e+00,0.000000000000000e+00
	5.931864486914403e-04,1.991690835008123e-13
	5.931864484948177e-04,1.821397550451949e-13
	-2.585999310475803e-06,-1.547367659740753e-13
	3.661813370798784e-04,6.281237711028048e-12
	-3.163661061162072e-04,-9.852990261728981e-14
	-4.722923165319536e-05,-6.027971042436683e-12
	2.585999310475827e-06,1.547367659740766e-13
	-3.661813370798850e-04,-6.281237711028050e-12
	2.585999310475827e-06,1.547367659740766e-13
19		1.548816618912481e+00,0.000000000000000e+00
	2.585999310475827e-02,1.583410482694595e-09
	1.000000000000000e+00,0.000000000000000e+00
	0.000000000000000e+00,0.000000000000000e+00
	5.931864486914403e-04,2.038083274253615e-13
	5.931864484948177e-04,1.863823349534810e-13
	-2.585999310475803e-06,-1.583410482694591e-13
	3.661813370798784e-04,6.427546532544607e-12
	-3.163661061162072e-04,-1.008249588783778e-13
	-4.722923165319536e-05,-6.168380525396770e-12
	2.585999310475827e-06,1.583410482694595e-13
	-3.661813370798850e-04,-6.427546532544607e-12
	2.585999310475827e-06,1.583410482694595e-13
20		1.584893192461113e+00,0.000000000000000e+00
	2.585999310475827e-02,1.620292850845266e-09
	1.000000000000000e+00,0.000000000000000e+00
	0.000000000000000e+00,0.000000000000000e+00
	5.931864486914403e-04,2.085556332228339e-13
	5.931864484948177e-04,1.907237372428214e-13
	-2.585999310475803e-06,-1.620292850845250e-13
	3.661813370798784e-04,6.577263324311355e-12
	-3.163661061162072e-04,-1.031734738672392e-13
	-4.722923165319536e-05,-6.312060565359591e-12
	2.585999310475827e-06,1.620292850845266e-13
	-3.661813370798850e-04,-6.577263324311356e-12
	2.585999310475827e-06,1.620292850845266e-13
21		1.621810097358929e+00,0.000000000000000e+00
	2.585999310475827e-02,1.658034319712566e-09
	1.000000000000000e+00,0.000000000000000e+00
	0.000000000000000e+00,0.000000000000000e+00
	5.931864486914403e-04,2.134135179776012e-13
	5.931864484948177e-04,1.951662637821750e-13
	-2.585999310475803e-06,-1.658034319712544e-13
	3.661813370798784e-04,6.730467468153026e-12
	-3.163661061162072e-04,-1.055766927976074e-13
	-4.722923165319536e-05,-6.459087343384164e-12
	2.585999310475827e-06,1.658034319712566e-13
	-3.661813370798850e-04,-6.730467468153029e-12
	2.585999310475827e-06,1.658034319712566e-13
22		1.659586907437560e+00,0.000000000000000e+00
	2.585999310475827e-02,1.696654900322856e-09
	1.000000000000000e+00,0.000000000000000e+00
	0.000000000000000e+00,0.000000000000000e+00
	5.931864486914403e-04,2.183845574044620e-13
	5.931864484948177e-04,1.997122700579169e-13
	-2.585999310475803e-06,-1.696654900322840e-13
	3.661813370798784e-04,6.887240194934582e-12
	-3.163661061162072e-04,-1.080358898879696e-13
	-4.722923165319536e-05,-6.609538815014329e-12
	2.585999310475827e-06,1.696654900322856e-13
	-3.661813370798850e-04,-6.887240194934583e-12
	2.585999310475827e-06,1.696654900322856e-13
23		1.698243652461743e+00,0.000000000000000e+00
	2.585999310475827e-02,1.736175069819180e-09
	1.000000000000000e+00,0.000000000000000e+00
	0.000000000000000e+00,0.000000000000000e+00
	5.931864486914403e-04,2.234713872143201e-13
	5.931864484948177e-04,2.043641664227478e-13
	-2.585999310475803e-06,-1.736175069819169e-13
	3.661813370798784e-04,7.047664627630893e-12
	-3.163661061162072e-04,-1.105523690371745e-13
	-4.722923165319536e-05,-6.763494751611802e-12
	2.585999310475827e-06,1.736175069819180e-13
	-3.661813370798850e-04,-7.047664627630892e-12
	2.585999310475827e-06,1.736175069819180e-13
24		1.737800828749374e+00,0.000000000000000e+00
	2.585999310475827e-02,1.776615782318516e-09
	1.000000000000000e+00,0.000000000000000e+00
	0.000000000000000e+00,0.000000000000000e+00
	5.931864486914403e-04,2.286767045116726e-13
	5.931864484948177e-04,2.091244193736956e-13
	-2.585999310475803e-06,-1.776615782318508e-13
	3.661813370798784e-04,7.211825825399643e-12
	-3.163661061162072e-04,-1.131274645157764e-13
	-4.722923165319537e-05,-6.921036782652016e-12
	2.585999310475827e-06,1.776615782318515e-13
	-3.661813370798850e-04,-7.211825825399644e-12
	2.585999310475827e-06,1.776615782318515e-13
25		1.778279410038922e+00,0.000000000000000e+00
	2.585999310475827e-02,1.817998480021927e-09
	1.000000000000000e+00,0.000000000000000e+00
	0.000000000000000e+00,0.000000000000000e+00
	5.931864486914403e-04,2.340032692246514e-13
	5.931864484948177e-04,2.139955528598843e-13
	-2.585999310475803e-06,-1.817998480021914e-13
	3.661813370798784e-04,7.379810828680819e-12
	-3.163661061162072e-04,-1.157625416734837e-13
	-4.722923165319537e-05,-7.082248439005144e-12
	2.585999310475827e-06,1.817998480021927e-13
	-3.661813370798850e-04,-7.379810828680821e-12
	2.585999310475827e-06,1.817998480021927e-13
26		1.819700858609982e+00,0.000000000000000e+00
	2.585999310475827e-02,1.860345104583501e-09
	1.000000000000000e+00,0.000000000000000e+00
	0.000000000000000e+00,0.000000000000000e+00
	5.931864486914403e-04,2.394539055683723e-13
	5.931864484948177e-04,2.189801496207652e-13
	-2.585999310475803e-06,-1.860345104583477e-13
	3.661813370798784e-04,7.551708705346706e-12
	-3.163661061162072e-04,-1.184589976630846e-13
	-4.722923165319537e-05,-7.247215197225274e-12
	2.585999310475827e-06,1.860345104583501e-13
	-3.661813370798850e-04,-7.551708705346708e-12
	2.585999310475827e-06,1.860345104583501e-13
27		1.862087136662866e+00,0.000000000000000e+00
	2.585999310475827e-02,1.903678108744102e-09
	1.000000000000000e+00,0.000000000000000e+00
	0.000000000000000e+00,0.000000000000000e+00
	5.931864486914403e-04,2.450315035423728e-13
	5.931864484948177e-04,2.240808525555201e-13
	-2.585999310475803e-06,-1.903678108744092e-13
	3.661813370798784e-04,7.727610597926852e-12
	-3.163661061162072e-04,-1.212182621812367e-13
	-4.722923165319537e-05,-7.416024524871206e-12
	2.585999310475827e-06,1.903678108744102e-13
	-3.661813370798850e-04,-7.727610597926852e-12
	2.585999310475827e-06,1.903678108744102e-13
28		1.905460717963246e+00,0.000000000000000e+00
	2.585999310475827e-02,1.948020468236120e-09
	1.000000000000000e+00,0.000000000000000e+00
	0.000000000000000e+00,0.000000000000000e+00
	5.931864486914403e-04,2.507390204629269e-13
	5.931864484948177e-04,2.293003661243606e-13
	-2.585999310475803e-06,-1.948020468236090e-13
	3.661813370798784e-04,7.907609771933036e-12
	-3.163661061162072e-04,-1.240417982265107e-13
	-4.722923165319537e-05,-7.588765926882916e-12
	2.585999310475827e-06,1.948020468236120e-13
	-3.661813370798850e-04,-7.907609771933036e-12
	2.585999310475827e-06,1.948020468236120e-13
29		1.949844599758044e+00,0.000000000000000e+00
	2.585999310475827e-02,1.993395693965494e-09
	1.000000000000000e+00,0.000000000000000e+00
	0.000000000000000e+00,0.000000000000000e+00
	5.931864486914403e-04,2.565794825310537e-13
	5.931864484948177e-04,2.346414577824694e-13
	-2.585999310475803e-06,-1.993395693965485e-13
	3.661813370798784e-04,8.091801665309889e-12
	-3.163661061162072e-04,-1.269311028750917e-13
	-4.722923165319537e-05,-7.765530993038249e-12
	2.585999310475827e-06,1.993395693965494e-13
	-3.661813370798850e-04,-8.091801665309891e-12
	2.585999310475827e-06,1.993395693965494e-13
30		1.995262314968878e+00,0.000000000000000e+00
	2.585999310475828e-02,2.039827844477521e-09
	1.000000000000000e+00,0.000000000000000e+00
	0.000000000000000e+00,0.000000000000000e+00
	5.931864486914403e-04,2.625559864370495e-13
	5.931864484948177e-04,2.401069594473414e-13
	-2.585999310475803e-06,-2.039827844477509e-13
	3.661813370798784e-04,8.280283939037342e-12
	-3.163661061162072e-04,-1.298877080745488e-13
	-4.722923165319538e-05,-7.946413446515043e-12
	2.585999310475828e-06,2.039827844477521e-13
	-3.661813370798850e-04,-8.280283939037343e-12
	2.585999310475828e-06,2.039827844477521e-13
31		2.041737944669527e+00,0.000000000000000e+00
	2.585999310475828e-02,2.087341538713003e-09
	1.000000000000000e+00,0.000000000000000e+00
	0.000000000000000e+00,0.000000000000000e+00
	5.931864486914403e-04,2.686717010023933e-13
	5.931864484948177e-04,2.456997690003036e-13
	-2.585999310475803e-06,-2.087341538712978e-13
	3.661813370798784e-04,8.473156528911790e-12
	-3.163661061162072e-04,-1.329131814560941e-13
	-4.722923165319538e-05,-8.131509193584399e-12
	2.585999310475828e-06,2.087341538713003e-13
	-3.661813370798850e-04,-8.473156528911793e-12
	2.585999310475828e-06,2.087341538713003e-13
32		2.089296130854037e+00,0.000000000000000e+00
	2.585999310475828e-02,2.135961969061543e-09
	1.000000000000000e+00,0.000000000000000e+00
	0.000000000000000e+00,0.000000000000000e+00
	5.931864486914403e-04,2.749298688598992e-13
	5.931864484948177e-04,2.514228518230108e-13
	-2.585999310475803e-06,-2.135961969061523e-13
