LTspice 24.0.9 for Windows
Circuit: * GA CMOS Amp | W=1.361615256495278e-05 L=1e-06 Vbias=1.4958216816179553
Start Time: Sat Sep  6 22:13:06 2025
solver = Normal
Maximum thread count: 2
tnom = 27
temp = 27
method = modified trap
AsciiRawFile = 1
Direct Newton iteration for .op point succeeded.
Semiconductor Device Operating Points:
                        --- BSIM4 MOSFETS ---
Name:      m1
Model:      n
Id:      1.66e-04
Vgs:     1.50e+00
Vds:     1.42e-01
Vbs:     0.00e+00
Vth:     2.36e-01
Vdsat:   8.68e-01
Gm:     -2.18e-05
Gds:     1.09e-03
Gmb      8.05e-05
Cbd:     6.52e-15
Cbs:     1.09e-14


.measure op idd find i(vdd)
  Error: FIND can not be evaluated over an interval.

gain_db: MAX(db(v(out)/v(g)))=(29.2914dB,180°) FROM 1 TO 1e+09
gain_lin: MAX(mag(v(out)/v(g)))=(-2.53832dB,0°) FROM 1 TO 1e+09

Measurement "fc" FAIL'ed

Total elapsed time: 0.601 seconds.

