Title: * GA CMOS Amp | W=2.5441806359306396e-06 L=9.248577712794287e-07 Vbias=1.4411135588498674
Date: Sat Sep  6 22:14:06 2025
Plotname: AC Analysis
Flags: complex forward log
No. Variables: 13
No. Points:          901
Offset:    0.0000000000000000e+00
Command: Linear Technology Corporation LTspice
Variables:
	0	frequency	frequency
	1	V(out)	voltage
	2	V(g)	voltage
	3	V(vdd)	voltage
	4	V(m1#dbody)	voltage
	5	V(m1#sbody)	voltage
	6	Id(M1)	device_current
	7	Ig(M1)	device_current
	8	Ib(M1)	device_current
	9	Is(M1)	device_current
	10	I(Rload)	device_current
	11	I(Vg)	device_current
	12	I(Vdd)	device_current
Values:
0		1.000000000000000e+00,0.000000000000000e+00
	-2.719005583610135e-01,1.358071567720605e-09
	1.000000000000000e+00,0.000000000000000e+00
	0.000000000000000e+00,0.000000000000000e+00
	5.751250462730618e-05,1.380412343069727e-13
	5.751250666655570e-05,1.516724836251604e-13
	2.719005583610135e-05,-1.358071567720605e-13
	3.515084701542403e-05,5.269745757717818e-13
	-3.067333677605914e-05,-7.998544786402380e-14
	-3.166756607546624e-05,-3.111819711356976e-13
	-2.719005583610135e-05,1.358071567720605e-13
	-3.515084701577464e-05,-5.269745757717819e-13
	-2.719005583610135e-05,1.358071567720605e-13
1		1.023292992280754e+00,0.000000000000000e+00
	-2.719005583610135e-01,1.389705118264232e-09
	1.000000000000000e+00,0.000000000000000e+00
	0.000000000000000e+00,0.000000000000000e+00
	5.751250462730618e-05,1.412566277121108e-13
	5.751250666655570e-05,1.552053896154441e-13
	2.719005583610135e-05,-1.389705118264233e-13
	3.515084701542403e-05,5.392493904973877e-13
	-3.067333677605914e-05,-8.184854828369317e-14
	-3.166756607546624e-05,-3.184303303872712e-13
	-2.719005583610135e-05,1.389705118264232e-13
	-3.515084701577464e-05,-5.392493904973878e-13
	-2.719005583610135e-05,1.389705118264232e-13
2		1.047128548050899e+00,0.000000000000000e+00
	-2.719005583610135e-01,1.422075508856485e-09
	1.000000000000000e+00,0.000000000000000e+00
	0.000000000000000e+00,0.000000000000000e+00
	5.751250462730618e-05,1.445469172510143e-13
	5.751250666655570e-05,1.588205875576881e-13
	2.719005583610135e-05,-1.422075508856486e-13
	3.515084701542403e-05,5.518101223876446e-13
	-3.067333677605914e-05,-8.375504588705616e-14
	-3.166756607546624e-05,-3.258475256149399e-13
	-2.719005583610135e-05,1.422075508856485e-13
	-3.515084701577464e-05,-5.518101223876446e-13
	-2.719005583610135e-05,1.422075508856485e-13
3		1.071519305237606e+00,0.000000000000000e+00
	-2.719005583610135e-01,1.455199902706929e-09
	1.000000000000000e+00,0.000000000000000e+00
	0.000000000000000e+00,0.000000000000000e+00
	5.751250462730618e-05,1.479138474787490e-13
	5.751250666655570e-05,1.625199942776941e-13
	2.719005583610135e-05,-1.455199902706929e-13
	3.515084701542403e-05,5.646634313088619e-13
	-3.067333677605914e-05,-8.570595152437755e-14
	-3.166756607546624e-05,-3.334374895137914e-13
	-2.719005583610135e-05,1.455199902706929e-13
	-3.515084701577464e-05,-5.646634313088621e-13
	-2.719005583610135e-05,1.455199902706929e-13
4		1.096478196143185e+00,0.000000000000000e+00
	-2.719005583610135e-01,1.489095862807635e-09
	1.000000000000000e+00,0.000000000000000e+00
	0.000000000000000e+00,0.000000000000000e+00
	5.751250462730618e-05,1.513592035862881e-13
	5.751250666655570e-05,1.663055712498726e-13
	2.719005583610135e-05,-1.489095862807636e-13
	3.515084701542403e-05,5.778161322555633e-13
	-3.067333677605914e-05,-8.770229959164956e-14
	-3.166756607546624e-05,-3.412042463831501e-13
	-2.719005583610135e-05,1.489095862807635e-13
	-3.515084701577464e-05,-5.778161322555635e-13
	-2.719005583610135e-05,1.489095862807635e-13
5		1.122018454301963e+00,0.000000000000000e+00
	-2.719005583610135e-01,1.523781361245317e-09
	1.000000000000000e+00,0.000000000000000e+00
	0.000000000000000e+00,0.000000000000000e+00
	5.751250462730618e-05,1.548848123470447e-13
	5.751250666655570e-05,1.701793256372424e-13
	2.719005583610135e-05,-1.523781361245317e-13
	3.515084701542403e-05,5.912751989638874e-13
	-3.067333677605914e-05,-8.974514857904226e-14
	-3.166756607546624e-05,-3.491519142603134e-13
	-2.719005583610135e-05,1.523781361245317e-13
	-3.515084701577464e-05,-5.912751989638876e-13
	-2.719005583610135e-05,1.523781361245317e-13
6		1.148153621496882e+00,0.000000000000000e+00
	-2.719005583610135e-01,1.559274788730361e-09
	1.000000000000000e+00,0.000000000000000e+00
	0.000000000000000e+00,0.000000000000000e+00
	5.751250462730618e-05,1.584925430854504e-13
	5.751250666655570e-05,1.741433113556546e-13
	2.719005583610135e-05,-1.559274788730361e-13
	3.515084701542403e-05,6.050477676091546e-13
	-3.067333677605914e-05,-9.183558163212901e-14
	-3.166756607546624e-05,-3.572847071039895e-13
	-2.719005583610135e-05,1.559274788730361e-13
	-3.515084701577464e-05,-6.050477676091547e-13
	-2.719005583610135e-05,1.559274788730361e-13
7		1.174897554939529e+00,0.000000000000000e+00
	-2.719005583610135e-01,1.595594964347831e-09
	1.000000000000000e+00,0.000000000000000e+00
	0.000000000000000e+00,0.000000000000000e+00
	5.751250462730618e-05,1.621843086680969e-13
	5.751250666655570e-05,1.781996301628068e-13
	2.719005583610135e-05,-1.595594964347832e-13
	3.515084701542403e-05,6.191411405895621e-13
	-3.067333677605914e-05,-9.397470712618475e-14
	-3.166756607546624e-05,-3.656069370285941e-13
	-2.719005583610135e-05,1.595594964347831e-13
	-3.515084701577464e-05,-6.191411405895622e-13
	-2.719005583610135e-05,1.595594964347831e-13
8		1.202264434617413e+00,0.000000000000000e+00
	-2.719005583610135e-01,1.632761145535596e-09
	1.000000000000000e+00,0.000000000000000e+00
	0.000000000000000e+00,0.000000000000000e+00
	5.751250462730618e-05,1.659620665179623e-13
	5.751250666655570e-05,1.823504327726222e-13
	2.719005583610135e-05,-1.632761145535596e-13
	3.515084701542403e-05,6.335627903980121e-13
	-3.067333677605914e-05,-9.616365925386109e-14
	-3.166756607546624e-05,-3.741230165905914e-13
	-2.719005583610135e-05,1.632761145535596e-13
	-3.515084701577464e-05,-6.335627903980122e-13
	-2.719005583610135e-05,1.632761145535596e-13
9		1.230268770812381e+00,0.000000000000000e+00
	-2.719005583610135e-01,1.670793038294871e-09
	1.000000000000000e+00,0.000000000000000e+00
	0.000000000000000e+00,0.000000000000000e+00
	5.751250462730618e-05,1.698278196522632e-13
	5.751250666655570e-05,1.865979199955872e-13
	2.719005583610135e-05,-1.670793038294872e-13
	3.515084701542403e-05,6.483203635841259e-13
	-3.067333677605914e-05,-9.840359862655035e-14
	-3.166756607546624e-05,-3.828374611280884e-13
	-2.719005583610135e-05,1.670793038294872e-13
	-3.515084701577464e-05,-6.483203635841261e-13
	-2.719005583610135e-05,1.670793038294872e-13
10		1.258925411794167e+00,0.000000000000000e+00
	-2.719005583610135e-01,1.709710807638612e-09
	1.000000000000000e+00,0.000000000000000e+00
	0.000000000000000e+00,0.000000000000000e+00
	5.751250462730618e-05,1.737836177444807e-13
	5.751250666655570e-05,1.909443439056491e-13
	2.719005583610135e-05,-1.709710807638612e-13
	3.515084701542403e-05,6.634216848085469e-13
	-3.067333677605914e-05,-1.006957128897570e-13
	-3.166756607546624e-05,-3.917548911549286e-13
	-2.719005583610135e-05,1.709710807638612e-13
	-3.515084701577464e-05,-6.634216848085469e-13
	-2.719005583610135e-05,1.709710807638612e-13
11		1.288249551693134e+00,0.000000000000000e+00
	-2.719005583610135e-01,1.749535088283260e-09
	1.000000000000000e+00,0.000000000000000e+00
	0.000000000000000e+00,0.000000000000000e+00
	5.751250462730618e-05,1.778315582111244e-13
	5.751250666655570e-05,1.953920090342971e-13
	2.719005583610135e-05,-1.749535088283260e-13
	3.515084701542403e-05,6.788747609916772e-13
	-3.067333677605914e-05,-1.030412173528032e-13
	-3.166756607546624e-05,-4.008800348105480e-13
	-2.719005583610135e-05,1.749535088283260e-13
	-3.515084701577464e-05,-6.788747609916775e-13
	-2.719005583610135e-05,1.749535088283260e-13
12		1.318256738556407e+00,0.000000000000000e+00
	-2.719005583610135e-01,1.790286995589550e-09
	1.000000000000000e+00,0.000000000000000e+00
	0.000000000000000e+00,0.000000000000000e+00
	5.751250462730618e-05,1.819737873238107e-13
	5.751250666655570e-05,1.999432735924540e-13
	2.719005583610135e-05,-1.790286995589551e-13
	3.515084701542403e-05,6.946877855590551e-13
	-3.067333677605914e-05,-1.054413556332015e-13
	-3.166756607546624e-05,-4.102177303668985e-13
	-2.719005583610135e-05,1.790286995589550e-13
	-3.515084701577464e-05,-6.946877855590552e-13
	-2.719005583610135e-05,1.790286995589550e-13
13		1.348962882591653e+00,0.000000000000000e+00
	-2.719005583610135e-01,1.831988136758152e-09
	1.000000000000000e+00,0.000000000000000e+00
	0.000000000000000e+00,0.000000000000000e+00
	5.751250462730618e-05,1.862125013472438e-13
	5.751250666655570e-05,2.046005507208318e-13
	2.719005583610135e-05,-1.831988136758153e-13
	3.515084701542403e-05,7.108691427856163e-13
	-3.067333677605914e-05,-1.078974003160379e-13
	-3.166756607546624e-05,-4.197729287937632e-13
	-2.719005583610135e-05,1.831988136758152e-13
	-3.515084701577464e-05,-7.108691427856165e-13
	-2.719005583610135e-05,1.831988136758152e-13
14		1.380384264602885e+00,0.000000000000000e+00
	-2.719005583610135e-01,1.874660622286093e-09
	1.000000000000000e+00,0.000000000000000e+00
	0.000000000000000e+00,0.000000000000000e+00
	5.751250462730618e-05,1.905499477037050e-13
	5.751250666655570e-05,2.093663097694101e-13
	2.719005583610135e-05,-1.874660622286094e-13
	3.515084701542403e-05,7.274274122411481e-13
	-3.067333677605914e-05,-1.104106536287128e-13
	-3.166756607546624e-05,-4.295506963838259e-13
	-2.719005583610135e-05,1.874660622286093e-13
	-3.515084701577464e-05,-7.274274122411483e-13
	-2.719005583610135e-05,1.874660622286093e-13
15		1.412537544622754e+00,0.000000000000000e+00
	-2.719005583610135e-01,1.918327077690037e-09
	1.000000000000000e+00,0.000000000000000e+00
	0.000000000000000e+00,0.000000000000000e+00
	5.751250462730618e-05,1.949884261646655e-13
	5.751250666655570e-05,2.142430776067190e-13
	2.719005583610135e-05,-1.918327077690037e-13
	3.515084701542403e-05,7.443713733392900e-13
	-3.067333677605914e-05,-1.129824481313995e-13
	-3.166756607546624e-05,-4.395562174388869e-13
	-2.719005583610135e-05,1.918327077690037e-13
	-3.515084701577464e-05,-7.443713733392902e-13
	-2.719005583610135e-05,1.918327077690037e-13
16		1.445439770745927e+00,0.000000000000000e+00
	-2.719005583610135e-01,1.963010655502633e-09
	1.000000000000000e+00,0.000000000000000e+00
	0.000000000000000e+00,0.000000000000000e+00
	5.751250462730618e-05,1.995302900701554e-13
	5.751250666655570e-05,2.192334399596172e-13
	2.719005583610135e-05,-1.963010655502632e-13
	3.515084701542403e-05,7.617100099924963e-13
	-3.067333677605914e-05,-1.156141474235848e-13
	-3.166756607546624e-05,-4.497947970186483e-13
	-2.719005583610135e-05,1.963010655502633e-13
	-3.515084701577464e-05,-7.617100099924964e-13
	-2.719005583610135e-05,1.963010655502633e-13
17		1.479108388168207e+00,0.000000000000000e+00
	-2.719005583610135e-01,2.008735047548292e-09
	1.000000000000000e+00,0.000000000000000e+00
	0.000000000000000e+00,0.000000000000000e+00
	5.751250462730618e-05,2.041779475765362e-13
	5.751250666655570e-05,2.243400427842798e-13
	2.719005583610135e-05,-2.008735047548294e-13
	3.515084701542403e-05,7.794525153754247e-13
	-3.067333677605914e-05,-1.183071468670684e-13
	-3.166756607546624e-05,-4.602718637535270e-13
	-2.719005583610135e-05,2.008735047548293e-13
	-3.515084701577464e-05,-7.794525153754248e-13
	-2.719005583610135e-05,2.008735047548293e-13
18		1.513561248436208e+00,0.000000000000000e+00
	-2.719005583610135e-01,2.055524497504916e-09
	1.000000000000000e+00,0.000000000000000e+00
	0.000000000000000e+00,0.000000000000000e+00
	5.751250462730618e-05,2.089338629333366e-13
	5.751250666655570e-05,2.295655936691180e-13
	2.719005583610135e-05,-2.055524497504916e-13
	3.515084701542403e-05,7.976082967992788e-13
	-3.067333677605914e-05,-1.210628743258010e-13
	-3.166756607546624e-05,-4.709929727229862e-13
	-2.719005583610135e-05,2.055524497504916e-13
	-3.515084701577464e-05,-7.976082967992790e-13
	-2.719005583610135e-05,2.055524497504916e-13
19		1.548816618912481e+00,0.000000000000000e+00
	-2.719005583610135e-01,2.103403813758198e-09
	1.000000000000000e+00,0.000000000000000e+00
	0.000000000000000e+00,0.000000000000000e+00
	5.751250462730618e-05,2.138005577898311e-13
	5.751250666655570e-05,2.349128632703796e-13
	2.719005583610135e-05,-2.103403813758199e-13
	3.515084701542403e-05,8.161869806996899e-13
	-3.067333677605914e-05,-1.238827909229579e-13
	-3.166756607546624e-05,-4.819638084009121e-13
	-2.719005583610135e-05,2.103403813758198e-13
	-3.515084701577464e-05,-8.161869806996901e-13
	-2.719005583610135e-05,2.103403813758198e-13
20		1.584893192461113e+00,0.000000000000000e+00
	-2.719005583610135e-01,2.152398382555377e-09
	1.000000000000000e+00,0.000000000000000e+00
	0.000000000000000e+00,0.000000000000000e+00
	5.751250462730618e-05,2.187806125320506e-13
	5.751250666655570e-05,2.403846867811865e-13
	2.719005583610135e-05,-2.152398382555378e-13
	3.515084701542403e-05,8.351984177407799e-13
	-3.067333677605914e-05,-1.267683918156446e-13
	-3.166756607546624e-05,-4.931901876695975e-13
	-2.719005583610135e-05,2.152398382555377e-13
	-3.515084701577464e-05,-8.351984177407800e-13
	-2.719005583610135e-05,2.152398382555377e-13
21		1.621810097358929e+00,0.000000000000000e+00
	-2.719005583610135e-01,2.202534181465347e-09
	1.000000000000000e+00,0.000000000000000e+00
	0.000000000000000e+00,0.000000000000000e+00
	5.751250462730618e-05,2.238766676509382e-13
	5.751250666655570e-05,2.459839654347920e-13
	2.719005583610135e-05,-2.202534181465347e-13
	3.515084701542403e-05,8.546526880381137e-13
	-3.067333677605914e-05,-1.297212069876500e-13
	-3.166756607546624e-05,-5.046780629039290e-13
	-2.719005583610135e-05,2.202534181465348e-13
	-3.515084701577464e-05,-8.546526880381139e-13
	-2.719005583610135e-05,2.202534181465348e-13
22		1.659586907437560e+00,0.000000000000000e+00
	-2.719005583610135e-01,2.253837793152317e-09
	1.000000000000000e+00,0.000000000000000e+00
	0.000000000000000e+00,0.000000000000000e+00
	5.751250462730618e-05,2.290914251423725e-13
	5.751250666655570e-05,2.517136680428540e-13
	2.719005583610135e-05,-2.253837793152317e-13
	3.515084701542403e-05,8.745601065033115e-13
	-3.067333677605914e-05,-1.327428020606635e-13
	-3.166756607546624e-05,-5.164335251274163e-13
	-2.719005583610135e-05,2.253837793152317e-13
	-3.515084701577464e-05,-8.745601065033116e-13
	-2.719005583610135e-05,2.253837793152317e-13
23		1.698243652461743e+00,0.000000000000000e+00
	-2.719005583610135e-01,2.306336419470285e-09
	1.000000000000000e+00,0.000000000000000e+00
	0.000000000000000e+00,0.000000000000000e+00
	5.751250462730618e-05,2.344276499398006e-13
	5.751250666655570e-05,2.575768325695364e-13
	2.719005583610135e-05,-2.306336419470285e-13
	3.515084701542403e-05,8.949312283131484e-13
	-3.067333677605914e-05,-1.358347791243881e-13
	-3.166756607546624e-05,-5.284628072417318e-13
	-2.719005583610135e-05,2.306336419470286e-13
	-3.515084701577464e-05,-8.949312283131488e-13
	-2.719005583610135e-05,2.306336419470286e-13
24		1.737800828749374e+00,0.000000000000000e+00
	-2.719005583610135e-01,2.360057895885829e-09
	1.000000000000000e+00,0.000000000000000e+00
	0.000000000000000e+00,0.000000000000000e+00
	5.751250462730618e-05,2.398881713802438e-13
	5.751250666655570e-05,2.635765677422797e-13
	2.719005583610135e-05,-2.360057895885829e-13
	3.515084701542403e-05,9.157768545060524e-13
	-3.067333677605914e-05,-1.389987775859904e-13
	-3.166756607546624e-05,-5.407722873314790e-13
	-2.719005583610135e-05,2.360057895885829e-13
	-3.515084701577464e-05,-9.157768545060524e-13
	-2.719005583610135e-05,2.360057895885829e-13
25		1.778279410038922e+00,0.000000000000000e+00
	-2.719005583610135e-01,2.415030706236830e-09
	1.000000000000000e+00,0.000000000000000e+00
	0.000000000000000e+00,0.000000000000000e+00
	5.751250462730618e-05,2.454758847044480e-13
	5.751250666655570e-05,2.697160547000883e-13
	2.719005583610135e-05,-2.415030706236829e-13
	3.515084701542403e-05,9.371080377089551e-13
	-3.067333677605914e-05,-1.422364750393352e-13
	-3.166756607546624e-05,-5.533684920459370e-13
	-2.719005583610135e-05,2.415030706236830e-13
	-3.515084701577464e-05,-9.371080377089553e-13
	-2.719005583610135e-05,2.415030706236830e-13
26		1.819700858609982e+00,0.000000000000000e+00
	-2.719005583610135e-01,2.471283997834988e-09
	1.000000000000000e+00,0.000000000000000e+00
	0.000000000000000e+00,0.000000000000000e+00
	5.751250462730618e-05,2.511937525919800e-13
	5.751250666655570e-05,2.759985486802129e-13
	2.719005583610135e-05,-2.471283997834989e-13
	3.515084701542403e-05,9.589360879975424e-13
	-3.067333677605914e-05,-1.455495881544681e-13
	-3.166756607546624e-05,-5.662581000595753e-13
	-2.719005583610135e-05,2.471283997834988e-13
	-3.515084701577464e-05,-9.589360879975426e-13
	-2.719005583610135e-05,2.471283997834988e-13
27		1.862087136662866e+00,0.000000000000000e+00
	-2.719005583610135e-01,2.528847596920110e-09
	1.000000000000000e+00,0.000000000000000e+00
	0.000000000000000e+00,0.000000000000000e+00
	5.751250462730618e-05,2.570448067320787e-13
	5.751250666655570e-05,2.824273807441205e-13
	2.719005583610135e-05,-2.528847596920111e-13
	3.515084701542403e-05,9.812725788930058e-13
	-3.067333677605914e-05,-1.489398735878171e-13
	-3.166756607546624e-05,-5.794479456131776e-13
	-2.719005583610135e-05,2.528847596920110e-13
	-3.515084701577464e-05,-9.812725788930060e-13
	-2.719005583610135e-05,2.528847596920110e-13
28		1.905460717963246e+00,0.000000000000000e+00
	-2.719005583610135e-01,2.587752024474374e-09
	1.000000000000000e+00,0.000000000000000e+00
	0.000000000000000e+00,0.000000000000000e+00
	5.751250462730618e-05,2.630321494310968e-13
	5.751250666655570e-05,2.890059595436668e-13
	2.719005583610135e-05,-2.587752024474374e-13
	3.515084701542403e-05,1.004129353498476e-12
	-3.067333677605914e-05,-1.524091289135945e-13
	-3.166756607546624e-05,-5.929450221374441e-13
	-2.719005583610135e-05,2.587752024474374e-13
	-3.515084701577464e-05,-1.004129353498476e-12
	-2.719005583610135e-05,2.587752024474374e-13
29		1.949844599758044e+00,0.000000000000000e+00
	-2.719005583610135e-01,2.648028512404962e-09
	1.000000000000000e+00,0.000000000000000e+00
	0.000000000000000e+00,0.000000000000000e+00
	5.751250462730618e-05,2.691589552573856e-13
	5.751250666655570e-05,2.957377731284094e-13
	2.719005583610135e-05,-2.648028512404961e-13
	3.515084701542403e-05,1.027518530778395e-12
	-3.067333677605914e-05,-1.559591935768954e-13
	-3.166756607546624e-05,-6.067564859610033e-13
	-2.719005583610135e-05,2.648028512404962e-13
	-3.515084701577464e-05,-1.027518530778395e-12
	-2.719005583610135e-05,2.648028512404962e-13
30		1.995262314968878e+00,0.000000000000000e+00
	-2.719005583610135e-01,2.709709020103627e-09
	1.000000000000000e+00,0.000000000000000e+00
	0.000000000000000e+00,0.000000000000000e+00
	5.751250462730618e-05,2.754284727244916e-13
	5.751250666655570e-05,3.026263907950168e-13
	2.719005583610135e-05,-2.709709020103627e-13
	3.515084701542403e-05,1.051452511984148e-12
	-3.067333677605914e-05,-1.595919498689946e-13
	-3.166756607546624e-05,-6.208896601047905e-13
	-2.719005583610135e-05,2.709709020103627e-13
	-3.515084701577464e-05,-1.051452511984148e-12
	-2.719005583610135e-05,2.709709020103627e-13
31		2.041737944669527e+00,0.000000000000000e+00
	-2.719005583610135e-01,2.772826251391990e-09
	1.000000000000000e+00,0.000000000000000e+00
	0.000000000000000e+00,0.000000000000000e+00
	5.751250462730618e-05,2.818440260135631e-13
	5.751250666655570e-05,3.096754649797576e-13
	2.719005583610135e-05,-2.772826251391990e-13
	3.515084701542403e-05,1.075943987229374e-12
	-3.067333677605914e-05,-1.633093239253635e-13
	-3.166756607546624e-05,-6.353520381648113e-13
	-2.719005583610135e-05,2.772826251391990e-13
	-3.515084701577464e-05,-1.075943987229374e-12
	-2.719005583610135e-05,2.772826251391990e-13
32		2.089296130854037e+00,0.000000000000000e+00
	-2.719005583610135e-01,2.837413671861536e-09
	1.000000000000000e+00,0.000000000000000e+00
	0.000000000000000e+00,0.000000000000000e+00
	5.751250462730618e-05,2.884090167358738e-13
