Title: * GA CMOS Amp | W=1.536061346739322e-05 L=8.49984121226275e-07 Vbias=1.3236076000319765
Date: Sat Sep  6 22:13:00 2025
Plotname: AC Analysis
Flags: complex forward log
No. Variables: 13
No. Points:          901
Offset:    0.0000000000000000e+00
Command: Linear Technology Corporation LTspice
Variables:
	0	frequency	frequency
	1	V(out)	voltage
	2	V(g)	voltage
	3	V(vdd)	voltage
	4	V(m1#dbody)	voltage
	5	V(m1#sbody)	voltage
	6	Id(M1)	device_current
	7	Ig(M1)	device_current
	8	Ib(M1)	device_current
	9	Is(M1)	device_current
	10	I(Rload)	device_current
	11	I(Vg)	device_current
	12	I(Vdd)	device_current
Values:
0		1.000000000000000e+00,0.000000000000000e+00
	1.552123453123909e-02,1.012571300975036e-09
	1.000000000000000e+00,0.000000000000000e+00
	0.000000000000000e+00,0.000000000000000e+00
	1.292742820719247e-04,1.001546938885221e-13
	1.292742819546456e-04,9.468771834557855e-14
	-1.552123453123908e-06,-1.012571300975038e-13
	8.932221076095412e-05,3.391843603668933e-12
	-6.894628376908583e-05,-5.089452580458402e-14
	-1.882380353874438e-05,-3.239691947766845e-12
	1.552123453123909e-06,1.012571300975036e-13
	-8.932221076091151e-05,-3.391843603668934e-12
	1.552123453123909e-06,1.012571300975036e-13
1		1.023292992280754e+00,0.000000000000000e+00
	1.552123453123909e-02,1.036157116472361e-09
	1.000000000000000e+00,0.000000000000000e+00
	0.000000000000000e+00,0.000000000000000e+00
	1.292742820719247e-04,1.024875964001487e-13
	1.292742819546456e-04,9.689327863808432e-14
	-1.552123453123908e-06,-1.036157116472360e-13
	8.932221076095412e-05,3.470849790546718e-12
	-6.894628376908583e-05,-5.208001160128284e-14
	-1.882380353874438e-05,-3.315154067298200e-12
	1.552123453123909e-06,1.036157116472361e-13
	-8.932221076091151e-05,-3.470849790546718e-12
	1.552123453123909e-06,1.036157116472361e-13
2		1.047128548050899e+00,0.000000000000000e+00
	1.552123453123909e-02,1.060292316188000e-09
	1.000000000000000e+00,0.000000000000000e+00
	0.000000000000000e+00,0.000000000000000e+00
	1.292742820719247e-04,1.048748391919704e-13
	1.292742819546456e-04,9.915021302945817e-14
	-1.552123453123908e-06,-1.060292316187998e-13
	8.932221076095412e-05,3.551696267925580e-12
	-6.894628376908583e-05,-5.329311090949310e-14
	-1.882380353874438e-05,-3.392373925397287e-12
	1.552123453123909e-06,1.060292316188000e-13
	-8.932221076091151e-05,-3.551696267925581e-12
	1.552123453123909e-06,1.060292316188000e-13
3		1.071519305237606e+00,0.000000000000000e+00
	1.552123453123909e-02,1.084989696924310e-09
	1.000000000000000e+00,0.000000000000000e+00
	0.000000000000000e+00,0.000000000000000e+00
	1.292742820719247e-04,1.073176880117143e-13
	1.292742819546456e-04,1.014597181761885e-13
	-1.552123453123908e-06,-1.084989696924307e-13
	8.932221076095412e-05,3.634425901677953e-12
	-6.894628376908583e-05,-5.453446693052530e-14
	-1.882380353874438e-05,-3.471392465054997e-12
	1.552123453123909e-06,1.084989696924310e-13
	-8.932221076091151e-05,-3.634425901677954e-12
	1.552123453123909e-06,1.084989696924310e-13
4		1.096478196143185e+00,0.000000000000000e+00
	1.552123453123909e-02,1.110262353559465e-09
	1.000000000000000e+00,0.000000000000000e+00
	0.000000000000000e+00,0.000000000000000e+00
	1.292742820719247e-04,1.098174380901595e-13
	1.292742819546456e-04,1.038230186084739e-13
	-1.552123453123908e-06,-1.110262353559459e-13
	8.932221076095412e-05,3.719082556150710e-12
	-6.894628376908583e-05,-5.580473784777306e-14
	-1.882380353874438e-05,-3.552251582946991e-12
	1.552123453123909e-06,1.110262353559465e-13
	-8.932221076091151e-05,-3.719082556150710e-12
	1.552123453123909e-06,1.110262353559465e-13
5		1.122018454301963e+00,0.000000000000000e+00
	1.552123453123909e-02,1.136123685990538e-09
	1.000000000000000e+00,0.000000000000000e+00
	0.000000000000000e+00,0.000000000000000e+00
	1.292742820719247e-04,1.123754148278858e-13
	1.292742819546456e-04,1.062413673794857e-13
	-1.552123453123908e-06,-1.136123685990536e-13
	8.932221076095412e-05,3.805711117422616e-12
	-6.894628376908583e-05,-5.710459717569076e-14
	-1.882380353874438e-05,-3.634994151647872e-12
	1.552123453123909e-06,1.136123685990538e-13
	-8.932221076091151e-05,-3.805711117422617e-12
	1.552123453123909e-06,1.136123685990538e-13
6		1.148153621496882e+00,0.000000000000000e+00
	1.552123453123909e-02,1.162587406238297e-09
	1.000000000000000e+00,0.000000000000000e+00
	0.000000000000000e+00,0.000000000000000e+00
	1.292742820719247e-04,1.149929744980183e-13
	1.292742819546456e-04,1.087160467297528e-13
	-1.552123453123908e-06,-1.162587406238296e-13
	8.932221076095412e-05,3.894357517103522e-12
	-6.894628376908583e-05,-5.843473411689968e-14
	-1.882380353874438e-05,-3.719664042362792e-12
	1.552123453123909e-06,1.162587406238297e-13
	-8.932221076091151e-05,-3.894357517103522e-12
	1.552123453123909e-06,1.162587406238297e-13
7		1.174897554939529e+00,0.000000000000000e+00
	1.552123453123909e-02,1.189667545717508e-09
	1.000000000000000e+00,0.000000000000000e+00
	0.000000000000000e+00,0.000000000000000e+00
	1.292742820719247e-04,1.176715049653416e-13
	1.292742819546456e-04,1.112483687670230e-13
	-1.552123453123908e-06,-1.189667545717509e-13
	8.932221076095412e-05,3.985068756687911e-12
	-6.894628376908583e-05,-5.979585392761254e-14
	-1.882380353874438e-05,-3.806306148188548e-12
	1.552123453123909e-06,1.189667545717508e-13
	-8.932221076091151e-05,-3.985068756687911e-12
	1.552123453123909e-06,1.189667545717508e-13
8		1.202264434617413e+00,0.000000000000000e+00
	1.552123453123909e-02,1.217378462676570e-09
	1.000000000000000e+00,0.000000000000000e+00
	0.000000000000000e+00,0.000000000000000e+00
	1.292742820719247e-04,1.204124264221640e-13
	1.292742819546456e-04,1.138396761619598e-13
	-1.552123453123908e-06,-1.217378462676567e-13
	8.932221076095412e-05,4.077892932475717e-12
	-6.894628376908583e-05,-6.118867829156953e-14
	-1.882380353874438e-05,-3.894966407916492e-12
	1.552123453123909e-06,1.217378462676570e-13
	-8.932221076091151e-05,-4.077892932475716e-12
	1.552123453123909e-06,1.217378462676570e-13
9		1.230268770812381e+00,0.000000000000000e+00
	1.552123453123909e-02,1.245734849810451e-09
	1.000000000000000e+00,0.000000000000000e+00
	0.000000000000000e+00,0.000000000000000e+00
	1.292742820719247e-04,1.232171921413224e-13
	1.292742819546456e-04,1.164913428600439e-13
	-1.552123453123908e-06,-1.245734849810457e-13
	8.932221076095412e-05,4.172879261073615e-12
	-6.894628376908583e-05,-6.261394570268462e-14
	-1.882380353874438e-05,-3.985691830389885e-12
	1.552123453123909e-06,1.245734849810451e-13
	-8.932221076091151e-05,-4.172879261073615e-12
	1.552123453123909e-06,1.245734849810451e-13
10		1.258925411794167e+00,0.000000000000000e+00
	1.552123453123909e-02,1.274751742050952e-09
	1.000000000000000e+00,0.000000000000000e+00
	0.000000000000000e+00,0.000000000000000e+00
	1.292742820719247e-04,1.260872892467264e-13
	1.292742819546456e-04,1.192047748100576e-13
	-1.552123453123908e-06,-1.274751742050954e-13
	8.932221076095412e-05,4.270078105490322e-12
	-6.894628376908583e-05,-6.407241185660481e-14
	-1.882380353874438e-05,-4.078530519428622e-12
	1.552123453123909e-06,1.274751742050952e-13
	-8.932221076091151e-05,-4.270078105490322e-12
	1.552123453123909e-06,1.274751742050952e-13
11		1.288249551693134e+00,0.000000000000000e+00
	1.552123453123909e-02,1.304444524538423e-09
	1.000000000000000e+00,0.000000000000000e+00
	0.000000000000000e+00,0.000000000000000e+00
	1.292742820719247e-04,1.290242395018516e-13
	1.292742819546456e-04,1.219814107095373e-13
	-1.552123453123908e-06,-1.304444524538423e-13
	8.932221076095412e-05,4.369541001839726e-12
	-6.894628376908583e-05,-6.556485005139001e-14
	-1.882380353874438e-05,-4.173531699334494e-12
	1.552123453123909e-06,1.304444524538423e-13
	-8.932221076091151e-05,-4.369541001839726e-12
	1.552123453123909e-06,1.304444524538423e-13
12		1.318256738556407e+00,0.000000000000000e+00
	1.552123453123909e-02,1.334828940779169e-09
	1.000000000000000e+00,0.000000000000000e+00
	0.000000000000000e+00,0.000000000000000e+00
	1.292742820719247e-04,1.320296001165984e-13
	1.292742819546456e-04,1.248227227675900e-13
	-1.552123453123908e-06,-1.334828940779167e-13
	8.932221076095412e-05,4.471320686666017e-12
	-6.894628376908583e-05,-6.709205159752583e-14
	-1.882380353874438e-05,-4.270745740990574e-12
	1.552123453123909e-06,1.334828940779169e-13
	-8.932221076091151e-05,-4.471320686666018e-12
	1.552123453123909e-06,1.334828940779169e-13
13		1.348962882591653e+00,0.000000000000000e+00
	1.552123453123909e-02,1.365921100992865e-09
	1.000000000000000e+00,0.000000000000000e+00
	0.000000000000000e+00,0.000000000000000e+00
	1.292742820719247e-04,1.351049645729454e-13
	1.292742819546456e-04,1.277302174854782e-13
	-1.552123453123908e-06,-1.365921100992863e-13
	8.932221076095412e-05,4.575471124905305e-12
	-6.894628376908583e-05,-6.865482623748696e-14
	-1.882380353874438e-05,-4.370224188568531e-12
	1.552123453123909e-06,1.365921100992865e-13
	-8.932221076091151e-05,-4.575471124905306e-12
	1.552123453123909e-06,1.365921100992865e-13
14		1.380384264602885e+00,0.000000000000000e+00
	1.552123453123909e-02,1.397737490654411e-09
	1.000000000000000e+00,0.000000000000000e+00
	0.000000000000000e+00,0.000000000000000e+00
	1.292742820719247e-04,1.382519634698346e-13
	1.292742819546456e-04,1.307054364553865e-13
	-1.552123453123908e-06,-1.397737490654415e-13
	8.932221076095412e-05,4.682047538498539e-12
	-6.894628376908583e-05,-7.025400257507328e-14
	-1.882380353874438e-05,-4.472019786858024e-12
	1.552123453123909e-06,1.397737490654411e-13
	-8.932221076091151e-05,-4.682047538498539e-12
	1.552123453123909e-06,1.397737490654411e-13
15		1.412537544622754e+00,0.000000000000000e+00
	1.552123453123909e-02,1.430294979234745e-09
	1.000000000000000e+00,0.000000000000000e+00
	0.000000000000000e+00,0.000000000000000e+00
	1.292742820719247e-04,1.414722653877365e-13
	1.292742819546456e-04,1.337499571777944e-13
	-1.552123453123908e-06,-1.430294979234747e-13
	8.932221076095412e-05,4.791106435670908e-12
	-6.894628376908583e-05,-7.189042851474653e-14
	-1.882380353874439e-05,-4.576186509232687e-12
	1.552123453123909e-06,1.430294979234745e-13
	-8.932221076091151e-05,-4.791106435670909e-12
	1.552123453123909e-06,1.430294979234745e-13
16		1.445439770745927e+00,0.000000000000000e+00
	1.552123453123909e-02,1.463610829145261e-09
	1.000000000000000e+00,0.000000000000000e+00
	0.000000000000000e+00,0.000000000000000e+00
	1.292742820719247e-04,1.447675777733539e-13
	1.292742819546456e-04,1.368653938978880e-13
	-1.552123453123908e-06,-1.463610829145263e-13
	8.932221076095412e-05,4.902705640893262e-12
	-6.894628376908583e-05,-7.356497171120060e-14
	-1.882380353874439e-05,-4.682779586267534e-12
	1.552123453123909e-06,1.463610829145261e-13
	-8.932221076091151e-05,-4.902705640893263e-12
	1.552123453123909e-06,1.463610829145261e-13
17		1.479108388168207e+00,0.000000000000000e+00
	1.552123453123909e-02,1.497702704890570e-09
	1.000000000000000e+00,0.000000000000000e+00
	0.000000000000000e+00,0.000000000000000e+00
	1.292742820719247e-04,1.481396478449320e-13
	1.292742819546456e-04,1.400533984614538e-13
	-1.552123453123905e-06,-1.497702704890560e-13
	8.932221076095412e-05,5.016904325541397e-12
	-6.894628376908583e-05,-7.527852002940349e-14
	-1.882380353874439e-05,-4.791855535022937e-12
	1.552123453123909e-06,1.497702704890570e-13
	-8.932221076091151e-05,-5.016904325541398e-12
	1.552123453123909e-06,1.497702704890570e-13
18		1.513561248436208e+00,0.000000000000000e+00
	1.552123453123909e-02,1.532588682434450e-09
	1.000000000000000e+00,0.000000000000000e+00
	0.000000000000000e+00,0.000000000000000e+00
	1.292742820719247e-04,1.515902635186577e-13
	1.292742819546456e-04,1.433156611907099e-13
	-1.552123453123905e-06,-1.532588682434448e-13
	8.932221076095412e-05,5.133763039269514e-12
	-6.894628376908583e-05,-7.703198201535499e-14
	-1.882380353874439e-05,-4.903472189010715e-12
	1.552123453123909e-06,1.532588682434450e-13
	-8.932221076091151e-05,-5.133763039269515e-12
	1.552123453123909e-06,1.532588682434450e-13
19		1.548816618912481e+00,0.000000000000000e+00
	1.552123453123909e-02,1.568287258783967e-09
	1.000000000000000e+00,0.000000000000000e+00
	0.000000000000000e+00,0.000000000000000e+00
	1.292742820719247e-04,1.551212543566352e-13
	1.292742819546456e-04,1.466539117805362e-13
	-1.552123453123905e-06,-1.568287258783967e-13
	8.932221076095412e-05,5.253343742114440e-12
	-6.894628376908583e-05,-7.882628737780983e-14
	-1.882380353874439e-05,-5.017688728858234e-12
	1.552123453123909e-06,1.568287258783967e-13
	-8.932221076091151e-05,-5.253343742114442e-12
	1.552123453123909e-06,1.568287258783967e-13
20		1.584893192461113e+00,0.000000000000000e+00
	1.552123453123909e-02,1.604817361796827e-09
	1.000000000000000e+00,0.000000000000000e+00
	0.000000000000000e+00,0.000000000000000e+00
	1.292742820719247e-04,1.587344925369453e-13
	1.292742819546456e-04,1.500699202155827e-13
	-1.552123453123905e-06,-1.604817361796823e-13
	8.932221076095412e-05,5.375709837347660e-12
	-6.894628376908583e-05,-8.066238748122166e-14
	-1.882380353874439e-05,-5.134565713686757e-12
	1.552123453123909e-06,1.604817361796827e-13
	-8.932221076091151e-05,-5.375709837347661e-12
	1.552123453123909e-06,1.604817361796827e-13
21		1.621810097358929e+00,0.000000000000000e+00
	1.552123453123909e-02,1.642198360217180e-09
	1.000000000000000e+00,0.000000000000000e+00
	0.000000000000000e+00,0.000000000000000e+00
	1.292742820719247e-04,1.624318938462977e-13
	1.292742819546456e-04,1.535654977087376e-13
	-1.552123453123908e-06,-1.642198360217178e-13
	8.932221076095412e-05,5.500926205092572e-12
	-6.894628376908583e-05,-8.254125585016897e-14
	-1.882380353874439e-05,-5.254165113220686e-12
	1.552123453123909e-06,1.642198360217180e-13
	-8.932221076091151e-05,-5.500926205092572e-12
	1.552123453123909e-06,1.642198360217180e-13
22		1.659586907437560e+00,0.000000000000000e+00
	1.552123453123909e-02,1.680450073945186e-09
	1.000000000000000e+00,0.000000000000000e+00
	0.000000000000000e+00,0.000000000000000e+00
	1.292742820719247e-04,1.662154186958079e-13
	1.292742819546456e-04,1.571424976614574e-13
	-1.552123453123908e-06,-1.680450073945183e-13
	8.932221076095412e-05,5.629059236724792e-12
	-6.894628376908583e-05,-8.446388868553071e-14
	-1.882380353874439e-05,-5.376550340644743e-12
	1.552123453123909e-06,1.680450073945186e-13
	-8.932221076091151e-05,-5.629059236724794e-12
	1.552123453123909e-06,1.680450073945186e-13
23		1.698243652461743e+00,0.000000000000000e+00
	1.552123453123909e-02,1.719592784545784e-09
	1.000000000000000e+00,0.000000000000000e+00
	0.000000000000000e+00,0.000000000000000e+00
	1.292742820719247e-04,1.700870731604316e-13
	1.292742819546456e-04,1.608028166464642e-13
	-1.552123453123908e-06,-1.719592784545789e-13
	8.932221076095412e-05,5.760176870073730e-12
	-6.894628376908583e-05,-8.643130539268527e-14
	-1.882380353874439e-05,-5.501786286226466e-12
	1.552123453123909e-06,1.719592784545784e-13
	-8.932221076091151e-05,-5.760176870073732e-12
	1.552123453123909e-06,1.719592784545784e-13
24		1.737800828749374e+00,0.000000000000000e+00
	1.552123453123909e-02,1.759647246002250e-09
	1.000000000000000e+00,0.000000000000000e+00
	0.000000000000000e+00,0.000000000000000e+00
	1.292742820719247e-04,1.740489100426135e-13
	1.292742819546456e-04,1.645483954133337e-13
	-1.552123453123908e-06,-1.759647246002249e-13
	8.932221076095412e-05,5.894348625444135e-12
	-6.894628376908583e-05,-8.844454912201254e-14
	-1.882380353874439e-05,-5.629939351721898e-12
	1.552123453123909e-06,1.759647246002249e-13
	-8.932221076091151e-05,-5.894348625444137e-12
	1.552123453123909e-06,1.759647246002249e-13
25		1.778279410038922e+00,0.000000000000000e+00
	1.552123453123909e-02,1.800634695720230e-09
	1.000000000000000e+00,0.000000000000000e+00
	0.000000000000000e+00,0.000000000000000e+00
	1.292742820719247e-04,1.781030299607099e-13
	1.292742819546456e-04,1.683812199175071e-13
	-1.552123453123908e-06,-1.800634695720226e-13
	8.932221076095412e-05,6.031645642476679e-12
	-6.894628376908583e-05,-9.050468732198639e-14
	-1.882380353874439e-05,-5.761077485582670e-12
	1.552123453123909e-06,1.800634695720230e-13
	-8.932221076091151e-05,-6.031645642476682e-12
	1.552123453123909e-06,1.800634695720230e-13
26		1.819700858609982e+00,0.000000000000000e+00
	1.552123453123909e-02,1.842576865788099e-09
	1.000000000000000e+00,0.000000000000000e+00
	0.000000000000000e+00,0.000000000000000e+00
	1.292742820719247e-04,1.822515824627636e-13
	1.292742819546456e-04,1.723033223732694e-13
	-1.552123453123908e-06,-1.842576865788101e-13
	8.932221076095412e-05,6.172140717867133e-12
	-6.894628376908583e-05,-9.261281230514945e-14
	-1.882380353874439e-05,-5.895270218983173e-12
	1.552123453123909e-06,1.842576865788100e-13
	-8.932221076091151e-05,-6.172140717867135e-12
	1.552123453123909e-06,1.842576865788100e-13
27		1.862087136662866e+00,0.000000000000000e+00
	1.552123453123909e-02,1.885495994499598e-09
	1.000000000000000e+00,0.000000000000000e+00
	0.000000000000000e+00,0.000000000000000e+00
	1.292742820719247e-04,1.864967671662239e-13
	1.292742819546456e-04,1.763167823312583e-13
	-1.552123453123908e-06,-1.885495994499594e-13
	8.932221076095412e-05,6.315908343964140e-12
	-6.894628376908583e-05,-9.477004182727222e-14
	-1.882380353874439e-05,-6.032588702686909e-12
	1.552123453123909e-06,1.885495994499598e-13
	-8.932221076091151e-05,-6.315908343964140e-12
	1.552123453123909e-06,1.885495994499598e-13
28		1.905460717963246e+00,0.000000000000000e+00
	1.552123453123909e-02,1.929414838144869e-09
	1.000000000000000e+00,0.000000000000000e+00
	0.000000000000000e+00,0.000000000000000e+00
	1.292742820719247e-04,1.908408349242124e-13
	1.292742819546456e-04,1.804237277810677e-13
	-1.552123453123908e-06,-1.929414838144869e-13
	8.932221076095412e-05,6.463024748266046e-12
	-6.894628376908583e-05,-9.697751968000163e-14
	-1.882380353874439e-05,-6.173105744771558e-12
	1.552123453123909e-06,1.929414838144869e-13
	-8.932221076091151e-05,-6.463024748266049e-12
	1.552123453123909e-06,1.929414838144869e-13
29		1.949844599758044e+00,0.000000000000000e+00
	1.552123453123909e-02,1.974356683076150e-09
	1.000000000000000e+00,0.000000000000000e+00
	0.000000000000000e+00,0.000000000000000e+00
	1.292742820719247e-04,1.952860890189547e-13
	1.292742819546456e-04,1.846263362795370e-13
	-1.552123453123908e-06,-1.974356683076156e-13
	8.932221076095412e-05,6.613567933837732e-12
	-6.894628376908583e-05,-9.923641629731459e-14
	-1.882380353874439e-05,-6.316895849232802e-12
	1.552123453123909e-06,1.974356683076150e-13
	-8.932221076091151e-05,-6.613567933837732e-12
	1.552123453123909e-06,1.974356683076150e-13
30		1.995262314968878e+00,0.000000000000000e+00
	1.552123453123909e-02,2.020345358054498e-09
	1.000000000000000e+00,0.000000000000000e+00
	0.000000000000000e+00,0.000000000000000e+00
	1.292742820719247e-04,1.998348863830119e-13
	1.292742819546456e-04,1.889268361053202e-13
	-1.552123453123908e-06,-2.020345358054497e-13
	8.932221076095412e-05,6.767617720668856e-12
	-6.894628376908583e-05,-1.015479293760976e-13
	-1.882380353874439e-05,-6.464035255487309e-12
	1.552123453123909e-06,2.020345358054499e-13
	-8.932221076091151e-05,-6.767617720668856e-12
	1.552123453123909e-06,2.020345358054499e-13
31		2.041737944669527e+00,0.000000000000000e+00
	1.552123453123909e-02,2.067405246884119e-09
	1.000000000000000e+00,0.000000000000000e+00
	0.000000000000000e+00,0.000000000000000e+00
	1.292742820719247e-04,2.044896388489568e-13
	1.292742819546456e-04,1.933275074403486e-13
	-1.552123453123908e-06,-2.067405246884117e-13
	8.932221076095412e-05,6.925255787995489e-12
	-6.894628376908583e-05,-1.039132845111816e-13
	-1.882380353874439e-05,-6.614601978795896e-12
	1.552123453123909e-06,2.067405246884119e-13
	-8.932221076091151e-05,-6.925255787995491e-12
	1.552123453123909e-06,2.067405246884119e-13
32		2.089296130854037e+00,0.000000000000000e+00
	1.552123453123909e-02,2.115561301340981e-09
	1.000000000000000e+00,0.000000000000000e+00
	0.000000000000000e+00,0.000000000000000e+00
	1.292742820719247e-04,2.092528144281597e-13
	1.292742819546456e-04,1.978306835788142e-13
	-1.552123453123912e-06,-2.115561301340982e-13
