LTspice 24.0.9 for Windows
Circuit: * GA CMOS Amp | W=1e-06 L=2.669226322330019e-07 Vbias=1.237592889690809
Start Time: Sat Sep  6 22:09:00 2025
solver = Normal
Maximum thread count: 2
tnom = 27
temp = 27
method = modified trap
AsciiRawFile = 1
Direct Newton iteration for .op point succeeded.
Semiconductor Device Operating Points:
                        --- BSIM4 MOSFETS ---
Name:      m1
Model:      n
Id:      1.19e-04
Vgs:     1.24e+00
Vds:     6.06e-01
Vbs:     0.00e+00
Vth:     2.76e-01
Vdsat:   6.82e-01
Gm:      7.67e-05
Gds:     5.52e-05
Gmb      7.58e-05
Cbd:     4.28e-16
Cbs:     8.00e-16


.measure op idd find i(vdd)
  Error: FIND can not be evaluated over an interval.

gain_db: MAX(db(v(out)/v(g)))=(28.9331dB,102.66°) FROM 1 TO 1e+09
gain_lin: MAX(mag(v(out)/v(g)))=(-5.77416dB,0°) FROM 1 TO 1e+09

Measurement "fc" FAIL'ed

Total elapsed time: 0.858 seconds.

