LTspice 24.0.9 for Windows
Circuit: * GA CMOS Amp | W=4.80008941780013e-06 L=6.235530453534383e-07 Vbias=1.2829953047889362
Start Time: Sat Sep  6 22:09:35 2025
solver = Normal
Maximum thread count: 2
tnom = 27
temp = 27
method = modified trap
AsciiRawFile = 1
Direct Newton iteration for .op point succeeded.
Semiconductor Device Operating Points:
                        --- BSIM4 MOSFETS ---
Name:      m1
Model:      n
Id:      1.55e-04
Vgs:     1.28e+00
Vds:     2.49e-01
Vbs:     0.00e+00
Vth:     2.45e-01
Vdsat:   7.27e-01
Gm:      8.78e-06
Gds:     4.96e-04
Gmb      8.64e-05
Cbd:     2.23e-15
Cbs:     3.84e-15


.measure op idd find i(vdd)
  Error: FIND can not be evaluated over an interval.

gain_db: MAX(db(v(out)/v(g)))=(33.4795dB,144.684°) FROM 1 TO 1e+09
gain_lin: MAX(mag(v(out)/v(g)))=(-5.75156dB,0°) FROM 1 TO 1e+09

Measurement "fc" FAIL'ed

Total elapsed time: 2.748 seconds.

