Title: * GA CMOS Amp | W=4.415414485020947e-06 L=9.259302663747071e-07 Vbias=0.9601729180604646
Date: Mon Sep  8 18:45:31 2025
Plotname: AC Analysis
Flags: complex forward log
No. Variables: 11
No. Points:          901
Offset:    0.0000000000000000e+00
Command: Linear Technology Corporation LTspice
Variables:
	0	frequency	frequency
	1	V(out)	voltage
	2	V(g)	voltage
	3	V(vdd)	voltage
	4	Id(M1)	device_current
	5	Ig(M1)	device_current
	6	Ib(M1)	device_current
	7	Is(M1)	device_current
	8	I(Rload)	device_current
	9	I(Vg)	device_current
	10	I(Vdd)	device_current
Values:
0		1.000000000000000e+00,0.000000000000000e+00
	-9.450147523127602e-01,1.066797194989421e-10
	1.000000000000000e+00,0.000000000000000e+00
	0.000000000000000e+00,0.000000000000000e+00
	9.450147523127604e-05,-1.066797194989421e-14
	5.919202628367339e-25,4.088880697427811e-14
	9.450147505892306e-13,-1.366776380361940e-15
	-9.450147617629079e-05,-2.885405864402195e-14
	-9.450147523127603e-05,1.066797194989421e-14
	-5.919202628367339e-25,-4.088880697427811e-14
	-9.450147523127603e-05,1.066797194989421e-14
1		1.023292992280754e+00,0.000000000000000e+00
	-9.450147523127602e-01,1.091646093817440e-10
	1.000000000000000e+00,0.000000000000000e+00
	0.000000000000000e+00,0.000000000000000e+00
	9.450147523127604e-05,-1.091646093817440e-14
	6.198166053861360e-25,4.184122963949921e-14
	9.450147505892306e-13,-1.398612692039219e-15
	-9.450147617629079e-05,-2.952615600928559e-14
	-9.450147523127603e-05,1.091646093817440e-14
	-6.198166053861360e-25,-4.184122963949921e-14
	-9.450147523127603e-05,1.091646093817440e-14
2		1.047128548050899e+00,0.000000000000000e+00
	-9.450147523127602e-01,1.117073797854045e-10
	1.000000000000000e+00,0.000000000000000e+00
	0.000000000000000e+00,0.000000000000000e+00
	9.450147523127604e-05,-1.117073797854045e-14
	6.490276620558217e-25,4.281583707850932e-14
	9.450147505892306e-13,-1.431190566678654e-15
	-9.450147617629079e-05,-3.021390853329021e-14
	-9.450147523127603e-05,1.117073797854045e-14
	-6.490276620558217e-25,-4.281583707850932e-14
	-9.450147523127603e-05,1.117073797854045e-14
3		1.071519305237606e+00,0.000000000000000e+00
	-9.450147523127602e-01,1.143093789204492e-10
	1.000000000000000e+00,0.000000000000000e+00
	0.000000000000000e+00,0.000000000000000e+00
	9.450147523127604e-05,-1.143093789204492e-14
	6.796153934133825e-25,4.381314604107306e-14
	9.450147505892306e-13,-1.464527277500590e-15
	-9.450147617629079e-05,-3.091768087152755e-14
	-9.450147523127603e-05,1.143093789204492e-14
	-6.796153934133825e-25,-4.381314604107306e-14
	-9.450147523127603e-05,1.143093789204492e-14
4		1.096478196143185e+00,0.000000000000000e+00
	-9.450147523127602e-01,1.169719864012610e-10
	1.000000000000000e+00,0.000000000000000e+00
	0.000000000000000e+00,0.000000000000000e+00
	9.450147523127604e-05,-1.169719864012610e-14
	7.116446801379957e-25,4.483368531360332e-14
	9.450147505892306e-13,-1.498640500070374e-15
	-9.450147617629079e-05,-3.163784617340685e-14
	-9.450147523127603e-05,1.169719864012610e-14
	-7.116446801379957e-25,-4.483368531360332e-14
	-9.450147523127603e-05,1.169719864012610e-14
5		1.122018454301963e+00,0.000000000000000e+00
	-9.450147523127602e-01,1.196966139775701e-10
	1.000000000000000e+00,0.000000000000000e+00
	0.000000000000000e+00,0.000000000000000e+00
	9.450147523127604e-05,-1.196966139775701e-14
	7.451834606410467e-25,4.587799599953085e-14
	9.450147505892306e-13,-1.533548321670130e-15
	-9.450147617629079e-05,-3.237478628010371e-14
	-9.450147523127603e-05,1.196966139775701e-14
	-7.451834606410467e-25,-4.587799599953085e-14
	-9.450147523127603e-05,1.196966139775701e-14
6		1.148153621496882e+00,0.000000000000000e+00
	-9.450147523127602e-01,1.224847062829820e-10
	1.000000000000000e+00,0.000000000000000e+00
	0.000000000000000e+00,0.000000000000000e+00
	9.450147523127604e-05,-1.224847062829820e-14
	7.803028751726036e-25,4.694663180620439e-14
	9.450147505892306e-13,-1.569269250888958e-15
	-9.450147617629079e-05,-3.312889192701723e-14
	-9.450147523127603e-05,1.224847062829820e-14
	-7.803028751726036e-25,-4.694663180620439e-14
	-9.450147523127603e-05,1.224847062829820e-14
7		1.174897554939529e+00,0.000000000000000e+00
	-9.450147523127602e-01,1.253377416009419e-10
	1.000000000000000e+00,0.000000000000000e+00
	0.000000000000000e+00,0.000000000000000e+00
	9.450147523127604e-05,-1.253377416009419e-14
	8.170774167194307e-25,4.804015933847371e-14
	9.450147505892306e-13,-1.605822227436344e-15
	-9.450147617629079e-05,-3.390056295094318e-14
	-9.450147523127603e-05,1.253377416009419e-14
	-8.170774167194307e-25,-4.804015933847371e-14
	-9.450147523127603e-05,1.253377416009419e-14
8		1.202264434617413e+00,0.000000000000000e+00
	-9.450147523127602e-01,1.282572326485398e-10
	1.000000000000000e+00,0.000000000000000e+00
	0.000000000000000e+00,0.000000000000000e+00
	9.450147523127604e-05,-1.282572326485398e-14
	8.555850890145973e-25,4.915915839911098e-14
	9.450147505892306e-13,-1.643226632184275e-15
	-9.450147617629079e-05,-3.469020850207272e-14
	-9.450147523127603e-05,1.282572326485398e-14
	-8.555850890145973e-25,-4.915915839911098e-14
	-9.450147523127603e-05,1.282572326485398e-14
9		1.230268770812381e+00,0.000000000000000e+00
	-9.450147523127602e-01,1.312447273785732e-10
	1.000000000000000e+00,0.000000000000000e+00
	0.000000000000000e+00,0.000000000000000e+00
	9.450147523127604e-05,-1.312447273785732e-14
	8.959075719938550e-25,5.030422229622984e-14
	9.450147505892306e-13,-1.681502297443276e-15
	-9.450147617629079e-05,-3.549824726092925e-14
	-9.450147523127603e-05,1.312447273785732e-14
	-8.959075719938550e-25,-5.030422229622984e-14
	-9.450147523127603e-05,1.312447273785732e-14
10		1.258925411794167e+00,0.000000000000000e+00
	-9.450147523127602e-01,1.343018098002920e-10
	1.000000000000000e+00,0.000000000000000e+00
	0.000000000000000e+00,0.000000000000000e+00
	9.450147523127604e-05,-1.343018098002920e-14
	9.381303950497322e-25,5.147595815786527e-14
	9.450147505892306e-13,-1.720669517477700e-15
	-9.450147617629079e-05,-3.632510766035837e-14
	-9.450147523127603e-05,1.343018098002920e-14
	-9.381303950497322e-25,-5.147595815786527e-14
	-9.450147523127603e-05,1.343018098002920e-14
11		1.288249551693134e+00,0.000000000000000e+00
	-9.450147523127602e-01,1.374301008192615e-10
	1.000000000000000e+00,0.000000000000000e+00
	0.000000000000000e+00,0.000000000000000e+00
	9.450147523127604e-05,-1.374301008192615e-14
	9.823431184508432e-25,5.267498725388085e-14
	9.450147505892306e-13,-1.760749059266027e-15
	-9.450147617629079e-05,-3.717122811268867e-14
	-9.450147523127603e-05,1.374301008192615e-14
	-9.823431184508432e-25,-5.267498725388085e-14
	-9.450147523127603e-05,1.374301008192615e-14
12		1.318256738556407e+00,0.000000000000000e+00
	-9.450147523127602e-01,1.406312590967878e-10
	1.000000000000000e+00,0.000000000000000e+00
	0.000000000000000e+00,0.000000000000000e+00
	9.450147523127604e-05,-1.406312590967878e-14
	1.028639523311224e-24,5.390194532537431e-14
	9.450147505892306e-13,-1.801762173511860e-15
	-9.450147617629079e-05,-3.803705724218368e-14
	-9.450147523127603e-05,1.406312590967878e-14
	-1.028639523311224e-24,-5.390194532537431e-14
	-9.450147523127603e-05,1.406312590967878e-14
13		1.348962882591653e+00,0.000000000000000e+00
	-9.450147523127602e-01,1.439069819293620e-10
	1.000000000000000e+00,0.000000000000000e+00
	0.000000000000000e+00,0.000000000000000e+00
	9.450147523127604e-05,-1.439069819293620e-14
	1.077117810512651e-24,5.515748292175589e-14
	9.450147505892306e-13,-1.843730605911227e-15
	-9.450147617629079e-05,-3.892305412290847e-14
	-9.450147523127603e-05,1.439069819293620e-14
	-1.077117810512651e-24,-5.515748292175589e-14
	-9.450147523127603e-05,1.439069819293620e-14
14		1.380384264602885e+00,0.000000000000000e+00
	-9.450147523127602e-01,1.472590061485892e-10
	1.000000000000000e+00,0.000000000000000e+00
	0.000000000000000e+00,0.000000000000000e+00
	9.450147523127604e-05,-1.472590061485893e-14
	1.127880809001877e-24,5.644226574567819e-14
	9.450147505892306e-13,-1.886676608682507e-15
	-9.450147617629079e-05,-3.982968852213675e-14
	-9.450147523127603e-05,1.472590061485892e-14
	-1.127880809001877e-24,-5.644226574567819e-14
	-9.450147523127603e-05,1.472590061485892e-14
15		1.412537544622754e+00,0.000000000000000e+00
	-9.450147523127602e-01,1.506891090420799e-10
	1.000000000000000e+00,0.000000000000000e+00
	0.000000000000000e+00,0.000000000000000e+00
	9.450147523127604e-05,-1.506891090420799e-14
	1.181036193904609e-24,5.775697500600054e-14
	9.450147505892306e-13,-1.930622952364829e-15
	-9.450147617629079e-05,-4.075744114942772e-14
	-9.450147523127603e-05,1.506891090420799e-14
	-1.181036193904609e-24,-5.775697500600054e-14
	-9.450147523127603e-05,1.506891090420799e-14
16		1.445439770745927e+00,0.000000000000000e+00
	-9.450147523127602e-01,1.541991092957907e-10
	1.000000000000000e+00,0.000000000000000e+00
	0.000000000000000e+00,0.000000000000000e+00
	9.450147523127604e-05,-1.541991092957907e-14
	1.236696714918894e-24,5.910230777897500e-14
	9.450147505892306e-13,-1.975592937891311e-15
	-9.450147617629079e-05,-4.170680391150462e-14
	-9.450147523127603e-05,1.541991092957907e-14
	-1.236696714918894e-24,-5.910230777897500e-14
	-9.450147523127603e-05,1.541991092957907e-14
17		1.479108388168207e+00,0.000000000000000e+00
	-9.450147523127602e-01,1.577908679583167e-10
	1.000000000000000e+00,0.000000000000000e+00
	0.000000000000000e+00,0.000000000000000e+00
	9.450147523127604e-05,-1.577908679583167e-14
	1.294980435472338e-24,6.047897737784542e-14
	9.450147505892306e-13,-2.021610408943522e-15
	-9.450147617629079e-05,-4.267828017307022e-14
	-9.450147523127603e-05,1.577908679583167e-14
	-1.294980435472338e-24,-6.047897737784542e-14
	-9.450147523127603e-05,1.577908679583167e-14
18		1.513561248436208e+00,0.000000000000000e+00
	-9.450147523127602e-01,1.614662894276433e-10
	1.000000000000000e+00,0.000000000000000e+00
	0.000000000000000e+00,0.000000000000000e+00
	9.450147523127604e-05,-1.614662894276433e-14
	1.356010983150470e-24,6.188771373105548e-14
	9.450147505892306e-13,-2.068699764593737e-15
	-9.450147617629079e-05,-4.367238502369741e-14
	-9.450147523127603e-05,1.614662894276433e-14
	-1.356010983150470e-24,-6.188771373105548e-14
	-9.450147523127603e-05,1.614662894276433e-14
19		1.548816618912481e+00,0.000000000000000e+00
	-9.450147523127602e-01,1.652273224608834e-10
	1.000000000000000e+00,0.000000000000000e+00
	0.000000000000000e+00,0.000000000000000e+00
	9.450147523127604e-05,-1.652273224608834e-14
	1.419917811927425e-24,6.332926376926647e-14
	9.450147505892306e-13,-2.116885972241607e-15
	-9.450147617629079e-05,-4.468964555093652e-14
	-9.450147523127603e-05,1.652273224608834e-14
	-1.419917811927425e-24,-6.332926376926647e-14
	-9.450147523127603e-05,1.652273224608834e-14
20		1.584893192461113e+00,0.000000000000000e+00
	-9.450147523127602e-01,1.690759612075344e-10
	1.000000000000000e+00,0.000000000000000e+00
	0.000000000000000e+00,0.000000000000000e+00
	9.450147523127604e-05,-1.690759612075344e-14
	1.486836476755175e-24,6.480439182138984e-14
	9.450147505892306e-13,-2.166194580852281e-15
	-9.450147617629079e-05,-4.573060111978412e-14
	-9.450147523127603e-05,1.690759612075345e-14
	-1.486836476755175e-24,-6.480439182138984e-14
	-9.450147523127603e-05,1.690759612075345e-14
21		1.621810097358929e+00,0.000000000000000e+00
	-9.450147523127602e-01,1.730142462668026e-10
	1.000000000000000e+00,0.000000000000000e+00
	0.000000000000000e+00,0.000000000000000e+00
	9.450147523127604e-05,-1.730142462668026e-14
	1.556908921093761e-24,6.631388001984443e-14
	9.450147505892306e-13,-2.216651734502670e-15
	-9.450147617629079e-05,-4.679580365866149e-14
	-9.450147523127603e-05,1.730142462668026e-14
	-1.556908921093761e-24,-6.631388001984443e-14
	-9.450147523127603e-05,1.730142462668026e-14
22		1.659586907437560e+00,0.000000000000000e+00
	-9.450147523127602e-01,1.770442657695557e-10
	1.000000000000000e+00,0.000000000000000e+00
	0.000000000000000e+00,0.000000000000000e+00
	9.450147523127604e-05,-1.770442657695557e-14
	1.630283777992403e-24,6.785852871525353e-14
	9.450147505892306e-13,-2.268284186243574e-15
	-9.450147617629079e-05,-4.788581795205439e-14
	-9.450147523127603e-05,1.770442657695557e-14
	-1.630283777992403e-24,-6.785852871525353e-14
	-9.450147523127603e-05,1.770442657695557e-14
23		1.698243652461743e+00,0.000000000000000e+00
	-9.450147523127602e-01,1.811681564854778e-10
	1.000000000000000e+00,0.000000000000000e+00
	0.000000000000000e+00,0.000000000000000e+00
	9.450147523127604e-05,-1.811681564854778e-14
	1.707116685360120e-24,6.943915690080127e-14
	9.450147505892306e-13,-2.321119312284306e-15
	-9.450147617629079e-05,-4.900122193996919e-14
	-9.450147523127603e-05,1.811681564854778e-14
	-1.707116685360120e-24,-6.943915690080127e-14
	-9.450147523127603e-05,1.811681564854778e-14
24		1.737800828749374e+00,0.000000000000000e+00
	-9.450147523127602e-01,1.853881049560125e-10
	1.000000000000000e+00,0.000000000000000e+00
	0.000000000000000e+00,0.000000000000000e+00
	9.450147523127604e-05,-1.853881049560125e-14
	1.787570616094606e-24,7.105660264647368e-14
	9.450147505892306e-13,-2.375185126508034e-15
	-9.450147617629079e-05,-5.014260702436440e-14
	-9.450147523127603e-05,1.853881049560125e-14
	-1.787570616094606e-24,-7.105660264647368e-14
	-9.450147523127603e-05,1.853881049560125e-14
25		1.778279410038922e+00,0.000000000000000e+00
	-9.450147523127602e-01,1.897063486536965e-10
	1.000000000000000e+00,0.000000000000000e+00
	0.000000000000000e+00,0.000000000000000e+00
	9.450147523127604e-05,-1.897063486536965e-14
	1.871816223769597e-24,7.271172354341461e-14
	9.450147505892306e-13,-2.430510295325152e-15
	-9.450147617629079e-05,-5.131057838271981e-14
	-9.450147523127603e-05,1.897063486536965e-14
	-1.871816223769597e-24,-7.271172354341461e-14
	-9.450147523127603e-05,1.897063486536965e-14
26		1.819700858609982e+00,0.000000000000000e+00
	-9.450147523127602e-01,1.941251771684970e-10
	1.000000000000000e+00,0.000000000000000e+00
	0.000000000000000e+00,0.000000000000000e+00
	9.450147523127604e-05,-1.941251771684971e-14
	1.960032204613975e-24,7.440539715863168e-14
	9.450147505892306e-13,-2.487124152872447e-15
	-9.450147617629079e-05,-5.250575528890953e-14
	-9.450147523127603e-05,1.941251771684970e-14
	-1.960032204613975e-24,-7.440539715863168e-14
	-9.450147523127603e-05,1.941251771684970e-14
27		1.862087136662866e+00,0.000000000000000e+00
	-9.450147523127602e-01,1.986469334217829e-10
	1.000000000000000e+00,0.000000000000000e+00
	0.000000000000000e+00,0.000000000000000e+00
	9.450147523127604e-05,-1.986469334217829e-14
	2.052405676550436e-24,7.613852150029415e-14
	9.450147505892306e-13,-2.545056716566593e-15
	-9.450147617629079e-05,-5.372877144154926e-14
	-9.450147523127603e-05,1.986469334217829e-14
	-2.052405676550436e-24,-7.613852150029415e-14
	-9.450147523127603e-05,1.986469334217829e-14
28		1.905460717963246e+00,0.000000000000000e+00
	-9.450147523127602e-01,2.032740149085719e-10
	1.000000000000000e+00,0.000000000000000e+00
	0.000000000000000e+00,0.000000000000000e+00
	9.450147523127604e-05,-2.032740149085719e-14
	2.149132576097681e-24,7.791201549386853e-14
	9.450147505892306e-13,-2.604338703019672e-15
	-9.450147617629079e-05,-5.498027529999166e-14
	-9.450147523127603e-05,2.032740149085719e-14
	-2.149132576097681e-24,-7.791201549386853e-14
	-9.450147523127603e-05,2.032740149085719e-14
29		1.949844599758044e+00,0.000000000000000e+00
	-9.450147523127602e-01,2.080088749687152e-10
	1.000000000000000e+00,0.000000000000000e+00
	0.000000000000000e+00,0.000000000000000e+00
	9.450147523127604e-05,-2.080088749687152e-14
	2.250418073978055e-24,7.972681946934521e-14
	9.450147505892306e-13,-2.665001544325564e-15
	-9.450147617629079e-05,-5.626093042814812e-14
	-9.450147523127603e-05,2.080088749687152e-14
	-2.250418073978055e-24,-7.972681946934521e-14
	-9.450147523127603e-05,2.080088749687152e-14
30		1.995262314968878e+00,0.000000000000000e+00
	-9.450147523127602e-01,2.128540240876898e-10
	1.000000000000000e+00,0.000000000000000e+00
	0.000000000000000e+00,0.000000000000000e+00
	9.450147523127604e-05,-2.128540240876899e-14
	2.356477010312142e-24,8.158389565981373e-14
	9.450147505892306e-13,-2.727077404725741e-15
	-9.450147617629079e-05,-5.757141584631900e-14
	-9.450147523127603e-05,2.128540240876899e-14
	-2.356477010312142e-24,-8.158389565981373e-14
	-9.450147523127603e-05,2.128540240876899e-14
31		2.041737944669527e+00,0.000000000000000e+00
	-9.450147523127602e-01,2.178120312276918e-10
	1.000000000000000e+00,0.000000000000000e+00
	0.000000000000000e+00,0.000000000000000e+00
	9.450147523127604e-05,-2.178120312276918e-14
	2.467534350323477e-24,8.348422871165161e-14
	9.450147505892306e-13,-2.790599197663043e-15
	-9.450147617629079e-05,-5.891242639121939e-14
	-9.450147523127603e-05,2.178120312276918e-14
	-2.467534350323477e-24,-8.348422871165161e-14
	-9.450147523127603e-05,2.178120312276918e-14
32		2.089296130854037e+00,0.000000000000000e+00
	-9.450147523127602e-01,2.228855251897338e-10
	1.000000000000000e+00,0.000000000000000e+00
	0.000000000000000e+00,0.000000000000000e+00
	9.450147523127604e-05,-2.228855251897339e-14
	2.583825661519943e-24,8.542882620659683e-14
	9.450147505892306e-13,-2.855600603232878e-15
	-9.450147617629079e-05,-6.028467308439057e-14
	-9.450147523127603e-05,2.228855251897339e-14
	-2.583825661519943e-24,-8.542882620659683e-14
	-9.450147523127603e-05,2.228855251897339e-14
33		2.137962089502230e+00,0.000000000000000e+00
	-9.450147523127602e-01,2.280771960074701e-10
	1.000000000000000e+00,0.000000000000000e+00
	0.000000000000000e+00,0.000000000000000e+00
	9.450147523127604e-05,-2.280771960074702e-14
	2.705597613364032e-24,8.741871919598097e-14
	9.450147505892306e-13,-2.922116086040897e-15
	-9.450147617629079e-05,-6.168888350919306e-14
	-9.450147523127603e-05,2.280771960074701e-14
	-2.705597613364032e-24,-8.741871919598097e-14
	-9.450147523127603e-05,2.280771960074701e-14
34		2.187761623949550e+00,0.000000000000000e+00
	-9.450147523127602e-01,2.333897963734882e-10
	1.000000000000000e+00,0.000000000000000e+00
	0.000000000000000e+00,0.000000000000000e+00
	9.450147523127604e-05,-2.333897963734882e-14
	2.833108500491858e-24,8.945496274740637e-14
	9.450147505892306e-13,-2.990180913476528e-15
	-9.450147617629079e-05,-6.312580219658102e-14
	-9.450147523127603e-05,2.333897963734882e-14
	-2.833108500491858e-24,-8.945496274740637e-14
	-9.450147523127603e-05,2.333897963734882e-14
35		2.238721138568337e+00,0.000000000000000e+00
	-9.450147523127602e-01,2.388261430988226e-10
	1.000000000000000e+00,0.000000000000000e+00
	0.000000000000000e+00,0.000000000000000e+00
	9.450147523127604e-05,-2.388261430988226e-14
	2.966628790590700e-24,9.153863650415685e-14
	9.450147505892306e-13,-3.059831174412189e-15
	-9.450147617629079e-05,-6.459619101986240e-14
	-9.450147523127603e-05,2.388261430988226e-14
	-2.966628790590700e-24,-9.153863650415685e-14
	-9.450147523127603e-05,2.388261430988226e-14
36		2.290867652767770e+00,0.000000000000000e+00
	-9.450147523127602e-01,2.443891186064657e-10
	1.000000000000000e+00,0.000000000000000e+00
	0.000000000000000e+00,0.000000000000000e+00
	9.450147523127604e-05,-2.443891186064657e-14
	3.106441698097235e-24,9.367084525763893e-14
	9.450147505892306e-13,-3.131103798338184e-15
	-9.450147617629079e-05,-6.610082959865417e-14
	-9.450147523127603e-05,2.443891186064657e-14
	-3.106441698097235e-24,-9.367084525763893e-14
	-9.450147523127603e-05,2.443891186064657e-14
37		2.344228815319919e+00,0.000000000000000e+00
	-9.450147523127602e-01,2.500816724596665e-10
	1.000000000000000e+00,0.000000000000000e+00
	0.000000000000000e+00,0.000000000000000e+00
	9.450147523127604e-05,-2.500816724596664e-14
	3.252843784933328e-24,9.585271953315683e-14
	9.450147505892306e-13,-3.204036574943118e-15
	-9.450147617629079e-05,-6.764051571224707e-14
	-9.450147523127603e-05,2.500816724596664e-14
	-3.252843784933328e-24,-9.585271953315683e-14
	-9.450147523127603e-05,2.500816724596664e-14
38		2.398832919019488e+00,0.000000000000000e+00
	-9.450147523127602e-01,2.559068229258276e-10
	1.000000000000000e+00,0.000000000000000e+00
