Title: * GA CMOS Amp | W=1.0087529440538486e-05 L=1e-06 Vbias=1.0968221665159386
Date: Mon Sep  8 18:44:35 2025
Plotname: AC Analysis
Flags: complex forward log
No. Variables: 11
No. Points:          901
Offset:    0.0000000000000000e+00
Command: Linear Technology Corporation LTspice
Variables:
	0	frequency	frequency
	1	V(out)	voltage
	2	V(g)	voltage
	3	V(vdd)	voltage
	4	Id(M1)	device_current
	5	Ig(M1)	device_current
	6	Ib(M1)	device_current
	7	Is(M1)	device_current
	8	I(Rload)	device_current
	9	I(Vg)	device_current
	10	I(Vdd)	device_current
Values:
0		1.000000000000000e+00,0.000000000000000e+00
	-2.941131492683634e+00,4.523119116992058e-10
	1.000000000000000e+00,0.000000000000000e+00
	0.000000000000000e+00,0.000000000000000e+00
	2.941131492683633e-04,-4.523119116992057e-14
	5.733670141727857e-24,1.237954345842417e-13
	2.941131496334015e-12,-2.795449504045468e-15
	-2.941131522094948e-04,-7.576879391027562e-14
	-2.941131492683634e-04,4.523119116992058e-14
	-5.733670141727857e-24,-1.237954345842417e-13
	-2.941131492683634e-04,4.523119116992058e-14
1		1.023292992280754e+00,0.000000000000000e+00
	-2.941131492683634e+00,4.628476095669085e-10
	1.000000000000000e+00,0.000000000000000e+00
	0.000000000000000e+00,0.000000000000000e+00
	2.941131492683633e-04,-4.628476095669085e-14
	6.003889690510286e-24,1.266790006864050e-13
	2.941131496334015e-12,-2.860563887764448e-15
	-2.941131522094948e-04,-7.753367584194972e-14
	-2.941131492683634e-04,4.628476095669086e-14
	-6.003889690510286e-24,-1.266790006864050e-13
	-2.941131492683634e-04,4.628476095669086e-14
2		1.047128548050899e+00,0.000000000000000e+00
	-2.941131492683634e+00,4.736287153637159e-10
	1.000000000000000e+00,0.000000000000000e+00
	0.000000000000000e+00,0.000000000000000e+00
	2.941131492683633e-04,-4.736287153637159e-14
	6.286844294281797e-24,1.296297336715271e-13
	2.941131496334015e-12,-2.927194980320760e-15
	-2.941131522094948e-04,-7.933966715483474e-14
	-2.941131492683634e-04,4.736287153637159e-14
	-6.286844294281797e-24,-1.296297336715271e-13
	-2.941131492683634e-04,4.736287153637159e-14
3		1.071519305237606e+00,0.000000000000000e+00
	-2.941131492683634e+00,4.846609453746264e-10
	1.000000000000000e+00,0.000000000000000e+00
	0.000000000000000e+00,0.000000000000000e+00
	2.941131492683633e-04,-4.846609453746264e-14
	6.583134137693380e-24,1.326491980572942e-13
	2.941131496334015e-12,-2.995378110401632e-15
	-2.941131522094948e-04,-8.118772540942990e-14
	-2.941131492683634e-04,4.846609453746264e-14
	-6.583134137693380e-24,-1.326491980572942e-13
	-2.941131492683634e-04,4.846609453746264e-14
4		1.096478196143185e+00,0.000000000000000e+00
	-2.941131492683634e+00,4.959501490340205e-10
	1.000000000000000e+00,0.000000000000000e+00
	0.000000000000000e+00,0.000000000000000e+00
	2.941131492683633e-04,-4.959501490340206e-14
	6.893387691227178e-24,1.357389948036909e-13
	2.941131496334015e-12,-3.065149429605157e-15
	-2.941131522094948e-04,-8.307883047068372e-14
	-2.941131492683634e-04,4.959501490340206e-14
	-6.893387691227178e-24,-1.357389948036909e-13
	-2.941131492683634e-04,4.959501490340206e-14
5		1.122018454301963e+00,0.000000000000000e+00
	-2.941131492683634e+00,5.075023120271089e-10
	1.000000000000000e+00,0.000000000000000e+00
	0.000000000000000e+00,0.000000000000000e+00
	2.941131492683633e-04,-5.075023120271089e-14
	7.218263044266659e-24,1.389007621618507e-13
	2.941131496334015e-12,-3.136545931608306e-15
	-2.941131522094948e-04,-8.501398502753145e-14
	-2.941131492683634e-04,5.075023120271089e-14
	-7.218263044266659e-24,-1.389007621618507e-13
	-2.941131492683634e-04,5.075023120271089e-14
6		1.148153621496882e+00,0.000000000000000e+00
	-2.941131492683634e+00,5.193235594636211e-10
	1.000000000000000e+00,0.000000000000000e+00
	0.000000000000000e+00,0.000000000000000e+00
	2.941131492683633e-04,-5.193235594636213e-14
	7.558449300992411e-24,1.421361765426775e-13
	2.941131496334015e-12,-3.209605471781497e-15
	-2.941131522094948e-04,-8.699421512453388e-14
	-2.941131492683634e-04,5.193235594636211e-14
	-7.558449300992411e-24,-1.421361765426775e-13
	-2.941131492683634e-04,5.193235594636211e-14
7		1.174897554939529e+00,0.000000000000000e+00
	-2.941131492683634e+00,5.314201591254210e-10
	1.000000000000000e+00,0.000000000000000e+00
	0.000000000000000e+00,0.000000000000000e+00
	2.941131492683633e-04,-5.314201591254211e-14
	7.914668042064520e-24,1.454469534057020e-13
	2.941131496334015e-12,-3.284366787259949e-15
	-2.941131522094948e-04,-8.902057070589991e-14
	-2.941131492683634e-04,5.314201591254210e-14
	-7.914668042064520e-24,-1.454469534057020e-13
	-2.941131492683634e-04,5.314201591254210e-14
8		1.202264434617413e+00,0.000000000000000e+00
	-2.941131492683634e+00,5.437985247897665e-10
	1.000000000000000e+00,0.000000000000000e+00
	0.000000000000000e+00,0.000000000000000e+00
	2.941131492683633e-04,-5.437985247897666e-14
	8.287674855191876e-24,1.488348481686402e-13
	2.941131496334015e-12,-3.360869517482763e-15
	-2.941131522094948e-04,-9.109412617218078e-14
	-2.941131492683634e-04,5.437985247897666e-14
	-8.287674855191876e-24,-1.488348481686402e-13
	-2.941131492683634e-04,5.437985247897666e-14
9		1.230268770812381e+00,0.000000000000000e+00
	-2.941131492683634e+00,5.564652196299801e-10
	1.000000000000000e+00,0.000000000000000e+00
	0.000000000000000e+00,0.000000000000000e+00
	2.941131492683633e-04,-5.564652196299801e-14
	8.678260937835019e-24,1.523016571381395e-13
	2.941131496334015e-12,-3.439154225210104e-15
	-2.941131522094948e-04,-9.321598094993142e-14
	-2.941131492683634e-04,5.564652196299802e-14
	-8.678260937835019e-24,-1.523016571381395e-13
	-2.941131492683634e-04,5.564652196299802e-14
10		1.258925411794167e+00,0.000000000000000e+00
	-2.941131492683634e+00,5.694269596953294e-10
	1.000000000000000e+00,0.000000000000000e+00
	0.000000000000000e+00,0.000000000000000e+00
	2.941131492683633e-04,-5.694269596953293e-14
	9.087254775442021e-24,1.558492184622043e-13
	2.941131496334015e-12,-3.519262418030269e-15
	-2.941131522094948e-04,-9.538726007464110e-14
	-2.941131492683634e-04,5.694269596953294e-14
	-9.087254775442021e-24,-1.558492184622043e-13
	-2.941131492683634e-04,5.694269596953294e-14
11		1.288249551693134e+00,0.000000000000000e+00
	-2.941131492683634e+00,5.826906174719660e-10
	1.000000000000000e+00,0.000000000000000e+00
	0.000000000000000e+00,0.000000000000000e+00
	2.941131492683633e-04,-5.826906174719660e-14
	9.515523898777207e-24,1.594794131048060e-13
	2.941131496334015e-12,-3.601236570367396e-15
	-2.941131522094948e-04,-9.760911478724201e-14
	-2.941131492683634e-04,5.826906174719660e-14
	-9.515523898777207e-24,-1.594794131048060e-13
	-2.941131492683634e-04,5.826906174719660e-14
12		1.318256738556407e+00,0.000000000000000e+00
	-2.941131492683634e+00,5.962632255268083e-10
	1.000000000000000e+00,0.000000000000000e+00
	0.000000000000000e+00,0.000000000000000e+00
	2.941131492683633e-04,-5.962632255268083e-14
	9.963976724070210e-24,1.631941658431954e-13
	2.941131496334015e-12,-3.685120146002114e-15
	-2.941131522094948e-04,-9.988272314451248e-14
	-2.941131492683634e-04,5.962632255268083e-14
	-9.963976724070210e-24,-1.631941658431954e-13
	-2.941131492683634e-04,5.962632255268083e-14
13		1.348962882591653e+00,0.000000000000000e+00
	-2.941131492683634e+00,6.101519802363019e-10
	1.000000000000000e+00,0.000000000000000e+00
	0.000000000000000e+00,0.000000000000000e+00
	2.941131492683633e-04,-6.101519802363019e-14
	1.043356447988860e-23,1.669954462884451e-13
	2.941131496334015e-12,-3.770957621116579e-15
	-2.941131522094948e-04,-1.022092906436983e-13
	-2.941131492683634e-04,6.101519802363019e-14
	-1.043356447988860e-23,-1.669954462884451e-13
	-2.941131492683634e-04,6.101519802363019e-14
14		1.380384264602885e+00,0.000000000000000e+00
	-2.941131492683634e+00,6.243642456020330e-10
	1.000000000000000e+00,0.000000000000000e+00
	0.000000000000000e+00,0.000000000000000e+00
	2.941131492683633e-04,-6.243642456020331e-14
	1.092528322482119e-23,1.708852699297630e-13
	2.941131496334015e-12,-3.858794507876298e-15
	-2.941131522094948e-04,-1.045900508616833e-13
	-2.941131492683634e-04,6.243642456020331e-14
	-1.092528322482119e-23,-1.708852699297630e-13
	-2.941131492683634e-04,6.243642456020331e-14
15		1.412537544622754e+00,0.000000000000000e+00
	-2.941131492683634e+00,6.389075571552201e-10
	1.000000000000000e+00,0.000000000000000e+00
	0.000000000000000e+00,0.000000000000000e+00
	2.941131492683633e-04,-6.389075571552200e-14
	1.144017596025186e-23,1.748656992031315e-13
	2.941131496334015e-12,-3.948677378561313e-15
	-2.941131522094948e-04,-1.070262661090482e-13
	-2.941131492683634e-04,6.389075571552201e-14
	-1.144017596025186e-23,-1.748656992031315e-13
	-2.941131492683634e-04,6.389075571552201e-14
16		1.445439770745927e+00,0.000000000000000e+00
	-2.941131492683634e+00,6.537896259521518e-10
	1.000000000000000e+00,0.000000000000000e+00
	0.000000000000000e+00,0.000000000000000e+00
	2.941131492683633e-04,-6.537896259521519e-14
	1.197933484270533e-23,1.789388445848387e-13
	2.941131496334015e-12,-4.040653890259310e-15
	-2.941131522094948e-04,-1.095192280993642e-13
	-2.941131492683634e-04,6.537896259521519e-14
	-1.197933484270533e-23,-1.789388445848387e-13
	-2.941131492683634e-04,6.537896259521519e-14
17		1.479108388168207e+00,0.000000000000000e+00
	-2.941131492683634e+00,6.690183426626924e-10
	1.000000000000000e+00,0.000000000000000e+00
	0.000000000000000e+00,0.000000000000000e+00
	2.941131492683633e-04,-6.690183426626924e-14
	1.254390350045758e-23,1.831068657104804e-13
	2.941131496334015e-12,-4.134772810134303e-15
	-2.941131522094948e-04,-1.120702586340768e-13
	-2.941131492683634e-04,6.690183426626924e-14
	-1.254390350045758e-23,-1.831068657104804e-13
	-2.941131492683634e-04,6.690183426626924e-14
18		1.513561248436208e+00,0.000000000000000e+00
	-2.941131492683634e+00,6.846017817540174e-10
	1.000000000000000e+00,0.000000000000000e+00
	0.000000000000000e+00,0.000000000000000e+00
	2.941131492683633e-04,-6.846017817540176e-14
	1.313507945932475e-23,1.873719725200277e-13
	2.941131496334015e-12,-4.231084041283444e-15
	-2.941131522094948e-04,-1.146807103033425e-13
	-2.941131492683634e-04,6.846017817540174e-14
	-1.313507945932475e-23,-1.873719725200277e-13
	-2.941131492683634e-04,6.846017817540174e-14
19		1.548816618912481e+00,0.000000000000000e+00
	-2.941131492683634e+00,7.005482057718044e-10
	1.000000000000000e+00,0.000000000000000e+00
	0.000000000000000e+00,0.000000000000000e+00
	2.941131492683633e-04,-7.005482057718042e-14
	1.375411668277592e-23,1.917364264295664e-13
	2.941131496334015e-12,-4.329638649196295e-15
	-2.941131522094948e-04,-1.173519672031896e-13
	-2.941131492683634e-04,7.005482057718044e-14
	-1.375411668277592e-23,-1.917364264295664e-13
	-2.941131492683634e-04,7.005482057718044e-14
20		1.584893192461113e+00,0.000000000000000e+00
	-2.941131492683634e+00,7.168660697211430e-10
	1.000000000000000e+00,0.000000000000000e+00
	0.000000000000000e+00,0.000000000000000e+00
	2.941131492683633e-04,-7.168660697211432e-14
	1.440232823175780e-23,1.962025415303296e-13
	2.941131496334015e-12,-4.430488888830484e-15
	-2.941131522094948e-04,-1.200854456693848e-13
	-2.941131492683634e-04,7.168660697211430e-14
	-1.440232823175780e-23,-1.962025415303296e-13
	-2.941131492683634e-04,7.168660697211430e-14
21		1.621810097358929e+00,0.000000000000000e+00
	-2.941131492683634e+00,7.335640255494922e-10
	1.000000000000000e+00,0.000000000000000e+00
	0.000000000000000e+00,0.000000000000000e+00
	2.941131492683633e-04,-7.335640255494923e-14
	1.508108904987302e-23,2.007726858156599e-13
	2.941131496334015e-12,-4.533688232317983e-15
	-2.941131522094948e-04,-1.228825950283927e-13
	-2.941131492683634e-04,7.335640255494923e-14
	-1.508108904987302e-23,-2.007726858156599e-13
	-2.941131492683634e-04,7.335640255494923e-14
22		1.659586907437560e+00,0.000000000000000e+00
	-2.941131492683634e+00,7.506509267340555e-10
	1.000000000000000e+00,0.000000000000000e+00
	0.000000000000000e+00,0.000000000000000e+00
	2.941131492683633e-04,-7.506509267340554e-14
	1.579183887981986e-23,2.054492824365504e-13
	2.941131496334015e-12,-4.639291397316713e-15
	-2.941131522094948e-04,-1.257448983658281e-13
	-2.941131492683634e-04,7.506509267340555e-14
	-1.579183887981986e-23,-2.054492824365504e-13
	-2.941131492683634e-04,7.506509267340555e-14
23		1.698243652461743e+00,0.000000000000000e+00
	-2.941131492683634e+00,7.681358329760129e-10
	1.000000000000000e+00,0.000000000000000e+00
	0.000000000000000e+00,0.000000000000000e+00
	2.941131492683633e-04,-7.681358329760129e-14
	1.653608531727951e-23,2.102348109864314e-13
	2.941131496334015e-12,-4.747354376022568e-15
	-2.941131522094948e-04,-1.286738733128076e-13
	-2.941131492683634e-04,7.681358329760129e-14
	-1.653608531727951e-23,-2.102348109864314e-13
	-2.941131492683634e-04,7.681358329760129e-14
24		1.737800828749374e+00,0.000000000000000e+00
	-2.941131492683634e+00,7.860280150040936e-10
	1.000000000000000e+00,0.000000000000000e+00
	0.000000000000000e+00,0.000000000000000e+00
	2.941131492683633e-04,-7.860280150040935e-14
	1.731540700872869e-23,2.151318088158841e-13
	2.941131496334015e-12,-4.857934464857238e-15
	-2.941131522094948e-04,-1.316710728506175e-13
	-2.941131492683634e-04,7.860280150040937e-14
	-1.731540700872869e-23,-2.151318088158841e-13
	-2.941131492683634e-04,7.860280150040937e-14
25		1.778279410038922e+00,0.000000000000000e+00
	-2.941131492683634e+00,8.043369594900404e-10
	1.000000000000000e+00,0.000000000000000e+00
	0.000000000000000e+00,0.000000000000000e+00
	2.941131492683633e-04,-8.043369594900404e-14
	1.813145699996044e-23,2.201428723779772e-13
	2.941131496334015e-12,-4.971090294847614e-15
	-2.941131522094948e-04,-1.347380861341256e-13
	-2.941131492683634e-04,8.043369594900404e-14
	-1.813145699996044e-23,-2.201428723779772e-13
	-2.941131492683634e-04,8.043369594900404e-14
26		1.819700858609982e+00,0.000000000000000e+00
	-2.941131492683634e+00,8.230723740785672e-10
	1.000000000000000e+00,0.000000000000000e+00
	0.000000000000000e+00,0.000000000000000e+00
	2.941131492683633e-04,-8.230723740785672e-14
	1.898596624241590e-23,2.252706586049405e-13
	2.941131496334015e-12,-5.086881862712416e-15
	-2.941131522094948e-04,-1.378765393343713e-13
	-2.941131492683634e-04,8.230723740785672e-14
	-1.898596624241590e-23,-2.252706586049405e-13
	-2.941131492683634e-04,8.230723740785672e-14
27		1.862087136662866e+00,0.000000000000000e+00
	-2.941131492683634e+00,8.422441925344810e-10
	1.000000000000000e+00,0.000000000000000e+00
	0.000000000000000e+00,0.000000000000000e+00
	2.941131492683633e-04,-8.422441925344811e-14
	1.988074726476434e-23,2.305178863169057e-13
	2.941131496334015e-12,-5.205370562673668e-15
	-2.941131522094948e-04,-1.410880965007839e-13
	-2.941131492683634e-04,8.422441925344811e-14
	-1.988074726476434e-23,-2.305178863169057e-13
	-2.941131492683634e-04,8.422441925344811e-14
28		1.905460717963246e+00,0.000000000000000e+00
	-2.941131492683634e+00,8.618625800096967e-10
	1.000000000000000e+00,0.000000000000000e+00
	0.000000000000000e+00,0.000000000000000e+00
	2.941131492683633e-04,-8.618625800096967e-14
	2.081769801751958e-23,2.358873376634612e-13
	2.941131496334015e-12,-5.326619219008510e-15
	-2.941131522094948e-04,-1.443744604434830e-13
	-2.941131492683634e-04,8.618625800096967e-14
	-2.081769801751958e-23,-2.358873376634612e-13
	-2.941131492683634e-04,8.618625800096967e-14
29		1.949844599758044e+00,0.000000000000000e+00
	-2.941131492683634e+00,8.819379384329336e-10
	1.000000000000000e+00,0.000000000000000e+00
	0.000000000000000e+00,0.000000000000000e+00
	2.941131492683633e-04,-8.819379384329335e-14
	2.179880589884737e-23,2.413818595987838e-13
	2.941131496334015e-12,-5.450692119359382e-15
	-2.941131522094948e-04,-1.477373736361311e-13
	-2.941131492683634e-04,8.819379384329336e-14
	-2.179880589884737e-23,-2.413818595987838e-13
	-2.941131492683634e-04,8.819379384329336e-14
30		1.995262314968878e+00,0.000000000000000e+00
	-2.941131492683634e+00,9.024809120249559e-10
	1.000000000000000e+00,0.000000000000000e+00
	0.000000000000000e+00,0.000000000000000e+00
	2.941131492683633e-04,-9.024809120249559e-14
	2.282615197010342e-23,2.470043653911323e-13
	2.941131496334015e-12,-5.577655048820379e-15
	-2.941131522094948e-04,-1.511786191398163e-13
	-2.941131492683634e-04,9.024809120249560e-14
	-2.282615197010342e-23,-2.470043653911323e-13
	-2.941131492683634e-04,9.024809120249560e-14
31		2.041737944669527e+00,0.000000000000000e+00
	-2.941131492683634e+00,9.235023929422811e-10
	1.000000000000000e+00,0.000000000000000e+00
	0.000000000000000e+00,0.000000000000000e+00
	2.941131492683633e-04,-9.235023929422811e-14
	2.390191537004357e-23,2.527578361675005e-13
	2.941131496334015e-12,-5.707575324817261e-15
	-2.941131522094948e-04,-1.547000215484552e-13
	-2.941131492683634e-04,9.235023929422811e-14
	-2.390191537004357e-23,-2.527578361675005e-13
	-2.941131492683634e-04,9.235023929422811e-14
32		2.089296130854037e+00,0.000000000000000e+00
	-2.941131492683634e+00,9.450135270523436e-10
	1.000000000000000e+00,0.000000000000000e+00
	0.000000000000000e+00,0.000000000000000e+00
	2.941131492683633e-04,-9.450135270523435e-14
	2.502837793706920e-23,2.586453224942502e-13
	2.941131496334015e-12,-5.840521832800096e-15
	-2.941131522094948e-04,-1.583034479562158e-13
	-2.941131492683634e-04,9.450135270523436e-14
	-2.502837793706920e-23,-2.586453224942502e-13
	-2.941131492683634e-04,9.450135270523436e-14
33		2.137962089502230e+00,0.000000000000000e+00
	-2.941131492683634e+00,9.670257198431819e-10
	1.000000000000000e+00,0.000000000000000e+00
	0.000000000000000e+00,0.000000000000000e+00
	2.941131492683633e-04,-9.670257198431820e-14
	2.620792904931244e-23,2.646699459945620e-13
	2.941131496334015e-12,-5.976565062767046e-15
	-2.941131522094948e-04,-1.619908089474767e-13
	-2.941131492683634e-04,9.670257198431820e-14
	-2.620792904931244e-23,-2.646699459945620e-13
	-2.941131492683634e-04,9.670257198431820e-14
34		2.187761623949550e+00,0.000000000000000e+00
	-2.941131492683634e+00,9.895506424707799e-10
	1.000000000000000e+00,0.000000000000000e+00
	0.000000000000000e+00,0.000000000000000e+00
	2.941131492683633e-04,-9.895506424707800e-14
	2.744307069282753e-23,2.708349010035609e-13
	2.941131496334015e-12,-6.115777146639498e-15
	-2.941131522094948e-04,-1.657640596098434e-13
	-2.941131492683634e-04,9.895506424707800e-14
	-2.744307069282753e-23,-2.708349010035609e-13
	-2.941131492683634e-04,9.895506424707800e-14
35		2.238721138568337e+00,0.000000000000000e+00
	-2.941131492683634e+00,1.012600237947267e-09
	1.000000000000000e+00,0.000000000000000e+00
	0.000000000000000e+00,0.000000000000000e+00
	2.941131492683633e-04,-1.012600237947267e-13
	2.873642276863869e-23,2.771434562619956e-13
	2.941131496334015e-12,-6.258231896506983e-15
	-2.941131522094948e-04,-1.696252005707619e-13
	-2.941131492683634e-04,1.012600237947267e-13
	-2.873642276863869e-23,-2.771434562619956e-13
	-2.941131492683634e-04,1.012600237947267e-13
36		2.290867652767770e+00,0.000000000000000e+00
	-2.941131492683634e+00,1.036186727473263e-09
	1.000000000000000e+00,0.000000000000000e+00
	0.000000000000000e+00,0.000000000000000e+00
	2.941131492683633e-04,-1.036186727473263e-13
	3.009072864990144e-23,2.835989566493678e-13
	2.941131496334015e-12,-6.404004843763493e-15
	-2.941131522094948e-04,-1.735762790582781e-13
	-2.941131492683634e-04,1.036186727473263e-13
	-3.009072864990144e-23,-2.835989566493678e-13
	-2.941131492683634e-04,1.036186727473263e-13
37		2.344228815319919e+00,0.000000000000000e+00
	-2.941131492683634e+00,1.060322616917717e-09
	1.000000000000000e+00,0.000000000000000e+00
	0.000000000000000e+00,0.000000000000000e+00
	2.941131492683633e-04,-1.060322616917717e-13
	3.150886100096489e-23,2.902048249574314e-13
	2.941131496334015e-12,-6.553173279155178e-15
	-2.941131522094948e-04,-1.776193899865045e-13
	-2.941131492683634e-04,1.060322616917717e-13
	-3.150886100096489e-23,-2.902048249574314e-13
	-2.941131492683634e-04,1.060322616917717e-13
38		2.398832919019488e+00,0.000000000000000e+00
	-2.941131492683634e+00,1.085020703448691e-09
	1.000000000000000e+00,0.000000000000000e+00
	0.000000000000000e+00,0.000000000000000e+00
