Title: * GA CMOS Amp | W=5e-05 L=7.706941773431628e-07 Vbias=1.5
Date: Sat Sep  6 22:08:58 2025
Plotname: AC Analysis
Flags: complex forward log
No. Variables: 13
No. Points:          901
Offset:    0.0000000000000000e+00
Command: Linear Technology Corporation LTspice
Variables:
	0	frequency	frequency
	1	V(out)	voltage
	2	V(g)	voltage
	3	V(vdd)	voltage
	4	V(m1#dbody)	voltage
	5	V(m1#sbody)	voltage
	6	Id(M1)	device_current
	7	Ig(M1)	device_current
	8	Ib(M1)	device_current
	9	Is(M1)	device_current
	10	I(Rload)	device_current
	11	I(Vg)	device_current
	12	I(Vdd)	device_current
Values:
0		1.000000000000000e+00,0.000000000000000e+00
	1.545040153441894e-02,8.148751437945463e-10
	1.000000000000000e+00,0.000000000000000e+00
	0.000000000000000e+00,0.000000000000000e+00
	1.386049845738811e-03,7.337598922504646e-14
	1.386049845608609e-03,5.436236495239506e-14
	-1.545040153441877e-06,-8.148751437945539e-14
	8.612375249444039e-04,9.974051140306278e-12
	-7.392265848927403e-04,-3.130595505923391e-14
	-1.204658998982217e-04,-9.861257670867588e-12
	1.545040153441894e-06,8.148751437945464e-14
	-8.612375249444221e-04,-9.974051140306277e-12
	1.545040153441894e-06,8.148751437945464e-14
1		1.023292992280754e+00,0.000000000000000e+00
	1.545040153441894e-02,8.338560242287311e-10
	1.000000000000000e+00,0.000000000000000e+00
	0.000000000000000e+00,0.000000000000000e+00
	1.386049845738811e-03,7.508513557565814e-14
	1.386049845608609e-03,5.562862709959472e-14
	-1.545040153441877e-06,-8.338560242287259e-14
	8.612375249444039e-04,1.020637663652528e-11
	-7.392265848927403e-04,-3.203516442877027e-14
	-1.204658998982217e-04,-1.009095586967364e-11
	1.545040153441894e-06,8.338560242287311e-14
	-8.612375249444221e-04,-1.020637663652528e-11
	1.545040153441894e-06,8.338560242287311e-14
2		1.047128548050899e+00,0.000000000000000e+00
	1.545040153441894e-02,8.532790261643512e-10
	1.000000000000000e+00,0.000000000000000e+00
	0.000000000000000e+00,0.000000000000000e+00
	1.386049845738811e-03,7.683409305902126e-14
	1.386049845608609e-03,5.692438428121448e-14
	-1.545040153441877e-06,-8.532790261643529e-14
	8.612375249444039e-04,1.044411368873433e-11
	-7.392265848927403e-04,-3.278135926652228e-14
	-1.204658998982217e-04,-1.032600442685137e-11
	1.545040153441894e-06,8.532790261643512e-14
	-8.612375249444221e-04,-1.044411368873433e-11
	1.545040153441894e-06,8.532790261643512e-14
3		1.071519305237606e+00,0.000000000000000e+00
	1.545040153441894e-02,8.731544479341268e-10
	1.000000000000000e+00,0.000000000000000e+00
	0.000000000000000e+00,0.000000000000000e+00
	1.386049845738811e-03,7.862378899554389e-14
	1.386049845608609e-03,5.825032352486357e-14
	-1.545040153441877e-06,-8.731544479341208e-14
	8.612375249444039e-04,1.068738834826534e-11
	-7.392265848927403e-04,-3.354493521487005e-14
	-1.204658998982217e-04,-1.056652796825705e-11
	1.545040153441894e-06,8.731544479341268e-14
	-8.612375249444221e-04,-1.068738834826533e-11
	1.545040153441894e-06,8.731544479341268e-14
4		1.096478196143185e+00,0.000000000000000e+00
	1.545040153441894e-02,8.934928277497622e-10
	1.000000000000000e+00,0.000000000000000e+00
	0.000000000000000e+00,0.000000000000000e+00
	1.386049845738811e-03,8.045517230570069e-14
	1.386049845608609e-03,5.960714786107962e-14
	-1.545040153441877e-06,-8.934928277497653e-14
	8.612375249444039e-04,1.093632960256290e-11
	-7.392265848927403e-04,-3.432629713188840e-14
	-1.204658998982217e-04,-1.081265402265603e-11
	1.545040153441894e-06,8.934928277497623e-14
	-8.612375249444221e-04,-1.093632960256290e-11
	1.545040153441894e-06,8.934928277497623e-14
5		1.122018454301963e+00,0.000000000000000e+00
	1.545040153441894e-02,9.143049492894470e-10
	1.000000000000000e+00,0.000000000000000e+00
	0.000000000000000e+00,0.000000000000000e+00
	1.386049845738811e-03,8.232921401316409e-14
	1.386049845608609e-03,6.099557669608549e-14
	-1.545040153441877e-06,-9.143049492894424e-14
	8.612375249444039e-04,1.119106944357518e-11
	-7.392265848927403e-04,-3.512585930600834e-14
	-1.204658998982217e-04,-1.106451308934023e-11
	1.545040153441894e-06,9.143049492894470e-14
	-8.612375249444221e-04,-1.119106944357518e-11
	1.545040153441894e-06,9.143049492894470e-14
6		1.148153621496882e+00,0.000000000000000e+00
	1.545040153441894e-02,9.356018474155014e-10
	1.000000000000000e+00,0.000000000000000e+00
	0.000000000000000e+00,0.000000000000000e+00
	1.386049845738811e-03,8.424690775965335e-14
	1.386049845608609e-03,6.241634619322762e-14
	-1.545040153441891e-06,-9.356018474154851e-14
	8.612375249444039e-04,1.145174293773776e-11
	-7.392265848927403e-04,-3.594404567567808e-14
	-1.204658998982217e-04,-1.132223870732053e-11
	1.545040153441894e-06,9.356018474155014e-14
	-8.612375249444221e-04,-1.145174293773776e-11
	1.545040153441894e-06,9.356018474155014e-14
7		1.174897554939529e+00,0.000000000000000e+00
	1.545040153441894e-02,9.573948140252100e-10
	1.000000000000000e+00,0.000000000000000e+00
	0.000000000000000e+00,0.000000000000000e+00
	1.386049845738811e-03,8.620927033177630e-14
	1.386049845608609e-03,6.387020966329932e-14
	-1.545040153441891e-06,-9.573948140251956e-14
	8.612375249444039e-04,1.171848829758767e-11
	-7.392265848927403e-04,-3.678129005414070e-14
	-1.204658998982217e-04,-1.158596752613101e-11
	1.545040153441894e-06,9.573948140252101e-14
	-8.612375249444221e-04,-1.171848829758767e-11
	1.545040153441894e-06,9.573948140252101e-14
8		1.202264434617413e+00,0.000000000000000e+00
	1.545040153441894e-02,9.796954040379331e-10
	1.000000000000000e+00,0.000000000000000e+00
	0.000000000000000e+00,0.000000000000000e+00
	1.386049845738811e-03,8.821734220014387e-14
	1.386049845608609e-03,6.535793796395672e-14
	-1.545040153441891e-06,-9.796954040379287e-14
	8.612375249444039e-04,1.199144695504549e-11
	-7.392265848927403e-04,-3.763803635944800e-14
	-1.204658998982217e-04,-1.185583937828224e-11
	1.545040153441894e-06,9.796954040379332e-14
	-8.612375249444221e-04,-1.199144695504548e-11
	1.545040153441894e-06,9.796954040379332e-14
9		1.230268770812381e+00,0.000000000000000e+00
	1.545040153441894e-02,1.002515441521679e-09
	1.000000000000000e+00,0.000000000000000e+00
	0.000000000000000e+00,0.000000000000000e+00
	1.386049845738811e-03,9.027218807104043e-14
	1.386049845608609e-03,6.688031990843715e-14
	-1.545040153441891e-06,-1.002515441521673e-13
	8.612375249444039e-04,1.227076363640443e-11
	-7.392265848927403e-04,-3.851473884983134e-14
	-1.204658998982217e-04,-1.213199735340244e-11
	1.545040153441894e-06,1.002515441521679e-13
	-8.612375249444221e-04,-1.227076363640443e-11
	1.545040153441894e-06,1.002515441521679e-13
10		1.258925411794167e+00,0.000000000000000e+00
	1.545040153441894e-02,1.025867025962380e-09
	1.000000000000000e+00,0.000000000000000e+00
	0.000000000000000e+00,0.000000000000000e+00
	1.386049845738811e-03,9.237489745094595e-14
	1.386049845608609e-03,6.843816268379874e-14
	-1.545040153441891e-06,-1.025867025962376e-13
	8.612375249444039e-04,1.255658643906616e-11
	-7.392265848927403e-04,-3.941186236455573e-14
	-1.204658998982217e-04,-1.241458787410537e-11
	1.545040153441894e-06,1.025867025962380e-13
	-8.612375249444221e-04,-1.255658643906616e-11
	1.545040153441894e-06,1.025867025962380e-13
11		1.288249551693134e+00,0.000000000000000e+00
	1.545040153441894e-02,1.049762538679202e-09
	1.000000000000000e+00,0.000000000000000e+00
	0.000000000000000e+00,0.000000000000000e+00
	1.386049845738811e-03,9.452658522420629e-14
	1.386049845608609e-03,7.003229227890144e-14
	-1.545040153441891e-06,-1.049762538679192e-13
	8.612375249444039e-04,1.284906691006395e-11
	-7.392265848927403e-04,-4.032988257038347e-14
	-1.204658998982217e-04,-1.270376077362565e-11
	1.545040153441894e-06,1.049762538679202e-13
	-8.612375249444221e-04,-1.284906691006395e-11
	1.545040153441894e-06,1.049762538679202e-13
12		1.318256738556407e+00,0.000000000000000e+00
	1.545040153441894e-02,1.074214649389282e-09
	1.000000000000000e+00,0.000000000000000e+00
	0.000000000000000e+00,0.000000000000000e+00
	1.386049845738811e-03,9.672839224415980e-14
	1.386049845608609e-03,7.166355392235746e-14
	-1.545040153441891e-06,-1.074214649389267e-13
	8.612375249444039e-04,1.314836012641496e-11
	-7.392265848927403e-04,-4.126928621377915e-14
	-1.204658998982217e-04,-1.299966937526226e-11
	1.545040153441894e-06,1.074214649389282e-13
	-8.612375249444221e-04,-1.314836012641496e-11
	1.545040153441894e-06,1.074214649389282e-13
13		1.348962882591653e+00,0.000000000000000e+00
	1.545040153441894e-02,1.099236322925379e-09
	1.000000000000000e+00,0.000000000000000e+00
	0.000000000000000e+00,0.000000000000000e+00
	1.386049845738811e-03,9.898148593803274e-14
	1.386049845608609e-03,7.333281253068229e-14
	-1.545040153441891e-06,-1.099236322925362e-13
	8.612375249444039e-04,1.345462477734412e-11
	-7.392265848927403e-04,-4.223057137898892e-14
	-1.204658998982217e-04,-1.330247057367260e-11
	1.545040153441894e-06,1.099236322925379e-13
	-8.612375249444221e-04,-1.345462477734412e-11
	1.545040153441894e-06,1.099236322925379e-13
14		1.380384264602885e+00,0.000000000000000e+00
	1.545040153441894e-02,1.124840826110005e-09
	1.000000000000000e+00,0.000000000000000e+00
	0.000000000000000e+00,0.000000000000000e+00
	1.386049845738811e-03,1.012870609259249e-13
	1.386049845608609e-03,7.504095316688543e-14
	-1.545040153441891e-06,-1.124840826110014e-13
	8.612375249444039e-04,1.376802324842325e-11
	-7.392265848927403e-04,-4.321424775213152e-14
	-1.204658998982217e-04,-1.361232491806011e-11
	1.545040153441894e-06,1.124840826110005e-13
	-8.612375249444221e-04,-1.376802324842324e-11
	1.545040153441894e-06,1.124840826110005e-13
15		1.412537544622754e+00,0.000000000000000e+00
	1.545040153441894e-02,1.151041734789662e-09
	1.000000000000000e+00,0.000000000000000e+00
	0.000000000000000e+00,0.000000000000000e+00
	1.386049845738811e-03,1.036463396542128e-13
	1.386049845608609e-03,7.678888150974220e-14
	-1.545040153441891e-06,-1.151041734789657e-13
	8.612375249444039e-04,1.408872170767001e-11
	-7.392265848927403e-04,-4.422083689144055e-14
	-1.204658998982217e-04,-1.392939669729960e-11
	1.545040153441894e-06,1.151041734789662e-13
	-8.612375249444221e-04,-1.408872170767001e-11
	1.545040153441894e-06,1.151041734789662e-13
16		1.445439770745927e+00,0.000000000000000e+00
	1.545040153441894e-02,1.177852941032944e-09
	1.000000000000000e+00,0.000000000000000e+00
	0.000000000000000e+00,0.000000000000000e+00
	1.386049845738811e-03,1.060605730437067e-13
	1.386049845608609e-03,7.857752433399629e-14
	-1.545040153441891e-06,-1.177852941032909e-13
	8.612375249444039e-04,1.441689019365246e-11
	-7.392265848927403e-04,-4.525087250380133e-14
	-1.204658998982217e-04,-1.425385402704537e-11
	1.545040153441894e-06,1.177852941032944e-13
	-8.612375249444221e-04,-1.441689019365246e-11
	1.545040153441894e-06,1.177852941032944e-13
17		1.479108388168207e+00,0.000000000000000e+00
	1.545040153441894e-02,1.205288660496287e-09
	1.000000000000000e+00,0.000000000000000e+00
	0.000000000000000e+00,0.000000000000000e+00
	1.386049845738811e-03,1.085310411529062e-13
	1.386049845608609e-03,8.040783000174888e-14
	-1.545040153441891e-06,-1.205288660496306e-13
	8.612375249444039e-04,1.475270270564569e-11
	-7.392265848927403e-04,-4.630490072772979e-14
	-1.204658998982217e-04,-1.458586893886833e-11
	1.545040153441894e-06,1.205288660496287e-13
	-8.612375249444221e-04,-1.475270270564568e-11
	1.545040153441894e-06,1.205288660496287e-13
18		1.513561248436208e+00,0.000000000000000e+00
	1.545040153441894e-02,1.233363439961307e-09
	1.000000000000000e+00,0.000000000000000e+00
	0.000000000000000e+00,0.000000000000000e+00
	1.386049845738811e-03,1.110590538567030e-13
	1.386049845608609e-03,8.228076896529175e-14
	-1.545040153441891e-06,-1.233363439961313e-13
	8.612375249444039e-04,1.509633729588855e-11
	-7.392265848927403e-04,-4.738348042294186e-14
	-1.204658998982217e-04,-1.492561747146947e-11
	1.545040153441894e-06,1.233363439961308e-13
	-8.612375249444221e-04,-1.509633729588855e-11
	1.545040153441894e-06,1.233363439961308e-13
19		1.548816618912481e+00,0.000000000000000e+00
	1.545040153441894e-02,1.262092165047691e-09
	1.000000000000000e+00,0.000000000000000e+00
	0.000000000000000e+00,0.000000000000000e+00
	1.386049845738811e-03,1.136459515408950e-13
	1.386049845608609e-03,8.419733428165486e-14
	-1.545040153441891e-06,-1.262092165047684e-13
	8.612375249444039e-04,1.544797616398934e-11
	-7.392265848927403e-04,-4.848718346666872e-14
	-1.204658998982217e-04,-1.527327976401790e-11
	1.545040153441894e-06,1.262092165047691e-13
	-8.612375249444221e-04,-1.544797616398934e-11
	1.545040153441894e-06,1.262092165047691e-13
20		1.584893192461113e+00,0.000000000000000e+00
	1.545040153441894e-02,1.291490068105747e-09
	1.000000000000000e+00,0.000000000000000e+00
	0.000000000000000e+00,0.000000000000000e+00
	1.386049845738811e-03,1.162931058128761e-13
	1.386049845608609e-03,8.615854213913753e-14
	-1.545040153441891e-06,-1.291490068105741e-13
	8.612375249444039e-04,1.580780575353042e-11
	-7.392265848927403e-04,-4.961659505687336e-14
	-1.204658998982217e-04,-1.562904015166297e-11
	1.545040153441894e-06,1.291490068105747e-13
	-8.612375249444221e-04,-1.580780575353042e-11
	1.545040153441894e-06,1.291490068105747e-13
21		1.621810097358929e+00,0.000000000000000e+00
	1.545040153441894e-02,1.321572736292805e-09
	1.000000000000000e+00,0.000000000000000e+00
	0.000000000000000e+00,0.000000000000000e+00
	1.386049845738811e-03,1.190019202288803e-13
	1.386049845608609e-03,8.816543239610542e-14
	-1.545040153441891e-06,-1.321572736292803e-13
	8.612375249444039e-04,1.617601685092306e-11
	-7.392265848927403e-04,-5.077231402253038e-14
	-1.204658998982217e-04,-1.599308726327125e-11
	1.545040153441894e-06,1.321572736292805e-13
	-8.612375249444221e-04,-1.617601685092306e-11
	1.545040153441894e-06,1.321572736292805e-13
22		1.659586907437560e+00,0.000000000000000e+00
	1.545040153441894e-02,1.352356119837728e-09
	1.000000000000000e+00,0.000000000000000e+00
	0.000000000000000e+00,0.000000000000000e+00
	1.386049845738811e-03,1.217738310381665e-13
	1.386049845608609e-03,9.021906913233726e-14
	-1.545040153441891e-06,-1.352356119837743e-13
	8.612375249444039e-04,1.655280468656497e-11
	-7.392265848927403e-04,-5.195495314113321e-14
	-1.204658998982217e-04,-1.636561412144006e-11
	1.545040153441894e-06,1.352356119837728e-13
	-8.612375249444221e-04,-1.655280468656496e-11
	1.545040153441894e-06,1.352356119837728e-13
23		1.698243652461743e+00,0.000000000000000e+00
	1.545040153441894e-02,1.383856540497939e-09
	1.000000000000000e+00,0.000000000000000e+00
	0.000000000000000e+00,0.000000000000000e+00
	1.386049845738811e-03,1.246103079445364e-13
	1.386049845608609e-03,9.232054121321362e-14
	-1.545040153441891e-06,-1.383856540497932e-13
	8.612375249444039e-04,1.693836903835395e-11
	-7.392265848927403e-04,-5.316513946359655e-14
	-1.204658998982217e-04,-1.674681824484056e-11
	1.545040153441894e-06,1.383856540497939e-13
	-8.612375249444221e-04,-1.693836903835395e-11
	1.545040153441894e-06,1.383856540497939e-13
24		1.737800828749374e+00,0.000000000000000e+00
	1.545040153441895e-02,1.416090700213428e-09
	1.000000000000000e+00,0.000000000000000e+00
	0.000000000000000e+00,0.000000000000000e+00
	1.386049845738811e-03,1.275128548855909e-13
	1.386049845608609e-03,9.447096286704811e-14
	-1.545040153441877e-06,-1.416090700213434e-13
	8.612375249444039e-04,1.733291433761289e-11
	-7.392265848927403e-04,-5.440351464672736e-14
	-1.204658998982217e-04,-1.713690175294482e-11
	1.545040153441895e-06,1.416090700213428e-13
	-8.612375249444221e-04,-1.733291433761289e-11
	1.545040153441895e-06,1.416090700213428e-13
25		1.778279410038922e+00,0.000000000000000e+00
	1.545040153441895e-02,1.449075689962348e-09
	1.000000000000000e+00,0.000000000000000e+00
	0.000000000000000e+00,0.000000000000000e+00
	1.386049845738811e-03,1.304830108301379e-13
	1.386049845608609e-03,9.667147427586570e-14
	-1.545040153441877e-06,-1.449075689962333e-13
	8.612375249444039e-04,1.773664977748188e-11
	-7.392265848927403e-04,-5.567073529343950e-14
	-1.204658998982217e-04,-1.753607147319221e-11
	1.545040153441895e-06,1.449075689962348e-13
	-8.612375249444221e-04,-1.773664977748188e-11
	1.545040153441895e-06,1.449075689962348e-13
26		1.819700858609982e+00,0.000000000000000e+00
	1.545040153441895e-02,1.482828998822869e-09
	1.000000000000000e+00,0.000000000000000e+00
	0.000000000000000e+00,0.000000000000000e+00
	1.386049845738811e-03,1.335223505941739e-13
	1.386049845608609e-03,9.892324217994252e-14
	-1.545040153441877e-06,-1.482828998822850e-13
	8.612375249444039e-04,1.814978942383521e-11
	-7.392265848927403e-04,-5.696747330089346e-14
	-1.204658998982217e-04,-1.794453905065203e-11
	1.545040153441895e-06,1.482828998822869e-13
	-8.612375249444221e-04,-1.814978942383520e-11
	1.545040153441895e-06,1.482828998822869e-13
27		1.862087136662866e+00,0.000000000000000e+00
	1.545040153441895e-02,1.517368523246128e-09
	1.000000000000000e+00,0.000000000000000e+00
	0.000000000000000e+00,0.000000000000000e+00
	1.386049845738811e-03,1.366324856758721e-13
	1.386049845608609e-03,1.012274604964271e-13
	-1.545040153441877e-06,-1.517368523246119e-13
	8.612375249444039e-04,1.857255232878191e-11
	-7.392265848927403e-04,-5.829441621674527e-14
	-1.204658998982217e-04,-1.836252106024055e-11
	1.545040153441895e-06,1.517368523246128e-13
	-8.612375249444221e-04,-1.857255232878191e-11
	1.545040153441895e-06,1.517368523246128e-13
28		1.905460717963246e+00,0.000000000000000e+00
	1.545040153441895e-02,1.552712576545159e-09
	1.000000000000000e+00,0.000000000000000e+00
	0.000000000000000e+00,0.000000000000000e+00
	1.386049845738811e-03,1.398150651100205e-13
	1.386049845608609e-03,1.035853509523708e-13
	-1.545040153441877e-06,-1.552712576545177e-13
	8.612375249444039e-04,1.900516264681013e-11
	-7.392265848927403e-04,-5.965226760369299e-14
	-1.204658998982217e-04,-1.879023912155192e-11
	1.545040153441895e-06,1.552712576545159e-13
	-8.612375249444221e-04,-1.900516264681013e-11
	1.545040153441895e-06,1.552712576545159e-13
29		1.949844599758044e+00,0.000000000000000e+00
	1.545040153441895e-02,1.588879898604856e-09
	1.000000000000000e+00,0.000000000000000e+00
	0.000000000000000e+00,0.000000000000000e+00
	1.386049845738811e-03,1.430717763423612e-13
	1.386049845608609e-03,1.059981637325034e-13
	-1.545040153441877e-06,-1.588879898604851e-13
	8.612375249444039e-04,1.944784975363675e-11
	-7.392265848927403e-04,-6.104174741251520e-14
	-1.204658998982217e-04,-1.922792001636375e-11
	1.545040153441895e-06,1.588879898604856e-13
	-8.612375249444221e-04,-1.944784975363676e-11
	1.545040153441895e-06,1.588879898604856e-13
30		1.995262314968878e+00,0.000000000000000e+00
	1.545040153441895e-02,1.625889665818104e-09
	1.000000000000000e+00,0.000000000000000e+00
	0.000000000000000e+00,0.000000000000000e+00
	1.386049845738811e-03,1.464043461242977e-13
	1.386049845608609e-03,1.084671781420988e-13
	-1.545040153441891e-06,-1.625889665818090e-13
	8.612375249444039e-04,1.990084836782548e-11
	-7.392265848927403e-04,-6.246359236379872e-14
	-1.204658998982217e-04,-1.967579580887987e-11
	1.545040153441895e-06,1.625889665818104e-13
	-8.612375249444221e-04,-1.990084836782548e-11
	1.545040153441895e-06,1.625889665818104e-13
31		2.041737944669527e+00,0.000000000000000e+00
	1.545040153441895e-02,1.663761501253363e-09
	1.000000000000000e+00,0.000000000000000e+00
	0.000000000000000e+00,0.000000000000000e+00
	1.386049845738811e-03,1.498145414284398e-13
	1.386049845608609e-03,1.109937032852779e-13
	-1.545040153441891e-06,-1.663761501253370e-13
	8.612375249444039e-04,2.036439867523769e-11
	-7.392265848927403e-04,-6.391855633855685e-14
	-1.204658998982217e-04,-2.013410396877380e-11
	1.545040153441895e-06,1.663761501253363e-13
	-8.612375249444221e-04,-2.036439867523770e-11
	1.545040153441895e-06,1.663761501253363e-13
32		2.089296130854037e+00,0.000000000000000e+00
	1.545040153441895e-02,1.702515485059073e-09
	1.000000000000000e+00,0.000000000000000e+00
	0.000000000000000e+00,0.000000000000000e+00
	1.386049845738811e-03,1.533041703854772e-13
	1.386049845608609e-03,1.135790787591142e-13
	-1.545040153441891e-06,-1.702515485059092e-13
