Title: * GA CMOS Amp | W=2.114535271682712e-05 L=6.748737721984038e-07 Vbias=0.683250570464881
Date: Mon Sep  8 18:45:48 2025
Plotname: AC Analysis
Flags: complex forward log
No. Variables: 11
No. Points:          901
Offset:    0.0000000000000000e+00
Command: Linear Technology Corporation LTspice
Variables:
	0	frequency	frequency
	1	V(out)	voltage
	2	V(g)	voltage
	3	V(vdd)	voltage
	4	Id(M1)	device_current
	5	Ig(M1)	device_current
	6	Ib(M1)	device_current
	7	Is(M1)	device_current
	8	I(Rload)	device_current
	9	I(Vg)	device_current
	10	I(Vdd)	device_current
Values:
0		1.000000000000000e+00,0.000000000000000e+00
	-2.894840381320747e-01,3.419472184869941e-10
	1.000000000000000e+00,0.000000000000000e+00
	0.000000000000000e+00,0.000000000000000e+00
	2.894840381320748e-05,-3.419472184869941e-14
	9.086233082023126e-24,1.366091961008017e-13
	2.894840366496256e-13,-3.151251613180950e-15
	-2.894840410269152e-05,-9.926322263892135e-14
	-2.894840381320748e-05,3.419472184869941e-14
	-9.086233082023126e-24,-1.366091961008017e-13
	-2.894840381320748e-05,3.419472184869941e-14
1		1.023292992280754e+00,0.000000000000000e+00
	-2.894840381320747e-01,3.499121924076369e-10
	1.000000000000000e+00,0.000000000000000e+00
	0.000000000000000e+00,0.000000000000000e+00
	2.894840381320748e-05,-3.499121924076370e-14
	9.514454054430925e-24,1.397912330510577e-13
	2.894840366496256e-13,-3.224653692681475e-15
	-2.894840410269152e-05,-1.015753601176125e-13
	-2.894840381320748e-05,3.499121924076370e-14
	-9.514454054430925e-24,-1.397912330510577e-13
	-2.894840381320748e-05,3.499121924076370e-14
2		1.047128548050899e+00,0.000000000000000e+00
	-2.894840381320747e-01,3.580626944043297e-10
	1.000000000000000e+00,0.000000000000000e+00
	0.000000000000000e+00,0.000000000000000e+00
	2.894840381320748e-05,-3.580626944043298e-14
	9.962856459513245e-24,1.430473891634331e-13
	2.894840366496256e-13,-3.299765526253231e-15
	-2.894840410269152e-05,-1.039413541967469e-13
	-2.894840381320748e-05,3.580626944043297e-14
	-9.962856459513245e-24,-1.430473891634331e-13
	-2.894840381320748e-05,3.580626944043297e-14
3		1.071519305237606e+00,0.000000000000000e+00
	-2.894840381320747e-01,3.664030459811158e-10
	1.000000000000000e+00,0.000000000000000e+00
	0.000000000000000e+00,0.000000000000000e+00
	2.894840381320748e-05,-3.664030459811158e-14
	1.043239141888963e-23,1.463793908949989e-13
	2.894840366496256e-13,-3.376626939184537e-15
	-2.894840410269152e-05,-1.063624593577028e-13
	-2.894840381320748e-05,3.664030459811158e-14
	-1.043239141888963e-23,-1.463793908949989e-13
	-2.894840381320748e-05,3.664030459811158e-14
4		1.096478196143185e+00,0.000000000000000e+00
	-2.894840381320747e-01,3.749376693027986e-10
	1.000000000000000e+00,0.000000000000000e+00
	0.000000000000000e+00,0.000000000000000e+00
	2.894840381320748e-05,-3.749376693027987e-14
	1.092405487916056e-23,1.497890049171776e-13
	2.894840366496256e-13,-3.455278684413932e-15
	-2.894840410269152e-05,-1.088399593024838e-13
	-2.894840381320748e-05,3.749376693027986e-14
	-1.092405487916056e-23,-1.497890049171776e-13
	-2.894840381320748e-05,3.749376693027986e-14
5		1.122018454301963e+00,0.000000000000000e+00
	-2.894840381320747e-01,3.836710895396328e-10
	1.000000000000000e+00,0.000000000000000e+00
	0.000000000000000e+00,0.000000000000000e+00
	2.894840381320748e-05,-3.836710895396328e-14
	1.143888972444374e-23,1.532780390524553e-13
	2.894840366496256e-13,-3.535762464137871e-15
	-2.894840410269152e-05,-1.113751676343542e-13
	-2.894840381320748e-05,3.836710895396328e-14
	-1.143888972444374e-23,-1.532780390524553e-13
	-2.894840381320748e-05,3.836710895396328e-14
6		1.148153621496882e+00,0.000000000000000e+00
	-2.894840381320747e-01,3.926079372666279e-10
	1.000000000000000e+00,0.000000000000000e+00
	0.000000000000000e+00,0.000000000000000e+00
	2.894840381320748e-05,-3.926079372666280e-14
	1.197798798847113e-23,1.568483432329133e-13
	2.894840366496256e-13,-3.618120951921583e-15
	-2.894840410269152e-05,-1.139694285543289e-13
	-2.894840381320748e-05,3.926079372666279e-14
	-1.197798798847113e-23,-1.568483432329133e-13
	-2.894840381320748e-05,3.926079372666279e-14
7		1.174897554939529e+00,0.000000000000000e+00
	-2.894840381320747e-01,4.017529509187423e-10
	1.000000000000000e+00,0.000000000000000e+00
	0.000000000000000e+00,0.000000000000000e+00
	2.894840381320748e-05,-4.017529509187423e-14
	1.254249317093889e-23,1.605018104810866e-13
	2.894840366496256e-13,-3.702397815325532e-15
	-2.894840410269152e-05,-1.166241175738868e-13
	-2.894840381320748e-05,4.017529509187423e-14
	-1.254249317093889e-23,-1.605018104810866e-13
	-2.894840381320748e-05,4.017529509187423e-14
8		1.202264434617413e+00,0.000000000000000e+00
	-2.894840381320747e-01,4.111109793032627e-10
	1.000000000000000e+00,0.000000000000000e+00
	0.000000000000000e+00,0.000000000000000e+00
	2.894840381320748e-05,-4.111109793032628e-14
	1.313360266302356e-23,1.642403779136696e-13
	2.894840366496256e-13,-3.788637739058218e-15
	-2.894840410269152e-05,-1.193406422442851e-13
	-2.894840381320748e-05,4.111109793032628e-14
	-1.313360266302356e-23,-1.642403779136696e-13
	-2.894840381320748e-05,4.111109793032628e-14
9		1.230268770812381e+00,0.000000000000000e+00
	-2.894840381320747e-01,4.206869841707069e-10
	1.000000000000000e+00,0.000000000000000e+00
	0.000000000000000e+00,0.000000000000000e+00
	2.894840381320748e-05,-4.206869841707070e-14
	1.375257028720929e-23,1.680660277686009e-13
	2.894840366496256e-13,-3.876886448668664e-15
	-2.894840410269152e-05,-1.221204429028615e-13
	-2.894840381320748e-05,4.206869841707069e-14
	-1.375257028720929e-23,-1.680660277686009e-13
	-2.894840381320748e-05,4.206869841707069e-14
10		1.258925411794167e+00,0.000000000000000e+00
	-2.894840381320747e-01,4.304860428456090e-10
	1.000000000000000e+00,0.000000000000000e+00
	0.000000000000000e+00,0.000000000000000e+00
	2.894840381320748e-05,-4.304860428456090e-14
	1.440070895681341e-23,1.719807884560719e-13
	2.894840366496256e-13,-3.967190734790847e-15
	-2.894840410269152e-05,-1.249649934367201e-13
	-2.894840381320748e-05,4.304860428456090e-14
	-1.440070895681341e-23,-1.719807884560719e-13
	-2.894840381320748e-05,4.304860428456090e-14
11		1.288249551693134e+00,0.000000000000000e+00
	-2.894840381320747e-01,4.405133509185841e-10
	1.000000000000000e+00,0.000000000000000e+00
	0.000000000000000e+00,0.000000000000000e+00
	2.894840381320748e-05,-4.405133509185842e-14
	1.507939346085161e-23,1.759867356340172e-13
	2.894840366496256e-13,-4.059598477952610e-15
	-2.894840410269152e-05,-1.278758020642062e-13
	-2.894840381320748e-05,4.405133509185841e-14
	-1.507939346085161e-23,-1.759867356340172e-13
	-2.894840381320748e-05,4.405133509185841e-14
12		1.318256738556407e+00,0.000000000000000e+00
	-2.894840381320747e-01,4.507742250010998e-10
	1.000000000000000e+00,0.000000000000000e+00
	0.000000000000000e+00,0.000000000000000e+00
	2.894840381320748e-05,-4.507742250010999e-14
	1.579006338014977e-23,1.800859933086554e-13
	2.894840366496256e-13,-4.154158673962503e-15
	-2.894840410269152e-05,-1.308544121345830e-13
	-2.894840381320748e-05,4.507742250010998e-14
	-1.579006338014977e-23,-1.800859933086554e-13
	-2.894840381320748e-05,4.507742250010998e-14
13		1.348962882591653e+00,0.000000000000000e+00
	-2.894840381320747e-01,4.612741055444134e-10
	1.000000000000000e+00,0.000000000000000e+00
	0.000000000000000e+00,0.000000000000000e+00
	2.894840381320748e-05,-4.612741055444134e-14
	1.653422614088791e-23,1.842807349606659e-13
	2.894840366496256e-13,-4.250921459888167e-15
	-2.894840410269152e-05,-1.339024029463364e-13
	-2.894840381320748e-05,4.612741055444134e-14
	-1.653422614088791e-23,-1.842807349606659e-13
	-2.894840381320748e-05,4.612741055444134e-14
14		1.380384264602885e+00,0.000000000000000e+00
	-2.894840381320747e-01,4.720185597241712e-10
	1.000000000000000e+00,0.000000000000000e+00
	0.000000000000000e+00,0.000000000000000e+00
	2.894840381320748e-05,-4.720185597241713e-14
	1.731346021205319e-23,1.885731846975964e-13
	2.894840366496256e-13,-4.349938140639422e-15
	-2.894840410269152e-05,-1.370213905845399e-13
	-2.894840381320748e-05,4.720185597241713e-14
	-1.731346021205319e-23,-1.885731846975964e-13
	-2.894840381320748e-05,4.720185597241713e-14
15		1.412537544622754e+00,0.000000000000000e+00
	-2.894840381320747e-01,4.830132843921990e-10
	1.000000000000000e+00,0.000000000000000e+00
	0.000000000000000e+00,0.000000000000000e+00
	2.894840381320748e-05,-4.830132843921991e-14
	1.812941845358427e-23,1.929656184331148e-13
	2.894840366496256e-13,-4.451261216171090e-15
	-2.894840410269152e-05,-1.402130287777238e-13
	-2.894840381320748e-05,4.830132843921990e-14
	-1.812941845358427e-23,-1.929656184331148e-13
	-2.894840381320748e-05,4.830132843921990e-14
16		1.445439770745927e+00,0.000000000000000e+00
	-2.894840381320747e-01,4.942641090970481e-10
	1.000000000000000e+00,0.000000000000000e+00
	0.000000000000000e+00,0.000000000000000e+00
	2.894840381320748e-05,-4.942641090970482e-14
	1.898383162230888e-23,1.974603650937282e-13
	2.894840366496256e-13,-4.554944409318968e-15
	-2.894840410269152e-05,-1.434790097747044e-13
	-2.894840381320748e-05,4.942641090970482e-14
	-1.898383162230888e-23,-1.974603650937282e-13
	-2.894840381320748e-05,4.942641090970482e-14
17		1.479108388168207e+00,0.000000000000000e+00
	-2.894840381320747e-01,5.057769991748994e-10
	1.000000000000000e+00,0.000000000000000e+00
	0.000000000000000e+00,0.000000000000000e+00
	2.894840381320748e-05,-5.057769991748994e-14
	1.987851204311104e-23,2.020598078536113e-13
	2.894840366496256e-13,-4.661042694284577e-15
	-2.894840410269152e-05,-1.468210652418368e-13
	-2.894840381320748e-05,5.057769991748994e-14
	-1.987851204311104e-23,-2.020598078536113e-13
	-2.894840381320748e-05,5.057769991748994e-14
18		1.513561248436208e+00,0.000000000000000e+00
	-2.894840381320747e-01,5.175580589124633e-10
	1.000000000000000e+00,0.000000000000000e+00
	0.000000000000000e+00,0.000000000000000e+00
	2.894840381320748e-05,-5.175580589124634e-14
	2.081535745311519e-23,2.067663853981961e-13
	2.894840366496256e-13,-4.769612325782762e-15
	-2.894840410269152e-05,-1.502409671811670e-13
	-2.894840381320748e-05,5.175580589124633e-14
	-2.081535745311519e-23,-2.067663853981961e-13
	-2.894840381320748e-05,5.175580589124633e-14
19		1.548816618912481e+00,0.000000000000000e+00
	-2.894840381320747e-01,5.296135347835534e-10
	1.000000000000000e+00,0.000000000000000e+00
	0.000000000000000e+00,0.000000000000000e+00
	2.894840381320748e-05,-5.296135347835535e-14
	2.179635502704098e-23,2.115825932171957e-13
	2.894840366496256e-13,-4.880710868869430e-15
	-2.894840410269152e-05,-1.537405288699710e-13
	-2.894840381320748e-05,5.296135347835534e-14
	-2.179635502704098e-23,-2.115825932171957e-13
	-2.894840381320748e-05,5.296135347835534e-14
20		1.584893192461113e+00,0.000000000000000e+00
	-2.894840381320747e-01,5.419498187610496e-10
	1.000000000000000e+00,0.000000000000000e+00
	0.000000000000000e+00,0.000000000000000e+00
	2.894840381320748e-05,-5.419498187610496e-14
	2.282358559226734e-23,2.165109849277458e-13
	2.894840366496256e-13,-4.994397229462588e-15
	-2.894840410269152e-05,-1.573216058221783e-13
	-2.894840381320748e-05,5.419498187610496e-14
	-2.282358559226734e-23,-2.165109849277458e-13
	-2.894840381320748e-05,5.419498187610496e-14
21		1.621810097358929e+00,0.000000000000000e+00
	-2.894840381320747e-01,5.545734517060068e-10
	1.000000000000000e+00,0.000000000000000e+00
	0.000000000000000e+00,0.000000000000000e+00
	2.894840381320748e-05,-5.545734517060069e-14
	2.389922804254633e-23,2.215541736283662e-13
	2.894840366496256e-13,-5.110731685575452e-15
	-2.894840410269152e-05,-1.609860967721901e-13
	-2.894840381320748e-05,5.545734517060068e-14
	-2.389922804254633e-23,-2.215541736283662e-13
	-2.894840381320748e-05,5.545734517060068e-14
22		1.659586907437560e+00,0.000000000000000e+00
	-2.894840381320747e-01,5.674911268357060e-10
	1.000000000000000e+00,0.000000000000000e+00
	0.000000000000000e+00,0.000000000000000e+00
	2.894840381320748e-05,-5.674911268357061e-14
	2.502556395972888e-23,2.267148332844606e-13
	2.894840366496256e-13,-5.229775919276567e-15
	-2.894840410269152e-05,-1.647359446816135e-13
	-2.894840381320748e-05,5.674911268357061e-14
	-2.502556395972888e-23,-2.267148332844606e-13
	-2.894840381320748e-05,5.674911268357061e-14
23		1.698243652461743e+00,0.000000000000000e+00
	-2.894840381320747e-01,5.807096932724866e-10
	1.000000000000000e+00,0.000000000000000e+00
	0.000000000000000e+00,0.000000000000000e+00
	2.894840381320748e-05,-5.807096932724867e-14
	2.620498245330582e-23,2.319957001460881e-13
	2.894840366496256e-13,-5.351593049394350e-15
	-2.894840410269152e-05,-1.685731377694450e-13
	-2.894840381320748e-05,5.807096932724865e-14
	-2.620498245330582e-23,-2.319957001460881e-13
	-2.894840381320748e-05,5.807096932724865e-14
24		1.737800828749374e+00,0.000000000000000e+00
	-2.894840381320747e-01,5.942361596752416e-10
	1.000000000000000e+00,0.000000000000000e+00
	0.000000000000000e+00,0.000000000000000e+00
	2.894840381320748e-05,-5.942361596752417e-14
	2.743998522802941e-23,2.373995741987590e-13
	2.894840366496256e-13,-5.476247664983685e-15
	-2.894840410269152e-05,-1.724997105662512e-13
	-2.894840381320748e-05,5.942361596752417e-14
	-2.743998522802941e-23,-2.373995741987590e-13
	-2.894840381320748e-05,5.942361596752417e-14
25		1.778279410038922e+00,0.000000000000000e+00
	-2.894840381320747e-01,6.080776979555021e-10
	1.000000000000000e+00,0.000000000000000e+00
	0.000000000000000e+00,0.000000000000000e+00
	2.894840381320748e-05,-6.080776979555021e-14
	2.873319189036458e-23,2.429293206480250e-13
	2.894840366496256e-13,-5.603805859571607e-15
	-2.894840410269152e-05,-1.765177449929032e-13
	-2.894840381320748e-05,6.080776979555021e-14
	-2.873319189036458e-23,-2.429293206480250e-13
	-2.894840381320748e-05,6.080776979555021e-14
26		1.819700858609982e+00,0.000000000000000e+00
	-2.894840381320747e-01,6.222416470800782e-10
	1.000000000000000e+00,0.000000000000000e+00
	0.000000000000000e+00,0.000000000000000e+00
	2.894840381320748e-05,-6.222416470800783e-14
	3.008734550502533e-23,2.485878714386483e-13
	2.894840366496256e-13,-5.734335266201504e-15
	-2.894840410269152e-05,-1.806293714644390e-13
	-2.894840381320748e-05,6.222416470800782e-14
	-3.008734550502533e-23,-2.485878714386483e-13
	-2.894840381320748e-05,6.222416470800782e-14
27		1.862087136662866e+00,0.000000000000000e+00
	-2.894840381320747e-01,6.367355169622783e-10
	1.000000000000000e+00,0.000000000000000e+00
	0.000000000000000e+00,0.000000000000000e+00
	2.894840381320748e-05,-6.367355169622784e-14
	3.150531841338294e-23,2.543782268091578e-13
	2.894840366496256e-13,-5.867905093292315e-15
	-2.894840410269152e-05,-1.848367700196376e-13
	-2.894840381320748e-05,6.367355169622783e-14
	-3.150531841338294e-23,-2.543782268091578e-13
	-2.894840381320748e-05,6.367355169622783e-14
28		1.905460717963246e+00,0.000000000000000e+00
	-2.894840381320747e-01,6.515669924437625e-10
	1.000000000000000e+00,0.000000000000000e+00
	0.000000000000000e+00,0.000000000000000e+00
	2.894840381320748e-05,-6.515669924437625e-14
	3.299011832608694e-23,2.603034568826154e-13
	2.894840366496256e-13,-6.004586161334621e-15
	-2.894840410269152e-05,-1.891421714769046e-13
	-2.894840381320748e-05,6.515669924437625e-14
	-3.299011832608694e-23,-2.603034568826154e-13
	-2.894840381320748e-05,6.515669924437625e-14
29		1.949844599758044e+00,0.000000000000000e+00
	-2.894840381320747e-01,6.667439373691493e-10
	1.000000000000000e+00,0.000000000000000e+00
	0.000000000000000e+00,0.000000000000000e+00
	2.894840381320748e-05,-6.667439373691494e-14
	3.454489470282279e-23,2.663667032944358e-13
	2.894840366496256e-13,-6.144450940439701e-15
	-2.894840410269152e-05,-1.935478586170812e-13
	-2.894840381320748e-05,6.667439373691493e-14
	-3.454489470282279e-23,-2.663667032944358e-13
	-2.894840381320748e-05,6.667439373691493e-14
30		1.995262314968878e+00,0.000000000000000e+00
	-2.894840381320747e-01,6.822743987555285e-10
	1.000000000000000e+00,0.000000000000000e+00
	0.000000000000000e+00,0.000000000000000e+00
	2.894840381320748e-05,-6.822743987555286e-14
	3.617294543273804e-23,2.725711808581230e-13
	2.894840366496256e-13,-6.287573588764815e-15
	-2.894840410269152e-05,-1.980561673938054e-13
	-2.894840381320748e-05,6.822743987555285e-14
	-3.617294543273804e-23,-2.725711808581230e-13
	-2.894840381320748e-05,6.822743987555285e-14
31		2.041737944669527e+00,0.000000000000000e+00
	-2.894840381320747e-01,6.981666110590971e-10
	1.000000000000000e+00,0.000000000000000e+00
	0.000000000000000e+00,0.000000000000000e+00
	2.894840381320748e-05,-6.981666110590970e-14
	3.787772382970739e-23,2.789201792698073e-13
	2.894840366496256e-13,-6.434029991832624e-15
	-2.894840410269152e-05,-2.026694881720650e-13
	-2.894840381320748e-05,6.981666110590971e-14
	-3.787772382970739e-23,-2.789201792698073e-13
	-2.894840381320748e-05,6.981666110590971e-14
32		2.089296130854037e+00,0.000000000000000e+00
	-2.894840381320747e-01,7.144290005411769e-10
	1.000000000000000e+00,0.000000000000000e+00
	0.000000000000000e+00,0.000000000000000e+00
	2.894840381320748e-05,-7.144290005411771e-14
	3.966284595727445e-23,2.854170648524855e-13
	2.894840366496256e-13,-6.583897802766473e-15
	-2.894840410269152e-05,-2.073902669956013e-13
	-2.894840381320748e-05,7.144290005411769e-14
	-3.966284595727445e-23,-2.854170648524855e-13
	-2.894840381320748e-05,7.144290005411769e-14
33		2.137962089502230e+00,0.000000000000000e+00
	-2.894840381320747e-01,7.310701897359293e-10
	1.000000000000000e+00,0.000000000000000e+00
	0.000000000000000e+00,0.000000000000000e+00
	2.894840381320748e-05,-7.310701897359294e-14
	4.153209829880728e-23,2.920652823408899e-13
	2.894840366496256e-13,-6.737256483463611e-15
	-2.894840410269152e-05,-2.122210068838334e-13
	-2.894840381320748e-05,7.310701897359293e-14
	-4.153209829880728e-23,-2.920652823408899e-13
	-2.894840381320748e-05,7.310701897359293e-14
34		2.187761623949550e+00,0.000000000000000e+00
	-2.894840381320747e-01,7.480990020221377e-10
	1.000000000000000e+00,0.000000000000000e+00
	0.000000000000000e+00,0.000000000000000e+00
	2.894840381320748e-05,-7.480990020221378e-14
	4.348944578913730e-23,2.988683567079325e-13
	2.894840366496256e-13,-6.894187346726374e-15
	-2.894840410269152e-05,-2.171642691589923e-13
	-2.894840381320748e-05,7.480990020221378e-14
	-4.348944578913730e-23,-2.988683567079325e-13
	-2.894840381320748e-05,7.480990020221378e-14
35		2.238721138568337e+00,0.000000000000000e+00
	-2.894840381320747e-01,7.655244663014793e-10
	1.000000000000000e+00,0.000000000000000e+00
	0.000000000000000e+00,0.000000000000000e+00
	2.894840381320748e-05,-7.655244663014794e-14
	4.553904022471764e-23,3.058298950336921e-13
	2.894840366496256e-13,-7.054773599375782e-15
	-2.894840410269152e-05,-2.222226748041684e-13
	-2.894840381320748e-05,7.655244663014792e-14
	-4.553904022471764e-23,-3.058298950336921e-13
	-2.894840381320748e-05,7.655244663014792e-14
36		2.290867652767770e+00,0.000000000000000e+00
	-2.894840381320747e-01,7.833558217857679e-10
	1.000000000000000e+00,0.000000000000000e+00
	0.000000000000000e+00,0.000000000000000e+00
	2.894840381320748e-05,-7.833558217857681e-14
	4.768522907014008e-23,3.129535884179357e-13
	2.894840366496256e-13,-7.219100386368488e-15
	-2.894840410269152e-05,-2.273989058529904e-13
	-2.894840381320748e-05,7.833558217857680e-14
	-4.768522907014008e-23,-3.129535884179357e-13
	-2.894840381320748e-05,7.833558217857680e-14
37		2.344228815319919e+00,0.000000000000000e+00
	-2.894840381320747e-01,8.016025228957077e-10
	1.000000000000000e+00,0.000000000000000e+00
	0.000000000000000e+00,0.000000000000000e+00
	2.894840381320748e-05,-8.016025228957077e-14
	4.993256467969034e-23,3.202432139371889e-13
	2.894840366496256e-13,-7.387254835942190e-15
	-2.894840410269152e-05,-2.326957068116760e-13
	-2.894840381320748e-05,8.016025228957077e-14
	-4.993256467969034e-23,-3.202432139371889e-13
	-2.894840381320748e-05,8.016025228957077e-14
38		2.398832919019488e+00,0.000000000000000e+00
	-2.894840381320747e-01,8.202742442737504e-10
	1.000000000000000e+00,0.000000000000000e+00
