LTspice 24.0.9 for Windows
Circuit: * GA CMOS Amp | W=1.898834434159303e-05 L=7.353050061294335e-07 Vbias=1.1204628811808095
Start Time: Mon Sep  8 18:42:55 2025
solver = Normal
Maximum thread count: 2
tnom = 27
temp = 27
method = modified trap
AsciiRawFile = 1
Instance "m1": Length shorter than recommended for a level 3 MOSFET.
Direct Newton iteration for .op point succeeded.
Semiconductor Device Operating Points:
                        --- MOSFET Transistors ---
Name:          m1
Model:        n_1u
Id:          1.64e-04
Vgs:         1.12e+00
Vds:         1.57e-01
Vbs:         0.00e+00
Vth:         7.85e-01
Vdsat:       2.78e-01
Gm:          5.29e-04
Gds:         5.80e-04
Gmb:         1.13e-04
Cbd:         0.00e+00
Cbs:         0.00e+00
Cgsov:       3.80e-15
Cgdov:       3.80e-15
Cgbov:       5.35e-17
Cgs:         1.06e-14
Cgd:         6.04e-15
Cgb:         0.00e+00



gain_db: MAX(db(v(out)/v(g)))=(28.7471dB,94.5832°) FROM 1 TO 1e+09
gain_lin: MAX(mag(v(out)/v(g)))=(-2.18747dB,0°) FROM 1 TO 1e+09

Measurement "fc" FAIL'ed

Total elapsed time: 0.511 seconds.

