LTspice 24.0.9 for Windows
Circuit: * GA CMOS Amp | W=6.673451423825805e-06 L=5.013509548441638e-07 Vbias=1.2665083586115147
Start Time: Sat Sep  6 22:06:24 2025
solver = Normal
Maximum thread count: 2
tnom = 27
temp = 27
method = modified trap
AsciiRawFile = 1
Direct Newton iteration for .op point succeeded.
Semiconductor Device Operating Points:
                        --- BSIM4 MOSFETS ---
Name:      m1
Model:      n
Id:      1.66e-04
Vgs:     1.27e+00
Vds:     1.43e-01
Vbs:     0.00e+00
Vth:     2.51e-01
Vdsat:   7.14e-01
Gm:     -1.68e-06
Gds:     1.04e-03
Gmb      9.10e-05
Cbd:     3.19e-15
Cbs:     5.34e-15


.measure op idd find i(vdd)
  Error: FIND can not be evaluated over an interval.

gain_db: MAX(db(v(out)/v(g)))=(33.9868dB,180°) FROM 1 TO 1e+09
gain_lin: MAX(mag(v(out)/v(g)))=(-9.21973dB,0°) FROM 1 TO 1e+09

Measurement "fc" FAIL'ed

Total elapsed time: 0.561 seconds.

