Title: * GA CMOS Amp | W=5e-05 L=2.0921159611602363e-07 Vbias=1.2378699713482282
Date: Sat Sep  6 22:08:01 2025
Plotname: AC Analysis
Flags: complex forward log
No. Variables: 13
No. Points:          901
Offset:    0.0000000000000000e+00
Command: Linear Technology Corporation LTspice
Variables:
	0	frequency	frequency
	1	V(out)	voltage
	2	V(g)	voltage
	3	V(vdd)	voltage
	4	V(m1#dbody)	voltage
	5	V(m1#sbody)	voltage
	6	Id(M1)	device_current
	7	Ig(M1)	device_current
	8	Ib(M1)	device_current
	9	Is(M1)	device_current
	10	I(Rload)	device_current
	11	I(Vg)	device_current
	12	I(Vdd)	device_current
Values:
0		1.000000000000000e+00,0.000000000000000e+00
	3.896912558493946e-04,6.835960465857167e-11
	1.000000000000000e+00,0.000000000000000e+00
	0.000000000000000e+00,0.000000000000000e+00
	2.992494887350327e-05,1.476588407742805e-14
	2.992494886977600e-05,1.428679104304364e-14
	-3.896912558494114e-08,-6.835960465857145e-15
	2.656569454006331e-05,2.975438109677749e-12
	-1.595997274287453e-05,-7.674124331275173e-15
	-1.056675267160384e-05,-2.960928024880617e-12
	3.896912558493946e-08,6.835960465857167e-15
	-2.656569454005664e-05,-2.975438109677748e-12
	3.896912558493946e-08,6.835960465857167e-15
1		1.023292992280754e+00,0.000000000000000e+00
	3.896912558493946e-04,6.995190440219919e-11
	1.000000000000000e+00,0.000000000000000e+00
	0.000000000000000e+00,0.000000000000000e+00
	2.992494887350327e-05,1.510982570126210e-14
	2.992494886977600e-05,1.461957315652601e-14
	-3.896912558494114e-08,-6.995190440220070e-15
	2.656569454006331e-05,3.044744966598335e-12
	-1.595997274287453e-05,-7.852877650085112e-15
	-1.056675267160384e-05,-3.029896898508030e-12
	3.896912558493946e-08,6.995190440219919e-15
	-2.656569454005664e-05,-3.044744966598334e-12
	3.896912558493946e-08,6.995190440219919e-15
2		1.047128548050899e+00,0.000000000000000e+00
	3.896912558493946e-04,7.158129357146364e-11
	1.000000000000000e+00,0.000000000000000e+00
	0.000000000000000e+00,0.000000000000000e+00
	2.992494887350327e-05,1.546177875468513e-14
	2.992494886977600e-05,1.496010676120888e-14
	-3.896912558494114e-08,-7.158129357146684e-15
	2.656569454006331e-05,3.115666187602174e-12
	-1.595997274287453e-05,-8.035794668570251e-15
	-1.056675267160384e-05,-3.100472263576457e-12
	3.896912558493946e-08,7.158129357146364e-15
	-2.656569454005664e-05,-3.115666187602173e-12
	3.896912558493946e-08,7.158129357146364e-15
3		1.071519305237606e+00,0.000000000000000e+00
	3.896912558493946e-04,7.324863609007013e-11
	1.000000000000000e+00,0.000000000000000e+00
	0.000000000000000e+00,0.000000000000000e+00
	2.992494887350327e-05,1.582192984786474e-14
	2.992494886977600e-05,1.530857241251698e-14
	-3.896912558494114e-08,-7.324863609007260e-15
	2.656569454006331e-05,3.188239376059398e-12
	-1.595997274287453e-05,-8.222972371754980e-15
	-1.056675267160384e-05,-3.172691540078636e-12
	3.896912558493946e-08,7.324863609007012e-15
	-2.656569454005664e-05,-3.188239376059398e-12
	3.896912558493946e-08,7.324863609007012e-15
4		1.096478196143185e+00,0.000000000000000e+00
	3.896912558493946e-04,7.495481600509189e-11
	1.000000000000000e+00,0.000000000000000e+00
	0.000000000000000e+00,0.000000000000000e+00
	2.992494887350327e-05,1.619046993767769e-14
	2.992494886977600e-05,1.566515487155110e-14
	-3.896912558494114e-08,-7.495481600509237e-15
	2.656569454006331e-05,3.262503011235145e-12
	-1.595997274287453e-05,-8.414510003735125e-15
	-1.056675267160384e-05,-3.246593019630901e-12
	3.896912558493946e-08,7.495481600509190e-15
	-2.656569454005664e-05,-3.262503011235144e-12
	3.896912558493946e-08,7.495481600509190e-15
5		1.122018454301963e+00,0.000000000000000e+00
	3.896912558493946e-04,7.670073795570386e-11
	1.000000000000000e+00,0.000000000000000e+00
	0.000000000000000e+00,0.000000000000000e+00
	2.992494887350327e-05,1.656759442895779e-14
	2.992494886977600e-05,1.603004320305096e-14
	-3.896912558494114e-08,-7.670073795570451e-15
	2.656569454006331e-05,3.338496468691783e-12
	-1.595997274287453e-05,-8.610509120298455e-15
	-1.056675267160384e-05,-3.322215885775914e-12
	3.896912558493946e-08,7.670073795570386e-15
	-2.656569454005664e-05,-3.338496468691782e-12
	3.896912558493946e-08,7.670073795570386e-15
6		1.148153621496882e+00,0.000000000000000e+00
	3.896912558493946e-04,7.848732765283421e-11
	1.000000000000000e+00,0.000000000000000e+00
	0.000000000000000e+00,0.000000000000000e+00
	2.992494887350327e-05,1.695350327810217e-14
	2.992494886977600e-05,1.640343087563978e-14
	-3.896912558494114e-08,-7.848732765283898e-15
	2.656569454006331e-05,3.416260041166346e-12
	-1.595997274287453e-05,-8.811073642770929e-15
	-1.056675267160384e-05,-3.399600234758291e-12
	3.896912558493946e-08,7.848732765283421e-15
	-2.656569454005664e-05,-3.416260041166345e-12
	3.896912558493946e-08,7.848732765283421e-15
7		1.174897554939529e+00,0.000000000000000e+00
	3.896912558493946e-04,8.031553236998869e-11
	1.000000000000000e+00,0.000000000000000e+00
	0.000000000000000e+00,0.000000000000000e+00
	2.992494887350327e-05,1.734840109909075e-14
	2.992494886977600e-05,1.678551586440394e-14
	-3.896912558494114e-08,-8.031553236999069e-15
	2.656569454006331e-05,3.495834959934282e-12
	-1.595997274287453e-05,-9.016309913117152e-15
	-1.056675267160384e-05,-3.478787096784165e-12
	3.896912558493946e-08,8.031553236998870e-15
	-2.656569454005664e-05,-3.495834959934281e-12
	3.896912558493946e-08,8.031553236998870e-15
8		1.202264434617413e+00,0.000000000000000e+00
	3.896912558493946e-04,8.218632144550751e-11
	1.000000000000000e+00,0.000000000000000e+00
	0.000000000000000e+00,0.000000000000000e+00
	2.992494887350327e-05,1.775249727197529e-14
	2.992494886977600e-05,1.717650075586197e-14
	-3.896912558494114e-08,-8.218632144550754e-15
	2.656569454006331e-05,3.577263416670821e-12
	-1.595997274287453e-05,-9.226326750324272e-15
	-1.056675267160384e-05,-3.559818457775946e-12
	3.896912558493946e-08,8.218632144550751e-15
	-2.656569454005664e-05,-3.577263416670821e-12
	3.896912558493946e-08,8.218632144550751e-15
9		1.230268770812381e+00,0.000000000000000e+00
	3.896912558493946e-04,8.410068679652127e-11
	1.000000000000000e+00,0.000000000000000e+00
	0.000000000000000e+00,0.000000000000000e+00
	2.992494887350327e-05,1.816600605389552e-14
	2.992494886977600e-05,1.757659285537864e-14
	-3.896912558494114e-08,-8.410068679652894e-15
	2.656569454006331e-05,3.660588585821559e-12
	-1.595997274287453e-05,-9.441235508099292e-15
	-1.056675267160384e-05,-3.642737281633807e-12
	3.896912558493946e-08,8.410068679652127e-15
	-2.656569454005664e-05,-3.660588585821558e-12
	3.896912558493946e-08,8.410068679652127e-15
10		1.258925411794167e+00,0.000000000000000e+00
	3.896912558493946e-04,8.605964344487879e-11
	1.000000000000000e+00,0.000000000000000e+00
	0.000000000000000e+00,0.000000000000000e+00
	2.992494887350327e-05,1.858914669268104e-14
	2.992494886977600e-05,1.798600429708094e-14
	-3.896912558494114e-08,-8.605964344487954e-15
	2.656569454006331e-05,3.745854647494118e-12
	-1.595997274287453e-05,-9.661150133910232e-15
	-1.056675267160384e-05,-3.727587533015720e-12
	3.896912558493946e-08,8.605964344487880e-15
	-2.656569454005664e-05,-3.745854647494117e-12
	3.896912558493946e-08,8.605964344487880e-15
11		1.288249551693134e+00,0.000000000000000e+00
	3.896912558493946e-04,8.806423005532482e-11
	1.000000000000000e+00,0.000000000000000e+00
	0.000000000000000e+00,0.000000000000000e+00
	2.992494887350327e-05,1.902214354309947e-14
	2.992494886977600e-05,1.840495215633445e-14
	-3.896912558494114e-08,-8.806423005532436e-15
	2.656569454006331e-05,3.833106810883025e-12
	-1.595997274287453e-05,-9.886187229402609e-15
	-1.056675267160384e-05,-3.814414200648091e-12
	3.896912558493946e-08,8.806423005532481e-15
	-2.656569454005664e-05,-3.833106810883025e-12
	3.896912558493946e-08,8.806423005532481e-15
12		1.318256738556407e+00,0.000000000000000e+00
	3.896912558493946e-04,9.011550948621403e-11
	1.000000000000000e+00,0.000000000000000e+00
	0.000000000000000e+00,0.000000000000000e+00
	2.992494887350327e-05,1.946522618581228e-14
	2.992494886977600e-05,1.883365856483960e-14
	-3.896912558494114e-08,-9.011550948621334e-15
	2.656569454006331e-05,3.922391338240229e-12
	-1.595997274287453e-05,-1.011646611222317e-14
	-1.056675267160384e-05,-3.903263321179385e-12
	3.896912558493946e-08,9.011550948621403e-15
	-2.656569454005664e-05,-3.922391338240228e-12
	3.896912558493946e-08,9.011550948621403e-15
13		1.348962882591653e+00,0.000000000000000e+00
	3.896912558493946e-04,9.221456935305263e-11
	1.000000000000000e+00,0.000000000000000e+00
	0.000000000000000e+00,0.000000000000000e+00
	2.992494887350327e-05,1.991862954910154e-14
	2.992494886977600e-05,1.927235082840876e-14
	-3.896912558494114e-08,-9.221456935305877e-15
	2.656569454006331e-05,4.013755569403957e-12
	-1.595997274287453e-05,-1.035210887928370e-14
	-1.056675267160384e-05,-3.994182003589367e-12
	3.896912558493946e-08,9.221456935305263e-15
	-2.656569454005664e-05,-4.013755569403956e-12
	3.896912558493946e-08,9.221456935305263e-15
14		1.380384264602885e+00,0.000000000000000e+00
	3.896912558493946e-04,9.436252260516635e-11
	1.000000000000000e+00,0.000000000000000e+00
	0.000000000000000e+00,0.000000000000000e+00
	2.992494887350327e-05,2.038259403343197e-14
	2.992494886977600e-05,1.972126154748688e-14
	-3.896912558494114e-08,-9.436252260516860e-15
	2.656569454006331e-05,4.107247946898916e-12
	-1.595997274287453e-05,-1.059324047149838e-14
	-1.056675267160384e-05,-4.087218454166901e-12
	3.896912558493946e-08,9.436252260516636e-15
	-2.656569454005664e-05,-4.107247946898916e-12
	3.896912558493946e-08,9.436252260516636e-15
15		1.412537544622754e+00,0.000000000000000e+00
	3.896912558493946e-04,9.656050811580099e-11
	1.000000000000000e+00,0.000000000000000e+00
	0.000000000000000e+00,0.000000000000000e+00
	2.992494887350327e-05,2.085736563891444e-14
	2.992494886977600e-05,2.018062874047922e-14
	-3.896912558494114e-08,-9.656050811580425e-15
	2.656569454006331e-05,4.202918041621177e-12
	-1.595997274287453e-05,-1.083998874002916e-14
	-1.056675267160384e-05,-4.182422002069567e-12
	3.896912558493946e-08,9.656050811580099e-15
	-2.656569454005664e-05,-4.202918041621174e-12
	3.896912558493946e-08,9.656050811580099e-15
16		1.445439770745927e+00,0.000000000000000e+00
	3.896912558493946e-04,9.880969128596804e-11
	1.000000000000000e+00,0.000000000000000e+00
	0.000000000000000e+00,0.000000000000000e+00
	2.992494887350327e-05,2.134319609573853e-14
	2.992494886977600e-05,2.065069596995196e-14
	-3.896912558494114e-08,-9.880969128596596e-15
	2.656569454006331e-05,4.300816579121298e-12
	-1.595997274287453e-05,-1.109248451407412e-14
	-1.056675267160384e-05,-4.279843125478628e-12
	3.896912558493946e-08,9.880969128596804e-15
	-2.656569454005664e-05,-4.300816579121299e-12
	3.896912558493946e-08,9.880969128596804e-15
17		1.479108388168207e+00,0.000000000000000e+00
	3.896912558493946e-04,1.011112646623558e-10
	1.000000000000000e+00,0.000000000000000e+00
	0.000000000000000e+00,0.000000000000000e+00
	2.992494887350327e-05,2.184034299764320e-14
	2.992494886977600e-05,2.113171247177225e-14
	-3.896912558494114e-08,-1.011112646623589e-14
	2.656569454006331e-05,4.400995466499711e-12
	-1.595997274287453e-05,-1.135086167023484e-14
	-1.056675267160384e-05,-4.379533478363240e-12
	3.896912558493946e-08,1.011112646623558e-14
	-2.656569454005664e-05,-4.400995466499710e-12
	3.896912558493946e-08,1.011112646623558e-14
18		1.513561248436208e+00,0.000000000000000e+00
	3.896912558493946e-04,1.034664485696333e-10
	1.000000000000000e+00,0.000000000000000e+00
	0.000000000000000e+00,0.000000000000000e+00
	2.992494887350327e-05,2.234906993849632e-14
	2.992494886977600e-05,2.162393328725636e-14
	-3.896912558494114e-08,-1.034664485696288e-14
	2.656569454006331e-05,4.503507819928522e-12
	-1.595997274287453e-05,-1.161525720349952e-14
	-1.056675267160384e-05,-4.481545917868060e-12
	3.896912558493946e-08,1.034664485696333e-14
	-2.656569454005664e-05,-4.503507819928522e-12
	3.896912558493946e-08,1.034664485696333e-14
19		1.548816618912481e+00,0.000000000000000e+00
	3.896912558493946e-04,1.058764917574828e-10
	1.000000000000000e+00,0.000000000000000e+00
	0.000000000000000e+00,0.000000000000000e+00
	2.992494887350327e-05,2.286964665205575e-14
	2.992494886977600e-05,2.212761939839597e-14
	-3.896912558494114e-08,-1.058764917574856e-14
	2.656569454006331e-05,4.608407992814434e-12
	-1.595997274287453e-05,-1.188581129987961e-14
	-1.056675267160384e-05,-4.585934532338806e-12
	3.896912558493946e-08,1.058764917574828e-14
	-2.656569454005664e-05,-4.608407992814432e-12
	3.896912558493946e-08,1.058764917574828e-14
20		1.584893192461113e+00,0.000000000000000e+00
	3.896912558493946e-04,1.083426720627032e-10
	1.000000000000000e+00,0.000000000000000e+00
	0.000000000000000e+00,0.000000000000000e+00
	2.992494887350327e-05,2.340234915498566e-14
	2.992494886977600e-05,2.264303786623427e-14
	-3.896912558494114e-08,-1.083426720627065e-14
	2.656569454006331e-05,4.715751604617626e-12
	-1.595997274287453e-05,-1.216266741073821e-14
	-1.056675267160384e-05,-4.692754670000617e-12
	3.896912558493946e-08,1.083426720627032e-14
	-2.656569454005664e-05,-4.715751604617624e-12
	3.896912558493946e-08,1.083426720627032e-14
21		1.621810097358929e+00,0.000000000000000e+00
	3.896912558493946e-04,1.108662970867360e-10
	1.000000000000000e+00,0.000000000000000e+00
	0.000000000000000e+00,0.000000000000000e+00
	2.992494887350327e-05,2.394745989320425e-14
	2.992494886977600e-05,2.317046197246529e-14
	-3.896912558494114e-08,-1.108662970867412e-14
	2.656569454006331e-05,4.825595570341937e-12
	-1.595997274287453e-05,-1.244597232884991e-14
	-1.056675267160384e-05,-4.802062968304414e-12
	3.896912558493946e-08,1.108662970867360e-14
	-2.656569454005664e-05,-4.825595570341937e-12
	3.896912558493946e-08,1.108662970867360e-14
22		1.659586907437560e+00,0.000000000000000e+00
	3.896912558493946e-04,1.134487048889731e-10
	1.000000000000000e+00,0.000000000000000e+00
	0.000000000000000e+00,0.000000000000000e+00
	2.992494887350327e-05,2.450526789164033e-14
	2.992494886977600e-05,2.371017136433143e-14
	-3.896912558494114e-08,-1.134487048889845e-14
	2.656569454006331e-05,4.937998130711954e-12
	-1.595997274287453e-05,-1.273587626623229e-14
	-1.056675267160384e-05,-4.913917383956824e-12
	3.896912558493946e-08,1.134487048889731e-14
	-2.656569454005664e-05,-4.937998130711953e-12
	3.896912558493946e-08,1.134487048889731e-14
23		1.698243652461743e+00,0.000000000000000e+00
	3.896912558493946e-04,1.160912646962136e-10
	1.000000000000000e+00,0.000000000000000e+00
	0.000000000000000e+00,0.000000000000000e+00
	2.992494887350327e-05,2.507606890747812e-14
	2.992494886977600e-05,2.426245220289616e-14
	-3.896912558494114e-08,-1.160912646962094e-14
	2.656569454006331e-05,5.053018883053006e-12
	-1.595997274287453e-05,-1.303253293379028e-14
	-1.056675267160384e-05,-5.028377223649594e-12
	3.896912558493946e-08,1.160912646962136e-14
	-2.656569454005664e-05,-5.053018883053005e-12
	3.896912558493946e-08,1.160912646962136e-14
24		1.737800828749374e+00,0.000000000000000e+00
	3.896912558493946e-04,1.187953776286454e-10
	1.000000000000000e+00,0.000000000000000e+00
	0.000000000000000e+00,0.000000000000000e+00
	2.992494887350327e-05,2.566016558697167e-14
	2.992494886977600e-05,2.482759731477039e-14
	-3.896912558494114e-08,-1.187953776286479e-14
	2.656569454006331e-05,5.170718812890464e-12
	-1.595997274287453e-05,-1.333609962281573e-14
	-1.056675267160384e-05,-5.145503175504784e-12
	3.896912558493946e-08,1.187953776286454e-14
	-2.656569454005664e-05,-5.170718812890462e-12
	3.896912558493946e-08,1.187953776286454e-14
25		1.778279410038922e+00,0.000000000000000e+00
	3.896912558493946e-04,1.215624774427387e-10
	1.000000000000000e+00,0.000000000000000e+00
	0.000000000000000e+00,0.000000000000000e+00
	2.992494887350327e-05,2.625786762591186e-14
	2.992494886977600e-05,2.540590634737300e-14
	-3.896912558494114e-08,-1.215624774427370e-14
	2.656569454006331e-05,5.291160326285072e-12
	-1.595997274287453e-05,-1.364673728838535e-14
	-1.056675267160384e-05,-5.265357341252413e-12
	3.896912558493946e-08,1.215624774427388e-14
	-2.656569454005664e-05,-5.291160326285071e-12
	3.896912558493946e-08,1.215624774427388e-14
26		1.819700858609982e+00,0.000000000000000e+00
	3.896912558493946e-04,1.243940312914418e-10
	1.000000000000000e+00,0.000000000000000e+00
	0.000000000000000e+00,0.000000000000000e+00
	2.992494887350327e-05,2.686949193383129e-14
	2.992494886977600e-05,2.599768592780791e-14
	-3.896912558494114e-08,-1.243940312914383e-14
	2.656569454006331e-05,5.414407282921461e-12
	-1.595997274287453e-05,-1.396461063470118e-14
	-1.056675267160384e-05,-5.388003269157616e-12
	3.896912558493946e-08,1.243940312914418e-14
	-2.656569454005664e-05,-5.414407282921460e-12
	3.896912558493946e-08,1.243940312914418e-14
27		1.862087136662866e+00,0.000000000000000e+00
	3.896912558493946e-04,1.272915405020852e-10
	1.000000000000000e+00,0.000000000000000e+00
	0.000000000000000e+00,0.000000000000000e+00
	2.992494887350327e-05,2.749536280203381e-14
	2.992494886977600e-05,2.660324982544182e-14
	-3.896912558494114e-08,-1.272915405020869e-14
	2.656569454006331e-05,5.540525029967409e-12
	-1.595997274287453e-05,-1.428988820241902e-14
	-1.056675267160384e-05,-5.513505987714782e-12
	3.896912558493946e-08,1.272915405020852e-14
	-2.656569454005664e-05,-5.540525029967409e-12
	3.896912558493946e-08,1.272915405020852e-14
28		1.905460717963246e+00,0.000000000000000e+00
	3.896912558493946e-04,1.302565413724056e-10
	1.000000000000000e+00,0.000000000000000e+00
	0.000000000000000e+00,0.000000000000000e+00
	2.992494887350327e-05,2.813581207553811e-14
	2.992494886977600e-05,2.722291911826881e-14
	-3.896912558494114e-08,-1.302565413724148e-14
	2.656569454006331e-05,5.669580436721767e-12
	-1.595997274287453e-05,-1.462274245801080e-14
	-1.056675267160384e-05,-5.641932040126514e-12
	3.896912558493946e-08,1.302565413724056e-14
	-2.656569454005664e-05,-5.669580436721764e-12
	3.896912558493946e-08,1.302565413724056e-14
29		1.949844599758044e+00,0.000000000000000e+00
	3.896912558493946e-04,1.332906059851108e-10
	1.000000000000000e+00,0.000000000000000e+00
	0.000000000000000e+00,0.000000000000000e+00
	2.992494887350327e-05,2.879117932902637e-14
	2.992494886977600e-05,2.785702236315023e-14
	-3.896912558494114e-08,-1.332906059851106e-14
	2.656569454006331e-05,5.801641930069441e-12
	-1.595997274287453e-05,-1.496334988520870e-14
	-1.056675267160384e-05,-5.773349519585721e-12
	3.896912558493946e-08,1.332906059851108e-14
	-2.656569454005664e-05,-5.801641930069440e-12
	3.896912558493946e-08,1.332906059851108e-14
30		1.995262314968878e+00,0.000000000000000e+00
	3.896912558493946e-04,1.363953430414190e-10
	1.000000000000000e+00,0.000000000000000e+00
	0.000000000000000e+00,0.000000000000000e+00
	2.992494887350327e-05,2.946181204689119e-14
	2.992494886977600e-05,2.850589577001989e-14
	-3.896912558493945e-08,-1.363953430414173e-14
	2.656569454006331e-05,5.936779530762247e-12
	-1.595997274287453e-05,-1.531189107857909e-14
	-1.056675267160384e-05,-5.907828105379526e-12
	3.896912558493947e-08,1.363953430414190e-14
	-2.656569454005664e-05,-5.936779530762246e-12
	3.896912558493947e-08,1.363953430414190e-14
31		2.041737944669527e+00,0.000000000000000e+00
	3.896912558493946e-04,1.395723987140135e-10
	1.000000000000000e+00,0.000000000000000e+00
	0.000000000000000e+00,0.000000000000000e+00
	2.992494887350327e-05,3.014806580747646e-14
	2.992494886977600e-05,2.916988338014694e-14
	-3.896912558493945e-08,-1.395723987140170e-14
	2.656569454006331e-05,6.075064890544831e-12
	-1.595997274287453e-05,-1.566855083927618e-14
	-1.056675267160384e-05,-6.045439099834153e-12
	3.896912558493947e-08,1.395723987140135e-14
	-2.656569454005664e-05,-6.075064890544830e-12
	3.896912558493947e-08,1.395723987140135e-14
32		2.089296130854037e+00,0.000000000000000e+00
	3.896912558493946e-04,1.428234575198654e-10
	1.000000000000000e+00,0.000000000000000e+00
	0.000000000000000e+00,0.000000000000000e+00
	2.992494887350327e-05,3.085030447160967e-14
	2.992494886977600e-05,2.984933724855121e-14
	-3.896912558493945e-08,-1.428234575198686e-14
