Title: * GA CMOS Amp | W=3.3655441338529843e-06 L=9.690709958202255e-07 Vbias=1.3935755162067534
Date: Sat Sep  6 22:13:50 2025
Plotname: AC Analysis
Flags: complex forward log
No. Variables: 13
No. Points:          901
Offset:    0.0000000000000000e+00
Command: Linear Technology Corporation LTspice
Variables:
	0	frequency	frequency
	1	V(out)	voltage
	2	V(g)	voltage
	3	V(vdd)	voltage
	4	V(m1#dbody)	voltage
	5	V(m1#sbody)	voltage
	6	Id(M1)	device_current
	7	Ig(M1)	device_current
	8	Ib(M1)	device_current
	9	Is(M1)	device_current
	10	I(Rload)	device_current
	11	I(Vg)	device_current
	12	I(Vdd)	device_current
Values:
0		1.000000000000000e+00,0.000000000000000e+00
	-1.466865572725460e-01,1.479449776556827e-09
	1.000000000000000e+00,0.000000000000000e+00
	0.000000000000000e+00,0.000000000000000e+00
	5.639343813000887e-05,1.608163582027008e-13
	5.639343923015201e-05,1.708444917006787e-13
	1.466865572725461e-05,-1.479449776556828e-13
	3.557354124275635e-05,7.512989168212373e-13
	-3.007650087213384e-05,-9.045138211661957e-14
	-2.016569609787711e-05,-5.129025570489349e-13
	-1.466865572725460e-05,1.479449776556827e-13
	-3.557354124295031e-05,-7.512989168212372e-13
	-1.466865572725460e-05,1.479449776556827e-13
1		1.023292992280754e+00,0.000000000000000e+00
	-1.466865572725460e-01,1.513910588781929e-09
	1.000000000000000e+00,0.000000000000000e+00
	0.000000000000000e+00,0.000000000000000e+00
	5.639343813000887e-05,1.645622523929353e-13
	5.639343923015201e-05,1.748239711270720e-13
	1.466865572725461e-05,-1.513910588781929e-13
	3.557354124275635e-05,7.687989166912933e-13
	-3.007650087213384e-05,-9.255826546204550e-14
	-2.016569609787711e-05,-5.248495923510548e-13
	-1.466865572725460e-05,1.513910588781929e-13
	-3.557354124295031e-05,-7.687989166912931e-13
	-1.466865572725460e-05,1.513910588781929e-13
2		1.047128548050899e+00,0.000000000000000e+00
	-1.466865572725460e-01,1.549174096440178e-09
	1.000000000000000e+00,0.000000000000000e+00
	0.000000000000000e+00,0.000000000000000e+00
	5.639343813000887e-05,1.683953996676274e-13
	5.639343923015201e-05,1.788961445370256e-13
	1.466865572725461e-05,-1.549174096440178e-13
	3.557354124275635e-05,7.867065439232356e-13
	-3.007650087213384e-05,-9.471422442497289e-14
	-2.016569609787711e-05,-5.370749098542449e-13
	-1.466865572725460e-05,1.549174096440178e-13
	-3.557354124295031e-05,-7.867065439232356e-13
	-1.466865572725460e-05,1.549174096440178e-13
3		1.071519305237606e+00,0.000000000000000e+00
	-1.466865572725460e-01,1.585258996710104e-09
	1.000000000000000e+00,0.000000000000000e+00
	0.000000000000000e+00,0.000000000000000e+00
	5.639343813000887e-05,1.723178324121999e-13
	5.639343923015201e-05,1.830631710507832e-13
	1.466865572725461e-05,-1.585258996710103e-13
	3.557354124275635e-05,8.050312933780582e-13
	-3.007650087213384e-05,-9.692040212338140e-14
	-2.016569609787711e-05,-5.495849915836665e-13
	-1.466865572725460e-05,1.585258996710104e-13
	-3.557354124295031e-05,-8.050312933780582e-13
	-1.466865572725460e-05,1.585258996710104e-13
4		1.096478196143185e+00,0.000000000000000e+00
	-1.466865572725460e-01,1.622184422283467e-09
	1.000000000000000e+00,0.000000000000000e+00
	0.000000000000000e+00,0.000000000000000e+00
	5.639343813000887e-05,1.763316303524136e-13
	5.639343923015201e-05,1.873272600809595e-13
	1.466865572725461e-05,-1.622184422283468e-13
	3.557354124275635e-05,8.237828810804787e-13
	-3.007650087213384e-05,-9.917796830188889e-14
	-2.016569609787711e-05,-5.623864705502431e-13
	-1.466865572725460e-05,1.622184422283467e-13
	-3.557354124295031e-05,-8.237828810804787e-13
	-1.466865572725460e-05,1.622184422283467e-13
5		1.122018454301963e+00,0.000000000000000e+00
	-1.466865572725460e-01,1.659969951509676e-09
	1.000000000000000e+00,0.000000000000000e+00
	0.000000000000000e+00,0.000000000000000e+00
	5.639343813000887e-05,1.804389216570651e-13
	5.639343923015201e-05,1.916906725040001e-13
	1.466865572725461e-05,-1.659969951509676e-13
	3.557354124275635e-05,8.429712493705037e-13
	-3.007650087213384e-05,-1.014881199519657e-13
	-2.016569609787711e-05,-5.754861342675704e-13
	-1.466865572725460e-05,1.659969951509676e-13
	-3.557354124295031e-05,-8.429712493705038e-13
	-1.466865572725460e-05,1.659969951509676e-13
6		1.148153621496882e+00,0.000000000000000e+00
	-1.466865572725460e-01,1.698635618776475e-09
	1.000000000000000e+00,0.000000000000000e+00
	0.000000000000000e+00,0.000000000000000e+00
	5.639343813000887e-05,1.846418840663708e-13
	5.639343923015201e-05,1.961557218589284e-13
	1.466865572725461e-05,-1.698635618776475e-13
	3.557354124275635e-05,8.626065721749887e-13
	-3.007650087213384e-05,-1.038520819465951e-13
	-2.016569609787711e-05,-5.888909283507460e-13
	-1.466865572725460e-05,1.698635618776475e-13
	-3.557354124295031e-05,-8.626065721749885e-13
	-1.466865572725460e-05,1.698635618776475e-13
7		1.174897554939529e+00,0.000000000000000e+00
	-1.466865572725460e-01,1.738201925132449e-09
	1.000000000000000e+00,0.000000000000000e+00
	0.000000000000000e+00,0.000000000000000e+00
	5.639343813000887e-05,1.889427460466326e-13
	5.639343923015201e-05,2.007247755740140e-13
	1.466865572725461e-05,-1.738201925132449e-13
	3.557354124275635e-05,8.826992604019883e-13
	-3.007650087213384e-05,-1.062711076897173e-13
	-2.016569609787711e-05,-6.026079601990261e-13
	-1.466865572725460e-05,1.738201925132449e-13
	-3.557354124295031e-05,-8.826992604019883e-13
	-1.466865572725460e-05,1.738201925132449e-13
8		1.202264434617413e+00,0.000000000000000e+00
	-1.466865572725460e-01,1.778689849156952e-09
	1.000000000000000e+00,0.000000000000000e+00
	0.000000000000000e+00,0.000000000000000e+00
	5.639343813000887e-05,1.933437879718013e-13
	5.639343923015201e-05,2.054002562220157e-13
	1.466865572725461e-05,-1.778689849156951e-13
	3.557354124275635e-05,9.032599674607593e-13
	-3.007650087213384e-05,-1.087464797808011e-13
	-2.016569609787711e-05,-6.166445027642630e-13
	-1.466865572725460e-05,1.778689849156952e-13
	-3.557354124295031e-05,-9.032599674607593e-13
	-1.466865572725460e-05,1.778689849156952e-13
9		1.230268770812381e+00,0.000000000000000e+00
	-1.466865572725460e-01,1.820120858083219e-09
	1.000000000000000e+00,0.000000000000000e+00
	0.000000000000000e+00,0.000000000000000e+00
	5.639343813000887e-05,1.978473433325603e-13
	5.639343923015201e-05,2.101846428046600e-13
	1.466865572725461e-05,-1.820120858083220e-13
	3.557354124275635e-05,9.242995949103369e-13
	-3.007650087213384e-05,-1.112795106948945e-13
	-2.016569609787711e-05,-6.310079984071204e-13
	-1.466865572725460e-05,1.820120858083220e-13
	-3.557354124295031e-05,-9.242995949103369e-13
	-1.466865572725460e-05,1.820120858083220e-13
10		1.258925411794167e+00,0.000000000000000e+00
	-1.466865572725460e-01,1.862516919180592e-09
	1.000000000000000e+00,0.000000000000000e+00
	0.000000000000000e+00,0.000000000000000e+00
	5.639343813000887e-05,2.024557999735733e-13
	5.639343923015201e-05,2.150804720670420e-13
	1.466865572725461e-05,-1.862516919180592e-13
	3.557354124275635e-05,9.458292982396876e-13
	-3.007650087213384e-05,-1.138715434785168e-13
	-2.016569609787711e-05,-6.457060628431117e-13
	-1.466865572725460e-05,1.862516919180592e-13
	-3.557354124295031e-05,-9.458292982396874e-13
	-1.466865572725460e-05,1.862516919180592e-13
11		1.288249551693134e+00,0.000000000000000e+00
	-1.466865572725460e-01,1.905900511401840e-09
	1.000000000000000e+00,0.000000000000000e+00
	0.000000000000000e+00,0.000000000000000e+00
	5.639343813000887e-05,2.071716013595517e-13
	5.639343923015201e-05,2.200903398426407e-13
	1.466865572725461e-05,-1.905900511401840e-13
	3.557354124275635e-05,9.678604927824959e-13
	-3.007650087213384e-05,-1.165239524617595e-13
	-2.016569609787711e-05,-6.607464891805524e-13
	-1.466865572725460e-05,1.905900511401840e-13
	-3.557354124295031e-05,-9.678604927824957e-13
	-1.466865572725460e-05,1.905900511401840e-13
12		1.318256738556407e+00,0.000000000000000e+00
	-1.466865572725460e-01,1.950294637301808e-09
	1.000000000000000e+00,0.000000000000000e+00
	0.000000000000000e+00,0.000000000000000e+00
	5.639343813000887e-05,2.119972478708112e-13
	5.639343923015201e-05,2.252169024296638e-13
	1.466865572725461e-05,-1.950294637301808e-13
	3.557354124275635e-05,9.904048597697255e-13
	-3.007650087213384e-05,-1.192381439869742e-13
	-2.016569609787711e-05,-6.761372520525703e-13
	-1.466865572725460e-05,1.950294637301808e-13
	-3.557354124295031e-05,-9.904048597697253e-13
	-1.466865572725460e-05,1.950294637301808e-13
13		1.348962882591653e+00,0.000000000000000e+00
	-1.466865572725460e-01,1.995722835233675e-09
	1.000000000000000e+00,0.000000000000000e+00
	0.000000000000000e+00,0.000000000000000e+00
	5.639343813000887e-05,2.169352981290071e-13
	5.639343923015201e-05,2.304628779994533e-13
	1.466865572725461e-05,-1.995722835233675e-13
	3.557354124275635e-05,1.013474352523163e-12
	-3.007650087213384e-05,-1.220155571544342e-13
	-2.016569609787711e-05,-6.918865118453613e-13
	-1.466865572725460e-05,1.995722835233675e-13
	-3.557354124295031e-05,-1.013474352523163e-12
	-1.466865572725460e-05,1.995722835233675e-13
14		1.380384264602885e+00,0.000000000000000e+00
	-1.466865572725460e-01,2.042209191829298e-09
	1.000000000000000e+00,0.000000000000000e+00
	0.000000000000000e+00,0.000000000000000e+00
	5.639343813000887e-05,2.219883703537492e-13
	5.639343923015201e-05,2.358310480376950e-13
	1.466865572725461e-05,-2.042209191829298e-13
	3.557354124275635e-05,1.037081202793227e-12
	-3.007650087213384e-05,-1.248576645853644e-13
	-2.016569609787711e-05,-7.080026190249331e-13
	-1.466865572725460e-05,2.042209191829298e-13
	-3.557354124295031e-05,-1.037081202793228e-12
	-1.466865572725460e-05,2.042209191829298e-13
15		1.412537544622754e+00,0.000000000000000e+00
	-1.466865572725460e-01,2.089778354770263e-09
	1.000000000000000e+00,0.000000000000000e+00
	0.000000000000000e+00,0.000000000000000e+00
	5.639343813000887e-05,2.271591437508162e-13
	5.639343923015201e-05,2.413242588191992e-13
	1.466865572725461e-05,-2.089778354770264e-13
	3.557354124275635e-05,1.061237927244405e-12
	-3.007650087213384e-05,-1.277659732027443e-13
	-2.016569609787711e-05,-7.244941185646346e-13
	-1.466865572725460e-05,2.089778354770263e-13
	-3.557354124295031e-05,-1.061237927244405e-12
	-1.466865572725460e-05,2.089778354770263e-13
16		1.445439770745927e+00,0.000000000000000e+00
	-1.466865572725460e-01,2.138455545856413e-09
	1.000000000000000e+00,0.000000000000000e+00
	0.000000000000000e+00,0.000000000000000e+00
	5.639343813000887e-05,2.324503599327067e-13
	5.639343923015201e-05,2.469454229170335e-13
	1.466865572725461e-05,-2.138455545856414e-13
	3.557354124275635e-05,1.085957334091752e-12
	-3.007650087213384e-05,-1.307420250302988e-13
	-2.016569609787711e-05,-7.413697544758123e-13
	-1.466865572725460e-05,2.138455545856413e-13
	-3.557354124295031e-05,-1.085957334091752e-12
	-1.466865572725460e-05,2.138455545856413e-13
17		1.479108388168207e+00,0.000000000000000e+00
	-1.466865572725460e-01,2.188266574378782e-09
	1.000000000000000e+00,0.000000000000000e+00
	0.000000000000000e+00,0.000000000000000e+00
	5.639343813000887e-05,2.378648243722777e-13
	5.639343923015201e-05,2.526975207468075e-13
	1.466865572725461e-05,-2.188266574378783e-13
	3.557354124275635e-05,1.111252529891980e-12
	-3.007650087213384e-05,-1.337873980100997e-13
	-2.016569609787711e-05,-7.586384744440019e-13
	-1.466865572725460e-05,2.188266574378783e-13
	-3.557354124295031e-05,-1.111252529891980e-12
	-1.466865572725460e-05,2.188266574378783e-13
18		1.513561248436208e+00,0.000000000000000e+00
	-1.466865572725460e-01,2.239237850804020e-09
	1.000000000000000e+00,0.000000000000000e+00
	0.000000000000000e+00,0.000000000000000e+00
	5.639343813000887e-05,2.434054078902441e-13
	5.639343923015201e-05,2.585836021469286e-13
	1.466865572725461e-05,-2.239237850804020e-13
	3.557354124275635e-05,1.137136926492722e-12
	-3.007650087213384e-05,-1.369037068392111e-13
	-2.016569609787711e-05,-7.763094345731091e-13
	-1.466865572725460e-05,2.239237850804020e-13
	-3.557354124295031e-05,-1.137136926492722e-12
	-1.466865572725460e-05,2.239237850804020e-13
19		1.548816618912481e+00,0.000000000000000e+00
	-1.466865572725460e-01,2.291396400777570e-09
	1.000000000000000e+00,0.000000000000000e+00
	0.000000000000000e+00,0.000000000000000e+00
	5.639343813000887e-05,2.490750481773252e-13
	5.639343923015201e-05,2.646067879956665e-13
	1.466865572725461e-05,-2.291396400777571e-13
	3.557354124275635e-05,1.163624248143678e-12
	-3.007650087213384e-05,-1.400926038258234e-13
	-2.016569609787711e-05,-7.943920042400973e-13
	-1.466865572725460e-05,2.291396400777570e-13
	-3.557354124295031e-05,-1.163624248143678e-12
	-1.466865572725460e-05,2.291396400777570e-13
20		1.584893192461113e+00,0.000000000000000e+00
	-1.466865572725460e-01,2.344769879453030e-09
	1.000000000000000e+00,0.000000000000000e+00
	0.000000000000000e+00,0.000000000000000e+00
	5.639343813000887e-05,2.548767513518483e-13
	5.639343923015201e-05,2.707702718658847e-13
	1.466865572725461e-05,-2.344769879453031e-13
	3.557354124275635e-05,1.190728538773387e-12
	-3.007650087213384e-05,-1.433557797653291e-13
	-2.016569609787711e-05,-8.128957710627547e-13
	-1.466865572725460e-05,2.344769879453030e-13
	-3.557354124295031e-05,-1.190728538773387e-12
	-1.466865572725460e-05,2.344769879453030e-13
21		1.621810097358929e+00,0.000000000000000e+00
	-1.466865572725460e-01,2.399386586155274e-09
	1.000000000000000e+00,0.000000000000000e+00
	0.000000000000000e+00,0.000000000000000e+00
	5.639343813000887e-05,2.608135935536306e-13
	5.639343923015201e-05,2.770773217183145e-13
	1.466865572725461e-05,-2.399386586155274e-13
	3.557354124275635e-05,1.218464169435509e-12
	-3.007650087213384e-05,-1.466949648368044e-13
	-2.016569609787711e-05,-8.318305459831768e-13
	-1.466865572725460e-05,2.399386586155275e-13
	-3.557354124295031e-05,-1.218464169435509e-12
	-1.466865572725460e-05,2.399386586155275e-13
22		1.659586907437560e+00,0.000000000000000e+00
	-1.466865572725460e-01,2.455275479385134e-09
	1.000000000000000e+00,0.000000000000000e+00
	0.000000000000000e+00,0.000000000000000e+00
	5.639343813000887e-05,2.668887225749909e-13
	5.639343923015201e-05,2.835312816342712e-13
	1.466865572725461e-05,-2.455275479385135e-13
	3.557354124275635e-05,1.246845845928546e-12
	-3.007650087213384e-05,-1.501119295203736e-13
	-2.016569609787711e-05,-8.512063684696586e-13
	-1.466865572725460e-05,2.455275479385134e-13
	-3.557354124295031e-05,-1.246845845928546e-12
	-1.466865572725460e-05,2.455275479385134e-13
23		1.698243652461743e+00,0.000000000000000e+00
	-1.466865572725460e-01,2.512466192173577e-09
	1.000000000000000e+00,0.000000000000000e+00
	0.000000000000000e+00,0.000000000000000e+00
	5.639343813000887e-05,2.731053595297506e-13
	5.639343923015201e-05,2.901355735887306e-13
	1.466865572725461e-05,-2.512466192173577e-13
	3.557354124275635e-05,1.275888616593050e-12
	-3.007650087213384e-05,-1.536084855359408e-13
	-2.016569609787711e-05,-8.710335118397511e-13
	-1.466865572725460e-05,2.512466192173577e-13
	-3.557354124295031e-05,-1.275888616593049e-12
	-1.466865572725460e-05,2.512466192173577e-13
24		1.737800828749374e+00,0.000000000000000e+00
	-1.466865572725460e-01,2.570989047793531e-09
	1.000000000000000e+00,0.000000000000000e+00
	0.000000000000000e+00,0.000000000000000e+00
	5.639343813000887e-05,2.794668005611096e-13
	5.639343923015201e-05,2.968936992647050e-13
	1.466865572725461e-05,-2.570989047793531e-13
	3.557354124275635e-05,1.305607880290453e-12
	-3.007650087213384e-05,-1.571864868037877e-13
	-2.016569609787711e-05,-8.913224887073124e-13
	-1.466865572725460e-05,2.570989047793532e-13
	-3.557354124295031e-05,-1.305607880290453e-12
	-1.466865572725460e-05,2.570989047793532e-13
25		1.778279410038922e+00,0.000000000000000e+00
	-1.466865572725460e-01,2.630875075837689e-09
	1.000000000000000e+00,0.000000000000000e+00
	0.000000000000000e+00,0.000000000000000e+00
	5.639343813000887e-05,2.859764185893065e-13
	5.639343923015201e-05,3.038092419098823e-13
	1.466865572725461e-05,-2.630875075837688e-13
	3.557354124275635e-05,1.336019394567750e-12
	-3.007650087213384e-05,-1.608478304275472e-13
	-2.016569609787711e-05,-9.120840565564345e-13
	-1.466865572725460e-05,2.630875075837689e-13
	-3.557354124295031e-05,-1.336019394567750e-12
	-1.466865572725460e-05,2.630875075837689e-13
26		1.819700858609982e+00,0.000000000000000e+00
	-1.466865572725460e-01,2.692156028670805e-09
	1.000000000000000e+00,0.000000000000000e+00
	0.000000000000000e+00,0.000000000000000e+00
	5.639343813000887e-05,2.926376650999851e-13
	5.639343923015201e-05,3.108858682365110e-13
	1.466865572725461e-05,-2.692156028670804e-13
	3.557354124275635e-05,1.367139284012355e-12
	-3.007650087213384e-05,-1.645944577000722e-13
	-2.016569609787711e-05,-9.333292234452023e-13
	-1.466865572725460e-05,2.692156028670805e-13
	-3.557354124295031e-05,-1.367139284012355e-12
	-1.466865572725460e-05,2.692156028670805e-13
27		1.862087136662866e+00,0.000000000000000e+00
	-1.466865572725460e-01,2.754864398265219e-09
	1.000000000000000e+00,0.000000000000000e+00
	0.000000000000000e+00,0.000000000000000e+00
	5.639343813000887e-05,2.994540719742169e-13
	5.639343923015201e-05,3.181273303655396e-13
	1.466865572725461e-05,-2.754864398265221e-13
	3.557354124275635e-05,1.398984048801570e-12
	-3.007650087213384e-05,-1.684283551327348e-13
	-2.016569609787711e-05,-9.550692538423136e-13
	-1.466865572725460e-05,2.754864398265219e-13
	-3.557354124295031e-05,-1.398984048801571e-12
	-1.466865572725460e-05,2.754864398265219e-13
28		1.905460717963246e+00,0.000000000000000e+00
	-1.466865572725460e-01,2.819033433428536e-09
	1.000000000000000e+00,0.000000000000000e+00
	0.000000000000000e+00,0.000000000000000e+00
	5.639343813000887e-05,3.064292533611527e-13
	5.639343923015201e-05,3.255374678160410e-13
	1.466865572725461e-05,-2.819033433428537e-13
	3.557354124275635e-05,1.431570573451203e-12
	-3.007650087213384e-05,-1.723515555087017e-13
	-2.016569609787711e-05,-9.773156745996481e-13
	-1.466865572725460e-05,2.819033433428536e-13
	-3.557354124295031e-05,-1.431570573451203e-12
	-1.466865572725460e-05,2.819033433428536e-13
29		1.949844599758044e+00,0.000000000000000e+00
	-1.466865572725460e-01,2.884697157432574e-09
	1.000000000000000e+00,0.000000000000000e+00
	0.000000000000000e+00,0.000000000000000e+00
	5.639343813000887e-05,3.135669075942913e-13
	5.639343923015201e-05,3.331202095409763e-13
	1.466865572725461e-05,-2.884697157432575e-13
	3.557354124275635e-05,1.464916135767957e-12
	-3.007650087213384e-05,-1.763661389607419e-13
	-2.016569609787711e-05,-1.000080281063958e-12
	-1.466865572725460e-05,2.884697157432575e-13
	-3.557354124295031e-05,-1.464916135767957e-12
	-1.466865572725460e-05,2.884697157432575e-13
30		1.995262314968878e+00,0.000000000000000e+00
	-1.466865572725460e-01,2.951890386052964e-09
	1.000000000000000e+00,0.000000000000000e+00
	0.000000000000000e+00,0.000000000000000e+00
	5.639343813000887e-05,3.208708191523850e-13
	5.639343923015201e-05,3.408795760103774e-13
	1.466865572725461e-05,-2.951890386052964e-13
	3.557354124275635e-05,1.499038416010352e-12
	-3.007650087213384e-05,-1.804742340741409e-13
	-2.016569609787711e-05,-1.023375143330915e-12
	-1.466865572725460e-05,2.951890386052964e-13
	-3.557354124295031e-05,-1.499038416010352e-12
	-1.466865572725460e-05,2.951890386052964e-13
31		2.041737944669527e+00,0.000000000000000e+00
	-1.466865572725460e-01,3.020648746028928e-09
	1.000000000000000e+00,0.000000000000000e+00
	0.000000000000000e+00,0.000000000000000e+00
	5.639343813000887e-05,3.283448606660207e-13
	5.639343923015201e-05,3.488196813430538e-13
	1.466865572725461e-05,-3.020648746028927e-13
	3.557354124275635e-05,1.533955506263035e-12
	-3.007650087213384e-05,-1.846780190153048e-13
	-2.016569609787711e-05,-1.047212612644837e-12
	-1.466865572725460e-05,3.020648746028928e-13
	-3.557354124295031e-05,-1.533955506263035e-12
	-1.466865572725460e-05,3.020648746028928e-13
32		2.089296130854037e+00,0.000000000000000e+00
	-1.466865572725460e-01,3.091008693953050e-09
	1.000000000000000e+00,0.000000000000000e+00
	0.000000000000000e+00,0.000000000000000e+00
	5.639343813000887e-05,3.359929949709397e-13
