LTspice 24.0.9 for Windows
Circuit: * GA CMOS Amp | W=4.9949817147660015e-06 L=9.617069020627462e-07 Vbias=1.0047794142387654
Start Time: Mon Sep  8 18:45:13 2025
solver = Normal
Maximum thread count: 2
tnom = 27
temp = 27
method = modified trap
AsciiRawFile = 1
Instance "m1": Length shorter than recommended for a level 3 MOSFET.
Direct Newton iteration for .op point succeeded.
Semiconductor Device Operating Points:
                        --- MOSFET Transistors ---
Name:          m1
Model:        n_1u
Id:          1.51e-05
Vgs:         1.00e+00
Vds:         1.65e+00
Vbs:         0.00e+00
Vth:         8.39e-01
Vdsat:       1.73e-01
Gm:          1.25e-04
Gds:         2.11e-06
Gmb:         3.52e-05
Cbd:         0.00e+00
Cbs:         0.00e+00
Cgsov:       9.99e-16
Cgdov:       9.99e-16
Cgbov:       7.62e-17
Cgs:         4.38e-15
Cgd:         0.00e+00
Cgb:         0.00e+00



gain_db: MAX(db(v(out)/v(g)))=(28.7376dB,86.2851°) FROM 1 TO 1e+09
gain_lin: MAX(mag(v(out)/v(g)))=(1.77175dB,0°) FROM 1 TO 1e+09

Measurement "fc" FAIL'ed

Total elapsed time: 0.481 seconds.

