Title: * GA CMOS Amp | W=1.619223966817997e-05 L=5.331074756146602e-07 Vbias=0.7729923010337132
Date: Mon Sep  8 18:45:58 2025
Plotname: AC Analysis
Flags: complex forward log
No. Variables: 11
No. Points:          901
Offset:    0.0000000000000000e+00
Command: Linear Technology Corporation LTspice
Variables:
	0	frequency	frequency
	1	V(out)	voltage
	2	V(g)	voltage
	3	V(vdd)	voltage
	4	Id(M1)	device_current
	5	Ig(M1)	device_current
	6	Ib(M1)	device_current
	7	Is(M1)	device_current
	8	I(Rload)	device_current
	9	I(Vg)	device_current
	10	I(Vdd)	device_current
Values:
0		1.000000000000000e+00,0.000000000000000e+00
	-4.356463373591854e+00,1.011362967744329e-09
	1.000000000000000e+00,0.000000000000000e+00
	0.000000000000000e+00,0.000000000000000e+00
	4.356463373591855e-04,-1.011362967744329e-13
	2.057897951153472e-23,1.700905546637461e-13
	4.356463323765269e-12,-1.741731908577526e-15
	-4.356463417156489e-04,-6.721252598073570e-14
	-4.356463373591854e-04,1.011362967744329e-13
	-2.057897951153472e-23,-1.700905546637461e-13
	-4.356463373591854e-04,1.011362967744329e-13
1		1.023292992280754e+00,0.000000000000000e+00
	-4.356463373591854e+00,1.034920637545038e-09
	1.000000000000000e+00,0.000000000000000e+00
	0.000000000000000e+00,0.000000000000000e+00
	4.356463373591855e-04,-1.034920637545038e-13
	2.154883693628255e-23,1.740524726405579e-13
	4.356463323765269e-12,-1.782302056479167e-15
	-4.356463417156489e-04,-6.877810682957496e-14
	-4.356463373591854e-04,1.034920637545038e-13
	-2.154883693628255e-23,-1.740524726405579e-13
	-4.356463373591854e-04,1.034920637545038e-13
2		1.047128548050899e+00,0.000000000000000e+00
	-4.356463373591854e+00,1.059027035966568e-09
	1.000000000000000e+00,0.000000000000000e+00
	0.000000000000000e+00,0.000000000000000e+00
	4.356463373591855e-04,-1.059027035966568e-13
	2.256440233327514e-23,1.781066755422206e-13
	4.356463323765269e-12,-1.823817204522703e-15
	-4.356463417156489e-04,-7.038015474104113e-14
	-4.356463373591854e-04,1.059027035966568e-13
	-2.256440233327514e-23,-1.781066755422206e-13
	-4.356463373591854e-04,1.059027035966568e-13
3		1.071519305237606e+00,0.000000000000000e+00
	-4.356463373591854e+00,1.083694944540447e-09
	1.000000000000000e+00,0.000000000000000e+00
	0.000000000000000e+00,0.000000000000000e+00
	4.356463373591855e-04,-1.083694944540447e-13
	2.362782985287873e-23,1.822553129607763e-13
	4.356463323765269e-12,-1.866299364589170e-15
	-4.356463417156489e-04,-7.201951914214247e-14
	-4.356463373591854e-04,1.083694944540447e-13
	-2.362782985287873e-23,-1.822553129607763e-13
	-4.356463373591854e-04,1.083694944540447e-13
4		1.096478196143185e+00,0.000000000000000e+00
	-4.356463373591854e+00,1.108937442518319e-09
	1.000000000000000e+00,0.000000000000000e+00
	0.000000000000000e+00,0.000000000000000e+00
	4.356463373591855e-04,-1.108937442518319e-13
	2.474137516743859e-23,1.865005845586981e-13
	4.356463323765269e-12,-1.909771061282122e-15
	-4.356463417156489e-04,-7.369706924558401e-14
	-4.356463373591854e-04,1.108937442518319e-13
	-2.474137516743859e-23,-1.865005845586981e-13
	-4.356463373591854e-04,1.108937442518319e-13
5		1.122018454301963e+00,0.000000000000000e+00
	-4.356463373591854e+00,1.134767913806738e-09
	1.000000000000000e+00,0.000000000000000e+00
	0.000000000000000e+00,0.000000000000000e+00
	4.356463373591855e-04,-1.134767913806738e-13
	2.590740025586256e-23,1.908447412351800e-13
	4.356463323765269e-12,-1.954255343870557e-15
	-4.356463417156489e-04,-7.541369451063562e-14
	-4.356463373591854e-04,1.134767913806738e-13
	-2.590740025586256e-23,-1.908447412351800e-13
	-4.356463373591854e-04,1.134767913806738e-13
6		1.148153621496882e+00,0.000000000000000e+00
	-4.356463373591854e+00,1.161200054063486e-09
	1.000000000000000e+00,0.000000000000000e+00
	0.000000000000000e+00,0.000000000000000e+00
	4.356463373591855e-04,-1.161200054063486e-13
	2.712837841369486e-23,1.952900863195935e-13
	4.356463323765269e-12,-1.999775798509962e-15
	-4.356463417156489e-04,-7.717030511473499e-14
	-4.356463373591854e-04,1.161200054063486e-13
	-2.712837841369486e-23,-1.952900863195935e-13
	-4.356463373591854e-04,1.161200054063486e-13
7		1.174897554939529e+00,0.000000000000000e+00
	-4.356463373591854e+00,1.188247877959198e-09
	1.000000000000000e+00,0.000000000000000e+00
	0.000000000000000e+00,0.000000000000000e+00
	4.356463373591855e-04,-1.188247877959198e-13
	2.840689949930767e-23,1.998389767927436e-13
	4.356463323765269e-12,-2.046356560747879e-15
	-4.356463417156489e-04,-7.896783243607595e-14
	-4.356463373591854e-04,1.188247877959198e-13
	-2.840689949930767e-23,-1.998389767927436e-13
	-4.356463373591854e-04,1.188247877959198e-13
8		1.202264434617413e+00,0.000000000000000e+00
	-4.356463373591854e+00,1.215925726608124e-09
	1.000000000000000e+00,0.000000000000000e+00
	0.000000000000000e+00,0.000000000000000e+00
	4.356463373591855e-04,-1.215925726608124e-13
	2.974567542733786e-23,2.044938245365708e-13
	4.356463323765269e-12,-2.094022328321096e-15
	-4.356463417156489e-04,-8.080722954743736e-14
	-4.356463373591854e-04,1.215925726608124e-13
	-2.974567542733786e-23,-2.044938245365708e-13
	-4.356463373591854e-04,1.215925726608124e-13
9		1.230268770812381e+00,0.000000000000000e+00
	-4.356463373591854e+00,1.244248275171977e-09
	1.000000000000000e+00,0.000000000000000e+00
	0.000000000000000e+00,0.000000000000000e+00
	4.356463373591855e-04,-1.244248275171977e-13
	3.114754592102161e-23,2.092570976129630e-13
	4.356463323765269e-12,-2.142798374250373e-15
	-4.356463417156489e-04,-8.268947172151493e-14
	-4.356463373591854e-04,1.244248275171977e-13
	-3.114754592102161e-23,-2.092570976129630e-13
	-4.356463373591854e-04,1.244248275171977e-13
10		1.258925411794167e+00,0.000000000000000e+00
	-4.356463373591854e+00,1.273230540640899e-09
	1.000000000000000e+00,0.000000000000000e+00
	0.000000000000000e+00,0.000000000000000e+00
	4.356463373591855e-04,-1.273230540640900e-13
	3.261548453562807e-23,2.141313215723548e-13
	4.356463323765269e-12,-2.192710560241031e-15
	-4.356463417156489e-04,-8.461555694802382e-14
	-4.356463373591854e-04,1.273230540640899e-13
	-3.261548453562807e-23,-2.141313215723548e-13
	-4.356463373591854e-04,1.273230540640899e-13
11		1.288249551693134e+00,0.000000000000000e+00
	-4.356463373591854e+00,1.302887889795669e-09
	1.000000000000000e+00,0.000000000000000e+00
	0.000000000000000e+00,0.000000000000000e+00
	4.356463373591855e-04,-1.302887889795669e-13
	3.415260496576881e-23,2.191190807928074e-13
	4.356463323765269e-12,-2.243785350394639e-15
	-4.356463417156489e-04,-8.658650646284587e-14
	-4.356463373591854e-04,1.302887889795669e-13
	-3.415260496576881e-23,-2.191190807928074e-13
	-4.356463373591854e-04,1.302887889795669e-13
12		1.318256738556407e+00,0.000000000000000e+00
	-4.356463373591854e+00,1.333236047355367e-09
	1.000000000000000e+00,0.000000000000000e+00
	0.000000000000000e+00,0.000000000000000e+00
	4.356463373591855e-04,-1.333236047355367e-13
	3.576216764996143e-23,2.242230198502801e-13
	4.356463323765269e-12,-2.296049825241073e-15
	-4.356463417156489e-04,-8.860336528950239e-14
	-4.356463373591854e-04,1.333236047355367e-13
	-3.576216764996143e-23,-2.242230198502801e-13
	-4.356463373591854e-04,1.333236047355367e-13
13		1.348962882591653e+00,0.000000000000000e+00
	-4.356463373591854e+00,1.364291104314839e-09
	1.000000000000000e+00,0.000000000000000e+00
	0.000000000000000e+00,0.000000000000000e+00
	4.356463373591855e-04,-1.364291104314839e-13
	3.744758668645696e-23,2.294458449208201e-13
	4.356463323765269e-12,-2.349531696096618e-15
	-4.356463417156489e-04,-9.066720279323961e-14
	-4.356463373591854e-04,1.364291104314839e-13
	-3.744758668645696e-23,-2.294458449208201e-13
	-4.356463373591854e-04,1.364291104314839e-13
14		1.380384264602885e+00,0.000000000000000e+00
	-4.356463373591854e+00,1.396069526476346e-09
	1.000000000000000e+00,0.000000000000000e+00
	0.000000000000000e+00,0.000000000000000e+00
	4.356463373591855e-04,-1.396069526476346e-13
	3.921243707499987e-23,2.347903252154119e-13
	4.356463323765269e-12,-2.404259319757174e-15
	-4.356463417156489e-04,-9.277911324802013e-14
	-4.356463373591854e-04,1.396069526476346e-13
	-3.921243707499987e-23,-2.347903252154119e-13
	-4.356463373591854e-04,1.396069526476346e-13
15		1.412537544622754e+00,0.000000000000000e+00
	-4.356463373591854e+00,1.428588163179955e-09
	1.000000000000000e+00,0.000000000000000e+00
	0.000000000000000e+00,0.000000000000000e+00
	4.356463373591855e-04,-1.428588163179955e-13
	4.106046229988187e-23,2.402592944482502e-13
	4.356463323765269e-12,-2.460261713533215e-15
	-4.356463417156489e-04,-9.494021641672146e-14
	-4.356463373591854e-04,1.428588163179956e-13
	-4.106046229988187e-23,-2.402592944482502e-13
	-4.356463373591854e-04,1.428588163179956e-13
16		1.445439770745927e+00,0.000000000000000e+00
	-4.356463373591854e+00,1.461864256237282e-09
	1.000000000000000e+00,0.000000000000000e+00
	0.000000000000000e+00,0.000000000000000e+00
	4.356463373591855e-04,-1.461864256237283e-13
	4.299558227037399e-23,2.458556523392127e-13
	4.356463323765269e-12,-2.517568570635152e-15
	-4.356463417156489e-04,-9.715165814484926e-14
	-4.356463373591854e-04,1.461864256237282e-13
	-4.299558227037399e-23,-2.458556523392127e-13
	-4.356463373591854e-04,1.461864256237282e-13
17		1.479108388168207e+00,0.000000000000000e+00
	-4.356463373591854e+00,1.495915449073328e-09
	1.000000000000000e+00,0.000000000000000e+00
	0.000000000000000e+00,0.000000000000000e+00
	4.356463373591855e-04,-1.495915449073328e-13
	4.502190163537971e-23,2.515823661513297e-13
	4.356463323765269e-12,-2.576210275917254e-15
	-4.356463417156489e-04,-9.941461096807968e-14
	-4.356463373591854e-04,1.495915449073328e-13
	-4.502190163537971e-23,-2.515823661513297e-13
	-4.356463373591854e-04,1.495915449073328e-13
18		1.513561248436208e+00,0.000000000000000e+00
	-4.356463373591854e+00,1.530759796081253e-09
	1.000000000000000e+00,0.000000000000000e+00
	0.000000000000000e+00,0.000000000000000e+00
	4.356463373591855e-04,-1.530759796081254e-13
	4.714371848994557e-23,2.574424722640665e-13
	4.356463323765269e-12,-2.636217921987779e-15
	-4.356463417156489e-04,-1.017302747339533e-13
	-4.356463373591854e-04,1.530759796081254e-13
	-4.714371848994557e-23,-2.574424722640665e-13
	-4.356463373591854e-04,1.530759796081254e-13
19		1.548816618912481e+00,0.000000000000000e+00
	-4.356463373591854e+00,1.566415772195063e-09
	1.000000000000000e+00,0.000000000000000e+00
	0.000000000000000e+00,0.000000000000000e+00
	4.356463373591855e-04,-1.566415772195063e-13
	4.936553349209706e-23,2.634390777832517e-13
	4.356463323765269e-12,-2.697623325695054e-15
	-4.356463417156489e-04,-1.040998772380503e-13
	-4.356463373591854e-04,1.566415772195064e-13
	-4.936553349209706e-23,-2.634390777832517e-13
	-4.356463373591854e-04,1.566415772195064e-13
20		1.584893192461113e+00,0.000000000000000e+00
	-4.356463373591854e+00,1.602902282685254e-09
	1.000000000000000e+00,0.000000000000000e+00
	0.000000000000000e+00,0.000000000000000e+00
	4.356463373591855e-04,-1.602902282685255e-13
	5.169205940933764e-23,2.695753621885060e-13
	4.356463323765269e-12,-2.760459044996833e-15
	-4.356463417156489e-04,-1.065246748749837e-13
	-4.356463373591854e-04,1.602902282685254e-13
	-5.169205940933764e-23,-2.695753621885060e-13
	-4.356463373591854e-04,1.602902282685254e-13
21		1.621810097358929e+00,0.000000000000000e+00
	-4.356463373591854e+00,1.640238673182645e-09
	1.000000000000000e+00,0.000000000000000e+00
	0.000000000000000e+00,0.000000000000000e+00
	4.356463373591855e-04,-1.640238673182645e-13
	5.412823111506056e-23,2.758545790190443e-13
	4.356463323765269e-12,-2.824758396223296e-15
	-4.356463417156489e-04,-1.090059533045565e-13
	-4.356463373591854e-04,1.640238673182645e-13
	-5.412823111506056e-23,-2.758545790190443e-13
	-4.356463373591854e-04,1.640238673182645e-13
22		1.659586907437560e+00,0.000000000000000e+00
	-4.356463373591854e+00,1.678444739935683e-09
	1.000000000000000e+00,0.000000000000000e+00
	0.000000000000000e+00,0.000000000000000e+00
	4.356463373591855e-04,-1.678444739935683e-13
	5.667921605607688e-23,2.822800575987456e-13
	4.356463323765269e-12,-2.890555471741455e-15
	-4.356463417156489e-04,-1.115450281334358e-13
	-4.356463373591854e-04,1.678444739935683e-13
	-5.667921605607688e-23,-2.822800575987456e-13
	-4.356463373591854e-04,1.678444739935683e-13
23		1.698243652461743e+00,0.000000000000000e+00
	-4.356463373591854e+00,1.717540740306677e-09
	1.000000000000000e+00,0.000000000000000e+00
	0.000000000000000e+00,0.000000000000000e+00
	4.356463373591855e-04,-1.717540740306677e-13
	5.935042521346304e-23,2.888552048014040e-13
	4.356463323765269e-12,-2.957885158031877e-15
	-4.356463417156489e-04,-1.141432456127044e-13
	-4.356463373591854e-04,1.717540740306677e-13
	-5.935042521346304e-23,-2.888552048014040e-13
	-4.356463373591854e-04,1.717540740306677e-13
24		1.737800828749374e+00,0.000000000000000e+00
	-4.356463373591854e+00,1.757547403512521e-09
	1.000000000000000e+00,0.000000000000000e+00
	0.000000000000000e+00,0.000000000000000e+00
	4.356463373591855e-04,-1.757547403512521e-13
	6.214752457997701e-23,2.955835068570987e-13
	4.356463323765269e-12,-3.026783154185268e-15
	-4.356463417156489e-04,-1.168019833516613e-13
	-4.356463373591854e-04,1.757547403512521e-13
	-6.214752457997701e-23,-2.955835068570987e-13
	-4.356463373591854e-04,1.757547403512521e-13
25		1.778279410038922e+00,0.000000000000000e+00
	-4.356463373591854e+00,1.798485941615598e-09
	1.000000000000000e+00,0.000000000000000e+00
	0.000000000000000e+00,0.000000000000000e+00
	4.356463373591855e-04,-1.798485941615598e-13
	6.507644717838893e-23,3.024685312006394e-13
	4.356463323765269e-12,-3.097285990831193e-15
	-4.356463417156489e-04,-1.195226510482484e-13
	-4.356463373591854e-04,1.798485941615598e-13
	-6.507644717838893e-23,-3.024685312006394e-13
	-4.356463373591854e-04,1.798485941615598e-13
26		1.819700858609982e+00,0.000000000000000e+00
	-4.356463373591854e+00,1.840378060770694e-09
	1.000000000000000e+00,0.000000000000000e+00
	0.000000000000000e+00,0.000000000000000e+00
	4.356463373591855e-04,-1.840378060770694e-13
	6.814340564621744e-23,3.095139283630669e-13
	4.356463323765269e-12,-3.169431049506950e-15
	-4.356463417156489e-04,-1.223066912364905e-13
	-4.356463373591854e-04,1.840378060770694e-13
	-6.814340564621744e-23,-3.095139283630669e-13
	-4.356463373591854e-04,1.840378060770694e-13
27		1.862087136662866e+00,0.000000000000000e+00
	-4.356463373591854e+00,1.883245972733896e-09
	1.000000000000000e+00,0.000000000000000e+00
	0.000000000000000e+00,0.000000000000000e+00
	4.356463373591855e-04,-1.883245972733896e-13
	7.135490541356715e-23,3.167234339072137e-13
	4.356463323765269e-12,-3.243256582477463e-15
	-4.356463417156489e-04,-1.251555800513466e-13
	-4.356463373591854e-04,1.883245972733896e-13
	-7.135490541356715e-23,-3.167234339072137e-13
	-4.356463373591854e-04,1.883245972733896e-13
28		1.905460717963246e+00,0.000000000000000e+00
	-4.356463373591854e+00,1.927112406639547e-09
	1.000000000000000e+00,0.000000000000000e+00
	0.000000000000000e+00,0.000000000000000e+00
	4.356463373591855e-04,-1.927112406639548e-13
	7.471775850201782e-23,3.241008704083483e-13
	4.356463323765269e-12,-3.318801733017593e-15
	-4.356463417156489e-04,-1.280708280113759e-13
	-4.356463373591854e-04,1.927112406639547e-13
	-7.471775850201782e-23,-3.241008704083483e-13
	-4.356463373591854e-04,1.927112406639547e-13
29		1.949844599758044e+00,0.000000000000000e+00
	-4.356463373591854e+00,1.972000621051548e-09
	1.000000000000000e+00,0.000000000000000e+00
	0.000000000000000e+00,0.000000000000000e+00
	4.356463373591855e-04,-1.972000621051548e-13
	7.823909797383571e-23,3.316501494809557e-13
	4.356463323765269e-12,-3.396106556166146e-15
	-4.356463417156489e-04,-1.310539808196347e-13
	-4.356463373591854e-04,1.972000621051549e-13
	-7.823909797383571e-23,-3.316501494809557e-13
	-4.356463373591854e-04,1.972000621051549e-13
30		1.995262314968878e+00,0.000000000000000e+00
	-4.356463373591854e+00,2.017934416295344e-09
	1.000000000000000e+00,0.000000000000000e+00
	0.000000000000000e+00,0.000000000000000e+00
	4.356463373591855e-04,-2.017934416295344e-13
	8.192639306215463e-23,3.393752738527265e-13
	4.356463323765269e-12,-3.475212039963572e-15
	-4.356463417156489e-04,-1.341066201832286e-13
	-4.356463373591854e-04,2.017934416295344e-13
	-8.192639306215463e-23,-3.393752738527265e-13
	-4.356463373591854e-04,2.017934416295344e-13
31		2.041737944669527e+00,0.000000000000000e+00
	-4.356463373591854e+00,2.064938147077179e-09
	1.000000000000000e+00,0.000000000000000e+00
	0.000000000000000e+00,0.000000000000000e+00
	4.356463373591855e-04,-2.064938147077179e-13
	8.578746501422124e-23,3.472803394868568e-13
	4.356463323765269e-12,-3.556160127184418e-15
	-4.356463417156489e-04,-1.372303646519545e-13
	-4.356463373591854e-04,2.064938147077179e-13
	-8.578746501422124e-23,-3.472803394868568e-13
	-4.356463373591854e-04,2.064938147077179e-13
32		2.089296130854037e+00,0.000000000000000e+00
	-4.356463373591854e+00,2.113036735397282e-09
	1.000000000000000e+00,0.000000000000000e+00
	0.000000000000000e+00,0.000000000000000e+00
	4.356463373591855e-04,-2.113036735397283e-13
	8.983050368130883e-23,3.553695377537819e-13
	4.356463323765269e-12,-3.638993737576082e-15
	-4.356463417156489e-04,-1.404268704764775e-13
	-4.356463373591854e-04,2.113036735397283e-13
	-8.983050368130883e-23,-3.553695377537819e-13
	-4.356463373591854e-04,2.113036735397283e-13
33		2.137962089502230e+00,0.000000000000000e+00
	-4.356463373591854e+00,2.162255683763841e-09
	1.000000000000000e+00,0.000000000000000e+00
	0.000000000000000e+00,0.000000000000000e+00
	4.356463373591855e-04,-2.162255683763842e-13
	9.406408489048988e-23,3.636471576534959e-13
	4.356463323765269e-12,-3.723756790615118e-15
	-4.356463417156489e-04,-1.436978324864966e-13
	-4.356463373591854e-04,2.162255683763841e-13
	-9.406408489048988e-23,-3.636471576534959e-13
	-4.356463373591854e-04,2.162255683763841e-13
34		2.187761623949550e+00,0.000000000000000e+00
	-4.356463373591854e+00,2.212621088714769e-09
	1.000000000000000e+00,0.000000000000000e+00
	0.000000000000000e+00,0.000000000000000e+00
	4.356463373591855e-04,-2.212621088714769e-13
	9.849718863511521e-23,3.721175880896370e-13
	4.356463323765269e-12,-3.810494228794361e-15
	-4.356463417156489e-04,-1.470449849893657e-13
	-4.356463373591854e-04,2.212621088714769e-13
	-9.849718863511521e-23,-3.721175880896370e-13
	-4.356463373591854e-04,2.212621088714769e-13
35		2.238721138568337e+00,0.000000000000000e+00
	-4.356463373591854e+00,2.264159654654436e-09
	1.000000000000000e+00,0.000000000000000e+00
	0.000000000000000e+00,0.000000000000000e+00
	4.356463373591855e-04,-2.264159654654436e-13
	1.031392181225838e-22,3.807853201965416e-13
	4.356463323765269e-12,-3.899252041451520e-15
	-4.356463417156489e-04,-1.504701026896465e-13
	-4.356463373591854e-04,2.264159654654436e-13
	-1.031392181225838e-22,-3.807853201965416e-13
	-4.356463373591854e-04,2.264159654654436e-13
36		2.290867652767770e+00,0.000000000000000e+00
	-4.356463373591854e+00,2.316898708012696e-09
	1.000000000000000e+00,0.000000000000000e+00
	0.000000000000000e+00,0.000000000000000e+00
	4.356463373591855e-04,-2.316898708012697e-13
	1.080000197198061e-22,3.896549497205042e-13
	4.356463323765269e-12,-3.990077289153742e-15
	-4.356463417156489e-04,-1.539750016300808e-13
	-4.356463373591854e-04,2.316898708012696e-13
	-1.080000197198061e-22,-3.896549497205042e-13
	-4.356463373591854e-04,2.316898708012696e-13
37		2.344228815319919e+00,0.000000000000000e+00
	-4.356463373591854e+00,2.370866211733725e-09
	1.000000000000000e+00,0.000000000000000e+00
	0.000000000000000e+00,0.000000000000000e+00
	4.356463373591855e-04,-2.370866211733725e-13
	1.130899038386691e-22,3.987311794565015e-13
	4.356463323765269e-12,-4.083018128649727e-15
	-4.356463417156489e-04,-1.575615401544793e-13
	-4.356463373591854e-04,2.370866211733725e-13
	-1.130899038386691e-22,-3.987311794565015e-13
	-4.356463373591854e-04,2.370866211733725e-13
38		2.398832919019488e+00,0.000000000000000e+00
	-4.356463373591854e+00,2.426090780102340e-09
	1.000000000000000e+00,0.000000000000000e+00
