Title: * GA CMOS Amp | W=6.1977037256266975e-06 L=9.347385271193241e-07 Vbias=0.6961479189212538
Date: Sat Sep  6 22:02:32 2025
Plotname: AC Analysis
Flags: complex forward log
No. Variables: 13
No. Points:          901
Offset:    0.0000000000000000e+00
Command: Linear Technology Corporation LTspice
Variables:
	0	frequency	frequency
	1	V(out)	voltage
	2	V(g)	voltage
	3	V(vdd)	voltage
	4	V(m1#dbody)	voltage
	5	V(m1#sbody)	voltage
	6	Id(M1)	device_current
	7	Ig(M1)	device_current
	8	Ib(M1)	device_current
	9	Is(M1)	device_current
	10	I(Rload)	device_current
	11	I(Vg)	device_current
	12	I(Vdd)	device_current
Values:
0		1.000000000000000e+00,0.000000000000000e+00
	-2.415457868841151e+00,4.585710089631915e-09
	1.000000000000000e+00,0.000000000000000e+00
	0.000000000000000e+00,0.000000000000000e+00
	1.193730174641209e-08,5.375202764287670e-14
	1.195541768039939e-08,3.529802932325084e-13
	2.415457868841151e-04,-4.585710089631915e-13
	4.736168793376516e-07,1.277807495216222e-12
	-6.375015038764355e-09,-1.683076065810619e-13
	-2.420130287484140e-04,-6.509288796719687e-13
	-2.415457868841151e-04,4.585710089631916e-13
	-4.736168792707218e-07,-1.277807495216222e-12
	-2.415457868841151e-04,4.585710089631916e-13
1		1.023292992280754e+00,0.000000000000000e+00
	-2.415457868841151e+00,4.692524999351489e-09
	1.000000000000000e+00,0.000000000000000e+00
	0.000000000000000e+00,0.000000000000000e+00
	1.193730174641206e-08,5.500407320783712e-14
	1.195541768039939e-08,3.612022604780315e-13
	2.415457868841151e-04,-4.692524999351489e-13
	4.736168793376516e-07,1.307571455338584e-12
	-6.375015038764353e-09,-1.722279943619468e-13
	-2.420130287484140e-04,-6.660909610414880e-13
	-2.415457868841151e-04,4.692524999351489e-13
	-4.736168792707218e-07,-1.307571455338584e-12
	-2.415457868841151e-04,4.692524999351489e-13
2		1.047128548050899e+00,0.000000000000000e+00
	-2.415457868841151e+00,4.801827947938627e-09
	1.000000000000000e+00,0.000000000000000e+00
	0.000000000000000e+00,0.000000000000000e+00
	1.193730174641203e-08,5.628528266047725e-14
	1.195541768039939e-08,3.696157419431373e-13
	2.415457868841151e-04,-4.801827947938627e-13
	4.736168793376516e-07,1.338028707154319e-12
	-6.375015038764349e-09,-1.762396997051494e-13
	-2.420130287484140e-04,-6.816062126553073e-13
	-2.415457868841151e-04,4.801827947938627e-13
	-4.736168792707218e-07,-1.338028707154319e-12
	-2.415457868841151e-04,4.801827947938627e-13
3		1.071519305237606e+00,0.000000000000000e+00
	-2.415457868841151e+00,4.913676889263471e-09
	1.000000000000000e+00,0.000000000000000e+00
	0.000000000000000e+00,0.000000000000000e+00
	1.193730174641199e-08,5.759633531500790e-14
	1.195541768039938e-08,3.782251985670639e-13
	2.415457868841151e-04,-4.913676889263471e-13
	4.736168793376516e-07,1.369195399501492e-12
	-6.375015038764344e-09,-1.803448496699438e-13
	-2.420130287484140e-04,-6.974828609052013e-13
	-2.415457868841151e-04,4.913676889263471e-13
	-4.736168792707218e-07,-1.369195399501492e-12
	-2.415457868841151e-04,4.913676889263471e-13
4		1.096478196143185e+00,0.000000000000000e+00
	-2.415457868841151e+00,5.028131127115205e-09
	1.000000000000000e+00,0.000000000000000e+00
	0.000000000000000e+00,0.000000000000000e+00
	1.193730174641196e-08,5.893792630889994e-14
	1.195541768039938e-08,3.870351951976731e-13
	2.415457868841151e-04,-5.028131127115204e-13
	4.736168793376516e-07,1.401088057372924e-12
	-6.375015038764339e-09,-1.845456208611795e-13
	-2.420130287484140e-04,-7.137293238002244e-13
	-2.415457868841151e-04,5.028131127115205e-13
	-4.736168792707218e-07,-1.401088057372924e-12
	-2.415457868841151e-04,5.028131127115205e-13
5		1.122018454301963e+00,0.000000000000000e+00
	-2.415457868841151e+00,5.145251346645720e-09
	1.000000000000000e+00,0.000000000000000e+00
	0.000000000000000e+00,0.000000000000000e+00
	1.193730174641192e-08,6.031076697145698e-14
	1.195541768039937e-08,3.960504030117928e-13
	2.415457868841151e-04,-5.145251346645719e-13
	4.736168793376516e-07,1.433723590677969e-12
	-6.375015038764336e-09,-1.888442405833460e-13
	-2.420130287484140e-04,-7.303542154300511e-13
	-2.415457868841151e-04,5.145251346645720e-13
	-4.736168792707218e-07,-1.433723590677969e-12
	-2.415457868841151e-04,5.145251346645720e-13
6		1.148153621496882e+00,0.000000000000000e+00
	-2.415457868841151e+00,5.265099646545677e-09
	1.000000000000000e+00,0.000000000000000e+00
	0.000000000000000e+00,0.000000000000000e+00
	1.193730174641188e-08,6.171558520096932e-14
	1.195541768039937e-08,4.052756019919360e-13
	2.415457868841151e-04,-5.265099646545677e-13
	4.736168793376515e-07,1.467119303208366e-12
	-6.375015038764329e-09,-1.932429880215187e-13
	-2.420130287484140e-04,-7.473663505322793e-13
	-2.415457868841151e-04,5.265099646545677e-13
	-4.736168792707218e-07,-1.467119303208366e-12
	-2.415457868841151e-04,5.265099646545677e-13
7		1.174897554939529e+00,0.000000000000000e+00
	-2.415457868841151e+00,5.387739571970066e-09
	1.000000000000000e+00,0.000000000000000e+00
	0.000000000000000e+00,0.000000000000000e+00
	1.193730174641184e-08,6.315312585065790e-14
	1.195541768039936e-08,4.147156834607122e-13
	2.415457868841151e-04,-5.387739571970067e-13
	4.736168793376515e-07,1.501292901812944e-12
	-6.375015038764325e-09,-1.977441954498139e-13
	-2.420130287484140e-04,-7.647747491661231e-13
	-2.415457868841151e-04,5.387739571970067e-13
	-4.736168792707218e-07,-1.501292901812944e-12
	-2.415457868841151e-04,5.387739571970067e-13
8		1.202264434617413e+00,0.000000000000000e+00
	-2.415457868841151e+00,5.513236148230680e-09
	1.000000000000000e+00,0.000000000000000e+00
	0.000000000000000e+00,0.000000000000000e+00
	1.193730174641180e-08,6.462415112360274e-14
	1.195541768039936e-08,4.243756526742703e-13
	2.415457868841151e-04,-5.513236148230680e-13
	4.736168793376515e-07,1.536262505786024e-12
	-6.375015038764320e-09,-2.023502494679903e-13
	-2.420130287484140e-04,-7.825886414949653e-13
	-2.415457868841151e-04,5.513236148230681e-13
	-4.736168792707218e-07,-1.536262505786024e-12
	-2.415457868841151e-04,5.513236148230681e-13
9		1.230268770812381e+00,0.000000000000000e+00
	-2.415457868841151e+00,5.641655915273392e-09
	1.000000000000000e+00,0.000000000000000e+00
	0.000000000000000e+00,0.000000000000000e+00
	1.193730174641175e-08,6.612944097687510e-14
	1.195541768039935e-08,4.342606314761521e-13
	2.415457868841151e-04,-5.641655915273391e-13
	4.736168793376515e-07,1.572046656474510e-12
	-6.375015038764314e-09,-2.070635922668569e-13
	-2.420130287484140e-04,-8.008174726803135e-13
	-2.415457868841151e-04,5.641655915273392e-13
	-4.736168792707218e-07,-1.572046656474509e-12
	-2.415457868841151e-04,5.641655915273392e-13
10		1.258925411794167e+00,0.000000000000000e+00
	-2.415457868841151e+00,5.773066962958525e-09
	1.000000000000000e+00,0.000000000000000e+00
	0.000000000000000e+00,0.000000000000000e+00
	1.193730174641171e-08,6.766979353508004e-14
	1.195541768039935e-08,4.443758610129614e-13
	2.415457868841151e-04,-5.773066962958525e-13
	4.736168793376515e-07,1.608664327108756e-12
	-6.375015038764308e-09,-2.118867229231540e-13
	-2.420130287484140e-04,-8.194709078897490e-13
	-2.415457868841151e-04,5.773066962958525e-13
	-4.736168792707218e-07,-1.608664327108755e-12
	-2.415457868841151e-04,5.773066962958525e-13
11		1.288249551693134e+00,0.000000000000000e+00
	-2.415457868841151e+00,5.907538967162994e-09
	1.000000000000000e+00,0.000000000000000e+00
	0.000000000000000e+00,0.000000000000000e+00
	1.193730174641166e-08,6.924602551353286e-14
	1.195541768039934e-08,4.547267045132899e-13
	2.415457868841151e-04,-5.907538967162995e-13
	4.736168793376515e-07,1.646134932862424e-12
	-6.375015038764303e-09,-2.168221987245973e-13
	-2.420130287484140e-04,-8.385588374215276e-13
	-2.415457868841151e-04,5.907538967162995e-13
	-4.736168792707218e-07,-1.646134932862425e-12
	-2.415457868841151e-04,5.907538967162995e-13
12		1.318256738556407e+00,0.000000000000000e+00
	-2.415457868841151e+00,6.045143226723378e-09
	1.000000000000000e+00,0.000000000000000e+00
	0.000000000000000e+00,0.000000000000000e+00
	1.193730174641161e-08,7.085897265129252e-14
	1.195541768039933e-08,4.653186501313707e-13
	2.415457868841151e-04,-6.045143226723378e-13
	4.736168793376515e-07,1.684478341146669e-12
	-6.375015038764296e-09,-2.218726365257855e-13
	-2.420130287484140e-04,-8.580913819485454e-13
	-2.415457868841151e-04,6.045143226723379e-13
	-4.736168792707218e-07,-1.684478341146669e-12
	-2.415457868841151e-04,6.045143226723379e-13
13		1.348962882591653e+00,0.000000000000000e+00
	-2.415457868841151e+00,6.185952701239498e-09
	1.000000000000000e+00,0.000000000000000e+00
	0.000000000000000e+00,0.000000000000000e+00
	1.193730174641156e-08,7.250949015428124e-14
	1.195541768039933e-08,4.761573138569715e-13
	2.415457868841151e-04,-6.185952701239497e-13
	4.736168793376515e-07,1.723714882144095e-12
	-6.375015038764290e-09,-2.270407141356912e-13
	-2.420130287484140e-04,-8.780788978844544e-13
	-2.415457868841151e-04,6.185952701239498e-13
	-4.736168792707218e-07,-1.723714882144095e-12
	-2.415457868841151e-04,6.185952701239498e-13
14		1.380384264602885e+00,0.000000000000000e+00
	-2.415457868841151e+00,6.330042049758580e-09
	1.000000000000000e+00,0.000000000000000e+00
	0.000000000000000e+00,0.000000000000000e+00
	1.193730174641150e-08,7.419845314872640e-14
	1.195541768039932e-08,4.872484424930668e-13
	2.415457868841151e-04,-6.330042049758581e-13
	4.736168793376515e-07,1.763865359588099e-12
	-6.375015038764283e-09,-2.323291717374709e-13
	-2.420130287484140e-04,-8.985319828747703e-13
	-2.415457868841151e-04,6.330042049758581e-13
	-4.736168792707218e-07,-1.763865359588099e-12
	-2.415457868841151e-04,6.330042049758581e-13
15		1.412537544622754e+00,0.000000000000000e+00
	-2.415457868841151e+00,6.477487670360455e-09
	1.000000000000000e+00,0.000000000000000e+00
	0.000000000000000e+00,0.000000000000000e+00
	1.193730174641144e-08,7.592675714516341e-14
	1.195541768039931e-08,4.985979167028672e-13
	2.415457868841151e-04,-6.477487670360456e-13
	4.736168793376515e-07,1.804951061793274e-12
	-6.375015038764277e-09,-2.377408133413457e-13
	-2.420130287484140e-04,-9.194614814158829e-13
	-2.415457868841151e-04,6.477487670360456e-13
	-4.736168792707218e-07,-1.804951061793274e-12
	-2.415457868841151e-04,6.477487670360456e-13
16		1.445439770745927e+00,0.000000000000000e+00
	-2.415457868841151e+00,6.628367740664840e-09
	1.000000000000000e+00,0.000000000000000e+00
	0.000000000000000e+00,0.000000000000000e+00
	1.193730174641138e-08,7.769531851324831e-14
	1.195541768039931e-08,5.102117541278269e-13
	2.415457868841151e-04,-6.628367740664840e-13
	4.736168793376515e-07,1.846993772942763e-12
	-6.375015038764268e-09,-2.432785082713258e-13
	-2.420130287484140e-04,-9.408784906049538e-13
	-2.415457868841151e-04,6.628367740664840e-13
	-4.736168792707218e-07,-1.846993772942764e-12
	-2.415457868841151e-04,6.628367740664840e-13
17		1.479108388168207e+00,0.000000000000000e+00
	-2.415457868841151e+00,6.782762259282147e-09
	1.000000000000000e+00,0.000000000000000e+00
	0.000000000000000e+00,0.000000000000000e+00
	1.193730174641132e-08,7.950507496762824e-14
	1.195541768039930e-08,5.220961125782765e-13
	2.415457868841151e-04,-6.782762259282145e-13
	4.736168793376515e-07,1.890015784638520e-12
	-6.375015038764262e-09,-2.489451926865632e-13
	-2.420130287484140e-04,-9.627943660237422e-13
	-2.415457868841151e-04,6.782762259282147e-13
	-4.736168792707218e-07,-1.890015784638520e-12
	-2.415457868841151e-04,6.782762259282147e-13
18		1.513561248436208e+00,0.000000000000000e+00
	-2.415457868841151e+00,6.940753088229796e-09
	1.000000000000000e+00,0.000000000000000e+00
	0.000000000000000e+00,0.000000000000000e+00
	1.193730174641125e-08,8.135698606512991e-14
	1.195541768039929e-08,5.342572932983740e-13
	2.415457868841151e-04,-6.940753088229795e-13
	4.736168793376515e-07,1.934039907720609e-12
	-6.375015038764253e-09,-2.547438711381421e-13
	-2.420130287484140e-04,-9.852207277594870e-13
	-2.415457868841151e-04,6.940753088229797e-13
	-4.736168792707218e-07,-1.934039907720609e-12
	-2.415457868841151e-04,6.940753088229797e-13
19		1.548816618912481e+00,0.000000000000000e+00
	-2.415457868841151e+00,7.102423996336552e-09
	1.000000000000000e+00,0.000000000000000e+00
	0.000000000000000e+00,0.000000000000000e+00
	1.193730174641118e-08,8.325203371353040e-14
	1.195541768039928e-08,5.467017443071096e-13
	2.415457868841151e-04,-7.102423996336552e-13
	4.736168793376515e-07,1.979089484361815e-12
	-6.375015038764243e-09,-2.606776181621322e-13
	-2.420130287484140e-04,-1.008169466566028e-12
	-2.415457868841151e-04,7.102423996336552e-13
	-4.736168792707218e-07,-1.979089484361816e-12
	-2.415457868841151e-04,7.102423996336552e-13
20		1.584893192461113e+00,0.000000000000000e+00
	-2.415457868841151e+00,7.267860703657863e-09
	1.000000000000000e+00,0.000000000000000e+00
	0.000000000000000e+00,0.000000000000000e+00
	1.193730174641111e-08,8.519122269217686e-14
	1.195541768039927e-08,5.594360638171301e-13
	2.415457868841151e-04,-7.267860703657862e-13
	4.736168793376515e-07,2.025188400443977e-12
	-6.375015038764235e-09,-2.667495799097483e-13
	-2.420130287484140e-04,-1.031652750168442e-12
	-2.415457868841151e-04,7.267860703657864e-13
	-4.736168792707218e-07,-2.025188400443977e-12
	-2.415457868841151e-04,7.267860703657864e-13
21		1.621810097358929e+00,0.000000000000000e+00
	-2.415457868841151e+00,7.437150926925760e-09
	1.000000000000000e+00,0.000000000000000e+00
	0.000000000000000e+00,0.000000000000000e+00
	1.193730174641103e-08,8.717558118473372e-14
	1.195541768039926e-08,5.724670037331977e-13
	2.415457868841151e-04,-7.437150926925761e-13
	4.736168793376514e-07,2.072361098222591e-12
	-6.375015038764225e-09,-2.729629758154804e-13
	-2.420130287484140e-04,-1.055683029714534e-12
	-2.415457868841151e-04,7.437150926925761e-13
	-4.736168792707218e-07,-2.072361098222591e-12
	-2.415457868841151e-04,7.437150926925761e-13
22		1.659586907437560e+00,0.000000000000000e+00
	-2.415457868841151e+00,7.610384426057447e-09
	1.000000000000000e+00,0.000000000000000e+00
	0.000000000000000e+00,0.000000000000000e+00
	1.193730174641095e-08,8.920616132434006e-14
	1.195541768039925e-08,5.858014732321417e-13
	2.415457868841151e-04,-7.610384426057447e-13
	4.736168793376514e-07,2.120632589286425e-12
	-6.375015038764215e-09,-2.793211003040820e-13
	-2.420130287484140e-04,-1.080273046376598e-12
	-2.415457868841151e-04,7.610384426057447e-13
	-4.736168792707218e-07,-2.120632589286425e-12
	-2.415457868841151e-04,7.610384426057447e-13
23		1.698243652461743e+00,0.000000000000000e+00
	-2.415457868841151e+00,7.787653051747174e-09
	1.000000000000000e+00,0.000000000000000e+00
	0.000000000000000e+00,0.000000000000000e+00
	1.193730174641087e-08,9.128403975146355e-14
	1.195541768039924e-08,5.994465424261924e-13
	2.415457868841151e-04,-7.787653051747174e-13
	4.736168793376514e-07,2.170028467818989e-12
	-6.375015038764205e-09,-2.858273245373168e-13
	-2.420130287484140e-04,-1.105435838106955e-12
	-2.415457868841151e-04,7.787653051747174e-13
	-4.736168792707218e-07,-2.170028467818990e-12
	-2.415457868841151e-04,7.787653051747174e-13
24		1.737800828749374e+00,0.000000000000000e+00
	-2.415457868841151e+00,7.969050794166710e-09
	1.000000000000000e+00,0.000000000000000e+00
	0.000000000000000e+00,0.000000000000000e+00
	1.193730174641078e-08,9.341031818475048e-14
	1.195541768039923e-08,6.134094461116503e-13
	2.415457868841151e-04,-7.969050794166711e-13
	4.736168793376514e-07,2.220574924168913e-12
	-6.375015038764195e-09,-2.924850982013930e-13
	-2.420130287484140e-04,-1.131184746550849e-12
	-2.415457868841151e-04,7.969050794166711e-13
	-4.736168792707218e-07,-2.220574924168913e-12
	-2.415457868841151e-04,7.969050794166711e-13
25		1.778279410038922e+00,0.000000000000000e+00
	-2.415457868841151e+00,8.154673832800174e-09
	1.000000000000000e+00,0.000000000000000e+00
	0.000000000000000e+00,0.000000000000000e+00
	1.193730174641069e-08,9.558612400517050e-14
	1.195541768039922e-08,6.276975876048707e-13
	2.415457868841151e-04,-8.154673832800174e-13
	4.736168793376514e-07,2.272298758736416e-12
	-6.375015038764182e-09,-2.992979513360337e-13
	-2.420130287484140e-04,-1.157533424120365e-12
	-2.415457868841151e-04,8.154673832800174e-13
	-4.736168792707218e-07,-2.272298758736416e-12
	-2.415457868841151e-04,8.154673832800174e-13
26		1.819700858609982e+00,0.000000000000000e+00
	-2.415457868841151e+00,8.344620587439654e-09
	1.000000000000000e+00,0.000000000000000e+00
	0.000000000000000e+00,0.000000000000000e+00
	1.193730174641059e-08,9.781261085377029e-14
	1.195541768039921e-08,6.423185426675988e-13
	2.415457868841151e-04,-8.344620587439654e-13
	4.736168793376514e-07,2.325227396183230e-12
	-6.375015038764171e-09,-3.062694962061495e-13
	-2.420130287484140e-04,-1.184495841233115e-12
	-2.415457868841151e-04,8.344620587439654e-13
	-4.736168792707218e-07,-2.325227396183231e-12
	-2.415457868841151e-04,8.344620587439654e-13
27		1.862087136662866e+00,0.000000000000000e+00
	-2.415457868841151e+00,8.538991770368708e-09
	1.000000000000000e+00,0.000000000000000e+00
	0.000000000000000e+00,0.000000000000000e+00
	1.193730174641049e-08,1.000909592433478e-13
	1.195541768039920e-08,6.572800635237405e-13
	2.415457868841151e-04,-8.538991770368707e-13
	4.736168793376514e-07,2.379388899973524e-12
	-6.375015038764159e-09,-3.134034292171098e-13
	-2.420130287484140e-04,-1.212086293719544e-12
	-2.415457868841151e-04,8.538991770368708e-13
	-4.736168792707218e-07,-2.379388899973524e-12
	-2.415457868841151e-04,8.538991770368708e-13
28		1.905460717963246e+00,0.000000000000000e+00
	-2.415457868841151e+00,8.737890439761328e-09
	1.000000000000000e+00,0.000000000000000e+00
	0.000000000000000e+00,0.000000000000000e+00
	1.193730174641039e-08,1.024223771843760e-13
	1.195541768039919e-08,6.725900829696923e-13
	2.415457868841151e-04,-8.737890439761329e-13
	4.736168793376514e-07,2.434811987253519e-12
	-6.375015038764146e-09,-3.207035328746256e-13
	-2.420130287484140e-04,-1.240319410402761e-12
	-2.415457868841151e-04,8.737890439761328e-13
	-4.736168792707218e-07,-2.434811987253520e-12
	-2.415457868841151e-04,8.737890439761328e-13
29		1.949844599758044e+00,0.000000000000000e+00
	-2.415457868841151e+00,8.941422054324767e-09
	1.000000000000000e+00,0.000000000000000e+00
	0.000000000000000e+00,0.000000000000000e+00
	1.193730174641027e-08,1.048081008255085e-13
	1.195541768039917e-08,6.882567185804175e-13
	2.415457868841151e-04,-8.941422054324765e-13
	4.736168793376514e-07,2.491526044077703e-12
	-6.375015038764131e-09,-3.281736777902851e-13
	-2.420130287484140e-04,-1.269210160854942e-12
	-2.415457868841151e-04,8.941422054324767e-13
	-4.736168792707218e-07,-2.491526044077704e-12
	-2.415457868841151e-04,8.941422054324767e-13
30		1.995262314968878e+00,0.000000000000000e+00
	-2.415457868841151e+00,9.149694529215115e-09
	1.000000000000000e+00,0.000000000000000e+00
	0.000000000000000e+00,0.000000000000000e+00
	1.193730174641016e-08,1.072493951089972e-13
	1.195541768039916e-08,7.042882770134880e-13
	2.415457868841151e-04,-9.149694529215116e-13
	4.736168793376513e-07,2.549561140989703e-12
	-6.375015038764118e-09,-3.358178247338007e-13
	-2.420130287484140e-04,-1.298773863334391e-12
	-2.415457868841151e-04,9.149694529215116e-13
	-4.736168792707218e-07,-2.549561140989703e-12
	-2.415457868841151e-04,9.149694529215116e-13
31		2.041737944669527e+00,0.000000000000000e+00
	-2.415457868841151e+00,9.362818293255380e-09
	1.000000000000000e+00,0.000000000000000e+00
	0.000000000000000e+00,0.000000000000000e+00
	1.193730174641004e-08,1.097475544413867e-13
	1.195541768039914e-08,7.206932584133888e-13
	2.415457868841151e-04,-9.362818293255382e-13
	4.736168793376513e-07,2.608948048966087e-12
	-6.375015038764102e-09,-3.436400267330648e-13
	-2.420130287484140e-04,-1.329026192907484e-12
	-2.415457868841151e-04,9.362818293255380e-13
	-4.736168792707218e-07,-2.608948048966087e-12
	-2.415457868841151e-04,9.362818293255380e-13
32		2.089296130854037e+00,0.000000000000000e+00
	-2.415457868841151e+00,9.580906347486283e-09
	1.000000000000000e+00,0.000000000000000e+00
	0.000000000000000e+00,0.000000000000000e+00
	1.193730174640991e-08,1.123039033798216e-13
