LTspice 24.0.9 for Windows
Circuit: * GA CMOS Amp | W=1.7565518262220435e-06 L=5.531818883953986e-07 Vbias=0.8435772629573892
Start Time: Mon Sep  8 18:47:03 2025
solver = Normal
Maximum thread count: 2
tnom = 27
temp = 27
method = modified trap
AsciiRawFile = 1
Instance "m1": Length shorter than recommended for a level 3 MOSFET.
Instance "m1": Width narrower than recommended for a level 3 MOSFET.
Direct Newton iteration for .op point succeeded.
Semiconductor Device Operating Points:
                        --- MOSFET Transistors ---
Name:          m1
Model:        n_1u
Id:          8.04e-07
Vgs:         8.44e-01
Vds:         1.79e+00
Vbs:         0.00e+00
Vth:         8.46e-01
Vdsat:       4.34e-02
Gm:          1.49e-05
Gds:         1.65e-07
Gmb:         4.40e-06
Cbd:         0.00e+00
Cbs:         0.00e+00
Cgsov:       3.51e-16
Cgdov:       3.51e-16
Cgbov:       3.53e-17
Cgs:         7.10e-16
Cgd:         0.00e+00
Cgb:         3.25e-18



gain_db: MAX(db(v(out)/v(g)))=(30.0793dB,121.233°) FROM 1 TO 1e+09
gain_lin: MAX(mag(v(out)/v(g)))=(-16.4555dB,0°) FROM 1 TO 1e+09

Measurement "fc" FAIL'ed

Total elapsed time: 0.512 seconds.

