Title: * GA CMOS Amp | W=2.2351947509890582e-05 L=1e-06 Vbias=1.0308725954794844
Date: Mon Sep  8 18:45:22 2025
Plotname: AC Analysis
Flags: complex forward log
No. Variables: 11
No. Points:          901
Offset:    0.0000000000000000e+00
Command: Linear Technology Corporation LTspice
Variables:
	0	frequency	frequency
	1	V(out)	voltage
	2	V(g)	voltage
	3	V(vdd)	voltage
	4	Id(M1)	device_current
	5	Ig(M1)	device_current
	6	Ib(M1)	device_current
	7	Is(M1)	device_current
	8	I(Rload)	device_current
	9	I(Vg)	device_current
	10	I(Vdd)	device_current
Values:
0		1.000000000000000e+00,0.000000000000000e+00
	-5.425209270134428e+00,4.913980558414959e-09
	1.000000000000000e+00,0.000000000000000e+00
	0.000000000000000e+00,0.000000000000000e+00
	5.425209270134429e-04,-4.913980558414961e-13
	3.252998488501746e-22,5.822851520682154e-13
	5.425209218500038e-12,1.478029791780599e-14
	-5.425209324386521e-04,-1.056673941445254e-13
	-5.425209270134429e-04,4.913980558414959e-13
	-3.252998488501746e-22,-5.822851520682154e-13
	-5.425209270134429e-04,4.913980558414959e-13
1		1.023292992280754e+00,0.000000000000000e+00
	-5.425209270134428e+00,5.028441869629895e-09
	1.000000000000000e+00,0.000000000000000e+00
	0.000000000000000e+00,0.000000000000000e+00
	5.425209270134429e-04,-5.028441869629895e-13
	3.406307584076605e-22,5.958483156205381e-13
	5.425209218500038e-12,1.512457528311262e-14
	-5.425209324386521e-04,-1.081287039406612e-13
	-5.425209270134429e-04,5.028441869629895e-13
	-3.406307584076605e-22,-5.958483156205381e-13
	-5.425209270134429e-04,5.028441869629895e-13
2		1.047128548050899e+00,0.000000000000000e+00
	-5.425209270134428e+00,5.145569327283405e-09
	1.000000000000000e+00,0.000000000000000e+00
	0.000000000000000e+00,0.000000000000000e+00
	5.425209270134429e-04,-5.145569327283405e-13
	3.566841914728901e-22,6.097274058367875e-13
	5.425209218500038e-12,1.547687189843193e-14
	-5.425209324386521e-04,-1.106473450068790e-13
	-5.425209270134429e-04,5.145569327283405e-13
	-3.566841914728901e-22,-6.097274058367875e-13
	-5.425209270134429e-04,5.145569327283405e-13
3		1.071519305237606e+00,0.000000000000000e+00
	-5.425209270134428e+00,5.265425033903902e-09
	1.000000000000000e+00,0.000000000000000e+00
	0.000000000000000e+00,0.000000000000000e+00
	5.425209270134429e-04,-5.265425033903902e-13
	3.734941995297165e-22,6.239297815943081e-13
	5.425209218500038e-12,1.583737455609225e-14
	-5.425209324386521e-04,-1.132246527600101e-13
	-5.425209270134429e-04,5.265425033903902e-13
	-3.734941995297165e-22,-6.239297815943081e-13
	-5.425209270134429e-04,5.265425033903902e-13
4		1.096478196143185e+00,0.000000000000000e+00
	-5.425209270134428e+00,5.388072538573513e-09
	1.000000000000000e+00,0.000000000000000e+00
	0.000000000000000e+00,0.000000000000000e+00
	5.425209270134429e-04,-5.388072538573514e-13
	3.910964388589847e-22,6.384629731807168e-13
	5.425209218500038e-12,1.620627439937475e-14
	-5.425209324386521e-04,-1.158619937227401e-13
	-5.425209270134429e-04,5.388072538573513e-13
	-3.910964388589847e-22,-6.384629731807168e-13
	-5.425209270134429e-04,5.388072538573513e-13
5		1.122018454301963e+00,0.000000000000000e+00
	-5.425209270134428e+00,5.513576870622651e-09
	1.000000000000000e+00,0.000000000000000e+00
	0.000000000000000e+00,0.000000000000000e+00
	5.425209270134429e-04,-5.513576870622652e-13
	4.095282461702863e-22,6.533346862865627e-13
	5.425209218500038e-12,1.658376702385922e-14
	-5.425209324386521e-04,-1.185607662481567e-13
	-5.425209270134429e-04,5.513576870622651e-13
	-4.095282461702863e-22,-6.533346862865627e-13
	-5.425209270134429e-04,5.513576870622651e-13
6		1.148153621496882e+00,0.000000000000000e+00
	-5.425209270134428e+00,5.642004574109407e-09
	1.000000000000000e+00,0.000000000000000e+00
	0.000000000000000e+00,0.000000000000000e+00
	5.425209270134429e-04,-5.642004574109409e-13
	4.288287177981231e-22,6.685528060909844e-13
	5.425209218500038e-12,1.697005258113178e-14
	-5.425209324386521e-04,-1.213224012611753e-13
	-5.425209270134429e-04,5.642004574109407e-13
	-4.288287177981231e-22,-6.685528060909844e-13
	-5.425209270134429e-04,5.642004574109407e-13
7		1.174897554939529e+00,0.000000000000000e+00
	-5.425209270134428e+00,5.773423743102119e-09
	1.000000000000000e+00,0.000000000000000e+00
	0.000000000000000e+00,0.000000000000000e+00
	5.425209270134429e-04,-5.773423743102119e-13
	4.490387926304776e-22,6.841254014425382e-13
	5.425209218500038e-12,1.736533588490824e-14
	-5.425209324386521e-04,-1.241483630172344e-13
	-5.425209270134429e-04,5.773423743102118e-13
	-4.490387926304776e-22,-6.841254014425382e-13
	-5.425209270134429e-04,5.773423743102118e-13
8		1.202264434617413e+00,0.000000000000000e+00
	-5.425209270134428e+00,5.907904057783718e-09
	1.000000000000000e+00,0.000000000000000e+00
	0.000000000000000e+00,0.000000000000000e+00
	5.425209270134429e-04,-5.907904057783719e-13
	4.702013389456810e-22,7.000607291374071e-13
	5.425209218500038e-12,1.776982651962786e-14
	-5.425209324386521e-04,-1.270401498786631e-13
	-5.425209270134429e-04,5.907904057783718e-13
	-4.702013389456810e-22,-7.000607291374071e-13
	-5.425209270134429e-04,5.907904057783718e-13
9		1.230268770812381e+00,0.000000000000000e+00
	-5.425209270134428e+00,6.045516821397111e-09
	1.000000000000000e+00,0.000000000000000e+00
	0.000000000000000e+00,0.000000000000000e+00
	5.425209270134429e-04,-6.045516821397112e-13
	4.923612453417798e-22,7.163672382972639e-13
	5.425209218500038e-12,1.818373895157996e-14
	-5.425209324386521e-04,-1.299992951091327e-13
	-5.425209270134429e-04,6.045516821397112e-13
	-4.923612453417798e-22,-7.163672382972639e-13
	-5.425209270134429e-04,6.045516821397112e-13
10		1.258925411794167e+00,0.000000000000000e+00
	-5.425209270134428e+00,6.186334998051084e-09
	1.000000000000000e+00,0.000000000000000e+00
	0.000000000000000e+00,0.000000000000000e+00
	5.425209270134429e-04,-6.186334998051085e-13
	5.155655159512707e-22,7.330535748491072e-13
	5.425209218500038e-12,1.860729264261449e-14
	-5.425209324386521e-04,-1.330273676866132e-13
	-5.425209270134429e-04,6.186334998051085e-13
	-5.155655159512707e-22,-7.330535748491072e-13
	-5.425209270134429e-04,6.186334998051085e-13
11		1.288249551693134e+00,0.000000000000000e+00
	-5.425209270134428e+00,6.330433251406848e-09
	1.000000000000000e+00,0.000000000000000e+00
	0.000000000000000e+00,0.000000000000000e+00
	5.425209270134429e-04,-6.330433251406847e-13
	5.398633701431671e-22,7.501285861094467e-13
	5.425209218500038e-12,1.904071216650454e-14
	-5.425209324386521e-04,-1.361259731352665e-13
	-5.425209270134429e-04,6.330433251406848e-13
	-5.398633701431671e-22,-7.501285861094467e-13
	-5.425209270134429e-04,6.330433251406848e-13
12		1.318256738556407e+00,0.000000000000000e+00
	-5.425209270134428e+00,6.477887984265696e-09
	1.000000000000000e+00,0.000000000000000e+00
	0.000000000000000e+00,0.000000000000000e+00
	5.425209270134429e-04,-6.477887984265696e-13
	5.653063469238798e-22,7.676013254752670e-13
	5.425209218500038e-12,1.948422732801900e-14
	-5.425209324386521e-04,-1.392967543767164e-13
	-5.425209270134429e-04,6.477887984265696e-13
	-5.653063469238798e-22,-7.676013254752670e-13
	-5.425209270134429e-04,6.477887984265696e-13
13		1.348962882591653e+00,0.000000000000000e+00
	-5.425209270134428e+00,6.628777379078785e-09
	1.000000000000000e+00,0.000000000000000e+00
	0.000000000000000e+00,0.000000000000000e+00
	5.425209270134429e-04,-6.628777379078787e-13
	5.919484142583603e-22,7.854810572242590e-13
	5.425209218500038e-12,1.993807328476710e-14
	-5.425209324386521e-04,-1.425413926011474e-13
	-5.425209270134429e-04,6.628777379078786e-13
	-5.919484142583603e-22,-7.854810572242590e-13
	-5.425209270134429e-04,6.628777379078786e-13
14		1.380384264602885e+00,0.000000000000000e+00
	-5.425209270134428e+00,6.783181439400506e-09
	1.000000000000000e+00,0.000000000000000e+00
	0.000000000000000e+00,0.000000000000000e+00
	5.425209270134429e-04,-6.783181439400507e-13
	6.198460835433894e-22,8.037772614268625e-13
	5.425209218500038e-12,2.040249067188214e-14
	-5.425209324386521e-04,-1.458616081586938e-13
	-5.425209270134429e-04,6.783181439400506e-13
	-6.198460835433894e-22,-8.037772614268625e-13
	-5.425209270134429e-04,6.783181439400506e-13
15		1.412537544622754e+00,0.000000000000000e+00
	-5.425209270134428e+00,6.941182032307416e-09
	1.000000000000000e+00,0.000000000000000e+00
	0.000000000000000e+00,0.000000000000000e+00
	5.425209270134429e-04,-6.941182032307417e-13
	6.490585294758258e-22,8.224996389727240e-13
	5.425209218500038e-12,2.087772572961047e-14
	-5.425209324386521e-04,-1.492591614715927e-13
	-5.425209270134429e-04,6.941182032307416e-13
	-6.490585294758258e-22,-8.224996389727240e-13
	-5.425209270134429e-04,6.941182032307416e-13
16		1.445439770745927e+00,0.000000000000000e+00
	-5.425209270134428e+00,7.102862931805263e-09
	1.000000000000000e+00,0.000000000000000e+00
	0.000000000000000e+00,0.000000000000000e+00
	5.425209270134429e-04,-7.102862931805262e-13
	6.796477155700733e-22,8.416581167142386e-13
	5.425209218500038e-12,2.136403043386993e-14
	-5.425209324386521e-04,-1.527358539675823e-13
	-5.425209270134429e-04,7.102862931805263e-13
	-6.796477155700733e-22,-8.416581167142386e-13
	-5.425209270134429e-04,7.102862931805263e-13
17		1.479108388168207e+00,0.000000000000000e+00
	-5.425209270134428e+00,7.268309863247056e-09
	1.000000000000000e+00,0.000000000000000e+00
	0.000000000000000e+00,0.000000000000000e+00
	5.425209270134429e-04,-7.268309863247057e-13
	7.116785255910014e-22,8.612628527298972e-13
	5.425209218500038e-12,2.186166262985213e-14
	-5.425209324386521e-04,-1.562935290350436e-13
	-5.425209270134429e-04,7.268309863247056e-13
	-7.116785255910014e-22,-8.612628527298972e-13
	-5.425209270134429e-04,7.268309863247056e-13
18		1.513561248436208e+00,0.000000000000000e+00
	-5.425209270134428e+00,7.437610548785798e-09
	1.000000000000000e+00,0.000000000000000e+00
	0.000000000000000e+00,0.000000000000000e+00
	5.425209270134429e-04,-7.437610548785799e-13
	7.452189011811103e-22,8.813242417102352e-13
	5.425209218500038e-12,2.237088616873342e-14
	-5.425209324386521e-04,-1.599340730003887e-13
	-5.425209270134429e-04,7.437610548785798e-13
	-7.452189011811103e-22,-8.813242417102352e-13
	-5.425209270134429e-04,7.437610548785798e-13
19		1.548816618912481e+00,0.000000000000000e+00
	-5.425209270134428e+00,7.610854753885919e-09
	1.000000000000000e+00,0.000000000000000e+00
	0.000000000000000e+00,0.000000000000000e+00
	5.425209270134429e-04,-7.610854753885922e-13
	7.803399859738626e-22,9.018529204692330e-13
	5.425209218500038e-12,2.289197104757548e-14
	-5.425209324386521e-04,-1.636594161282163e-13
	-5.425209270134429e-04,7.610854753885920e-13
	-7.803399859738626e-22,-9.018529204692330e-13
	-5.425209270134429e-04,7.610854753885920e-13
20		1.584893192461113e+00,0.000000000000000e+00
	-5.425209270134428e+00,7.788134334918127e-09
	1.000000000000000e+00,0.000000000000000e+00
	0.000000000000000e+00,0.000000000000000e+00
	5.425209270134429e-04,-7.788134334918128e-13
	8.171162764988703e-22,9.228597735840985e-13
	5.425209218500038e-12,2.342519355247790e-14
	-5.425209324386521e-04,-1.674715336447636e-13
	-5.425209270134429e-04,7.788134334918128e-13
	-8.171162764988703e-22,-9.228597735840985e-13
	-5.425209270134429e-04,7.788134334918128e-13
21		1.621810097358929e+00,0.000000000000000e+00
	-5.425209270134428e+00,7.969543287862850e-09
	1.000000000000000e+00,0.000000000000000e+00
	0.000000000000000e+00,0.000000000000000e+00
	5.425209270134429e-04,-7.969543287862852e-13
	8.556257801990192e-22,9.443559391664114e-13
	5.425209218500038e-12,2.397083640507088e-14
	-5.425209324386521e-04,-1.713724467851971e-13
	-5.425209270134429e-04,7.969543287862850e-13
	-8.556257801990192e-22,-9.443559391664114e-13
	-5.425209270134429e-04,7.969543287862850e-13
22		1.659586907437560e+00,0.000000000000000e+00
	-5.425209270134428e+00,8.155177798148176e-09
	1.000000000000000e+00,0.000000000000000e+00
	0.000000000000000e+00,0.000000000000000e+00
	5.425209270134429e-04,-8.155177798148176e-13
	8.959501808947172e-22,9.663528147676989e-13
	5.425209218500038e-12,2.452918891241729e-14
	-5.425209324386521e-04,-1.753642238652986e-13
	-5.425209270134429e-04,8.155177798148176e-13
	-8.959501808947172e-22,-9.663528147676989e-13
	-5.425209270134429e-04,8.155177798148176e-13
23		1.698243652461743e+00,0.000000000000000e+00
	-5.425209270134428e+00,8.345136291648617e-09
	1.000000000000000e+00,0.000000000000000e+00
	0.000000000000000e+00,0.000000000000000e+00
	5.425209270134429e-04,-8.345136291648620e-13
	9.381750120462258e-22,9.888620634225680e-13
	5.425209218500038e-12,2.510054712040746e-14
	-5.425209324386521e-04,-1.794489813781135e-13
	-5.425209270134429e-04,8.345136291648618e-13
	-9.381750120462258e-22,-9.888620634225680e-13
	-5.425209270134429e-04,8.345136291648618e-13
24		1.737800828749374e+00,0.000000000000000e+00
	-5.425209270134428e+00,8.539519486871829e-09
	1.000000000000000e+00,0.000000000000000e+00
	0.000000000000000e+00,0.000000000000000e+00
	5.425209270134429e-04,-8.539519486871831e-13
	9.823898381815994e-22,1.011895619832600e-12
	5.425209218500038e-12,2.568521397072595e-14
	-5.425209324386521e-04,-1.836288851161430e-13
	-5.425209270134429e-04,8.539519486871830e-13
	-9.823898381815994e-22,-1.011895619832600e-12
	-5.425209270134429e-04,8.539519486871830e-13
25		1.778279410038922e+00,0.000000000000000e+00
	-5.425209270134428e+00,8.738430448360885e-09
	1.000000000000000e+00,0.000000000000000e+00
	0.000000000000000e+00,0.000000000000000e+00
	5.425209270134429e-04,-8.738430448360885e-13
	1.028688444875056e-21,1.035465696694290e-12
	5.425209218500038e-12,2.628349946147540e-14
	-5.425209324386521e-04,-1.879061513196769e-13
	-5.425209270134429e-04,8.738430448360885e-13
	-1.028688444875056e-21,-1.035465696694290e-12
	-5.425209270134429e-04,8.738430448360885e-13
26		1.819700858609982e+00,0.000000000000000e+00
	-5.425209270134428e+00,8.941974641340461e-09
	1.000000000000000e+00,0.000000000000000e+00
	0.000000000000000e+00,0.000000000000000e+00
	5.425209270134429e-04,-8.941974641340461e-13
	1.077169037678755e-21,1.059584791174376e-12
	5.425209218500038e-12,2.689572081154277e-14
	-5.425209324386521e-04,-1.922830478518722e-13
	-5.425209270134429e-04,8.941974641340461e-13
	-1.077169037678755e-21,-1.059584791174376e-12
	-5.425209270134429e-04,8.941974641340461e-13
27		1.862087136662866e+00,0.000000000000000e+00
	-5.425209270134428e+00,9.150259987635902e-09
	1.000000000000000e+00,0.000000000000000e+00
	0.000000000000000e+00,0.000000000000000e+00
	5.425209270134429e-04,-9.150259987635905e-13
	1.127934450429940e-21,1.084265691536005e-12
	5.425209218500038e-12,2.752220262879142e-14
	-5.425209324386521e-04,-1.967618954012058e-13
	-5.425209270134429e-04,9.150259987635903e-13
	-1.127934450429940e-21,-1.084265691536005e-12
	-5.425209270134429e-04,9.150259987635903e-13
28		1.905460717963246e+00,0.000000000000000e+00
	-5.425209270134428e+00,9.363396922894799e-09
	1.000000000000000e+00,0.000000000000000e+00
	0.000000000000000e+00,0.000000000000000e+00
	5.425209270134429e-04,-9.363396922894800e-13
	1.181092363375292e-21,1.109521483919239e-12
	5.425209218500038e-12,2.816327708217317e-14
	-5.425209324386521e-04,-2.013450687119326e-13
	-5.425209270134429e-04,9.363396922894800e-13
	-1.181092363375292e-21,-1.109521483919239e-12
	-5.425209270134429e-04,9.363396922894800e-13
29		1.949844599758044e+00,0.000000000000000e+00
	-5.425209270134428e+00,9.581498455141425e-09
	1.000000000000000e+00,0.000000000000000e+00
	0.000000000000000e+00,0.000000000000000e+00
	5.425209270134429e-04,-9.581498455141428e-13
	1.236755531575175e-21,1.135365559279501e-12
	5.425209218500038e-12,2.881928407784906e-14
	-5.425209324386521e-04,-2.060349978432076e-13
	-5.425209270134429e-04,9.581498455141424e-13
	-1.236755531575175e-21,-1.135365559279501e-12
	-5.425209270134429e-04,9.581498455141424e-13
30		1.995262314968878e+00,0.000000000000000e+00
	-5.425209270134428e+00,9.804680224695091e-09
	1.000000000000000e+00,0.000000000000000e+00
	0.000000000000000e+00,0.000000000000000e+00
	5.425209270134429e-04,-9.804680224695093e-13
	1.295042024072231e-21,1.161811620487633e-12
	5.425209218500038e-12,2.949057143941139e-14
	-5.425209324386521e-04,-2.108341694575346e-13
	-5.425209270134429e-04,9.804680224695091e-13
	-1.295042024072231e-21,-1.161811620487633e-12
	-5.425209270134429e-04,9.804680224695091e-13
31		2.041737944669527e+00,0.000000000000000e+00
	-5.425209270134428e+00,1.003306056548418e-08
	1.000000000000000e+00,0.000000000000000e+00
	0.000000000000000e+00,0.000000000000000e+00
	5.425209270134429e-04,-1.003306056548418e-12
	1.356075474331653e-21,1.188873689595341e-12
	5.425209218500038e-12,3.017749509230466e-14
	-5.425209324386521e-04,-2.157451281392281e-13
	-5.425209270134429e-04,1.003306056548418e-12
	-1.356075474331653e-21,-1.188873689595341e-12
	-5.425209270134429e-04,1.003306056548418e-12
32		2.089296130854037e+00,0.000000000000000e+00
	-5.425209270134428e+00,1.026676056778834e-08
	1.000000000000000e+00,0.000000000000000e+00
	0.000000000000000e+00,0.000000000000000e+00
	5.425209270134429e-04,-1.026676056778834e-12
	1.419985342484339e-21,1.216566115269877e-12
	5.425209218500038e-12,3.088041925254212e-14
	-5.425209324386521e-04,-2.207704777435855e-13
	-5.425209270134429e-04,1.026676056778834e-12
	-1.419985342484339e-21,-1.216566115269877e-12
	-5.425209270134429e-04,1.026676056778834e-12
33		2.137962089502230e+00,0.000000000000000e+00
	-5.425209270134428e+00,1.050590414244218e-08
	1.000000000000000e+00,0.000000000000000e+00
	0.000000000000000e+00,0.000000000000000e+00
	5.425209270134429e-04,-1.050590414244218e-12
	1.486907189929185e-21,1.244903580401886e-12
	5.425209218500038e-12,3.159971661981790e-14
	-5.425209324386521e-04,-2.259128827774852e-13
	-5.425209270134429e-04,1.050590414244218e-12
	-1.486907189929185e-21,-1.244903580401886e-12
	-5.425209270134429e-04,1.050590414244218e-12
34		2.187761623949550e+00,0.000000000000000e+00
	-5.425209270134428e+00,1.075061808653443e-08
	1.000000000000000e+00,0.000000000000000e+00
	0.000000000000000e+00,0.000000000000000e+00
	5.425209270134429e-04,-1.075061808653443e-12
	1.556982966876991e-21,1.273901109890470e-12
	5.425209218500038e-12,3.233576857511736e-14
	-5.425209324386521e-04,-2.311750698121440e-13
	-5.425209270134429e-04,1.075061808653443e-12
	-1.556982966876991e-21,-1.273901109890470e-12
	-5.425209270134429e-04,1.075061808653443e-12
35		2.238721138568337e+00,0.000000000000000e+00
	-5.425209270134428e+00,1.100103215063741e-08
	1.000000000000000e+00,0.000000000000000e+00
	0.000000000000000e+00,0.000000000000000e+00
	5.425209270134429e-04,-1.100103215063741e-12
	1.630361313445885e-21,1.303574078609593e-12
	5.425209218500038e-12,3.308896538292963e-14
	-5.425209324386521e-04,-2.365598289287811e-13
	-5.425209270134429e-04,1.100103215063741e-12
	-1.630361313445885e-21,-1.303574078609593e-12
	-5.425209270134429e-04,1.100103215063741e-12
36		2.290867652767770e+00,0.000000000000000e+00
	-5.425209270134428e+00,1.125727910760254e-08
	1.000000000000000e+00,0.000000000000000e+00
	0.000000000000000e+00,0.000000000000000e+00
	5.425209270134429e-04,-1.125727910760254e-12
	1.707197874946947e-21,1.333938219560037e-12
	5.425209218500038e-12,3.385970639817262e-14
	-5.425209324386521e-04,-2.420700151979558e-13
	-5.425209270134429e-04,1.125727910760254e-12
	-1.707197874946947e-21,-1.333938219560037e-12
	-5.425209270134429e-04,1.125727910760254e-12
37		2.344228815319919e+00,0.000000000000000e+00
	-5.425209270134428e+00,1.151949482295822e-08
	1.000000000000000e+00,0.000000000000000e+00
	0.000000000000000e+00,0.000000000000000e+00
	5.425209270134429e-04,-1.151949482295822e-12
	1.787655632028778e-21,1.365009632211252e-12
	5.425209218500038e-12,3.464840027793384e-14
	-5.425209324386521e-04,-2.477085501933638e-13
	-5.425209270134429e-04,1.151949482295822e-12
	-1.787655632028778e-21,-1.365009632211252e-12
	-5.425209270134429e-04,1.151949482295822e-12
38		2.398832919019488e+00,0.000000000000000e+00
	-5.425209270134428e+00,1.178781832694757e-08
	1.000000000000000e+00,0.000000000000000e+00
	0.000000000000000e+00,0.000000000000000e+00
