Title: * GA CMOS Amp | W=1e-06 L=9.07194498837069e-07 Vbias=1.0324069887197416
Date: Mon Sep  8 18:45:02 2025
Plotname: AC Analysis
Flags: complex forward log
No. Variables: 11
No. Points:          901
Offset:    0.0000000000000000e+00
Command: Linear Technology Corporation LTspice
Variables:
	0	frequency	frequency
	1	V(out)	voltage
	2	V(g)	voltage
	3	V(vdd)	voltage
	4	Id(M1)	device_current
	5	Ig(M1)	device_current
	6	Ib(M1)	device_current
	7	Is(M1)	device_current
	8	I(Rload)	device_current
	9	I(Vg)	device_current
	10	I(Vdd)	device_current
Values:
0		1.000000000000000e+00,0.000000000000000e+00
	-1.134465933440076e-01,1.398557595262219e-11
	1.000000000000000e+00,0.000000000000000e+00
	0.000000000000000e+00,0.000000000000000e+00
	1.134465933440076e-05,-1.398557595262219e-15
	1.757479306759197e-26,8.415707111618197e-15
	1.134465937667863e-13,-6.452661897368437e-16
	-1.134465944784735e-05,-6.371883326619135e-15
	-1.134465933440076e-05,1.398557595262219e-15
	-1.757479306759197e-26,-8.415707111618195e-15
	-1.134465933440076e-05,1.398557595262219e-15
1		1.023292992280754e+00,0.000000000000000e+00
	-1.134465933440076e-01,1.431134186532852e-11
	1.000000000000000e+00,0.000000000000000e+00
	0.000000000000000e+00,0.000000000000000e+00
	1.134465933440076e-05,-1.431134186532851e-15
	1.840306754716260e-26,8.611734112406208e-15
	1.134465937667863e-13,-6.602963701134161e-16
	-1.134465944784735e-05,-6.520303555759940e-15
	-1.134465933440076e-05,1.431134186532852e-15
	-1.840306754716260e-26,-8.611734112406206e-15
	-1.134465933440076e-05,1.431134186532852e-15
2		1.047128548050899e+00,0.000000000000000e+00
	-1.134465933440076e-01,1.464469584092485e-11
	1.000000000000000e+00,0.000000000000000e+00
	0.000000000000000e+00,0.000000000000000e+00
	1.134465933440076e-05,-1.464469584092485e-15
	1.927037740034300e-26,8.812327168610391e-15
	1.134465937667863e-13,-6.756766483654772e-16
	-1.134465944784735e-05,-6.672180936152430e-15
	-1.134465933440076e-05,1.464469584092485e-15
	-1.927037740034300e-26,-8.812327168610390e-15
	-1.134465933440076e-05,1.464469584092485e-15
3		1.071519305237606e+00,0.000000000000000e+00
	-1.134465933440076e-01,1.498581462810150e-11
	1.000000000000000e+00,0.000000000000000e+00
	0.000000000000000e+00,0.000000000000000e+00
	1.134465933440076e-05,-1.498581462810150e-15
	2.017856230761402e-26,9.017592637324312e-15
	1.134465937667863e-13,-6.914151793201401e-16
	-1.134465944784735e-05,-6.827595995194022e-15
	-1.134465933440076e-05,1.498581462810150e-15
	-2.017856230761402e-26,-9.017592637324312e-15
	-1.134465933440076e-05,1.498581462810150e-15
4		1.096478196143185e+00,0.000000000000000e+00
	-1.134465933440076e-01,1.533487909255468e-11
	1.000000000000000e+00,0.000000000000000e+00
	0.000000000000000e+00,0.000000000000000e+00
	1.134465933440076e-05,-1.533487909255468e-15
	2.112954865092647e-26,9.227639353016492e-15
	1.134465937667863e-13,-7.075203077548410e-16
	-1.134465944784735e-05,-6.986631136006183e-15
	-1.134465933440076e-05,1.533487909255468e-15
	-2.112954865092647e-26,-9.227639353016490e-15
	-1.134465933440076e-05,1.533487909255468e-15
5		1.122018454301963e+00,0.000000000000000e+00
	-1.134465933440076e-01,1.569207431288385e-11
	1.000000000000000e+00,0.000000000000000e+00
	0.000000000000000e+00,0.000000000000000e+00
	1.134465933440076e-05,-1.569207431288385e-15
	2.212535359981549e-26,9.442578685235889e-15
	1.134465937667863e-13,-7.240005728218517e-16
	-1.134465944784735e-05,-7.149370681125652e-15
	-1.134465933440076e-05,1.569207431288385e-15
	-2.212535359981549e-26,-9.442578685235887e-15
	-1.134465933440076e-05,1.569207431288385e-15
6		1.148153621496882e+00,0.000000000000000e+00
	-1.134465933440076e-01,1.605758967872287e-11
	1.000000000000000e+00,0.000000000000000e+00
	0.000000000000000e+00,0.000000000000000e+00
	1.134465933440076e-05,-1.605758967872288e-15
	2.316808939008754e-26,9.662524597661502e-15
	1.134465937667863e-13,-7.408647125758528e-16
	-1.134465944784735e-05,-7.315900917213362e-15
	-1.134465933440076e-05,1.605758967872288e-15
	-2.316808939008754e-26,-9.662524597661501e-15
	-1.134465933440076e-05,1.605758967872288e-15
7		1.174897554939529e+00,0.000000000000000e+00
	-1.134465933440076e-01,1.643161899115688e-11
	1.000000000000000e+00,0.000000000000000e+00
	0.000000000000000e+00,0.000000000000000e+00
	1.134465933440076e-05,-1.643161899115688e-15
	2.425996780415581e-26,9.887593708527426e-15
	1.134465937667863e-13,-7.581216686069636e-16
	-1.134465944784735e-05,-7.486310140804774e-15
	-1.134465933440076e-05,1.643161899115688e-15
	-2.425996780415581e-26,-9.887593708527424e-15
	-1.134465933440076e-05,1.643161899115688e-15
8		1.202264434617413e+00,0.000000000000000e+00
	-1.134465933440076e-01,1.681436056547819e-11
	1.000000000000000e+00,0.000000000000000e+00
	0.000000000000000e+00,0.000000000000000e+00
	1.134465933440076e-05,-1.681436056547820e-15
	2.540330486252724e-26,1.011790535245539e-14
	1.134465937667863e-13,-7.757805907816977e-16
	-1.134465944784735e-05,-7.660688705125871e-15
	-1.134465933440076e-05,1.681436056547820e-15
	-2.540330486252724e-26,-1.011790535245539e-14
	-1.134465933440076e-05,1.681436056547820e-15
9		1.230268770812381e+00,0.000000000000000e+00
	-1.134465933440076e-01,1.720601733633569e-11
	1.000000000000000e+00,0.000000000000000e+00
	0.000000000000000e+00,0.000000000000000e+00
	1.134465933440076e-05,-1.720601733633569e-15
	2.660052573639251e-26,1.035358164372753e-14
	1.134465937667863e-13,-7.938508420943355e-16
	-1.134465944784735e-05,-7.839129067999629e-15
	-1.134465933440076e-05,1.720601733633570e-15
	-2.660052573639251e-26,-1.035358164372753e-14
	-1.134465933440076e-05,1.720601733633570e-15
10		1.258925411794167e+00,0.000000000000000e+00
	-1.134465933440076e-01,1.760679696533348e-11
	1.000000000000000e+00,0.000000000000000e+00
	0.000000000000000e+00,0.000000000000000e+00
	1.134465933440076e-05,-1.760679696533348e-15
	2.785416989173927e-26,1.059474754103304e-14
	1.134465937667863e-13,-8.123420036313079e-16
	-1.134465944784735e-05,-8.021725840868380e-15
	-1.134465933440076e-05,1.760679696533348e-15
	-2.785416989173927e-26,-1.059474754103303e-14
	-1.134465933440076e-05,1.760679696533348e-15
11		1.288249551693134e+00,0.000000000000000e+00
	-1.134465933440076e-01,1.801691195113581e-11
	1.000000000000000e+00,0.000000000000000e+00
	0.000000000000000e+00,0.000000000000000e+00
	1.134465933440076e-05,-1.801691195113580e-15
	2.916689647590003e-26,1.084153091372286e-14
	1.134465937667863e-13,-8.312638796512250e-16
	-1.134465944784735e-05,-8.208575838958055e-15
	-1.134465933440076e-05,1.801691195113581e-15
	-2.916689647590003e-26,-1.084153091372286e-14
	-1.134465933440076e-05,1.801691195113581e-15
12		1.318256738556407e+00,0.000000000000000e+00
	-1.134465933440076e-01,1.843657974213663e-11
	1.000000000000000e+00,0.000000000000000e+00
	0.000000000000000e+00,0.000000000000000e+00
	1.134465933440076e-05,-1.843657974213663e-15
	3.054148995796009e-26,1.109406260960776e-14
	1.134465937667863e-13,-8.506265027832117e-16
	-1.134465944784735e-05,-8.399778132610888e-15
	-1.134465933440076e-05,1.843657974213663e-15
	-3.054148995796009e-26,-1.109406260960776e-14
	-1.134465933440076e-05,1.843657974213663e-15
13		1.348962882591653e+00,0.000000000000000e+00
	-1.134465933440076e-01,1.886602285175373e-11
	1.000000000000000e+00,0.000000000000000e+00
	0.000000000000000e+00,0.000000000000000e+00
	1.134465933440076e-05,-1.886602285175374e-15
	3.198086603498988e-26,1.135247652433556e-14
	1.134465937667863e-13,-8.704401393463455e-16
	-1.134465944784735e-05,-8.595434099813841e-15
	-1.134465933440076e-05,1.886602285175373e-15
	-3.198086603498988e-26,-1.135247652433556e-14
	-1.134465933440076e-05,1.886602285175373e-15
14		1.380384264602885e+00,0.000000000000000e+00
	-1.134465933440076e-01,1.930546897640816e-11
	1.000000000000000e+00,0.000000000000000e+00
	0.000000000000000e+00,0.000000000000000e+00
	1.134465933440076e-05,-1.930546897640816e-15
	3.348807781662929e-26,1.161690967238435e-14
	1.134465937667863e-13,-8.907152947930002e-16
	-1.134465944784735e-05,-8.795647479950536e-15
	-1.134465933440076e-05,1.930546897640816e-15
	-3.348807781662929e-26,-1.161690967238435e-14
	-1.134465933440076e-05,1.930546897640816e-15
15		1.412537544622754e+00,0.000000000000000e+00
	-1.134465933440076e-01,1.975515111625198e-11
	1.000000000000000e+00,0.000000000000000e+00
	0.000000000000000e+00,0.000000000000000e+00
	1.134465933440076e-05,-1.975515111625198e-15
	3.506632230114257e-26,1.188750225970942e-14
	1.134465937667863e-13,-9.114627192789637e-16
	-1.134465944784735e-05,-9.000524428805257e-15
	-1.134465933440076e-05,1.975515111625198e-15
	-3.506632230114257e-26,-1.188750225970942e-14
	-1.134465933440076e-05,1.975515111625198e-15
16		1.445439770745927e+00,0.000000000000000e+00
	-1.134465933440076e-01,2.021530769870796e-11
	1.000000000000000e+00,0.000000000000000e+00
	0.000000000000000e+00,0.000000000000000e+00
	1.134465933440076e-05,-2.021530769870796e-15
	3.671894715668027e-26,1.216439775808228e-14
	1.134465937667863e-13,-9.326934133633230e-16
	-1.134465944784735e-05,-9.210173574848156e-15
	-1.134465933440076e-05,2.021530769870796e-15
	-3.671894715668027e-26,-1.216439775808227e-14
	-1.134465933440076e-05,2.021530769870796e-15
17		1.479108388168207e+00,0.000000000000000e+00
	-1.134465933440076e-01,2.068618270488703e-11
	1.000000000000000e+00,0.000000000000000e+00
	0.000000000000000e+00,0.000000000000000e+00
	1.134465933440076e-05,-2.068618270488704e-15
	3.844945782213231e-26,1.244774298116131e-14
	1.134465937667863e-13,-9.544186338411046e-16
	-1.134465944784735e-05,-9.424706076831498e-15
	-1.134465933440076e-05,2.068618270488703e-15
	-3.844945782213231e-26,-1.244774298116130e-14
	-1.134465933440076e-05,2.068618270488703e-15
18		1.513561248436208e+00,0.000000000000000e+00
	-1.134465933440076e-01,2.116802579895024e-11
	1.000000000000000e+00,0.000000000000000e+00
	0.000000000000000e+00,0.000000000000000e+00
	1.134465933440076e-05,-2.116802579895024e-15
	4.026152494263372e-26,1.273768816233431e-14
	1.134465937667863e-13,-9.766498997117721e-16
	-1.134465944784735e-05,-9.644235682727513e-15
	-1.134465933440076e-05,2.116802579895024e-15
	-4.026152494263372e-26,-1.273768816233431e-14
	-1.134465933440076e-05,2.116802579895024e-15
19		1.548816618912481e+00,0.000000000000000e+00
	-1.134465933440076e-01,2.166109246048399e-11
	1.000000000000000e+00,0.000000000000000e+00
	0.000000000000000e+00,0.000000000000000e+00
	1.134465933440076e-05,-2.166109246048399e-15
	4.215899215549512e-26,1.303438703437421e-14
	1.134465937667863e-13,-9.993989982867592e-16
	-1.134465944784735e-05,-9.868878790039056e-15
	-1.134465933440076e-05,2.166109246048399e-15
	-4.215899215549512e-26,-1.303438703437421e-14
	-1.134465933440076e-05,2.166109246048399e-15
20		1.584893192461113e+00,0.000000000000000e+00
	-1.134465933440076e-01,2.216564411995875e-11
	1.000000000000000e+00,0.000000000000000e+00
	0.000000000000000e+00,0.000000000000000e+00
	1.134465933440076e-05,-2.216564411995875e-15
	4.414588424307287e-26,1.333799691095025e-14
	1.134465937667863e-13,-1.022677991439245e-15
	-1.134465944784735e-05,-1.009875450751513e-14
	-1.134465933440076e-05,2.216564411995875e-15
	-4.414588424307287e-26,-1.333799691095025e-14
	-1.134465933440076e-05,2.216564411995875e-15
21		1.621810097358929e+00,0.000000000000000e+00
	-1.134465933440076e-01,2.268194829734289e-11
	1.000000000000000e+00,0.000000000000000e+00
	0.000000000000000e+00,0.000000000000000e+00
	1.134465933440076e-05,-2.268194829734289e-15
	4.622641566987197e-26,1.364867877003774e-14
	1.134465937667863e-13,-1.046499221999537e-15
	-1.134465944784735e-05,-1.033398471830392e-14
	-1.134465933440076e-05,2.268194829734289e-15
	-4.622641566987197e-26,-1.364867877003774e-14
	-1.134465933440076e-05,2.268194829734289e-15
22		1.659586907437560e+00,0.000000000000000e+00
	-1.134465933440076e-01,2.321027874394536e-11
	1.000000000000000e+00,0.000000000000000e+00
	0.000000000000000e+00,0.000000000000000e+00
	1.134465933440076e-05,-2.321027874394536e-15
	4.840499952199039e-26,1.396659733927072e-14
	1.134465937667863e-13,-1.070875320299388e-15
	-1.134465944784735e-05,-1.057469414457680e-14
	-1.134465933440076e-05,2.321027874394536e-15
	-4.840499952199039e-26,-1.396659733927072e-14
	-1.134465933440076e-05,2.321027874394536e-15
23		1.698243652461743e+00,0.000000000000000e+00
	-1.134465933440076e-01,2.375091558756223e-11
	1.000000000000000e+00,0.000000000000000e+00
	0.000000000000000e+00,0.000000000000000e+00
	1.134465933440076e-05,-2.375091558756223e-15
	5.068625686786628e-26,1.429192118328276e-14
	1.134465937667863e-13,-1.095819210868772e-15
	-1.134465944784735e-05,-1.082101041365776e-14
	-1.134465933440076e-05,2.375091558756223e-15
	-5.068625686786628e-26,-1.429192118328276e-14
	-1.134465933440076e-05,2.375091558756223e-15
24		1.737800828749374e+00,0.000000000000000e+00
	-1.134465933440076e-01,2.430414548100416e-11
	1.000000000000000e+00,0.000000000000000e+00
	0.000000000000000e+00,0.000000000000000e+00
	1.134465933440076e-05,-2.430414548100416e-15
	5.307502656018375e-26,1.462482279308210e-14
	1.134465937667863e-13,-1.121344119288636e-15
	-1.134465944784735e-05,-1.107306412569305e-14
	-1.134465933440076e-05,2.430414548100416e-15
	-5.307502656018375e-26,-1.462482279308210e-14
	-1.134465933440076e-05,2.430414548100416e-15
25		1.778279410038922e+00,0.000000000000000e+00
	-1.134465933440076e-01,2.487026175408351e-11
	1.000000000000000e+00,0.000000000000000e+00
	0.000000000000000e+00,0.000000000000000e+00
	1.134465933440076e-05,-2.487026175408351e-15
	5.557637549972813e-26,1.496547867750877e-14
	1.134465937667863e-13,-1.147463579203298e-15
	-1.134465944784735e-05,-1.133098892289712e-14
	-1.134465933440076e-05,2.487026175408351e-15
	-5.557637549972813e-26,-1.496547867750876e-14
	-1.134465933440076e-05,2.487026175408351e-15
26		1.819700858609982e+00,0.000000000000000e+00
	-1.134465933440076e-01,2.544956456914171e-11
	1.000000000000000e+00,0.000000000000000e+00
	0.000000000000000e+00,0.000000000000000e+00
	1.134465933440076e-05,-2.544956456914171e-15
	5.819560938296189e-26,1.531406945682177e-14
	1.134465937667863e-13,-1.174191439496128e-15
	-1.134465944784735e-05,-1.159492156041147e-14
	-1.134465933440076e-05,2.544956456914171e-15
	-5.819560938296189e-26,-1.531406945682176e-14
	-1.134465933440076e-05,2.544956456914171e-15
27		1.862087136662866e+00,0.000000000000000e+00
	-1.134465933440076e-01,2.604236108019928e-11
	1.000000000000000e+00,0.000000000000000e+00
	0.000000000000000e+00,0.000000000000000e+00
	1.134465933440076e-05,-2.604236108019929e-15
	6.093828395611819e-26,1.567077995846645e-14
	1.134465937667863e-13,-1.201541871632437e-15
	-1.134465944784735e-05,-1.186500197881408e-14
	-1.134465933440076e-05,2.604236108019929e-15
	-6.093828395611819e-26,-1.567077995846644e-14
	-1.134465933440076e-05,2.604236108019929e-15
28		1.905460717963246e+00,0.000000000000000e+00
	-1.134465933440076e-01,2.664896559581297e-11
	1.000000000000000e+00,0.000000000000000e+00
	0.000000000000000e+00,0.000000000000000e+00
	1.134465933440076e-05,-2.664896559581297e-15
	6.381021679968345e-26,1.603579931507240e-14
	1.134465937667863e-13,-1.229529377173374e-15
	-1.134465944784735e-05,-1.214137337831773e-14
	-1.134465933440076e-05,2.664896559581298e-15
	-6.381021679968345e-26,-1.603579931507240e-14
	-1.134465933440076e-05,2.664896559581298e-15
29		1.949844599758044e+00,0.000000000000000e+00
	-1.134465933440076e-01,2.726969974572633e-11
	1.000000000000000e+00,0.000000000000000e+00
	0.000000000000000e+00,0.000000000000000e+00
	1.134465933440076e-05,-2.726969974572633e-15
	6.681749966826566e-26,1.640932106473411e-14
	1.134465937667863e-13,-1.258168795464835e-15
	-1.134465944784735e-05,-1.242418229469664e-14
	-1.134465933440076e-05,2.726969974572633e-15
	-6.681749966826566e-26,-1.640932106473410e-14
	-1.134465933440076e-05,2.726969974572633e-15
30		1.995262314968878e+00,0.000000000000000e+00
	-1.134465933440076e-01,2.790489265140201e-11
	1.000000000000000e+00,0.000000000000000e+00
	0.000000000000000e+00,0.000000000000000e+00
	1.134465933440076e-05,-2.790489265140202e-15
	6.996651141202247e-26,1.679154325362737e-14
	1.134465937667863e-13,-1.287475311505483e-15
	-1.134465944784735e-05,-1.271357867698169e-14
	-1.134465933440076e-05,2.790489265140201e-15
	-6.996651141202247e-26,-1.679154325362737e-14
	-1.134465933440076e-05,2.790489265140201e-15
31		2.041737944669527e+00,0.000000000000000e+00
	-1.134465933440076e-01,2.855488110052639e-11
	1.000000000000000e+00,0.000000000000000e+00
	0.000000000000000e+00,0.000000000000000e+00
	1.134465933440076e-05,-2.855488110052639e-15
	7.326393150705775e-26,1.718266854101606e-14
	1.134465937667863e-13,-1.317464463998040e-15
	-1.134465944784735e-05,-1.300971596696538e-14
	-1.134465933440076e-05,2.855488110052639e-15
	-7.326393150705775e-26,-1.718266854101606e-14
	-1.134465933440076e-05,2.855488110052639e-15
32		2.089296130854037e+00,0.000000000000000e+00
	-1.134465933440076e-01,2.922000972557881e-11
	1.000000000000000e+00,0.000000000000000e+00
	0.000000000000000e+00,0.000000000000000e+00
	1.134465933440076e-05,-2.922000972557881e-15
	7.671675422348597e-26,1.758290430670471e-14
	1.134465937667863e-13,-1.348152153588117e-15
	-1.134465944784735e-05,-1.331275118055871e-14
	-1.134465933440076e-05,2.922000972557881e-15
	-7.671675422348597e-26,-1.758290430670471e-14
	-1.134465933440076e-05,2.922000972557881e-15
33		2.137962089502230e+00,0.000000000000000e+00
	-1.134465933440076e-01,2.990063118656028e-11
	1.000000000000000e+00,0.000000000000000e+00
	0.000000000000000e+00,0.000000000000000e+00
	1.134465933440076e-05,-2.990063118656027e-15
	8.033230346121657e-26,1.799246276099402e-14
	1.134465937667863e-13,-1.379554651294925e-15
	-1.134465944784735e-05,-1.362284499104307e-14
	-1.134465933440076e-05,2.990063118656028e-15
	-8.033230346121657e-26,-1.799246276099401e-14
	-1.134465933440076e-05,2.990063118656028e-15
34		2.187761623949550e+00,0.000000000000000e+00
	-1.134465933440076e-01,3.059710635797849e-11
	1.000000000000000e+00,0.000000000000000e+00
	0.000000000000000e+00,0.000000000000000e+00
	1.134465933440076e-05,-3.059710635797850e-15
	8.411824828492793e-26,1.841156105719761e-14
	1.134465937667863e-13,-1.411688607138418e-15
	-1.134465944784735e-05,-1.394016181426134e-14
	-1.134465933440076e-05,3.059710635797850e-15
	-8.411824828492793e-26,-1.841156105719760e-14
	-1.134465933440076e-05,3.059710635797850e-15
35		2.238721138568337e+00,0.000000000000000e+00
	-1.134465933440076e-01,3.130980452018830e-11
	1.000000000000000e+00,0.000000000000000e+00
	0.000000000000000e+00,0.000000000000000e+00
	1.134465933440076e-05,-3.130980452018830e-15
	8.808261919118165e-26,1.884042140677954e-14
	1.134465937667863e-13,-1.444571058967321e-15
	-1.134465944784735e-05,-1.426486989579339e-14
	-1.134465933440076e-05,3.130980452018830e-15
	-8.808261919118165e-26,-1.884042140677954e-14
	-1.134465933440076e-05,3.130980452018830e-15
36		2.290867652767770e+00,0.000000000000000e+00
	-1.134465933440076e-01,3.203910355518896e-11
	1.000000000000000e+00,0.000000000000000e+00
	0.000000000000000e+00,0.000000000000000e+00
	1.134465933440076e-05,-3.203910355518896e-15
	9.223382514218233e-26,1.927927119717381e-14
	1.134465937667863e-13,-1.478219441492848e-15
	-1.134465944784735e-05,-1.459714140016207e-14
	-1.134465933440076e-05,3.203910355518896e-15
	-9.223382514218233e-26,-1.927927119717381e-14
	-1.134465933440076e-05,3.203910355518896e-15
37		2.344228815319919e+00,0.000000000000000e+00
	-1.134465933440076e-01,3.278539014698226e-11
	1.000000000000000e+00,0.000000000000000e+00
	0.000000000000000e+00,0.000000000000000e+00
	1.134465933440076e-05,-3.278539014698226e-15
	9.658067140231393e-26,1.972834311234815e-14
	1.134465937667863e-13,-1.512651595532799e-15
	-1.134465944784735e-05,-1.493715250211712e-14
	-1.134465933440076e-05,3.278539014698227e-15
	-9.658067140231393e-26,-1.972834311234814e-14
	-1.134465933440076e-05,3.278539014698227e-15
38		2.398832919019488e+00,0.000000000000000e+00
	-1.134465933440076e-01,3.354905998659743e-11
	1.000000000000000e+00,0.000000000000000e+00
	0.000000000000000e+00,0.000000000000000e+00
