Title: * GA CMOS Amp | W=4.1305913182378116e-05 L=6.449176128883036e-07 Vbias=0.8758745549716096
Date: Mon Sep  8 18:44:12 2025
Plotname: AC Analysis
Flags: complex forward log
No. Variables: 11
No. Points:          901
Offset:    0.0000000000000000e+00
Command: Linear Technology Corporation LTspice
Variables:
	0	frequency	frequency
	1	V(out)	voltage
	2	V(g)	voltage
	3	V(vdd)	voltage
	4	Id(M1)	device_current
	5	Ig(M1)	device_current
	6	Ib(M1)	device_current
	7	Is(M1)	device_current
	8	I(Rload)	device_current
	9	I(Vg)	device_current
	10	I(Vdd)	device_current
Values:
0		1.000000000000000e+00,0.000000000000000e+00
	-9.250894159264060e+00,1.089792146887185e-08
	1.000000000000000e+00,0.000000000000000e+00
	0.000000000000000e+00,0.000000000000000e+00
	9.250894159264060e-04,-1.089792146887185e-12
	1.241682202403151e-21,1.344497351232728e-12
	9.250894212990690e-12,4.754312140073824e-14
	-9.250894251773002e-04,-3.022483257462810e-13
	-9.250894159264061e-04,1.089792146887185e-12
	-1.241682202403151e-21,-1.344497351232728e-12
	-9.250894159264061e-04,1.089792146887185e-12
1		1.023292992280754e+00,0.000000000000000e+00
	-9.250894159264060e+00,1.115176666952255e-08
	1.000000000000000e+00,0.000000000000000e+00
	0.000000000000000e+00,0.000000000000000e+00
	9.250894159264060e-04,-1.115176666952255e-12
	1.300200881743055e-21,1.375814717656486e-12
	9.250894212990690e-12,4.865054296052851e-14
	-9.250894251773002e-04,-3.092885936647600e-13
	-9.250894159264061e-04,1.115176666952255e-12
	-1.300200881743055e-21,-1.375814717656486e-12
	-9.250894159264061e-04,1.115176666952255e-12
2		1.047128548050899e+00,0.000000000000000e+00
	-9.250894159264060e+00,1.141152468447251e-08
	1.000000000000000e+00,0.000000000000000e+00
	0.000000000000000e+00,0.000000000000000e+00
	9.250894159264060e-04,-1.141152468447251e-12
	1.361477461474104e-21,1.407861559254607e-12
	9.250894212990690e-12,4.978375968216276e-14
	-9.250894251773002e-04,-3.164928504895186e-13
	-9.250894159264061e-04,1.141152468447251e-12
	-1.361477461474104e-21,-1.407861559254607e-12
	-9.250894159264061e-04,1.141152468447251e-12
3		1.071519305237606e+00,0.000000000000000e+00
	-9.250894159264060e+00,1.167733324085956e-08
	1.000000000000000e+00,0.000000000000000e+00
	0.000000000000000e+00,0.000000000000000e+00
	9.250894159264060e-04,-1.167733324085956e-12
	1.425641917437403e-21,1.440654867686695e-12
	9.250894212990690e-12,5.094337241214618e-14
	-9.250894251773002e-04,-3.238649160128848e-13
	-9.250894159264061e-04,1.167733324085956e-12
	-1.425641917437403e-21,-1.440654867686695e-12
	-9.250894159264061e-04,1.167733324085956e-12
4		1.096478196143185e+00,0.000000000000000e+00
	-9.250894159264060e+00,1.194933327389869e-08
	1.000000000000000e+00,0.000000000000000e+00
	0.000000000000000e+00,0.000000000000000e+00
	9.250894159264060e-04,-1.194933327389869e-12
	1.492830351046728e-21,1.474212030398952e-12
	9.250894212990690e-12,5.212999599249744e-14
	-9.250894251773002e-04,-3.314086990015798e-13
	-9.250894159264061e-04,1.194933327389870e-12
	-1.492830351046728e-21,-1.474212030398952e-12
	-9.250894159264061e-04,1.194933327389870e-12
5		1.122018454301963e+00,0.000000000000000e+00
	-9.250894159264060e+00,1.222766900160778e-08
	1.000000000000000e+00,0.000000000000000e+00
	0.000000000000000e+00,0.000000000000000e+00
	9.250894159264060e-04,-1.222766900160778e-12
	1.563185277977875e-21,1.508550839843230e-12
	9.250894212990690e-12,5.334425958674671e-14
	-9.250894251773002e-04,-3.391281992691984e-13
	-9.250894159264061e-04,1.222766900160778e-12
	-1.563185277977875e-21,-1.508550839843230e-12
	-9.250894159264061e-04,1.222766900160778e-12
6		1.148153621496882e+00,0.000000000000000e+00
	-9.250894159264060e+00,1.251248800127384e-08
	1.000000000000000e+00,0.000000000000000e+00
	0.000000000000000e+00,0.000000000000000e+00
	9.250894159264060e-04,-1.251248800127384e-12
	1.636855930463514e-21,1.543689502910823e-12
	9.250894212990690e-12,5.458680701352370e-14
	-9.250894251773002e-04,-3.470275097969620e-13
	-9.250894159264061e-04,1.251248800127384e-12
	-1.636855930463514e-21,-1.543689502910823e-12
	-9.250894159264061e-04,1.251248800127384e-12
7		1.174897554939529e+00,0.000000000000000e+00
	-9.250894159264060e+00,1.280394128770055e-08
	1.000000000000000e+00,0.000000000000000e+00
	0.000000000000000e+00,0.000000000000000e+00
	9.250894159264060e-04,-1.280394128770054e-12
	1.713998573834764e-21,1.579646650586006e-12
	9.250894212990690e-12,5.585829708792070e-14
	-9.250894251773002e-04,-3.551108189038719e-13
	-9.250894159264061e-04,1.280394128770054e-12
	-1.713998573834764e-21,-1.579646650586006e-12
	-9.250894159264061e-04,1.280394128770054e-12
8		1.202264434617413e+00,0.000000000000000e+00
	-9.250894159264060e+00,1.310218339327818e-08
	1.000000000000000e+00,0.000000000000000e+00
	0.000000000000000e+00,0.000000000000000e+00
	9.250894159264060e-04,-1.310218339327818e-12
	1.794776837980909e-21,1.616441347824425e-12
	9.250894212990690e-12,5.715940397080539e-14
	-9.250894251773002e-04,-3.633824124674121e-13
	-9.250894159264061e-04,1.310218339327818e-12
	-1.794776837980909e-21,-1.616441347824425e-12
	-9.250894159264061e-04,1.310218339327818e-12
9		1.230268770812381e+00,0.000000000000000e+00
	-9.250894159264060e+00,1.340737244991883e-08
	1.000000000000000e+00,0.000000000000000e+00
	0.000000000000000e+00,0.000000000000000e+00
	9.250894159264060e-04,-1.340737244991884e-12
	1.879362064430333e-21,1.654093103661591e-12
	9.250894212990690e-12,5.849081752627005e-14
	-9.250894251773002e-04,-3.718466761959771e-13
	-9.250894159264061e-04,1.340737244991883e-12
	-1.879362064430333e-21,-1.654093103661591e-12
	-9.250894159264061e-04,1.340737244991883e-12
10		1.258925411794167e+00,0.000000000000000e+00
	-9.250894159264060e+00,1.371967027289999e-08
	1.000000000000000e+00,0.000000000000000e+00
	0.000000000000000e+00,0.000000000000000e+00
	9.250894159264060e-04,-1.371967027289999e-12
	1.967933669788876e-21,1.692621881556829e-12
	9.250894212990690e-12,5.985324368740412e-14
	-9.250894251773002e-04,-3.805080979542341e-13
	-9.250894159264061e-04,1.371967027289999e-12
	-1.967933669788876e-21,-1.692621881556829e-12
	-9.250894159264061e-04,1.371967027289999e-12
11		1.288249551693134e+00,0.000000000000000e+00
	-9.250894159264060e+00,1.403924244666114e-08
	1.000000000000000e+00,0.000000000000000e+00
	0.000000000000000e+00,0.000000000000000e+00
	9.250894159264060e-04,-1.403924244666114e-12
	2.060679526306505e-21,1.732048109978168e-12
	9.250894212990690e-12,6.124740483059349e-14
	-9.250894251773002e-04,-3.893712701426468e-13
	-9.250894159264061e-04,1.403924244666115e-12
	-2.060679526306505e-21,-1.732048109978168e-12
	-9.250894159264061e-04,1.403924244666115e-12
12		1.318256738556407e+00,0.000000000000000e+00
	-9.250894159264060e+00,1.436625841259885e-08
	1.000000000000000e+00,0.000000000000000e+00
	0.000000000000000e+00,0.000000000000000e+00
	9.250894159264060e-04,-1.436625841259885e-12
	2.157796360379545e-21,1.772392693233784e-12
	9.250894212990690e-12,6.267404015852788e-14
	-9.250894251773002e-04,-3.984408921324267e-13
	-9.250894159264061e-04,1.436625841259886e-12
	-2.157796360379545e-21,-1.772392693233784e-12
	-9.250894159264061e-04,1.436625841259886e-12
13		1.348962882591653e+00,0.000000000000000e+00
	-9.250894159264060e+00,1.470089155890684e-08
	1.000000000000000e+00,0.000000000000000e+00
	0.000000000000000e+00,0.000000000000000e+00
	9.250894159264060e-04,-1.470089155890684e-12
	2.259490169833749e-21,1.813677022555744e-12
	9.250894212990690e-12,6.413390609214430e-14
	-9.250894251773002e-04,-4.077217727572043e-13
	-9.250894159264061e-04,1.470089155890684e-12
	-2.259490169833749e-21,-1.813677022555744e-12
	-9.250894159264061e-04,1.470089155890684e-12
14		1.380384264602885e+00,0.000000000000000e+00
	-9.250894159264060e+00,1.504331931250866e-08
	1.000000000000000e+00,0.000000000000000e+00
	0.000000000000000e+00,0.000000000000000e+00
	9.250894159264060e-04,-1.504331931250866e-12
	2.365976660873294e-21,1.855922987441916e-12
	9.250894212990690e-12,6.562777667168347e-14
	-9.250894251773002e-04,-4.172188328627332e-13
	-9.250894159264061e-04,1.504331931250866e-12
	-2.365976660873294e-21,-1.855922987441916e-12
	-9.250894159264061e-04,1.504331931250866e-12
15		1.412537544622754e+00,0.000000000000000e+00
	-9.250894159264060e+00,1.539372323313185e-08
	1.000000000000000e+00,0.000000000000000e+00
	0.000000000000000e+00,0.000000000000000e+00
	9.250894159264060e-04,-1.539372323313185e-12
	2.477481705622568e-21,1.899152987262075e-12
	9.250894212990690e-12,6.715644396710003e-14
	-9.250894251773002e-04,-4.269371079159901e-13
	-9.250894159264061e-04,1.539372323313185e-12
	-2.477481705622568e-21,-1.899152987262074e-12
	-9.250894159264061e-04,1.539372323313185e-12
16		1.445439770745927e+00,0.000000000000000e+00
	-9.250894159264060e+00,1.575228910957325e-08
	1.000000000000000e+00,0.000000000000000e+00
	0.000000000000000e+00,0.000000000000000e+00
	9.250894159264060e-04,-1.575228910957325e-12
	2.594241821231225e-21,1.943389943134341e-12
	9.250894212990690e-12,6.872071849802894e-14
	-9.250894251773002e-04,-4.368817506750446e-13
	-9.250894159264061e-04,1.575228910957325e-12
	-2.594241821231225e-21,-1.943389943134341e-12
	-9.250894159264061e-04,1.575228910957325e-12
17		1.479108388168207e+00,0.000000000000000e+00
	-9.250894159264060e+00,1.611920705820674e-08
	1.000000000000000e+00,0.000000000000000e+00
	0.000000000000000e+00,0.000000000000000e+00
	9.250894159264060e-04,-1.611920705820674e-12
	2.716504671558773e-21,1.988657310078264e-12
	9.250894212990690e-12,7.032142966353106e-14
	-9.250894251773002e-04,-4.470580339211209e-13
	-9.250894159264061e-04,1.611920705820675e-12
	-2.716504671558773e-21,-1.988657310078264e-12
	-9.250894159264061e-04,1.611920705820675e-12
18		1.513561248436208e+00,0.000000000000000e+00
	-9.250894159264060e+00,1.649467162378543e-08
	1.000000000000000e+00,0.000000000000000e+00
	0.000000000000000e+00,0.000000000000000e+00
	9.250894159264060e-04,-1.649467162378543e-12
	2.844529592502824e-21,2.034979089450982e-12
	9.250894212990690e-12,7.195942618185500e-14
	-9.250894251773002e-04,-4.574713532542947e-13
	-9.250894159264061e-04,1.649467162378543e-12
	-2.844529592502824e-21,-2.034979089450982e-12
	-9.250894159264061e-04,1.649467162378543e-12
19		1.548816618912481e+00,0.000000000000000e+00
	-9.250894159264060e+00,1.687888188259184e-08
	1.000000000000000e+00,0.000000000000000e+00
	0.000000000000000e+00,0.000000000000000e+00
	9.250894159264060e-04,-1.687888188259184e-12
	2.978588142085298e-21,2.082379841673060e-12
	9.250894212990690e-12,7.363557654043683e-14
	-9.250894251773002e-04,-4.681272299543130e-13
	-9.250894159264061e-04,1.687888188259184e-12
	-2.978588142085298e-21,-2.082379841673060e-12
	-9.250894159264061e-04,1.687888188259184e-12
20		1.584893192461113e+00,0.000000000000000e+00
	-9.250894159264060e+00,1.727204154799081e-08
	1.000000000000000e+00,0.000000000000000e+00
	0.000000000000000e+00,0.000000000000000e+00
	9.250894159264060e-04,-1.727204154799081e-12
	3.118964676463405e-21,2.130884699250749e-12
	9.250894212990690e-12,7.535076945638207e-14
	-9.250894251773002e-04,-4.790313139080496e-13
	-9.250894159264061e-04,1.727204154799081e-12
	-3.118964676463405e-21,-2.130884699250749e-12
	-9.250894159264061e-04,1.727204154799081e-12
21		1.621810097358929e+00,0.000000000000000e+00
	-9.250894159264060e+00,1.767435907844103e-08
	1.000000000000000e+00,0.000000000000000e+00
	0.000000000000000e+00,0.000000000000000e+00
	9.250894159264060e-04,-1.767435907844102e-12
	3.265956953087169e-21,2.180519380101573e-12
	9.250894212990690e-12,7.710591434767827e-14
	-9.250894251773002e-04,-4.901893866051493e-13
	-9.250894159264061e-04,1.767435907844103e-12
	-3.265956953087169e-21,-2.180519380101573e-12
	-9.250894159264061e-04,1.767435907844103e-12
22		1.659586907437560e+00,0.000000000000000e+00
	-9.250894159264060e+00,1.808604778802243e-08
	1.000000000000000e+00,0.000000000000000e+00
	0.000000000000000e+00,0.000000000000000e+00
	9.250894159264060e-04,-1.808604778802243e-12
	3.419876762282907e-21,2.231310201190314e-12
	9.250894212990690e-12,7.890194181537935e-14
	-9.250894251773002e-04,-5.016073642034507e-13
	-9.250894159264061e-04,1.808604778802243e-12
	-3.419876762282907e-21,-2.231310201190314e-12
	-9.250894159264061e-04,1.808604778802243e-12
23		1.698243652461743e+00,0.000000000000000e+00
	-9.250894159264060e+00,1.850732595953819e-08
	1.000000000000000e+00,0.000000000000000e+00
	0.000000000000000e+00,0.000000000000000e+00
	9.250894159264060e-04,-1.850732595953819e-12
	3.581050588602312e-21,2.283284092482608e-12
	9.250894212990690e-12,8.073980413702166e-14
	-9.250894251773002e-04,-5.132913006658110e-13
	-9.250894159264061e-04,1.850732595953819e-12
	-3.581050588602312e-21,-2.283284092482608e-12
	-9.250894159264061e-04,1.850732595953819e-12
24		1.737800828749374e+00,0.000000000000000e+00
	-9.250894159264060e+00,1.893841696025111e-08
	1.000000000000000e+00,0.000000000000000e+00
	0.000000000000000e+00,0.000000000000000e+00
	9.250894159264060e-04,-1.893841696025110e-12
	3.749820303339958e-21,2.336468611223574e-12
	9.250894212990690e-12,8.262047577153472e-14
	-9.250894251773002e-04,-5.252473909699981e-13
	-9.250894159264061e-04,1.893841696025111e-12
	-3.749820303339958e-21,-2.336468611223574e-12
	-9.250894159264061e-04,1.893841696025111e-12
25		1.778279410038922e+00,0.000000000000000e+00
	-9.250894159264060e+00,1.937954936031594e-08
	1.000000000000000e+00,0.000000000000000e+00
	0.000000000000000e+00,0.000000000000000e+00
	9.250894159264060e-04,-1.937954936031594e-12
	3.926543889688153e-21,2.390891956549028e-12
	9.250894212990690e-12,8.454495387591429e-14
	-9.250894251773002e-04,-5.374819743933484e-13
	-9.250894159264061e-04,1.937954936031594e-12
	-3.926543889688153e-21,-2.390891956549028e-12
	-9.250894159264061e-04,1.937954936031594e-12
26		1.819700858609982e+00,0.000000000000000e+00
	-9.250894159264060e+00,1.983095705397027e-08
	1.000000000000000e+00,0.000000000000000e+00
	0.000000000000000e+00,0.000000000000000e+00
	9.250894159264060e-04,-1.983095705397027e-12
	4.111596202067286e-21,2.446582984437042e-12
	9.250894212990690e-12,8.651425883392203e-14
	-9.250894251773002e-04,-5.500015378739373e-13
	-9.250894159264061e-04,1.983095705397027e-12
	-4.111596202067286e-21,-2.446582984437042e-12
	-9.250894159264061e-04,1.983095705397027e-12
27		1.862087136662866e+00,0.000000000000000e+00
	-9.250894159264060e+00,2.029287938354837e-08
	1.000000000000000e+00,0.000000000000000e+00
	0.000000000000000e+00,0.000000000000000e+00
	9.250894159264060e-04,-2.029287938354836e-12
	4.305369761242310e-21,2.503571223007758e-12
	9.250894212990690e-12,8.852943479711496e-14
	-9.250894251773002e-04,-5.628127194500376e-13
	-9.250894159264061e-04,2.029287938354837e-12
	-4.305369761242310e-21,-2.503571223007758e-12
	-9.250894159264061e-04,2.029287938354837e-12
28		1.905460717963246e+00,0.000000000000000e+00
	-9.250894159264060e+00,2.076556126638363e-08
	1.000000000000000e+00,0.000000000000000e+00
	0.000000000000000e+00,0.000000000000000e+00
	9.250894159264060e-04,-2.076556126638363e-12
	4.508275586911907e-21,2.561886888179596e-12
	9.250894212990690e-12,9.059155023846471e-14
	-9.250894251773002e-04,-5.759223117796975e-13
	-9.250894159264061e-04,2.076556126638363e-12
	-4.508275586911907e-21,-2.561886888179596e-12
	-9.250894159264061e-04,2.076556126638363e-12
29		1.949844599758044e+00,0.000000000000000e+00
	-9.250894159264060e+00,2.124925332466704e-08
	1.000000000000000e+00,0.000000000000000e+00
	0.000000000000000e+00,0.000000000000000e+00
	9.250894159264060e-04,-2.124925332466703e-12
	4.720744069536385e-21,2.621560899690129e-12
	9.250894212990690e-12,9.270169851887048e-14
	-9.250894251773002e-04,-5.893372657422964e-13
	-9.250894159264061e-04,2.124925332466704e-12
	-4.720744069536385e-21,-2.621560899690129e-12
	-9.250894159264061e-04,2.124925332466704e-12
30		1.995262314968878e+00,0.000000000000000e+00
	-9.250894159264060e+00,2.174421201833029e-08
	1.000000000000000e+00,0.000000000000000e+00
	0.000000000000000e+00,0.000000000000000e+00
	9.250894159264060e-04,-2.174421201833029e-12
	4.943225883253527e-21,2.682624897490138e-12
	9.250894212990690e-12,9.486099846688337e-14
	-9.250894251773002e-04,-6.030646941239923e-13
	-9.250894159264061e-04,2.174421201833030e-12
	-4.943225883253527e-21,-2.682624897490137e-12
	-9.250894159264061e-04,2.174421201833030e-12
31		2.041737944669527e+00,0.000000000000000e+00
	-9.250894159264060e+00,2.225069978102434e-08
	1.000000000000000e+00,0.000000000000000e+00
	0.000000000000000e+00,0.000000000000000e+00
	9.250894159264060e-04,-2.225069978102433e-12
	5.176192941818890e-21,2.745111258519534e-12
	9.250894212990690e-12,9.707059497191727e-14
	-9.250894251773002e-04,-6.171118753890178e-13
	-9.250894159264061e-04,2.225069978102434e-12
	-5.176192941818890e-21,-2.745111258519534e-12
	-9.250894159264061e-04,2.225069978102434e-12
32		2.089296130854037e+00,0.000000000000000e+00
	-9.250894159264060e+00,2.276898515926512e-08
	1.000000000000000e+00,0.000000000000000e+00
	0.000000000000000e+00,0.000000000000000e+00
	9.250894159264060e-04,-2.276898515926511e-12
	5.420139399598128e-21,2.809053113874041e-12
	9.250894212990690e-12,9.933165959128591e-14
	-9.250894251773002e-04,-6.314862575388157e-13
	-9.250894159264061e-04,2.276898515926512e-12
	-5.420139399598128e-21,-2.809053113874041e-12
	-9.250894159264061e-04,2.276898515926512e-12
33		2.137962089502230e+00,0.000000000000000e+00
	-9.250894159264060e+00,2.329934295482048e-08
	1.000000000000000e+00,0.000000000000000e+00
	0.000000000000000e+00,0.000000000000000e+00
	9.250894159264060e-04,-2.329934295482048e-12
	5.675582699734662e-21,2.874484366371737e-12
	9.250894212990690e-12,1.016453911713800e-13
	-9.250894251773002e-04,-6.461954620610696e-13
	-9.250894159264061e-04,2.329934295482049e-12
	-5.675582699734662e-21,-2.874484366371737e-12
	-9.250894159264061e-04,2.329934295482049e-12
34		2.187761623949550e+00,0.000000000000000e+00
	-9.250894159264060e+00,2.384205437041375e-08
	1.000000000000000e+00,0.000000000000000e+00
	0.000000000000000e+00,0.000000000000000e+00
	9.250894159264060e-04,-2.384205437041375e-12
	5.943064671715960e-21,2.941439708528782e-12
	9.250894212990690e-12,1.040130164833098e-13
	-9.250894251773002e-04,-6.612472879707163e-13
	-9.250894159264061e-04,2.384205437041375e-12
	-5.943064671715960e-21,-2.941439708528782e-12
	-9.250894159264061e-04,2.384205437041375e-12
35		2.238721138568337e+00,0.000000000000000e+00
	-9.250894159264060e+00,2.439740715882112e-08
	1.000000000000000e+00,0.000000000000000e+00
	0.000000000000000e+00,0.000000000000000e+00
	9.250894159264060e-04,-2.439740715882112e-12
	6.223152680666530e-21,3.009954640953847e-12
	9.250894212990690e-12,1.064357908733529e-13
	-9.250894251773002e-04,-6.766497159450879e-13
	-9.250894159264061e-04,2.439740715882112e-12
	-6.223152680666530e-21,-3.009954640953847e-12
	-9.250894159264061e-04,2.439740715882112e-12
36		2.290867652767770e+00,0.000000000000000e+00
	-9.250894159264060e+00,2.496569577544196e-08
	1.000000000000000e+00,0.000000000000000e+00
	0.000000000000000e+00,0.000000000000000e+00
	9.250894159264060e-04,-2.496569577544195e-12
	6.516440830805406e-21,3.080065491171005e-12
	9.250894212990690e-12,1.089149989285618e-13
	-9.250894251773002e-04,-6.924109125553714e-13
	-9.250894159264061e-04,2.496569577544196e-12
	-6.516440830805406e-21,-3.080065491171005e-12
	-9.250894159264061e-04,2.496569577544196e-12
37		2.344228815319919e+00,0.000000000000000e+00
	-9.250894159264060e+00,2.554722153442299e-08
	1.000000000000000e+00,0.000000000000000e+00
	0.000000000000000e+00,0.000000000000000e+00
	9.250894159264060e-04,-2.554722153442298e-12
	6.823551225620861e-21,3.151809432881068e-12
	9.250894212990690e-12,1.114519551578635e-13
	-9.250894251773002e-04,-7.085392345966335e-13
	-9.250894159264061e-04,2.554722153442299e-12
	-6.823551225620861e-21,-3.151809432881068e-12
	-9.250894159264061e-04,2.554722153442299e-12
38		2.398832919019488e+00,0.000000000000000e+00
	-9.250894159264060e+00,2.614229276841901e-08
	1.000000000000000e+00,0.000000000000000e+00
	0.000000000000000e+00,0.000000000000000e+00
