LTspice 24.0.9 for Windows
Circuit: * GA CMOS Amp | W=3.889587005482816e-05 L=9.502654475480692e-07 Vbias=0.9769530879083541
Start Time: Mon Sep  8 18:45:20 2025
solver = Normal
Maximum thread count: 2
tnom = 27
temp = 27
method = modified trap
AsciiRawFile = 1
Instance "m1": Length shorter than recommended for a level 3 MOSFET.
Direct Newton iteration for .op point succeeded.
Semiconductor Device Operating Points:
                        --- MOSFET Transistors ---
Name:          m1
Model:        n_1u
Id:          1.25e-04
Vgs:         9.77e-01
Vds:         5.46e-01
Vbs:         0.00e+00
Vth:         8.03e-01
Vdsat:       1.86e-01
Gm:          9.93e-04
Gds:         2.21e-05
Gmb:         2.28e-04
Cbd:         0.00e+00
Cbs:         0.00e+00
Cgsov:       7.78e-15
Cgdov:       7.78e-15
Cgbov:       7.50e-17
Cgs:         3.36e-14
Cgd:         0.00e+00
Cgb:         0.00e+00



gain_db: MAX(db(v(out)/v(g)))=(30.3187dB,56.2861°) FROM 1 TO 1e+09
gain_lin: MAX(mag(v(out)/v(g)))=(18.2081dB,0°) FROM 1 TO 1e+09

Measurement "fc" FAIL'ed

Total elapsed time: 0.505 seconds.

