LTspice 24.0.9 for Windows
Circuit: * GA CMOS Amp | W=3.132583957716769e-06 L=9.025051876515391e-07 Vbias=1.4519767307771936
Start Time: Sat Sep  6 22:12:22 2025
solver = Normal
Maximum thread count: 2
tnom = 27
temp = 27
method = modified trap
AsciiRawFile = 1
Direct Newton iteration for .op point succeeded.
Semiconductor Device Operating Points:
                        --- BSIM4 MOSFETS ---
Name:      m1
Model:      n
Id:      1.24e-04
Vgs:     1.45e+00
Vds:     5.60e-01
Vbs:     0.00e+00
Vth:     2.37e-01
Vdsat:   8.39e-01
Gm:      2.43e-05
Gds:     1.12e-04
Gmb      6.50e-05
Cbd:     1.35e-15
Cbs:     2.51e-15


.measure op idd find i(vdd)
  Error: FIND can not be evaluated over an interval.

gain_db: MAX(db(v(out)/v(g)))=(30.5596dB,125.995°) FROM 1 TO 1e+09
gain_lin: MAX(mag(v(out)/v(g)))=(0.371946dB,0°) FROM 1 TO 1e+09
fc: mag(v(out)/v(g))=1 AT 9.45194e+08

Total elapsed time: 0.943 seconds.

