LTspice 24.0.9 for Windows
Circuit: * GA CMOS Amp | W=3.401833700349272e-05 L=7.758289625409559e-07 Vbias=1.2394141101368716
Start Time: Mon Sep  8 18:44:48 2025
solver = Normal
Maximum thread count: 2
tnom = 27
temp = 27
method = modified trap
AsciiRawFile = 1
Instance "m1": Length shorter than recommended for a level 3 MOSFET.
Direct Newton iteration for .op point succeeded.
Semiconductor Device Operating Points:
                        --- MOSFET Transistors ---
Name:          m1
Model:        n_1u
Id:          1.74e-04
Vgs:         1.24e+00
Vds:         5.75e-02
Vbs:         0.00e+00
Vth:         7.86e-01
Vdsat:       3.48e-01
Gm:          3.49e-04
Gds:         2.65e-03
Gmb:         7.81e-05
Cbd:         0.00e+00
Cbs:         0.00e+00
Cgsov:       6.80e-15
Cgdov:       6.80e-15
Cgbov:       5.76e-17
Cgs:         1.79e-14
Cgd:         1.58e-14
Cgb:         0.00e+00



gain_db: MAX(db(v(out)/v(g)))=(30.2765dB,123.293°) FROM 1 TO 1e+09
gain_lin: MAX(mag(v(out)/v(g)))=(-17.221dB,0°) FROM 1 TO 1e+09

Measurement "fc" FAIL'ed

Total elapsed time: 0.448 seconds.

