LTspice 24.0.9 for Windows
Circuit: * GA CMOS Amp | W=2.329036634918152e-05 L=6.465356398467961e-07 Vbias=0.8901766520065106
Start Time: Mon Sep  8 18:47:12 2025
solver = Normal
Maximum thread count: 2
tnom = 27
temp = 27
method = modified trap
AsciiRawFile = 1
Instance "m1": Length shorter than recommended for a level 3 MOSFET.
Direct Newton iteration for .op point succeeded.
Semiconductor Device Operating Points:
                        --- MOSFET Transistors ---
Name:          m1
Model:        n_1u
Id:          8.02e-05
Vgs:         8.90e-01
Vds:         9.98e-01
Vbs:         0.00e+00
Vth:         7.66e-01
Vdsat:       1.42e-01
Gm:          7.99e-04
Gds:         2.57e-05
Gmb:         1.51e-04
Cbd:         0.00e+00
Cbs:         0.00e+00
Cgsov:       4.66e-15
Cgdov:       4.66e-15
Cgbov:       4.47e-17
Cgs:         1.20e-14
Cgd:         0.00e+00
Cgb:         0.00e+00



gain_db: MAX(db(v(out)/v(g)))=(30.0122dB,59.508°) FROM 1 TO 1e+09
gain_lin: MAX(mag(v(out)/v(g)))=(16.0684dB,0°) FROM 1 TO 1e+09

Measurement "fc" FAIL'ed

Total elapsed time: 0.439 seconds.

