LTspice 24.0.9 for Windows
Circuit: * GA CMOS Amp | W=6.077595156391874e-06 L=8.850296729957008e-07 Vbias=1.344347779393647
Start Time: Sat Sep  6 22:11:44 2025
solver = Normal
Maximum thread count: 2
tnom = 27
temp = 27
method = modified trap
AsciiRawFile = 1
Direct Newton iteration for .op point succeeded.
Semiconductor Device Operating Points:
                        --- BSIM4 MOSFETS ---
Name:      m1
Model:      n
Id:      1.52e-04
Vgs:     1.34e+00
Vds:     2.77e-01
Vbs:     0.00e+00
Vth:     2.38e-01
Vdsat:   7.70e-01
Gm:      3.82e-06
Gds:     4.31e-04
Gmb      8.20e-05
Cbd:     2.80e-15
Cbs:     4.86e-15


.measure op idd find i(vdd)
  Error: FIND can not be evaluated over an interval.

gain_db: MAX(db(v(out)/v(g)))=(37.1311dB,180°) FROM 1 TO 1e+09
gain_lin: MAX(mag(v(out)/v(g)))=(-2.1683dB,0°) FROM 1 TO 1e+09

Measurement "fc" FAIL'ed

Total elapsed time: 1.119 seconds.

