LTspice 24.0.9 for Windows
Circuit: * GA CMOS Amp | W=2.114535271682712e-05 L=6.748737721984038e-07 Vbias=0.683250570464881
Start Time: Mon Sep  8 18:45:48 2025
solver = Normal
Maximum thread count: 2
tnom = 27
temp = 27
method = modified trap
AsciiRawFile = 1
Instance "m1": Length shorter than recommended for a level 3 MOSFET.
Direct Newton iteration for .op point succeeded.
Semiconductor Device Operating Points:
                        --- MOSFET Transistors ---
Name:          m1
Model:        n_1u
Id:          1.55e-06
Vgs:         6.83e-01
Vds:         1.78e+00
Vbs:         0.00e+00
Vth:         7.73e-01
Vdsat:       4.79e-02
Gm:          2.90e-05
Gds:         2.03e-07
Gmb:         5.85e-06
Cbd:         0.00e+00
Cbs:         0.00e+00
Cgsov:       4.23e-15
Cgdov:       4.23e-15
Cgbov:       4.75e-17
Cgs:         8.60e-15
Cgd:         0.00e+00
Cgb:         2.22e-15



gain_db: MAX(db(v(out)/v(g)))=(29.3478dB,111.534°) FROM 1 TO 1e+09
gain_lin: MAX(mag(v(out)/v(g)))=(-8.41649dB,0°) FROM 1 TO 1e+09

Measurement "fc" FAIL'ed

Total elapsed time: 0.449 seconds.

