Title: * GA CMOS Amp | W=1.2954158607479523e-05 L=1e-06 Vbias=1.0266998558766132
Date: Mon Sep  8 18:44:32 2025
Plotname: AC Analysis
Flags: complex forward log
No. Variables: 11
No. Points:          901
Offset:    0.0000000000000000e+00
Command: Linear Technology Corporation LTspice
Variables:
	0	frequency	frequency
	1	V(out)	voltage
	2	V(g)	voltage
	3	V(vdd)	voltage
	4	Id(M1)	device_current
	5	Ig(M1)	device_current
	6	Ib(M1)	device_current
	7	Is(M1)	device_current
	8	I(Rload)	device_current
	9	I(Vg)	device_current
	10	I(Vdd)	device_current
Values:
0		1.000000000000000e+00,0.000000000000000e+00
	-3.326868415892979e+00,6.525643802210559e-10
	1.000000000000000e+00,0.000000000000000e+00
	0.000000000000000e+00,0.000000000000000e+00
	3.326868415892979e-04,-6.525643802210560e-14
	1.062288398808218e-23,1.651115136698435e-13
	3.326868403159822e-12,-3.447005751208237e-15
	-3.326868449161663e-04,-9.640806989652968e-14
	-3.326868415892979e-04,6.525643802210559e-14
	-1.062288398808218e-23,-1.651115136698435e-13
	-3.326868415892979e-04,6.525643802210559e-14
1		1.023292992280754e+00,0.000000000000000e+00
	-3.326868415892979e+00,6.677645572922400e-10
	1.000000000000000e+00,0.000000000000000e+00
	0.000000000000000e+00,0.000000000000000e+00
	3.326868415892979e-04,-6.677645572922401e-14
	1.112352508655365e-23,1.689574548832188e-13
	3.326868403159822e-12,-3.527296829562865e-15
	-3.326868449161663e-04,-9.865370232443195e-14
	-3.326868415892979e-04,6.677645572922400e-14
	-1.112352508655365e-23,-1.689574548832188e-13
	-3.326868415892979e-04,6.677645572922400e-14
2		1.047128548050899e+00,0.000000000000000e+00
	-3.326868415892979e+00,6.833187919706094e-10
	1.000000000000000e+00,0.000000000000000e+00
	0.000000000000000e+00,0.000000000000000e+00
	3.326868415892979e-04,-6.833187919706094e-14
	1.164776067309068e-23,1.728929795755895e-13
	3.326868403159822e-12,-3.609458127385808e-15
	-3.326868449161663e-04,-1.009516422511428e-13
	-3.326868415892979e-04,6.833187919706094e-14
	-1.164776067309068e-23,-1.728929795755895e-13
	-3.326868415892979e-04,6.833187919706094e-14
3		1.071519305237606e+00,0.000000000000000e+00
	-3.326868415892979e+00,6.992353313172748e-10
	1.000000000000000e+00,0.000000000000000e+00
	0.000000000000000e+00,0.000000000000000e+00
	3.326868415892979e-04,-6.992353313172750e-14
	1.219670272165780e-23,1.769201744142403e-13
	3.326868403159822e-12,-3.693533207684694e-15
	-3.326868449161663e-04,-1.033031080748281e-13
	-3.326868415892979e-04,6.992353313172749e-14
	-1.219670272165780e-23,-1.769201744142403e-13
	-3.326868415892979e-04,6.992353313172749e-14
4		1.096478196143185e+00,0.000000000000000e+00
	-3.326868415892979e+00,7.155226144920786e-10
	1.000000000000000e+00,0.000000000000000e+00
	0.000000000000000e+00,0.000000000000000e+00
	3.326868415892979e-04,-7.155226144920788e-14
	1.277151561193799e-23,1.810411746711808e-13
	3.326868403159822e-12,-3.779566648179995e-15
	-3.326868449161663e-04,-1.057093465737929e-13
	-3.326868415892979e-04,7.155226144920787e-14
	-1.277151561193799e-23,-1.810411746711808e-13
	-3.326868415892979e-04,7.155226144920787e-14
5		1.122018454301963e+00,0.000000000000000e+00
	-3.326868415892979e+00,7.321892772281479e-10
	1.000000000000000e+00,0.000000000000000e+00
	0.000000000000000e+00,0.000000000000000e+00
	3.326868415892979e-04,-7.321892772281478e-14
	1.337341859913803e-23,1.852581653552953e-13
	3.326868403159822e-12,-3.867604064940660e-15
	-3.326868449161663e-04,-1.081716335675399e-13
	-3.326868415892979e-04,7.321892772281479e-14
	-1.337341859913803e-23,-1.852581653552953e-13
	-3.326868415892979e-04,7.321892772281479e-14
6		1.148153621496882e+00,0.000000000000000e+00
	-3.326868415892979e+00,7.492441564106738e-10
	1.000000000000000e+00,0.000000000000000e+00
	0.000000000000000e+00,0.000000000000000e+00
	3.326868415892979e-04,-7.492441564106739e-14
	1.400368840019229e-23,1.895733823708629e-13
	3.326868403159822e-12,-3.957692136570341e-15
	-3.326868449161663e-04,-1.106912745932251e-13
	-3.326868415892979e-04,7.492441564106739e-14
	-1.400368840019229e-23,-1.895733823708629e-13
	-3.326868415892979e-04,7.492441564106739e-14
7		1.174897554939529e+00,0.000000000000000e+00
	-3.326868415892979e+00,7.666962947623477e-10
	1.000000000000000e+00,0.000000000000000e+00
	0.000000000000000e+00,0.000000000000000e+00
	3.326868415892979e-04,-7.666962947623479e-14
	1.466366190185058e-23,1.939891137030638e-13
	3.326868403159822e-12,-4.049878628957085e-15
	-3.326868449161663e-04,-1.132696055978719e-13
	-3.326868415892979e-04,7.666962947623477e-14
	-1.466366190185058e-23,-1.939891137030638e-13
	-3.326868415892979e-04,7.666962947623477e-14
8		1.202264434617413e+00,0.000000000000000e+00
	-3.326868415892979e+00,7.845549456379301e-10
	1.000000000000000e+00,0.000000000000000e+00
	0.000000000000000e+00,0.000000000000000e+00
	3.326868415892979e-04,-7.845549456379301e-14
	1.535473899639409e-23,1.985077006310996e-13
	3.326868403159822e-12,-4.144212420599387e-15
	-3.326868449161663e-04,-1.159079936467072e-13
	-3.326868415892979e-04,7.845549456379301e-14
	-1.535473899639409e-23,-1.985077006310996e-13
	-3.326868415892979e-04,7.845549456379301e-14
9		1.230268770812381e+00,0.000000000000000e+00
	-3.326868415892979e+00,8.028295779305018e-10
	1.000000000000000e+00,0.000000000000000e+00
	0.000000000000000e+00,0.000000000000000e+00
	3.326868415892979e-04,-8.028295779305018e-14
	1.607838555099467e-23,2.031315389695701e-13
	3.326868403159822e-12,-4.240743528522179e-15
	-3.326868449161663e-04,-1.186078376479977e-13
	-3.326868415892979e-04,8.028295779305019e-14
	-1.607838555099467e-23,-2.031315389695701e-13
	-3.326868415892979e-04,8.028295779305019e-14
10		1.258925411794167e+00,0.000000000000000e+00
	-3.326868415892979e+00,8.215298810919982e-10
	1.000000000000000e+00,0.000000000000000e+00
	0.000000000000000e+00,0.000000000000000e+00
	3.326868415892979e-04,-8.215298810919982e-14
	1.683613651701561e-23,2.078630803387660e-13
	3.326868403159822e-12,-4.339523134796703e-15
	-3.326868449161663e-04,-1.213705690947695e-13
	-3.326868415892979e-04,8.215298810919982e-14
	-1.683613651701561e-23,-2.078630803387660e-13
	-3.326868415892979e-04,8.215298810919982e-14
11		1.288249551693134e+00,0.000000000000000e+00
	-3.326868415892979e+00,8.406657702706828e-10
	1.000000000000000e+00,0.000000000000000e+00
	0.000000000000000e+00,0.000000000000000e+00
	3.326868415892979e-04,-8.406657702706830e-14
	1.762959918584928e-23,2.127048334645506e-13
	3.326868403159822e-12,-4.440603613677696e-15
	-3.326868449161663e-04,-1.241976528238047e-13
	-3.326868415892979e-04,8.406657702706828e-14
	-1.762959918584928e-23,-2.127048334645506e-13
	-3.326868415892979e-04,8.406657702706828e-14
12		1.318256738556407e+00,0.000000000000000e+00
	-3.326868415892979e+00,8.602473915682921e-10
	1.000000000000000e+00,0.000000000000000e+00
	0.000000000000000e+00,0.000000000000000e+00
	3.326868415892979e-04,-8.602473915682922e-14
	1.846045659819768e-23,2.176593655085195e-13
	3.326868403159822e-12,-4.544038559373005e-15
	-3.326868449161663e-04,-1.270905877923173e-13
	-3.326868415892979e-04,8.602473915682922e-14
	-1.846045659819768e-23,-2.176593655085195e-13
	-3.326868415892979e-04,8.602473915682922e-14
13		1.348962882591653e+00,0.000000000000000e+00
	-3.326868415892979e+00,8.802851274196313e-10
	1.000000000000000e+00,0.000000000000000e+00
	0.000000000000000e+00,0.000000000000000e+00
	3.326868415892979e-04,-8.802851274196313e-14
	1.933047111402739e-23,2.227293034291433e-13
	3.326868403159822e-12,-4.649882814459877e-15
	-3.326868449161663e-04,-1.300509078727203e-13
	-3.326868415892979e-04,8.802851274196313e-14
	-1.933047111402739e-23,-2.227293034291433e-13
	-3.326868415892979e-04,8.802851274196313e-14
14		1.380384264602885e+00,0.000000000000000e+00
	-3.326868415892979e+00,9.007896020974795e-10
	1.000000000000000e+00,0.000000000000000e+00
	0.000000000000000e+00,0.000000000000000e+00
	3.326868415892979e-04,-9.007896020974796e-14
	2.024148815077136e-23,2.279173353746161e-13
	3.326868403159822e-12,-4.758192498963529e-15
	-3.326868449161663e-04,-1.330801826659046e-13
	-3.326868415892979e-04,9.007896020974796e-14
	-2.024148815077136e-23,-2.279173353746161e-13
	-3.326868415892979e-04,9.007896020974796e-14
15		1.412537544622754e+00,0.000000000000000e+00
	-3.326868415892979e+00,9.217716873457195e-10
	1.000000000000000e+00,0.000000000000000e+00
	0.000000000000000e+00,0.000000000000000e+00
	3.326868415892979e-04,-9.217716873457196e-14
	2.119544009770669e-23,2.332262121081471e-13
	3.326868403159822e-12,-4.869025040112215e-15
	-3.326868449161663e-04,-1.361800183334629e-13
	-3.326868415892979e-04,9.217716873457195e-14
	-2.119544009770669e-23,-2.332262121081471e-13
	-3.326868415892979e-04,9.217716873457195e-14
16		1.445439770745927e+00,0.000000000000000e+00
	-3.326868415892979e+00,9.432425081436811e-10
	1.000000000000000e+00,0.000000000000000e+00
	0.000000000000000e+00,0.000000000000000e+00
	3.326868415892979e-04,-9.432425081436810e-14
	2.219435041481142e-23,2.386587484664516e-13
	3.326868403159822e-12,-4.982439202786368e-15
	-3.326868449161663e-04,-1.393520584492972e-13
	-3.326868415892979e-04,9.432425081436812e-14
	-2.219435041481142e-23,-2.386587484664516e-13
	-3.326868415892979e-04,9.432425081436812e-14
17		1.479108388168207e+00,0.000000000000000e+00
	-3.326868415892979e+00,9.652134486047507e-10
	1.000000000000000e+00,0.000000000000000e+00
	0.000000000000000e+00,0.000000000000000e+00
	3.326868415892979e-04,-9.652134486047509e-14
	2.324033792479435e-23,2.442178248522151e-13
	3.326868403159822e-12,-5.098495120676165e-15
	-3.326868449161663e-04,-1.425979848710638e-13
	-3.326868415892979e-04,9.652134486047507e-14
	-2.324033792479435e-23,-2.442178248522151e-13
	-3.326868415892979e-04,9.652134486047507e-14
18		1.513561248436208e+00,0.000000000000000e+00
	-3.326868415892979e+00,9.876961580123812e-10
	1.000000000000000e+00,0.000000000000000e+00
	0.000000000000000e+00,0.000000000000000e+00
	3.326868415892979e-04,-9.876961580123814e-14
	2.433562130740217e-23,2.499063887613203e-13
	3.326868403159822e-12,-5.217254328165560e-15
	-3.326868449161663e-04,-1.459195186319166e-13
	-3.326868415892979e-04,9.876961580123812e-14
	-2.433562130740217e-23,-2.499063887613203e-13
	-3.326868415892979e-04,9.876961580123812e-14
19		1.548816618912481e+00,0.000000000000000e+00
	-3.326868415892979e+00,1.010702556996694e-09
	1.000000000000000e+00,0.000000000000000e+00
	0.000000000000000e+00,0.000000000000000e+00
	3.326868415892979e-04,-1.010702556996694e-13
	2.548252380553657e-23,2.557274563456489e-13
	3.326868403159822e-12,-5.338779792958266e-15
	-3.326868449161663e-04,-1.493184208530212e-13
	-3.326868415892979e-04,1.010702556996694e-13
	-2.548252380553657e-23,-2.557274563456489e-13
	-3.326868415892979e-04,1.010702556996694e-13
20		1.584893192461113e+00,0.000000000000000e+00
	-3.326868415892979e+00,1.034244843854957e-09
	1.000000000000000e+00,0.000000000000000e+00
	0.000000000000000e+00,0.000000000000000e+00
	3.326868415892979e-04,-1.034244843854957e-13
	2.668347815316399e-23,2.616841140122850e-13
	3.326868403159822e-12,-5.463135949464295e-15
	-3.326868449161663e-04,-1.527964936773250e-13
	-3.326868415892979e-04,1.034244843854957e-13
	-2.668347815316399e-23,-2.616841140122850e-13
	-3.326868415892979e-04,1.034244843854957e-13
21		1.621810097358929e+00,0.000000000000000e+00
	-3.326868415892979e+00,1.058335501019280e-09
	1.000000000000000e+00,0.000000000000000e+00
	0.000000000000000e+00,0.000000000000000e+00
	3.326868415892979e-04,-1.058335501019280e-13
	2.794103173547050e-23,2.677795200599691e-13
	3.326868403159822e-12,-5.590388732963847e-15
	-3.326868449161663e-04,-1.563555812250772e-13
	-3.326868415892979e-04,1.058335501019280e-13
	-2.794103173547050e-23,-2.677795200599691e-13
	-3.326868415892979e-04,1.058335501019280e-13
22		1.659586907437560e+00,0.000000000000000e+00
	-3.326868415892979e+00,1.082987301674970e-09
	1.000000000000000e+00,0.000000000000000e+00
	0.000000000000000e+00,0.000000000000000e+00
	3.326868415892979e-04,-1.082987301674970e-13
	2.925785199220734e-23,2.740169063536700e-13
	3.326868403159822e-12,-5.720605614567211e-15
	-3.326868449161663e-04,-1.599975705716058e-13
	-3.326868415892979e-04,1.082987301674970e-13
	-2.925785199220734e-23,-2.740169063536700e-13
	-3.326868415892979e-04,1.082987301674970e-13
23		1.698243652461743e+00,0.000000000000000e+00
	-3.326868415892979e+00,1.108213316533040e-09
	1.000000000000000e+00,0.000000000000000e+00
	0.000000000000000e+00,0.000000000000000e+00
	3.326868415892979e-04,-1.108213316533040e-13
	3.063673207568819e-23,2.803995800381622e-13
	3.326868403159822e-12,-5.853855636988560e-15
	-3.326868449161663e-04,-1.637243927478696e-13
	-3.326868415892979e-04,1.108213316533040e-13
	-3.063673207568819e-23,-2.803995800381622e-13
	-3.326868415892979e-04,1.108213316533040e-13
24		1.737800828749374e+00,0.000000000000000e+00
	-3.326868415892979e+00,1.134026920760473e-09
	1.000000000000000e+00,0.000000000000000e+00
	0.000000000000000e+00,0.000000000000000e+00
	3.326868415892979e-04,-1.134026920760473e-13
	3.208059677543978e-23,2.869309252915178e-13
	3.326868403159822e-12,-5.990209451153555e-15
	-3.326868449161663e-04,-1.675380237643169e-13
	-3.326868415892979e-04,1.134026920760473e-13
	-3.208059677543978e-23,-2.869309252915178e-13
	-3.326868415892979e-04,1.134026920760473e-13
25		1.778279410038922e+00,0.000000000000000e+00
	-3.326868415892979e+00,1.160441801071914e-09
	1.000000000000000e+00,0.000000000000000e+00
	0.000000000000000e+00,0.000000000000000e+00
	3.326868415892979e-04,-1.160441801071914e-13
	3.359250872207262e-23,2.936144051194427e-13
	3.326868403159822e-12,-6.129739353659367e-15
	-3.326868449161663e-04,-1.714404856585919e-13
	-3.326868415892979e-04,1.160441801071914e-13
	-3.359250872207262e-23,-2.936144051194427e-13
	-3.326868415892979e-04,1.160441801071914e-13
26		1.819700858609982e+00,0.000000000000000e+00
	-3.326868415892979e+00,1.187471962986546e-09
	1.000000000000000e+00,0.000000000000000e+00
	0.000000000000000e+00,0.000000000000000e+00
	3.326868415892979e-04,-1.187471962986546e-13
	3.517567488353109e-23,3.004535631914081e-13
	3.326868403159822e-12,-6.272519325107214e-15
	-3.326868449161663e-04,-1.754338475676462e-13
	-3.326868415892979e-04,1.187471962986547e-13
	-3.517567488353109e-23,-3.004535631914081e-13
	-3.326868415892979e-04,1.187471962986547e-13
27		1.862087136662866e+00,0.000000000000000e+00
	-3.326868415892979e+00,1.215131738254004e-09
	1.000000000000000e+00,0.000000000000000e+00
	0.000000000000000e+00,0.000000000000000e+00
	3.326868415892979e-04,-1.215131738254004e-13
	3.683345336750240e-23,3.074520257195506e-13
	3.326868403159822e-12,-6.418625069327823e-15
	-3.326868449161663e-04,-1.795202268248224e-13
	-3.326868415892979e-04,1.215131738254004e-13
	-3.683345336750240e-23,-3.074520257195506e-13
	-3.326868415892979e-04,1.215131738254004e-13
28		1.905460717963246e+00,0.000000000000000e+00
	-3.326868415892979e+00,1.243435792453254e-09
	1.000000000000000e+00,0.000000000000000e+00
	0.000000000000000e+00,0.000000000000000e+00
	3.326868415892979e-04,-1.243435792453254e-13
	3.856936054441331e-23,3.146135033813383e-13
	3.326868403159822e-12,-6.568134053520728e-15
	-3.326868449161663e-04,-1.837017900824922e-13
	-3.326868415892979e-04,1.243435792453254e-13
	-3.856936054441331e-23,-3.146135033813383e-13
	-3.326868415892979e-04,1.243435792453254e-13
29		1.949844599758044e+00,0.000000000000000e+00
	-3.326868415892979e+00,1.272399132768481e-09
	1.000000000000000e+00,0.000000000000000e+00
	0.000000000000000e+00,0.000000000000000e+00
	3.326868415892979e-04,-1.272399132768481e-13
	4.038707850612316e-23,3.219417932870209e-13
	3.326868403159822e-12,-6.721125549328341e-15
	-3.326868449161663e-04,-1.879807544608444e-13
	-3.326868415892979e-04,1.272399132768481e-13
	-4.038707850612316e-23,-3.219417932870209e-13
	-3.326868415892979e-04,1.272399132768481e-13
30		1.995262314968878e+00,0.000000000000000e+00
	-3.326868415892979e+00,1.302037115946095e-09
	1.000000000000000e+00,0.000000000000000e+00
	0.000000000000000e+00,0.000000000000000e+00
	3.326868415892979e-04,-1.302037115946095e-13
	4.229046287613442e-23,3.294407809929075e-13
	3.326868403159822e-12,-6.877680674866825e-15
	-3.326868449161663e-04,-1.923593887234312e-13
	-3.326868415892979e-04,1.302037115946095e-13
	-4.229046287613442e-23,-3.294407809929075e-13
	-3.326868415892979e-04,1.302037115946095e-13
31		2.041737944669527e+00,0.000000000000000e+00
	-3.326868415892979e+00,1.332365456437083e-09
	1.000000000000000e+00,0.000000000000000e+00
	0.000000000000000e+00,0.000000000000000e+00
	3.326868415892979e-04,-1.332365456437083e-13
	4.428355098788710e-23,3.371144425615409e-13
	3.326868403159822e-12,-7.037882437735992e-15
	-3.326868449161663e-04,-1.968400144800966e-13
	-3.326868415892979e-04,1.332365456437083e-13
	-4.428355098788710e-23,-3.371144425615409e-13
	-3.326868415892979e-04,1.332365456437083e-13
32		2.089296130854037e+00,0.000000000000000e+00
	-3.326868415892979e+00,1.363400234729015e-09
	1.000000000000000e+00,0.000000000000000e+00
	0.000000000000000e+00,0.000000000000000e+00
	3.326868415892979e-04,-1.363400234729015e-13
	4.637057044848420e-23,3.449668466698576e-13
	3.326868403159822e-12,-7.201815779031059e-15
	-3.326868449161663e-04,-2.014250074179251e-13
	-3.326868415892979e-04,1.363400234729015e-13
	-4.637057044848420e-23,-3.449668466698576e-13
	-3.326868415892979e-04,1.363400234729015e-13
33		2.137962089502230e+00,0.000000000000000e+00
	-3.326868415892979e+00,1.395157905872136e-09
	1.000000000000000e+00,0.000000000000000e+00
	0.000000000000000e+00,0.000000000000000e+00
	3.326868415892979e-04,-1.395157905872137e-13
	4.855594810601320e-23,3.530021567664547e-13
	3.326868403159822e-12,-7.369567618379386e-15
	-3.326868449161663e-04,-2.061167985608616e-13
	-3.326868415892979e-04,1.395157905872137e-13
	-4.855594810601320e-23,-3.530021567664547e-13
	-3.326868415892979e-04,1.395157905872137e-13
34		2.187761623949550e+00,0.000000000000000e+00
	-3.326868415892979e+00,1.427655308204049e-09
	1.000000000000000e+00,0.000000000000000e+00
	0.000000000000000e+00,0.000000000000000e+00
	3.326868415892979e-04,-1.427655308204049e-13
	5.084431943948443e-23,3.612246332791052e-13
	3.326868403159822e-12,-7.541226900026785e-15
	-3.326868449161663e-04,-2.109178755586735e-13
	-3.326868415892979e-04,1.427655308204049e-13
	-5.084431943948443e-23,-3.612246332791052e-13
	-3.326868415892979e-04,1.427655308204049e-13
35		2.238721138568337e+00,0.000000000000000e+00
	-3.326868415892979e+00,1.460909672277624e-09
	1.000000000000000e+00,0.000000000000000e+00
	0.000000000000000e+00,0.000000000000000e+00
	3.326868415892979e-04,-1.460909672277624e-13
	5.324053839130345e-23,3.696386358736937e-13
	3.326868403159822e-12,-7.716884639996589e-15
	-3.326868449161663e-04,-2.158307840059347e-13
	-3.326868415892979e-04,1.460909672277624e-13
	-5.324053839130345e-23,-3.696386358736937e-13
	-3.326868415892979e-04,1.460909672277624e-13
36		2.290867652767770e+00,0.000000000000000e+00
	-3.326868415892979e+00,1.494938629996865e-09
	1.000000000000000e+00,0.000000000000000e+00
	0.000000000000000e+00,0.000000000000000e+00
	3.326868415892979e-04,-1.494938629996865e-13
	5.574968766313375e-23,3.782486257657681e-13
	3.326868403159822e-12,-7.896633974347439e-15
	-3.326868449161663e-04,-2.208581287917341e-13
	-3.326868415892979e-04,1.494938629996865e-13
	-5.574968766313375e-23,-3.782486257657681e-13
	-3.326868415892979e-04,1.494938629996865e-13
37		2.344228815319919e+00,0.000000000000000e+00
	-3.326868415892979e+00,1.529760223965583e-09
	1.000000000000000e+00,0.000000000000000e+00
	0.000000000000000e+00,0.000000000000000e+00
	3.326868415892979e-04,-1.529760223965583e-13
	5.837708949698837e-23,3.870591680859359e-13
	3.326868403159822e-12,-8.080570208555828e-15
	-3.326868449161663e-04,-2.260025754808218e-13
	-3.326868415892979e-04,1.529760223965583e-13
	-5.837708949698837e-23,-3.870591680859359e-13
	-3.326868415892979e-04,1.529760223965583e-13
38		2.398832919019488e+00,0.000000000000000e+00
	-3.326868415892979e+00,1.565392917053818e-09
	1.000000000000000e+00,0.000000000000000e+00
	0.000000000000000e+00,0.000000000000000e+00
