Title: * GA CMOS Amp | W=1.0664275922243036e-05 L=8.88106668347879e-07 Vbias=1.5
Date: Sat Sep  6 22:14:25 2025
Plotname: AC Analysis
Flags: complex forward log
No. Variables: 13
No. Points:          901
Offset:    0.0000000000000000e+00
Command: Linear Technology Corporation LTspice
Variables:
	0	frequency	frequency
	1	V(out)	voltage
	2	V(g)	voltage
	3	V(vdd)	voltage
	4	V(m1#dbody)	voltage
	5	V(m1#sbody)	voltage
	6	Id(M1)	device_current
	7	Ig(M1)	device_current
	8	Ib(M1)	device_current
	9	Is(M1)	device_current
	10	I(Rload)	device_current
	11	I(Vg)	device_current
	12	I(Vdd)	device_current
Values:
0		1.000000000000000e+00,0.000000000000000e+00
	3.209980855250871e-02,1.129032322207887e-09
	1.000000000000000e+00,0.000000000000000e+00
	0.000000000000000e+00,0.000000000000000e+00
	3.531312149129933e-04,1.135258688770448e-13
	3.531312146719402e-04,1.057897324325148e-13
	-3.209980855250858e-06,-1.129032322207884e-13
	2.167920038903398e-04,2.433983100344946e-12
	-1.883366479834650e-04,-5.699372221892841e-14
	-2.524537505162397e-05,-2.264086145905229e-12
	3.209980855250871e-06,1.129032322207887e-13
	-2.167920038903537e-04,-2.433983100344946e-12
	3.209980855250871e-06,1.129032322207887e-13
1		1.023292992280754e+00,0.000000000000000e+00
	3.209980855250871e-02,1.155330863373797e-09
	1.000000000000000e+00,0.000000000000000e+00
	0.000000000000000e+00,0.000000000000000e+00
	3.531312149129933e-04,1.161702260644637e-13
	3.531312146719402e-04,1.082538918534484e-13
	-3.209980855250858e-06,-1.155330863373795e-13
	2.167920038903398e-04,2.490677849912767e-12
	-1.883366479834650e-04,-5.832127655062534e-14
	-2.524537505162397e-05,-2.316823487024762e-12
	3.209980855250871e-06,1.155330863373798e-13
	-2.167920038903537e-04,-2.490677849912767e-12
	3.209980855250871e-06,1.155330863373798e-13
2		1.047128548050899e+00,0.000000000000000e+00
	3.209980855250871e-02,1.182241976256080e-09
	1.000000000000000e+00,0.000000000000000e+00
	0.000000000000000e+00,0.000000000000000e+00
	3.531312149129933e-04,1.188761782434367e-13
	3.531312146719402e-04,1.107754489207524e-13
	-3.209980855250861e-06,-1.182241976256078e-13
	2.167920038903398e-04,2.548693189844630e-12
	-1.883366479834650e-04,-5.967975359512279e-14
	-2.524537505162397e-05,-2.370789238623899e-12
	3.209980855250871e-06,1.182241976256080e-13
	-2.167920038903537e-04,-2.548693189844630e-12
	3.209980855250871e-06,1.182241976256080e-13
3		1.071519305237606e+00,0.000000000000000e+00
	3.209980855250871e-02,1.209779929482996e-09
	1.000000000000000e+00,0.000000000000000e+00
	0.000000000000000e+00,0.000000000000000e+00
	3.531312149129933e-04,1.216451601456267e-13
	3.531312146719402e-04,1.133557405973605e-13
	-3.209980855250861e-06,-1.209779929482992e-13
	2.167920038903398e-04,2.608059880641691e-12
	-1.883366479834650e-04,-6.106987363493127e-14
	-2.524537505162397e-05,-2.426012014058460e-12
	3.209980855250871e-06,1.209779929482996e-13
	-2.167920038903537e-04,-2.608059880641691e-12
	3.209980855250871e-06,1.209779929482996e-13
4		1.096478196143185e+00,0.000000000000000e+00
	3.209980855250871e-02,1.237959324041855e-09
	1.000000000000000e+00,0.000000000000000e+00
	0.000000000000000e+00,0.000000000000000e+00
	3.531312149129933e-04,1.244786399218898e-13
	3.531312146719402e-04,1.159961349880740e-13
	-3.209980855250861e-06,-1.237959324041854e-13
	2.167920038903398e-04,2.668809399309222e-12
	-1.883366479834650e-04,-6.249237373009636e-14
	-2.524537505162397e-05,-2.482521093174940e-12
	3.209980855250871e-06,1.237959324041855e-13
	-2.167920038903537e-04,-2.668809399309222e-12
	3.209980855250871e-06,1.237959324041855e-13
5		1.122018454301963e+00,0.000000000000000e+00
	3.209980855250871e-02,1.266795101020649e-09
	1.000000000000000e+00,0.000000000000000e+00
	0.000000000000000e+00,0.000000000000000e+00
	3.531312149129933e-04,1.273781199207092e-13
	3.531312146719402e-04,1.186980320649485e-13
	-3.209980855250861e-06,-1.266795101020649e-13
	2.167920038903398e-04,2.730973956046136e-12
	-1.883366479834650e-04,-6.394800810899750e-14
	-2.524537505162397e-05,-2.540346437835074e-12
	3.209980855250871e-06,1.266795101020649e-13
	-2.167920038903537e-04,-2.730973956046136e-12
	3.209980855250871e-06,1.266795101020649e-13
6		1.148153621496882e+00,0.000000000000000e+00
	3.209980855250871e-02,1.296302549530020e-09
	1.000000000000000e+00,0.000000000000000e+00
	0.000000000000000e+00,0.000000000000000e+00
	3.531312149129933e-04,1.303451374847592e-13
	3.531312146719402e-04,1.214628644095781e-13
	-3.209980855250861e-06,-1.296302549530021e-13
	2.167920038903398e-04,2.794586511323259e-12
	-1.883366479834650e-04,-6.543754856824997e-14
	-2.524537505162397e-05,-2.599518707802007e-12
	3.209980855250871e-06,1.296302549530021e-13
	-2.167920038903537e-04,-2.794586511323260e-12
	3.209980855250871e-06,1.296302549530021e-13
7		1.174897554939529e+00,0.000000000000000e+00
	3.209980855250871e-02,1.326497314809745e-09
	1.000000000000000e+00,0.000000000000000e+00
	0.000000000000000e+00,0.000000000000000e+00
	3.531312149129933e-04,1.333812657660256e-13
	3.531312146719402e-04,1.242920979726687e-13
	-3.209980855250861e-06,-1.326497314809741e-13
	2.167920038903398e-04,2.859680793359412e-12
	-1.883366479834650e-04,-6.696178488192170e-14
	-2.524537505162397e-05,-2.660069276996516e-12
	3.209980855250871e-06,1.326497314809745e-13
	-2.167920038903537e-04,-2.859680793359412e-12
	3.209980855250871e-06,1.326497314809745e-13
8		1.202264434617413e+00,0.000000000000000e+00
	3.209980855250871e-02,1.357395406524050e-09
	1.000000000000000e+00,0.000000000000000e+00
	0.000000000000000e+00,0.000000000000000e+00
	3.531312149129933e-04,1.364881145599108e-13
	3.531312146719402e-04,1.271872328513048e-13
	-3.209980855250861e-06,-1.357395406524048e-13
	2.167920038903398e-04,2.926291316004554e-12
	-1.883366479834650e-04,-6.852152522028183e-14
	-2.524537505162397e-05,-2.722030250131867e-12
	3.209980855250871e-06,1.357395406524050e-13
	-2.167920038903537e-04,-2.926291316004554e-12
	3.209980855250871e-06,1.357395406524050e-13
9		1.230268770812381e+00,0.000000000000000e+00
	3.209980855250871e-02,1.389013207250145e-09
	1.000000000000000e+00,0.000000000000000e+00
	0.000000000000000e+00,0.000000000000000e+00
	3.531312149129933e-04,1.396673311587695e-13
	3.531312146719402e-04,1.301498040843207e-13
	-3.209980855250861e-06,-1.389013207250144e-13
	2.167920038903398e-04,2.994453397039485e-12
	-1.883366479834650e-04,-7.011759657830335e-14
	-2.524537505162397e-05,-2.785434479736168e-12
	3.209980855250871e-06,1.389013207250145e-13
	-2.167920038903537e-04,-2.994453397039485e-12
	3.209980855250871e-06,1.389013207250145e-13
10		1.258925411794167e+00,0.000000000000000e+00
	3.209980855250871e-02,1.421367481164488e-09
	1.000000000000000e+00,0.000000000000000e+00
	0.000000000000000e+00,0.000000000000000e+00
	3.531312149129933e-04,1.429206012253243e-13
	3.531312146719402e-04,1.331813824661985e-13
	-3.209980855250861e-06,-1.421367481164487e-13
	2.167920038903398e-04,3.064203176901804e-12
	-1.883366479834650e-04,-7.175084521414680e-14
	-2.524537505162397e-05,-2.850315583571209e-12
	3.209980855250871e-06,1.421367481164489e-13
	-2.167920038903537e-04,-3.064203176901805e-12
	3.209980855250871e-06,1.421367481164489e-13
11		1.288249551693134e+00,0.000000000000000e+00
	3.209980855250871e-02,1.454475382931368e-09
	1.000000000000000e+00,0.000000000000000e+00
	0.000000000000000e+00,0.000000000000000e+00
	3.531312149129933e-04,1.462496496864265e-13
	3.531312146719402e-04,1.362835753799238e-13
	-3.209980855250861e-06,-1.454475382931367e-13
	2.167920038903398e-04,3.135577637848040e-12
	-1.883366479834650e-04,-7.342213709785751e-14
	-2.524537505162397e-05,-2.916707962457046e-12
	3.209980855250871e-06,1.454475382931368e-13
	-2.167920038903537e-04,-3.135577637848040e-12
	3.209980855250871e-06,1.454475382931368e-13
12		1.318256738556407e+00,0.000000000000000e+00
	3.209980855250871e-02,1.488354466798535e-09
	1.000000000000000e+00,0.000000000000000e+00
	0.000000000000000e+00,0.000000000000000e+00
	3.531312149129933e-04,1.496562416476354e-13
	3.531312146719402e-04,1.394580276492419e-13
	-3.209980855250861e-06,-1.488354466798531e-13
	2.167920038903398e-04,3.208614623562140e-12
	-1.883366479834650e-04,-7.513235837051438e-14
	-2.524537505162397e-05,-2.984646818511772e-12
	3.209980855250871e-06,1.488354466798536e-13
	-2.167920038903537e-04,-3.208614623562140e-12
	3.209980855250871e-06,1.488354466798536e-13
13		1.348962882591653e+00,0.000000000000000e+00
	3.209980855250871e-02,1.523022695904700e-09
	1.000000000000000e+00,0.000000000000000e+00
	0.000000000000000e+00,0.000000000000000e+00
	3.531312149129933e-04,1.531421833291005e-13
	3.531312146719402e-04,1.427064224107649e-13
	-3.209980855250861e-06,-1.523022695904696e-13
	2.167920038903398e-04,3.283352859220688e-12
	-1.883366479834650e-04,-7.688241581407363e-14
	-2.524537505162397e-05,-3.054168173816144e-12
	3.209980855250871e-06,1.523022695904700e-13
	-2.167920038903537e-04,-3.283352859220687e-12
	3.209980855250871e-06,1.523022695904700e-13
14		1.380384264602885e+00,0.000000000000000e+00
	3.209980855250871e-02,1.558498451803821e-09
	1.000000000000000e+00,0.000000000000000e+00
	0.000000000000000e+00,0.000000000000000e+00
	3.531312149129933e-04,1.567093230232430e-13
	3.531312146719402e-04,1.460304820063929e-13
	-3.209980855250861e-06,-1.558498451803820e-13
	2.167920038903398e-04,3.359831972025508e-12
	-1.883366479834650e-04,-7.867323733215657e-14
	-2.524537505162397e-05,-3.125308889512969e-12
	3.209980855250871e-06,1.558498451803821e-13
	-2.167920038903537e-04,-3.359831972025508e-12
	3.209980855250871e-06,1.558498451803821e-13
15		1.412537544622754e+00,0.000000000000000e+00
	3.209980855250871e-02,1.594800544211255e-09
	1.000000000000000e+00,0.000000000000000e+00
	0.000000000000000e+00,0.000000000000000e+00
	3.531312149129933e-04,1.603595520747457e-13
	3.531312146719402e-04,1.494319688965226e-13
	-3.209980855250861e-06,-1.594800544211251e-13
	2.167920038903398e-04,3.438092512214528e-12
	-1.883366479834650e-04,-8.050577244203643e-14
	-2.524537505162397e-05,-3.198106685351367e-12
	3.209980855250871e-06,1.594800544211255e-13
	-2.167920038903537e-04,-3.438092512214528e-12
	3.209980855250871e-06,1.594800544211255e-13
16		1.445439770745927e+00,0.000000000000000e+00
	3.209980855250871e-02,1.631948220976909e-09
	1.000000000000000e+00,0.000000000000000e+00
	0.000000000000000e+00,0.000000000000000e+00
	3.531312149129933e-04,1.640948058833678e-13
	3.531312146719402e-04,1.529126865945271e-13
	-3.209980855250861e-06,-1.631948220976910e-13
	2.167920038903398e-04,3.518175974562060e-12
	-1.883366479834650e-04,-8.238099277808490e-14
	-2.524537505162397e-05,-3.272600159686283e-12
	3.209980855250871e-06,1.631948220976910e-13
	-2.167920038903537e-04,-3.518175974562060e-12
	3.209980855250871e-06,1.631948220976910e-13
17		1.479108388168207e+00,0.000000000000000e+00
	3.209980855250871e-02,1.669961178290715e-09
	1.000000000000000e+00,0.000000000000000e+00
	0.000000000000000e+00,0.000000000000000e+00
	3.531312149129933e-04,1.679170649301210e-13
	3.531312146719402e-04,1.564744806230029e-13
	-3.209980855250861e-06,-1.669961178290711e-13
	2.167920038903398e-04,3.600124820379867e-12
	-1.883366479834650e-04,-8.429989260694570e-14
	-2.524537505162397e-05,-3.348828809943851e-12
	3.209980855250871e-06,1.669961178290715e-13
	-2.167920038903537e-04,-3.600124820379867e-12
	3.209980855250871e-06,1.669961178290715e-13
18		1.513561248436208e+00,0.000000000000000e+00
	3.209980855250871e-02,1.708859571125800e-09
	1.000000000000000e+00,0.000000000000000e+00
	0.000000000000000e+00,0.000000000000000e+00
	3.531312149129933e-04,1.718283558273452e-13
	3.531312146719402e-04,1.601192394922895e-13
	-3.209980855250854e-06,-1.708859571125797e-13
	2.167920038903398e-04,3.683982500030728e-12
	-1.883366479834650e-04,-8.626348935470770e-14
	-2.524537505162397e-05,-3.426833053563440e-12
	3.209980855250872e-06,1.708859571125800e-13
	-2.167920038903537e-04,-3.683982500030728e-12
	3.209980855250872e-06,1.708859571125800e-13
19		1.548816618912481e+00,0.000000000000000e+00
	3.209980855250871e-02,1.748664023924926e-09
	1.000000000000000e+00,0.000000000000000e+00
	0.000000000000000e+00,0.000000000000000e+00
	3.531312149129933e-04,1.758307523932462e-13
	3.531312146719402e-04,1.638488957017836e-13
	-3.209980855250854e-06,-1.748664023924925e-13
	2.167920038903398e-04,3.769793475966376e-12
	-1.883366479834650e-04,-8.827282414635781e-14
	-2.524537505162397e-05,-3.506654249427526e-12
	3.209980855250872e-06,1.748664023924926e-13
	-2.167920038903537e-04,-3.769793475966376e-12
	3.209980855250872e-06,1.748664023924926e-13
20		1.584893192461113e+00,0.000000000000000e+00
	3.209980855250871e-02,1.789395641535841e-09
	1.000000000000000e+00,0.000000000000000e+00
	0.000000000000000e+00,0.000000000000000e+00
	3.531312149129933e-04,1.799263767514613e-13
	3.531312146719402e-04,1.676654267645754e-13
	-3.209980855250854e-06,-1.789395641535845e-13
	2.167920038903398e-04,3.857603246302099e-12
	-1.883366479834650e-04,-9.032896235779930e-14
	-2.524537505162397e-05,-3.588334719790715e-12
	3.209980855250872e-06,1.789395641535841e-13
	-2.167920038903537e-04,-3.857603246302098e-12
	3.209980855250872e-06,1.789395641535841e-13
21		1.621810097358929e+00,0.000000000000000e+00
	3.209980855250871e-02,1.831076020401351e-09
	1.000000000000000e+00,0.000000000000000e+00
	0.000000000000000e+00,0.000000000000000e+00
	3.531312149129933e-04,1.841174004562371e-13
	3.531312146719402e-04,1.715708562559520e-13
	-3.209980855250854e-06,-1.831076020401348e-13
	2.167920038903398e-04,3.947458368940425e-12
	-1.883366479834650e-04,-9.243299418072805e-14
	-2.524537505162397e-05,-3.671917772719562e-12
	3.209980855250872e-06,1.831076020401351e-13
	-2.167920038903537e-04,-3.947458368940424e-12
	3.209980855250872e-06,1.831076020401351e-13
22		1.659586907437560e+00,0.000000000000000e+00
	3.209980855250871e-02,1.873727260010034e-09
	1.000000000000000e+00,0.000000000000000e+00
	0.000000000000000e+00,0.000000000000000e+00
	3.531312149129933e-04,1.884060456438168e-13
	3.531312146719402e-04,1.755672548863242e-13
	-3.209980855250854e-06,-1.873727260010030e-13
	2.167920038903398e-04,4.039406486256754e-12
	-1.883366479834650e-04,-9.458603520066674e-14
	-2.524537505162397e-05,-3.757447725055084e-12
	3.209980855250872e-06,1.873727260010034e-13
	-2.167920038903537e-04,-4.039406486256752e-12
	3.209980855250872e-06,1.873727260010034e-13
23		1.698243652461743e+00,0.000000000000000e+00
	3.209980855250871e-02,1.917371974613686e-09
	1.000000000000000e+00,0.000000000000000e+00
	0.000000000000000e+00,0.000000000000000e+00
	3.531312149129933e-04,1.927945862106456e-13
	3.531312146719402e-04,1.796567415991445e-13
	-3.209980855250854e-06,-1.917371974613679e-13
	2.167920038903398e-04,4.133496350359958e-12
	-1.883366479834650e-04,-9.678922698846298e-14
	-2.524537505162397e-05,-3.844969925910128e-12
	3.209980855250872e-06,1.917371974613686e-13
	-2.167920038903537e-04,-4.133496350359960e-12
	3.209980855250872e-06,1.917371974613686e-13
24		1.737800828749374e+00,0.000000000000000e+00
	3.209980855250871e-02,1.962033305217696e-09
	1.000000000000000e+00,0.000000000000000e+00
	0.000000000000000e+00,0.000000000000000e+00
	3.531312149129933e-04,1.972853490190213e-13
	3.531312146719402e-04,1.838414846943989e-13
	-3.209980855250854e-06,-1.962033305217697e-13
	2.167920038903398e-04,4.229777848941419e-12
	-1.883366479834650e-04,-9.904373770556541e-14
	-2.524537505162397e-05,-3.934530780714084e-12
	3.209980855250872e-06,1.962033305217696e-13
	-2.167920038903537e-04,-4.229777848941419e-12
	3.209980855250872e-06,1.962033305217696e-13
25		1.778279410038922e+00,0.000000000000000e+00
	3.209980855250871e-02,2.007734931850715e-09
	1.000000000000000e+00,0.000000000000000e+00
	0.000000000000000e+00,0.000000000000000e+00
	3.531312149129933e-04,2.018807151308273e-13
	3.531312146719402e-04,1.881237029782678e-13
	-3.209980855250854e-06,-2.007734931850715e-13
	2.167920038903398e-04,4.328302031726116e-12
	-1.883366479834650e-04,-1.013507627233982e-13
	-2.524537505162397e-05,-4.026177775817646e-12
	3.209980855250872e-06,2.007734931850715e-13
	-2.167920038903537e-04,-4.328302031726116e-12
	3.209980855250872e-06,2.007734931850715e-13
26		1.819700858609982e+00,0.000000000000000e+00
	3.209980855250871e-02,2.054501086120114e-09
	1.000000000000000e+00,0.000000000000000e+00
	0.000000000000000e+00,0.000000000000000e+00
	3.531312149129933e-04,2.065831210700027e-13
	3.531312146719402e-04,1.925056669395675e-13
	-3.209980855250858e-06,-2.054501086120110e-13
	2.167920038903398e-04,4.429121137539885e-12
	-1.883366479834650e-04,-1.037115252571628e-13
	-2.524537505162397e-05,-4.119959503670710e-12
	3.209980855250872e-06,2.054501086120114e-13
	-2.167920038903537e-04,-4.429121137539883e-12
	3.209980855250872e-06,2.054501086120114e-13
27		1.862087136662866e+00,0.000000000000000e+00
	3.209980855250871e-02,2.102356564059911e-09
	1.000000000000000e+00,0.000000000000000e+00
	0.000000000000000e+00,0.000000000000000e+00
	3.531312149129933e-04,2.113950601144204e-13
	3.531312146719402e-04,1.969896999535923e-13
	-3.209980855250858e-06,-2.102356564059912e-13
	2.167920038903398e-04,4.532288622007126e-12
	-1.883366479834650e-04,-1.061272770144032e-13
	-2.524537505162397e-05,-4.215925688586731e-12
	3.209980855250872e-06,2.102356564059911e-13
	-2.167920038903537e-04,-4.532288622007126e-12
	3.209980855250872e-06,2.102356564059911e-13
28		1.905460717963246e+00,0.000000000000000e+00
	3.209980855250871e-02,2.151326739277951e-09
	1.000000000000000e+00,0.000000000000000e+00
	0.000000000000000e+00,0.000000000000000e+00
	3.531312149129933e-04,2.163190836178551e-13
	3.531312146719402e-04,2.015781795139993e-13
	-3.209980855250858e-06,-2.151326739277950e-13
	2.167920038903398e-04,4.637859185893687e-12
	-1.883366479834650e-04,-1.085992988586771e-13
	-2.524537505162397e-05,-4.314127213107215e-12
	3.209980855250872e-06,2.151326739277951e-13
	-2.167920038903537e-04,-4.637859185893687e-12
	3.209980855250872e-06,2.151326739277951e-13
29		1.949844599758044e+00,0.000000000000000e+00
	3.209980855250871e-02,2.201437576409332e-09
	1.000000000000000e+00,0.000000000000000e+00
	0.000000000000000e+00,0.000000000000000e+00
	3.531312149129933e-04,2.213578023627456e-13
	3.531312146719402e-04,2.062735384933874e-13
	-3.209980855250858e-06,-2.201437576409335e-13
	2.167920038903398e-04,4.745888804109935e-12
	-1.883366479834650e-04,-1.111289014886876e-13
	-2.524537505162397e-05,-4.414616144980313e-12
	3.209980855250872e-06,2.201437576409332e-13
	-2.167920038903537e-04,-4.745888804109934e-12
	3.209980855250872e-06,2.201437576409332e-13
30		1.995262314968878e+00,0.000000000000000e+00
	3.209980855250871e-02,2.252715644883197e-09
	1.000000000000000e+00,0.000000000000000e+00
	0.000000000000000e+00,0.000000000000000e+00
	3.531312149129933e-04,2.265138879444658e-13
	3.531312146719402e-04,2.110782664332377e-13
	-3.209980855250858e-06,-2.252715644883188e-13
	2.167920038903398e-04,4.856434755389382e-12
	-1.883366479834650e-04,-1.137174261332323e-13
	-2.524537505162397e-05,-4.517445764767831e-12
	3.209980855250872e-06,2.252715644883197e-13
	-2.167920038903537e-04,-4.856434755389384e-12
	3.209980855250872e-06,2.252715644883197e-13
31		2.041737944669527e+00,0.000000000000000e+00
	3.209980855250871e-02,2.305188133010194e-09
	1.000000000000000e+00,0.000000000000000e+00
	0.000000000000000e+00,0.000000000000000e+00
	3.531312149129933e-04,2.317900741878398e-13
	3.531312146719402e-04,2.159949108639021e-13
	-3.209980855250858e-06,-2.305188133010196e-13
	2.167920038903398e-04,4.969555652658654e-12
	-1.883366479834650e-04,-1.163662452623409e-13
	-2.524537505162397e-05,-4.622670594095294e-12
	3.209980855250872e-06,2.305188133010194e-13
	-2.167920038903537e-04,-4.969555652658654e-12
	3.209980855250872e-06,2.305188133010194e-13
32		2.089296130854037e+00,0.000000000000000e+00
	3.209980855250871e-02,2.358882862398087e-09
	1.000000000000000e+00,0.000000000000000e+00
	0.000000000000000e+00,0.000000000000000e+00
	3.531312149129933e-04,2.371891585966526e-13
	3.531312146719402e-04,2.210260786553372e-13
	-3.209980855250858e-06,-2.358882862398089e-13
