LTspice 24.0.9 for Windows
Circuit: * GA CMOS Amp | W=3.729429345422421e-05 L=1e-06 Vbias=0.8191332287156282
Start Time: Mon Sep  8 18:44:00 2025
solver = Normal
Maximum thread count: 2
tnom = 27
temp = 27
method = modified trap
AsciiRawFile = 1
Direct Newton iteration for .op point succeeded.
Semiconductor Device Operating Points:
                        --- MOSFET Transistors ---
Name:          m1
Model:        n_1u
Id:          1.15e-05
Vgs:         8.19e-01
Vds:         1.68e+00
Vbs:         0.00e+00
Vth:         8.07e-01
Vdsat:       5.89e-02
Gm:          3.31e-04
Gds:         7.07e-07
Gmb:         7.91e-05
Cbd:         0.00e+00
Cbs:         0.00e+00
Cgsov:       7.46e-15
Cgdov:       7.46e-15
Cgbov:       8.00e-17
Cgs:         3.43e-14
Cgd:         0.00e+00
Cgb:         0.00e+00



gain_db: MAX(db(v(out)/v(g)))=(29.3023dB,69.2416°) FROM 1 TO 1e+09
gain_lin: MAX(mag(v(out)/v(g)))=(10.3429dB,0°) FROM 1 TO 1e+09

Measurement "fc" FAIL'ed

Total elapsed time: 0.447 seconds.

