LTspice 24.0.9 for Windows
Circuit: * GA CMOS Amp | W=1e-06 L=1e-06 Vbias=1.0736854465695584
Start Time: Sat Sep  6 22:05:45 2025
solver = Normal
Maximum thread count: 2
tnom = 27
temp = 27
method = modified trap
AsciiRawFile = 1
Direct Newton iteration for .op point succeeded.
Semiconductor Device Operating Points:
                        --- BSIM4 MOSFETS ---
Name:      m1
Model:      n
Id:      3.32e-05
Vgs:     1.07e+00
Vds:     1.47e+00
Vbs:     0.00e+00
Vth:     2.35e-01
Vdsat:   5.96e-01
Gm:      3.10e-05
Gds:     2.64e-06
Gmb      2.59e-05
Cbd:     3.71e-16
Cbs:     8.00e-16


.measure op idd find i(vdd)
  Error: FIND can not be evaluated over an interval.

gain_db: MAX(db(v(out)/v(g)))=(29.3122dB,110.931°) FROM 1 TO 1e+09
gain_lin: MAX(mag(v(out)/v(g)))=(-2.54561dB,0°) FROM 1 TO 1e+09

Measurement "fc" FAIL'ed

Total elapsed time: 0.593 seconds.

