LTspice 24.0.9 for Windows
Circuit: * GA CMOS Amp | W=2.727821667948555e-06 L=6.012544474832636e-07 Vbias=1.4895597444645392
Start Time: Sat Sep  6 22:13:13 2025
solver = Normal
Maximum thread count: 2
tnom = 27
temp = 27
method = modified trap
AsciiRawFile = 1
Direct Newton iteration for .op point succeeded.
Semiconductor Device Operating Points:
                        --- BSIM4 MOSFETS ---
Name:      m1
Model:      n
Id:      1.37e-04
Vgs:     1.49e+00
Vds:     4.27e-01
Vbs:     0.00e+00
Vth:     2.46e-01
Vdsat:   8.60e-01
Gm:      9.20e-06
Gds:     2.17e-04
Gmb      6.75e-05
Cbd:     1.21e-15
Cbs:     2.18e-15


.measure op idd find i(vdd)
  Error: FIND can not be evaluated over an interval.

gain_db: MAX(db(v(out)/v(g)))=(32.5857dB,140.153°) FROM 1 TO 1e+09
gain_lin: MAX(mag(v(out)/v(g)))=(-5.84966dB,0°) FROM 1 TO 1e+09

Measurement "fc" FAIL'ed

Total elapsed time: 2.255 seconds.

