Title: * GA CMOS Amp | W=3.847839474991112e-05 L=6.578364391046811e-07 Vbias=0.8859065498281243
Date: Mon Sep  8 18:43:29 2025
Plotname: AC Analysis
Flags: complex forward log
No. Variables: 11
No. Points:          901
Offset:    0.0000000000000000e+00
Command: Linear Technology Corporation LTspice
Variables:
	0	frequency	frequency
	1	V(out)	voltage
	2	V(g)	voltage
	3	V(vdd)	voltage
	4	Id(M1)	device_current
	5	Ig(M1)	device_current
	6	Ib(M1)	device_current
	7	Is(M1)	device_current
	8	I(Rload)	device_current
	9	I(Vg)	device_current
	10	I(Vdd)	device_current
Values:
0		1.000000000000000e+00,0.000000000000000e+00
	-8.812948287974434e+00,9.775889350212701e-09
	1.000000000000000e+00,0.000000000000000e+00
	0.000000000000000e+00,0.000000000000000e+00
	8.812948287974433e-04,-9.775889350212700e-13
	1.029545719002327e-21,1.202310005062994e-12
	8.812948201070148e-12,4.132852377186130e-14
	-8.812948376103916e-04,-2.660495938135850e-13
	-8.812948287974435e-04,9.775889350212702e-13
	-1.029545719002327e-21,-1.202310005062994e-12
	-8.812948287974435e-04,9.775889350212702e-13
1		1.023292992280754e+00,0.000000000000000e+00
	-8.812948287974434e+00,1.000359906538471e-08
	1.000000000000000e+00,0.000000000000000e+00
	0.000000000000000e+00,0.000000000000000e+00
	8.812948287974433e-04,-1.000359906538471e-12
	1.078066713890926e-21,1.230315402729999e-12
	8.812948201070148e-12,4.229118875705452e-14
	-8.812948376103916e-04,-2.722466849485826e-13
	-8.812948287974435e-04,1.000359906538471e-12
	-1.078066713890926e-21,-1.230315402729999e-12
	-8.812948287974435e-04,1.000359906538471e-12
2		1.047128548050899e+00,0.000000000000000e+00
	-8.812948287974434e+00,1.023661282119448e-08
	1.000000000000000e+00,0.000000000000000e+00
	0.000000000000000e+00,0.000000000000000e+00
	8.812948287974433e-04,-1.023661282119447e-12
	1.128874432818610e-21,1.258973129908682e-12
	8.812948201070148e-12,4.327627709031617e-14
	-8.812948376103916e-04,-2.785881248795509e-13
	-8.812948287974435e-04,1.023661282119448e-12
	-1.128874432818610e-21,-1.258973129908682e-12
	-8.812948287974435e-04,1.023661282119448e-12
3		1.071519305237606e+00,0.000000000000000e+00
	-8.812948287974434e+00,1.047505416461963e-08
	1.000000000000000e+00,0.000000000000000e+00
	0.000000000000000e+00,0.000000000000000e+00
	8.812948287974433e-04,-1.047505416461963e-12
	1.182076645769133e-21,1.288298381305322e-12
	8.812948201070148e-12,4.428431107852077e-14
	-8.812948376103916e-04,-2.850772759218799e-13
	-8.812948287974435e-04,1.047505416461963e-12
	-1.182076645769133e-21,-1.288298381305322e-12
	-8.812948287974435e-04,1.047505416461963e-12
4		1.096478196143185e+00,0.000000000000000e+00
	-8.812948287974434e+00,1.071904952041659e-08
	1.000000000000000e+00,0.000000000000000e+00
	0.000000000000000e+00,0.000000000000000e+00
	8.812948287974433e-04,-1.071904952041659e-12
	1.237786201769109e-21,1.318306705556375e-12
	8.812948201070148e-12,4.531582519463106e-14
	-8.812948376103916e-04,-2.917175787093466e-13
	-8.812948287974435e-04,1.071904952041659e-12
	-1.237786201769109e-21,-1.318306705556375e-12
	-8.812948287974435e-04,1.071904952041659e-12
5		1.122018454301963e+00,0.000000000000000e+00
	-8.812948287974434e+00,1.096872825815268e-08
	1.000000000000000e+00,0.000000000000000e+00
	0.000000000000000e+00,0.000000000000000e+00
	8.812948287974433e-04,-1.096872825815268e-12
	1.296121268255926e-21,1.349014013472566e-12
	8.812948201070148e-12,4.637136636108575e-14
	-8.812948376103916e-04,-2.985125540183837e-13
	-8.812948287974435e-04,1.096872825815268e-12
	-1.296121268255926e-21,-1.349014013472566e-12
	-8.812948287974435e-04,1.096872825815268e-12
6		1.148153621496882e+00,0.000000000000000e+00
	-8.812948287974434e+00,1.122422276079952e-08
	1.000000000000000e+00,0.000000000000000e+00
	0.000000000000000e+00,0.000000000000000e+00
	8.812948287974433e-04,-1.122422276079952e-12
	1.357205581726718e-21,1.380436586475011e-12
	8.812948201070148e-12,4.745149423978303e-14
	-8.812948376103916e-04,-3.054658046348423e-13
	-8.812948287974435e-04,1.122422276079952e-12
	-1.357205581726718e-21,-1.380436586475011e-12
	-8.812948287974435e-04,1.122422276079952e-12
7		1.174897554939529e+00,0.000000000000000e+00
	-8.812948287974434e+00,1.148566849492428e-08
	1.000000000000000e+00,0.000000000000000e+00
	0.000000000000000e+00,0.000000000000000e+00
	8.812948287974433e-04,-1.148566849492429e-12
	1.421168710200075e-21,1.412591085227844e-12
	8.812948201070148e-12,4.855678152882036e-14
	-8.812948376103916e-04,-3.125810172642358e-13
	-8.812948287974435e-04,1.148566849492428e-12
	-1.421168710200075e-21,-1.412591085227844e-12
	-8.812948287974435e-04,1.148566849492428e-12
8		1.202264434617413e+00,0.000000000000000e+00
	-8.812948287974434e+00,1.175320408251586e-08
	1.000000000000000e+00,0.000000000000000e+00
	0.000000000000000e+00,0.000000000000000e+00
	8.812948287974433e-04,-1.175320408251586e-12
	1.488146328047173e-21,1.445494558471918e-12
	8.812948201070148e-12,4.968781426614967e-14
	-8.812948376103916e-04,-3.198619644864819e-13
	-8.812948287974435e-04,1.175320408251586e-12
	-1.488146328047173e-21,-1.445494558471918e-12
	-8.812948287974435e-04,1.175320408251586e-12
9		1.230268770812381e+00,0.000000000000000e+00
	-8.812948287974434e+00,1.202697137448402e-08
	1.000000000000000e+00,0.000000000000000e+00
	0.000000000000000e+00,0.000000000000000e+00
	8.812948287974433e-04,-1.202697137448403e-12
	1.558280503775314e-21,1.479164452064277e-12
	8.812948201070148e-12,5.084519214029843e-14
	-8.812948376103916e-04,-3.273125067561724e-13
	-8.812948287974435e-04,1.202697137448402e-12
	-1.558280503775314e-21,-1.479164452064277e-12
	-8.812948287974435e-04,1.202697137448402e-12
10		1.258925411794167e+00,0.000000000000000e+00
	-8.812948287974434e+00,1.230711552587073e-08
	1.000000000000000e+00,0.000000000000000e+00
	0.000000000000000e+00,0.000000000000000e+00
	8.812948287974433e-04,-1.230711552587074e-12
	1.631720001374269e-21,1.513618618228176e-12
	8.812948201070148e-12,5.202952880833597e-14
	-8.812948376103916e-04,-3.349365944494382e-13
	-8.812948287974435e-04,1.230711552587073e-12
	-1.631720001374269e-21,-1.513618618228176e-12
	-8.812948287974435e-04,1.230711552587073e-12
11		1.288249551693134e+00,0.000000000000000e+00
	-8.812948287974434e+00,1.259378507281319e-08
	1.000000000000000e+00,0.000000000000000e+00
	0.000000000000000e+00,0.000000000000000e+00
	8.812948287974433e-04,-1.259378507281319e-12
	1.708620595864651e-21,1.548875325018571e-12
	8.812948201070148e-12,5.324145222123976e-14
	-8.812948376103916e-04,-3.427382699584913e-13
	-8.812948287974435e-04,1.259378507281319e-12
	-1.708620595864651e-21,-1.548875325018571e-12
	-8.812948287974435e-04,1.259378507281319e-12
12		1.318256738556407e+00,0.000000000000000e+00
	-8.812948287974434e+00,1.288713201129971e-08
	1.000000000000000e+00,0.000000000000000e+00
	0.000000000000000e+00,0.000000000000000e+00
	8.812948287974433e-04,-1.288713201129971e-12
	1.789145403717615e-21,1.584953266008079e-12
	8.812948201070148e-12,5.448160495684519e-14
	-8.812948376103916e-04,-3.507216698349534e-13
	-8.812948287974435e-04,1.288713201129971e-12
	-1.789145403717615e-21,-1.584953266008079e-12
	-8.812948287974435e-04,1.288713201129971e-12
13		1.348962882591653e+00,0.000000000000000e+00
	-8.812948287974434e+00,1.318731187775997e-08
	1.000000000000000e+00,0.000000000000000e+00
	0.000000000000000e+00,0.000000000000000e+00
	8.812948287974433e-04,-1.318731187775997e-12
	1.873465228846766e-21,1.621871570198561e-12
	8.812948201070148e-12,5.575064456054755e-14
	-8.812948376103916e-04,-3.588910269831121e-13
	-8.812948287974435e-04,1.318731187775997e-12
	-1.873465228846766e-21,-1.621871570198561e-12
	-8.812948287974435e-04,1.318731187775997e-12
14		1.380384264602885e+00,0.000000000000000e+00
	-8.812948287974434e+00,1.349448383153253e-08
	1.000000000000000e+00,0.000000000000000e+00
	0.000000000000000e+00,0.000000000000000e+00
	8.812948287974433e-04,-1.349448383153253e-12
	1.961758924906160e-21,1.659649812163571e-12
	8.812948201070148e-12,5.704924389394378e-14
	-8.812948376103916e-04,-3.672506729042615e-13
	-8.812948287974435e-04,1.349448383153253e-12
	-1.961758924906160e-21,-1.659649812163571e-12
	-8.812948287974435e-04,1.349448383153253e-12
15		1.412537544622754e+00,0.000000000000000e+00
	-8.812948287974434e+00,1.380881073925318e-08
	1.000000000000000e+00,0.000000000000000e+00
	0.000000000000000e+00,0.000000000000000e+00
	8.812948287974433e-04,-1.380881073925318e-12
	2.054213774662882e-21,1.698308022427052e-12
	8.812948201070148e-12,5.837809149158843e-14
	-8.812948376103916e-04,-3.758050399933225e-13
	-8.812948287974435e-04,1.380881073925318e-12
	-2.054213774662882e-21,-1.698308022427052e-12
	-8.812948287974435e-04,1.380881073925318e-12
16		1.445439770745927e+00,0.000000000000000e+00
	-8.812948287974434e+00,1.413045926120899e-08
	1.000000000000000e+00,0.000000000000000e+00
	0.000000000000000e+00,0.000000000000000e+00
	8.812948287974433e-04,-1.413045926120900e-12
	2.151025887248900e-21,1.737866698083788e-12
	8.812948201070148e-12,5.973789192606726e-14
	-8.812948376103916e-04,-3.845586638889553e-13
	-8.812948287974435e-04,1.413045926120899e-12
	-2.151025887248900e-21,-1.737866698083788e-12
	-8.812948287974435e-04,1.413045926120899e-12
17		1.479108388168207e+00,0.000000000000000e+00
	-8.812948287974434e+00,1.445959993970384e-08
	1.000000000000000e+00,0.000000000000000e+00
	0.000000000000000e+00,0.000000000000000e+00
	8.812948287974433e-04,-1.445959993970385e-12
	2.252400614134838e-21,1.778346813667233e-12
	8.812948201070148e-12,6.112936618156967e-14
	-8.812948376103916e-04,-3.935161858784178e-13
	-8.812948287974435e-04,1.445959993970384e-12
	-2.252400614134838e-21,-1.778346813667233e-12
	-8.812948287974435e-04,1.445959993970384e-12
18		1.513561248436208e+00,0.000000000000000e+00
	-8.812948287974434e+00,1.479640728948216e-08
	1.000000000000000e+00,0.000000000000000e+00
	0.000000000000000e+00,0.000000000000000e+00
	8.812948287974433e-04,-1.479640728948216e-12
	2.358552984707968e-21,1.819769832270488e-12
	8.812948201070148e-12,6.255325203616408e-14
	-8.812948376103916e-04,-4.026823553584357e-13
	-8.812948287974435e-04,1.479640728948216e-12
	-2.358552984707968e-21,-1.819769832270488e-12
	-8.812948287974435e-04,1.479640728948216e-12
19		1.548816618912481e+00,0.000000000000000e+00
	-8.812948287974434e+00,1.514105989025896e-08
	1.000000000000000e+00,0.000000000000000e+00
	0.000000000000000e+00,0.000000000000000e+00
	8.812948287974433e-04,-1.514105989025897e-12
	2.469708162378370e-21,1.862157716926313e-12
	8.812948201070148e-12,6.401030445297902e-14
	-8.812948376103916e-04,-4.120620323533954e-13
	-8.812948287974435e-04,1.514105989025896e-12
	-2.469708162378370e-21,-1.862157716926313e-12
	-8.812948287974435e-04,1.514105989025896e-12
20		1.584893192461113e+00,0.000000000000000e+00
	-8.812948287974434e+00,1.549374048140520e-08
	1.000000000000000e+00,0.000000000000000e+00
	0.000000000000000e+00,0.000000000000000e+00
	8.812948287974433e-04,-1.549374048140520e-12
	2.586101922180718e-21,1.905532942252225e-12
	8.812948201070148e-12,6.550129598048991e-14
	-8.812948376103916e-04,-4.216601900921950e-13
	-8.812948287974435e-04,1.549374048140520e-12
	-2.586101922180718e-21,-1.905532942252225e-12
	-8.812948287974435e-04,1.549374048140520e-12
21		1.621810097358929e+00,0.000000000000000e+00
	-8.812948287974434e+00,1.585463605883858e-08
	1.000000000000000e+00,0.000000000000000e+00
	0.000000000000000e+00,0.000000000000000e+00
	8.812948287974433e-04,-1.585463605883858e-12
	2.707981150884735e-21,1.949918506366828e-12
	8.812948201070148e-12,6.702701716214327e-14
	-8.812948376103916e-04,-4.314819176451138e-13
	-8.812948287974435e-04,1.585463605883858e-12
	-2.707981150884735e-21,-1.949918506366828e-12
	-8.812948287974435e-04,1.585463605883858e-12
22		1.659586907437560e+00,0.000000000000000e+00
	-8.812948287974434e+00,1.622393797417127e-08
	1.000000000000000e+00,0.000000000000000e+00
	0.000000000000000e+00,0.000000000000000e+00
	8.812948287974433e-04,-1.622393797417128e-12
	2.835604370675137e-21,1.995337943083730e-12
	8.812948201070148e-12,6.858827695550387e-14
	-8.812948376103916e-04,-4.415324226221066e-13
	-8.812948287974435e-04,1.622393797417127e-12
	-2.835604370675137e-21,-1.995337943083730e-12
	-8.812948287974435e-04,1.622393797417127e-12
23		1.698243652461743e+00,0.000000000000000e+00
	-8.812948287974434e+00,1.660184203616708e-08
	1.000000000000000e+00,0.000000000000000e+00
	0.000000000000000e+00,0.000000000000000e+00
	8.812948287974433e-04,-1.660184203616708e-12
	2.969242287511841e-21,2.041815334389476e-12
	8.812948201070148e-12,7.018590316117793e-14
	-8.812948376103916e-04,-4.518170339339459e-13
	-8.812948287974435e-04,1.660184203616708e-12
	-2.969242287511841e-21,-2.041815334389476e-12
	-8.812948287974435e-04,1.660184203616708e-12
24		1.737800828749374e+00,0.000000000000000e+00
	-8.812948287974434e+00,1.698854861456181e-08
	1.000000000000000e+00,0.000000000000000e+00
	0.000000000000000e+00,0.000000000000000e+00
	8.812948287974433e-04,-1.698854861456181e-12
	3.109178365333603e-21,2.089375323212135e-12
	8.812948201070148e-12,7.182074286172880e-14
	-8.812948376103916e-04,-4.623412046176822e-13
	-8.812948287974435e-04,1.698854861456181e-12
	-3.109178365333603e-21,-2.089375323212135e-12
	-8.812948287974435e-04,1.698854861456181e-12
25		1.778279410038922e+00,0.000000000000000e+00
	-8.812948287974434e+00,1.738426274630202e-08
	1.000000000000000e+00,0.000000000000000e+00
	0.000000000000000e+00,0.000000000000000e+00
	8.812948287974433e-04,-1.738426274630202e-12
	3.255709427323046e-21,2.138043126487313e-12
	8.812948201070148e-12,7.349366287080533e-14
	-8.812948376103916e-04,-4.731105147279168e-13
	-8.812948287974435e-04,1.738426274630202e-12
	-3.255709427323046e-21,-2.138043126487313e-12
	-8.812948287974435e-04,1.738426274630202e-12
26		1.819700858609982e+00,0.000000000000000e+00
	-8.812948287974434e+00,1.778919424425823e-08
	1.000000000000000e+00,0.000000000000000e+00
	0.000000000000000e+00,0.000000000000000e+00
	8.812948287974433e-04,-1.778919424425823e-12
	3.409146285508406e-21,2.187844548528501e-12
	8.812948201070148e-12,7.520555019273944e-14
	-8.812948376103916e-04,-4.841306742954176e-13
	-8.812948287974435e-04,1.778919424425823e-12
	-3.409146285508406e-21,-2.187844548528501e-12
	-8.812948287974435e-04,1.778919424425823e-12
27		1.862087136662866e+00,0.000000000000000e+00
	-8.812948287974434e+00,1.820355780847057e-08
	1.000000000000000e+00,0.000000000000000e+00
	0.000000000000000e+00,0.000000000000000e+00
	8.812948287974433e-04,-1.820355780847057e-12
	3.569814400037535e-21,2.238805994708866e-12
	8.812948201070148e-12,7.695731249284857e-14
	-8.812948376103916e-04,-4.954075263546571e-13
	-8.812948287974435e-04,1.820355780847057e-12
	-3.569814400037535e-21,-2.238805994708866e-12
	-8.812948287974435e-04,1.820355780847057e-12
28		1.905460717963246e+00,0.000000000000000e+00
	-8.812948287974434e+00,1.862757313998553e-08
	1.000000000000000e+00,0.000000000000000e+00
	0.000000000000000e+00,0.000000000000000e+00
	8.812948287974433e-04,-1.862757313998554e-12
	3.738054569522495e-21,2.290954485461725e-12
	8.812948201070148e-12,7.874987857869248e-14
	-8.812948376103916e-04,-5.069470500418634e-13
	-8.812948287974435e-04,1.862757313998554e-12
	-3.738054569522495e-21,-2.290954485461725e-12
	-8.812948287974435e-04,1.862757313998554e-12
29		1.949844599758044e+00,0.000000000000000e+00
	-8.812948287974434e+00,1.906146505734441e-08
	1.000000000000000e+00,0.000000000000000e+00
	0.000000000000000e+00,0.000000000000000e+00
	8.812948287974433e-04,-1.906146505734441e-12
	3.914223653919123e-21,2.344317670607145e-12
	8.812948201070148e-12,8.058419889253567e-14
	-8.812948376103916e-04,-5.187553637652396e-13
	-8.812948287974435e-04,1.906146505734441e-12
	-3.914223653919123e-21,-2.344317670607145e-12
	-8.812948287974435e-04,1.906146505734441e-12
30		1.995262314968878e+00,0.000000000000000e+00
	-8.812948287974434e+00,1.950546361578499e-08
	1.000000000000000e+00,0.000000000000000e+00
	0.000000000000000e+00,0.000000000000000e+00
	8.812948287974433e-04,-1.950546361578499e-12
	4.098695331474817e-21,2.398923844012232e-12
	8.812948201070148e-12,8.246124601529040e-14
	-8.812948376103916e-04,-5.308387284490233e-13
	-8.812948287974435e-04,1.950546361578499e-12
	-4.098695331474817e-21,-2.398923844012232e-12
	-8.812948287974435e-04,1.950546361578499e-12
31		2.041737944669527e+00,0.000000000000000e+00
	-8.812948287974434e+00,1.995980422922000e-08
	1.000000000000000e+00,0.000000000000000e+00
	0.000000000000000e+00,0.000000000000000e+00
	8.812948287974433e-04,-1.995980422922000e-12
	4.291860891350223e-21,2.454801958592926e-12
	8.812948201070148e-12,8.438201518218609e-14
	-8.812948376103916e-04,-5.432035508531117e-13
	-8.812948287974435e-04,1.995980422922000e-12
	-4.291860891350223e-21,-2.454801958592926e-12
	-8.812948287974435e-04,1.995980422922000e-12
32		2.089296130854037e+00,0.000000000000000e+00
	-8.812948287974434e+00,2.042472779505659e-08
	1.000000000000000e+00,0.000000000000000e+00
	0.000000000000000e+00,0.000000000000000e+00
	8.812948287974433e-04,-2.042472779505659e-12
	4.494130063596000e-21,2.511981641665211e-12
	8.812948201070148e-12,8.634752481045943e-14
	-8.812948376103916e-04,-5.558563869700114e-13
	-8.812948287974435e-04,2.042472779505659e-12
	-4.494130063596000e-21,-2.511981641665211e-12
	-8.812948287974435e-04,2.042472779505659e-12
33		2.137962089502230e+00,0.000000000000000e+00
	-8.812948287974434e+00,2.090048082192334e-08
	1.000000000000000e+00,0.000000000000000e+00
	0.000000000000000e+00,0.000000000000000e+00
	8.812948287974433e-04,-2.090048082192334e-12
	4.705931888245176e-21,2.570493210653915e-12
	8.812948201070148e-12,8.835881703933129e-14
	-8.812948376103916e-04,-5.688039455009118e-13
	-8.812948287974435e-04,2.090048082192334e-12
	-4.705931888245176e-21,-2.570493210653915e-12
	-8.812948287974435e-04,2.090048082192334e-12
34		2.187761623949550e+00,0.000000000000000e+00
	-8.812948287974434e+00,2.138731556037245e-08
	1.000000000000000e+00,0.000000000000000e+00
	0.000000000000000e+00,0.000000000000000e+00
	8.812948287974433e-04,-2.138731556037245e-12
	4.927715625364597e-21,2.630367689167407e-12
	8.812948201070148e-12,9.041695828256451e-14
	-8.812948376103916e-04,-5.820530914127268e-13
	-8.812948287974435e-04,2.138731556037245e-12
	-4.927715625364597e-21,-2.630367689167407e-12
	-8.812948287974435e-04,2.138731556037245e-12
35		2.238721138568337e+00,0.000000000000000e+00
	-8.812948287974434e+00,2.188549013662626e-08
	1.000000000000000e+00,0.000000000000000e+00
	0.000000000000000e+00,0.000000000000000e+00
	8.812948287974433e-04,-2.188549013662626e-12
	5.159951707995762e-21,2.691636823446729e-12
	8.812948201070148e-12,9.252303979389001e-14
	-8.812948376103916e-04,-5.956108495779927e-13
	-8.812948287974435e-04,2.188549013662626e-12
	-5.159951707995762e-21,-2.691636823446729e-12
	-8.812948287974435e-04,2.188549013662626e-12
36		2.290867652767770e+00,0.000000000000000e+00
	-8.812948287974434e+00,2.239526868943921e-08
	1.000000000000000e+00,0.000000000000000e+00
	0.000000000000000e+00,0.000000000000000e+00
	8.812948287974433e-04,-2.239526868943922e-12
	5.403132740006361e-21,2.754333099197866e-12
	8.812948201070148e-12,9.467817824560137e-14
	-8.812948376103916e-04,-6.094844084995462e-13
	-8.812948287974435e-04,2.239526868943922e-12
	-5.403132740006361e-21,-2.754333099197866e-12
	-8.812948287974435e-04,2.239526868943922e-12
37		2.344228815319919e+00,0.000000000000000e+00
	-8.812948287974434e+00,2.291692151014774e-08
	1.000000000000000e+00,0.000000000000000e+00
	0.000000000000000e+00,0.000000000000000e+00
	8.812948287974433e-04,-2.291692151014774e-12
	5.657774540969138e-21,2.818489758816108e-12
	8.812948201070148e-12,9.688351632063203e-14
	-8.812948376103916e-04,-6.236811241219661e-13
	-8.812948287974435e-04,2.291692151014774e-12
	-5.657774540969138e-21,-2.818489758816108e-12
	-8.812948287974435e-04,2.291692151014774e-12
38		2.398832919019488e+00,0.000000000000000e+00
	-8.812948287974434e+00,2.345072518598225e-08
	1.000000000000000e+00,0.000000000000000e+00
	0.000000000000000e+00,0.000000000000000e+00
