LTspice 24.0.9 for Windows
Circuit: * GA CMOS Amp | W=1.616757766327189e-05 L=6.935146507133185e-07 Vbias=1.0107546004766867
Start Time: Mon Sep  8 18:44:26 2025
solver = Normal
Maximum thread count: 2
tnom = 27
temp = 27
method = modified trap
AsciiRawFile = 1
Instance "m1": Length shorter than recommended for a level 3 MOSFET.
Direct Newton iteration for .op point succeeded.
Semiconductor Device Operating Points:
                        --- MOSFET Transistors ---
Name:          m1
Model:        n_1u
Id:          1.13e-04
Vgs:         1.01e+00
Vds:         6.66e-01
Vbs:         0.00e+00
Vth:         7.79e-01
Vdsat:       2.13e-01
Gm:          6.71e-04
Gds:         4.19e-05
Gmb:         1.36e-04
Cbd:         0.00e+00
Cbs:         0.00e+00
Cgsov:       3.23e-15
Cgdov:       3.23e-15
Cgbov:       4.94e-17
Cgs:         9.18e-15
Cgd:         0.00e+00
Cgb:         0.00e+00



gain_db: MAX(db(v(out)/v(g)))=(29.6699dB,63.6795°) FROM 1 TO 1e+09
gain_lin: MAX(mag(v(out)/v(g)))=(13.4985dB,0°) FROM 1 TO 1e+09

Measurement "fc" FAIL'ed

Total elapsed time: 0.458 seconds.

