Title: * GA CMOS Amp | W=7.997976485289986e-06 L=8.900920066419819e-07 Vbias=0.69706253783321
Date: Mon Sep  8 18:45:32 2025
Plotname: AC Analysis
Flags: complex forward log
No. Variables: 11
No. Points:          901
Offset:    0.0000000000000000e+00
Command: Linear Technology Corporation LTspice
Variables:
	0	frequency	frequency
	1	V(out)	voltage
	2	V(g)	voltage
	3	V(vdd)	voltage
	4	Id(M1)	device_current
	5	Ig(M1)	device_current
	6	Ib(M1)	device_current
	7	Is(M1)	device_current
	8	I(Rload)	device_current
	9	I(Vg)	device_current
	10	I(Vdd)	device_current
Values:
0		1.000000000000000e+00,0.000000000000000e+00
	-4.225932364186522e-02,1.047363368433559e-10
	1.000000000000000e+00,0.000000000000000e+00
	0.000000000000000e+00,0.000000000000000e+00
	4.225932364186522e-06,-1.047363368433559e-14
	1.052658174424277e-24,6.244477779959753e-14
	4.225932331256314e-14,-2.001710852280268e-15
	-4.225932406445846e-06,-4.996943326298167e-14
	-4.225932364186521e-06,1.047363368433559e-14
	-1.052658174424277e-24,-6.244477779959753e-14
	-4.225932364186521e-06,1.047363368433559e-14
1		1.023292992280754e+00,0.000000000000000e+00
	-4.225932364186522e-02,1.071759595289627e-10
	1.000000000000000e+00,0.000000000000000e+00
	0.000000000000000e+00,0.000000000000000e+00
	4.225932364186522e-06,-1.071759595289627e-14
	1.102268425778804e-24,6.389930352685697e-14
	4.225932331256314e-14,-2.048336687710731e-15
	-4.225932406445846e-06,-5.113337088624997e-14
	-4.225932364186521e-06,1.071759595289627e-14
	-1.102268425778804e-24,-6.389930352685697e-14
	-4.225932364186521e-06,1.071759595289627e-14
2		1.047128548050899e+00,0.000000000000000e+00
	-4.225932364186522e-02,1.096724083269532e-10
	1.000000000000000e+00,0.000000000000000e+00
	0.000000000000000e+00,0.000000000000000e+00
	4.225932364186522e-06,-1.096724083269532e-14
	1.154216736248110e-24,6.538770951065360e-14
	4.225932331256314e-14,-2.096048578365960e-15
	-4.225932406445846e-06,-5.232442009959232e-14
	-4.225932364186521e-06,1.096724083269532e-14
	-1.154216736248110e-24,-6.538770951065360e-14
	-4.225932364186521e-06,1.096724083269532e-14
3		1.071519305237606e+00,0.000000000000000e+00
	-4.225932364186522e-02,1.122270068875246e-10
	1.000000000000000e+00,0.000000000000000e+00
	0.000000000000000e+00,0.000000000000000e+00
	4.225932364186522e-06,-1.122270068875246e-14
	1.208613295163531e-24,6.691078492354145e-14
	4.225932331256314e-14,-2.144871821721941e-15
	-4.225932406445846e-06,-5.354321241306705e-14
	-4.225932364186521e-06,1.122270068875246e-14
	-1.208613295163531e-24,-6.691078492354145e-14
	-4.225932364186521e-06,1.122270068875246e-14
4		1.096478196143185e+00,0.000000000000000e+00
	-4.225932364186522e-02,1.148411096926479e-10
	1.000000000000000e+00,0.000000000000000e+00
	0.000000000000000e+00,0.000000000000000e+00
	4.225932364186522e-06,-1.148411096926478e-14
	1.265573484919601e-24,6.846933732026468e-14
	4.225932331256314e-14,-2.194832304508508e-15
	-4.225932406445846e-06,-5.479039404649138e-14
	-4.225932364186521e-06,1.148411096926479e-14
	-1.265573484919601e-24,-6.846933732026468e-14
	-4.225932364186521e-06,1.148411096926479e-14
5		1.122018454301963e+00,0.000000000000000e+00
	-4.225932364186522e-02,1.175161027742319e-10
	1.000000000000000e+00,0.000000000000000e+00
	0.000000000000000e+00,0.000000000000000e+00
	4.225932364186522e-06,-1.175161027742319e-14
	1.325218125715579e-24,7.006419306593397e-14
	4.225932331256314e-14,-2.245956516434974e-15
	-4.225932406445846e-06,-5.606662627207580e-14
	-4.225932364186521e-06,1.175161027742319e-14
	-1.325218125715579e-24,-7.006419306593397e-14
	-4.225932364186521e-06,1.175161027742319e-14
6		1.148153621496882e+00,0.000000000000000e+00
	-4.225932364186522e-02,1.202534044490164e-10
	1.000000000000000e+00,0.000000000000000e+00
	0.000000000000000e+00,0.000000000000000e+00
	4.225932364186522e-06,-1.202534044490164e-14
	1.387673731831289e-24,7.169619777417604e-14
	4.225932331256314e-14,-2.298271564235210e-15
	-4.225932406445846e-06,-5.737258576503918e-14
	-4.225932364186521e-06,1.202534044490164e-14
	-1.387673731831289e-24,-7.169619777417604e-14
	-4.225932364186521e-06,1.202534044490164e-14
7		1.174897554939529e+00,0.000000000000000e+00
	-4.225932364186522e-02,1.230544660705818e-10
	1.000000000000000e+00,0.000000000000000e+00
	0.000000000000000e+00,0.000000000000000e+00
	4.225932364186522e-06,-1.230544660705818e-14
	1.453072779980871e-24,7.336621675548933e-14
	4.225932331256314e-14,-2.351805186040014e-15
	-4.225932406445846e-06,-5.870896496239114e-14
	-4.225932364186521e-06,1.230544660705818e-14
	-1.453072779980871e-24,-7.336621675548933e-14
	-4.225932364186521e-06,1.230544660705818e-14
8		1.202264434617413e+00,0.000000000000000e+00
	-4.225932364186522e-02,1.259207727988762e-10
	1.000000000000000e+00,0.000000000000000e+00
	0.000000000000000e+00,0.000000000000000e+00
	4.225932364186522e-06,-1.259207727988762e-14
	1.521553990313653e-24,7.507513547604308e-14
	4.225932331256314e-14,-2.406585766084275e-15
	-4.225932406445846e-06,-6.007647243007119e-14
	-4.225932364186521e-06,1.259207727988762e-14
	-1.521553990313653e-24,-7.507513547604308e-14
	-4.225932364186521e-06,1.259207727988762e-14
9		1.230268770812381e+00,0.000000000000000e+00
	-4.225932364186522e-02,1.288538443876670e-10
	1.000000000000000e+00,0.000000000000000e+00
	0.000000000000000e+00,0.000000000000000e+00
	4.225932364186522e-06,-1.288538443876670e-14
	1.593262620658188e-24,7.682386002716313e-14
	4.225932331256314e-14,-2.462642349756657e-15
	-4.225932406445846e-06,-6.147583323863977e-14
	-4.225932364186521e-06,1.288538443876670e-14
	-1.593262620658188e-24,-7.682386002716313e-14
	-4.225932364186521e-06,1.288538443876670e-14
10		1.258925411794167e+00,0.000000000000000e+00
	-4.225932364186522e-02,1.318552359903344e-10
	1.000000000000000e+00,0.000000000000000e+00
	0.000000000000000e+00,0.000000000000000e+00
	4.225932364186522e-06,-1.318552359903344e-14
	1.668350774633580e-24,7.861331760575357e-14
	4.225932331256314e-14,-2.520004658999793e-15
	-4.225932406445846e-06,-6.290778934772034e-14
	-4.225932364186521e-06,1.318552359903344e-14
	-1.668350774633580e-24,-7.861331760575357e-14
	-4.225932364186521e-06,1.318552359903344e-14
11		1.288249551693134e+00,0.000000000000000e+00
	-4.225932364186522e-02,1.349265389844343e-10
	1.000000000000000e+00,0.000000000000000e+00
	0.000000000000000e+00,0.000000000000000e+00
	4.225932364186522e-06,-1.349265389844343e-14
	1.746977724281654e-24,8.044445700590888e-14
	4.225932331256314e-14,-2.578703108069344e-15
	-4.225932406445846e-06,-6.437309999939610e-14
	-4.225932364186521e-06,1.349265389844343e-14
	-1.746977724281654e-24,-8.044445700590888e-14
	-4.225932364186521e-06,1.349265389844343e-14
12		1.318256738556407e+00,0.000000000000000e+00
	-4.225932364186522e-02,1.380693818154676e-10
	1.000000000000000e+00,0.000000000000000e+00
	0.000000000000000e+00,0.000000000000000e+00
	4.225932364186522e-06,-1.380693818154676e-14
	1.829310247904313e-24,8.231824912197696e-14
	4.225932331256314e-14,-2.638768819659952e-15
	-4.225932406445846e-06,-6.587254212077025e-14
	-4.225932364186521e-06,1.380693818154676e-14
	-1.829310247904313e-24,-8.231824912197696e-14
	-4.225932364186521e-06,1.380693818154676e-14
13		1.348962882591653e+00,0.000000000000000e+00
	-4.225932364186522e-02,1.412854308603038e-10
	1.000000000000000e+00,0.000000000000000e+00
	0.000000000000000e+00,0.000000000000000e+00
	4.225932364186522e-06,-1.412854308603038e-14
	1.915522983822675e-24,8.423568746334037e-14
	4.225932331256314e-14,-2.700233641406987e-15
	-4.225932406445846e-06,-6.740691073590301e-14
	-4.225932364186521e-06,1.412854308603038e-14
	-1.915522983822675e-24,-8.423568746334037e-14
	-4.225932364186521e-06,1.412854308603038e-14
14		1.380384264602885e+00,0.000000000000000e+00
	-4.225932364186522e-02,1.445763913107158e-10
	1.000000000000000e+00,0.000000000000000e+00
	0.000000000000000e+00,0.000000000000000e+00
	4.225932364186522e-06,-1.445763913107159e-14
	2.005798800808364e-24,8.619778868118799e-14
	4.225932331256314e-14,-2.763130162772534e-15
	-4.225932406445846e-06,-6.897701938734387e-14
	-4.225932364186521e-06,1.445763913107159e-14
	-2.005798800808364e-24,-8.619778868118799e-14
	-4.225932364186521e-06,1.445763913107159e-14
15		1.412537544622754e+00,0.000000000000000e+00
	-4.225932364186522e-02,1.479440080774957e-10
	1.000000000000000e+00,0.000000000000000e+00
	0.000000000000000e+00,0.000000000000000e+00
	4.225932364186522e-06,-1.479440080774956e-14
	2.100329185972698e-24,8.820559310755696e-14
	4.225932331256314e-14,-2.827491732324686e-15
	-4.225932406445846e-06,-7.058370056748271e-14
	-4.225932364186521e-06,1.479440080774957e-14
	-2.100329185972698e-24,-8.820559310755696e-14
	-4.225932364186521e-06,1.479440080774957e-14
16		1.445439770745927e+00,0.000000000000000e+00
	-4.225932364186522e-02,1.513900667156285e-10
	1.000000000000000e+00,0.000000000000000e+00
	0.000000000000000e+00,0.000000000000000e+00
	4.225932364186522e-06,-1.513900667156286e-14
	2.199314650936518e-24,9.026016530693062e-14
	4.225932331256314e-14,-2.893352475419637e-15
	-4.225932406445846e-06,-7.222780615994813e-14
	-4.225932364186521e-06,1.513900667156286e-14
	-2.199314650936518e-24,-9.026016530693062e-14
	-4.225932364186521e-06,1.513900667156286e-14
17		1.479108388168207e+00,0.000000000000000e+00
	-4.225932364186522e-02,1.549163943710185e-10
	1.000000000000000e+00,0.000000000000000e+00
	0.000000000000000e+00,0.000000000000000e+00
	4.225932364186522e-06,-1.549163943710185e-14
	2.302965157142227e-24,9.236259464068454e-14
	4.225932331256314e-14,-2.960747312295090e-15
	-4.225932406445846e-06,-7.391020789128759e-14
	-4.225932364186521e-06,1.549163943710185e-14
	-2.302965157142227e-24,-9.236259464068454e-14
	-4.225932364186521e-06,1.549163943710185e-14
18		1.513561248436208e+00,0.000000000000000e+00
	-4.225932364186522e-02,1.585248607492649e-10
	1.000000000000000e+00,0.000000000000000e+00
	0.000000000000000e+00,0.000000000000000e+00
	4.225932364186522e-06,-1.585248607492650e-14
	2.411500561210152e-24,9.451399584468042e-14
	4.225932331256314e-14,-3.029711976585629e-15
	-4.225932406445846e-06,-7.563179779316830e-14
	-4.225932364186521e-06,1.585248607492650e-14
	-2.411500561210152e-24,-9.451399584468042e-14
	-4.225932364186521e-06,1.585248607492650e-14
19		1.548816618912481e+00,0.000000000000000e+00
	-4.225932364186522e-02,1.622173791070052e-10
	1.000000000000000e+00,0.000000000000000e+00
	0.000000000000000e+00,0.000000000000000e+00
	4.225932364186522e-06,-1.622173791070052e-14
	2.525151081283915e-24,9.671550962031379e-14
	4.225932331256314e-14,-3.100283034269159e-15
	-4.225932406445846e-06,-7.739348867534411e-14
	-4.225932364186521e-06,1.622173791070052e-14
	-2.525151081283915e-24,-9.671550962031379e-14
	-4.225932364186521e-06,1.622173791070052e-14
20		1.584893192461113e+00,0.000000000000000e+00
	-4.225932364186522e-02,1.659959072663488e-10
	1.000000000000000e+00,0.000000000000000e+00
	0.000000000000000e+00,0.000000000000000e+00
	4.225932364186522e-06,-1.659959072663488e-14
	2.644157785353985e-24,9.896830323932895e-14
	4.225932331256314e-14,-3.172497903054535e-15
	-4.225932406445846e-06,-7.919621460963954e-14
	-4.225932364186521e-06,1.659959072663488e-14
	-2.644157785353985e-24,-9.896830323932895e-14
	-4.225932364186521e-06,1.659959072663488e-14
21		1.621810097358929e+00,0.000000000000000e+00
	-4.225932364186522e-02,1.698624486529406e-10
	1.000000000000000e+00,0.000000000000000e+00
	0.000000000000000e+00,0.000000000000000e+00
	4.225932364186522e-06,-1.698624486529406e-14
	2.768773102595200e-24,1.012735711627220e-13
	4.225932331256314e-14,-3.246394872221100e-15
	-4.225932406445846e-06,-8.104093142520681e-14
	-4.225932364186521e-06,1.698624486529406e-14
	-2.768773102595200e-24,-1.012735711627220e-13
	-4.225932364186521e-06,1.698624486529406e-14
22		1.659586907437560e+00,0.000000000000000e+00
	-4.225932364186522e-02,1.738190533582036e-10
	1.000000000000000e+00,0.000000000000000e+00
	0.000000000000000e+00,0.000000000000000e+00
	4.225932364186522e-06,-1.738190533582036e-14
	2.899261358802896e-24,1.036325356740597e-13
	4.225932331256314e-14,-3.322013122920018e-15
	-4.225932406445846e-06,-8.292861721531928e-14
	-4.225932364186521e-06,1.738190533582036e-14
	-2.899261358802896e-24,-1.036325356740597e-13
	-4.225932364186521e-06,1.738190533582036e-14
23		1.698243652461743e+00,0.000000000000000e+00
	-4.225932364186522e-02,1.778678192263242e-10
	1.000000000000000e+00,0.000000000000000e+00
	0.000000000000000e+00,0.000000000000000e+00
	4.225932364186522e-06,-1.778678192263242e-14
	3.035899337063355e-24,1.060464475275505e-13
	4.225932331256314e-14,-3.399392748948764e-15
	-4.225932406445846e-06,-8.486027285596933e-14
	-4.225932364186521e-06,1.778678192263242e-14
	-3.035899337063355e-24,-1.060464475275505e-13
	-4.225932364186521e-06,1.778678192263242e-14
24		1.737800828749374e+00,0.000000000000000e+00
	-4.225932364186522e-02,1.820108929665575e-10
	1.000000000000000e+00,0.000000000000000e+00
	0.000000000000000e+00,0.000000000000000e+00
	4.225932364186522e-06,-1.820108929665575e-14
	3.178976864847838e-24,1.085165866112111e-13
	4.225932331256314e-14,-3.478574778009274e-15
	-4.225932406445846e-06,-8.683692253654610e-14
	-4.225932364186521e-06,1.820108929665575e-14
	-3.178976864847838e-24,-1.085165866112111e-13
	-4.225932364186521e-06,1.820108929665575e-14
25		1.778279410038922e+00,0.000000000000000e+00
	-4.225932364186522e-02,1.862504712914407e-10
	1.000000000000000e+00,0.000000000000000e+00
	0.000000000000000e+00,0.000000000000000e+00
	4.225932364186522e-06,-1.862504712914407e-14
	3.328797428775517e-24,1.110442626254799e-13
	4.225932331256314e-14,-3.559601193461475e-15
	-4.225932406445846e-06,-8.885961430287432e-14
	-4.225932364186521e-06,1.862504712914407e-14
	-3.328797428775517e-24,-1.110442626254799e-13
	-4.225932364186521e-06,1.862504712914407e-14
26		1.819700858609982e+00,0.000000000000000e+00
	-4.225932364186522e-02,1.905888020815190e-10
	1.000000000000000e+00,0.000000000000000e+00
	0.000000000000000e+00,0.000000000000000e+00
	4.225932364186522e-06,-1.905888020815190e-14
	3.485678818349274e-24,1.136308157776372e-13
	4.225932331256314e-14,-3.642514956583332e-15
	-4.225932406445846e-06,-9.092942061290195e-14
	-4.225932364186521e-06,1.905888020815190e-14
	-3.485678818349274e-24,-1.136308157776372e-13
	-4.225932364186521e-06,1.905888020815190e-14
27		1.862087136662866e+00,0.000000000000000e+00
	-4.225932364186522e-02,1.950281855772020e-10
	1.000000000000000e+00,0.000000000000000e+00
	0.000000000000000e+00,0.000000000000000e+00
	4.225932364186522e-06,-1.950281855772020e-14
	3.649953800029851e-24,1.162776174924015e-13
	4.225932331256314e-14,-3.727360029349550e-15
	-4.225932406445846e-06,-9.304743890533172e-14
	-4.225932364186521e-06,1.950281855772020e-14
	-3.649953800029851e-24,-1.162776174924015e-13
	-4.225932364186521e-06,1.950281855772020e-14
28		1.905460717963246e+00,0.000000000000000e+00
	-4.225932364186522e-02,1.995709755983813e-10
	1.000000000000000e+00,0.000000000000000e+00
	0.000000000000000e+00,0.000000000000000e+00
	4.225932364186522e-06,-1.995709755983813e-14
	3.821970823078121e-24,1.189860711390764e-13
	4.225932331256314e-14,-3.814181397740781e-15
	-4.225932406445846e-06,-9.521479218149753e-14
	-4.225932364186521e-06,1.995709755983813e-14
	-3.821970823078121e-24,-1.189860711390764e-13
	-4.225932364186521e-06,1.995709755983813e-14
29		1.949844599758044e+00,0.000000000000000e+00
	-4.225932364186522e-02,2.042195807924570e-10
	1.000000000000000e+00,0.000000000000000e+00
	0.000000000000000e+00,0.000000000000000e+00
	4.225932364186522e-06,-2.042195807924570e-14
	4.002094758662695e-24,1.217576127756362e-13
	4.225932331256314e-14,-3.903025095595763e-15
	-4.225932406445846e-06,-9.743262960079478e-14
	-4.225932364186521e-06,2.042195807924570e-14
	-4.002094758662695e-24,-1.217576127756362e-13
	-4.225932364186521e-06,2.042195807924570e-14
30		1.995262314968878e+00,0.000000000000000e+00
	-4.225932364186522e-02,2.089764659114345e-10
	1.000000000000000e+00,0.000000000000000e+00
	0.000000000000000e+00,0.000000000000000e+00
	4.225932364186522e-06,-2.089764659114345e-14
	4.190707673800582e-24,1.245937119101422e-13
	4.225932331256314e-14,-3.993938229019055e-15
	-4.225932406445846e-06,-9.970212708997967e-14
	-4.225932364186521e-06,2.089764659114345e-14
	-4.190707673800582e-24,-1.245937119101422e-13
	-4.225932364186521e-06,2.089764659114345e-14
31		2.041737944669527e+00,0.000000000000000e+00
	-4.225932364186522e-02,2.138441531187688e-10
	1.000000000000000e+00,0.000000000000000e+00
	0.000000000000000e+00,0.000000000000000e+00
	4.225932364186522e-06,-2.138441531187688e-14
	4.388209641772565e-24,1.274958722798956e-13
	4.225932331256314e-14,-4.086969001357404e-15
	-4.225932406445846e-06,-1.020244879666613e-13
	-4.225932364186521e-06,2.138441531187688e-14
	-4.388209641772565e-24,-1.274958722798956e-13
	-4.225932364186521e-06,2.138441531187688e-14
32		2.089296130854037e+00,0.000000000000000e+00
	-4.225932364186522e-02,2.188252233266487e-10
	1.000000000000000e+00,0.000000000000000e+00
	0.000000000000000e+00,0.000000000000000e+00
	4.225932364186522e-06,-2.188252233266487e-14
	4.595019590732263e-24,1.304656326487392e-13
	4.225932331256314e-14,-4.182166738757729e-15
	-4.225932406445846e-06,-1.044009435773166e-13
	-4.225932364186521e-06,2.188252233266487e-14
	-4.595019590732263e-24,-1.304656326487392e-13
	-4.225932364186521e-06,2.188252233266487e-14
33		2.137962089502230e+00,0.000000000000000e+00
	-4.225932364186522e-02,2.239223175644306e-10
	1.000000000000000e+00,0.000000000000000e+00
	0.000000000000000e+00,0.000000000000000e+00
	4.225932364186522e-06,-2.239223175644306e-14
	4.811576192308914e-24,1.335045676229300e-13
	4.225932331256314e-14,-4.279581916320426e-15
	-4.225932406445846e-06,-1.068327539501665e-13
	-4.225932364186521e-06,2.239223175644306e-14
	-4.811576192308914e-24,-1.335045676229300e-13
	-4.225932364186521e-06,2.239223175644306e-14
34		2.187761623949550e+00,0.000000000000000e+00
	-4.225932364186522e-02,2.291381383789474e-10
	1.000000000000000e+00,0.000000000000000e+00
	0.000000000000000e+00,0.000000000000000e+00
	4.225932364186522e-06,-2.291381383789474e-14
	5.038338792088708e-24,1.366142884860163e-13
	4.225932331256314e-14,-4.379266184862121e-15
	-4.225932406445846e-06,-1.093212084632595e-13
	-4.225932364186521e-06,2.291381383789474e-14
	-5.038338792088708e-24,-1.366142884860163e-13
	-4.225932364186521e-06,2.291381383789474e-14
35		2.238721138568337e+00,0.000000000000000e+00
	-4.225932364186522e-02,2.344754512674346e-10
	1.000000000000000e+00,0.000000000000000e+00
	0.000000000000000e+00,0.000000000000000e+00
	4.225932364186522e-06,-2.344754512674346e-14
	5.275788383948372e-24,1.397964440531618e-13
	4.225932331256314e-14,-4.481272398301470e-15
	-4.225932406445846e-06,-1.118676265281169e-13
	-4.225932364186521e-06,2.344754512674346e-14
	-5.275788383948372e-24,-1.397964440531618e-13
	-4.225932364186521e-06,2.344754512674346e-14
36		2.290867652767770e+00,0.000000000000000e+00
	-4.225932364186522e-02,2.399370861438333e-10
	1.000000000000000e+00,0.000000000000000e+00
	0.000000000000000e+00,0.000000000000000e+00
	4.225932364186522e-06,-2.399370861438333e-14
	5.524428630307660e-24,1.430527215453690e-13
	4.225932331256314e-14,-4.585654641683075e-15
	-4.225932406445846e-06,-1.144733582893026e-13
	-4.225932364186521e-06,2.399370861438333e-14
	-5.524428630307660e-24,-1.430527215453690e-13
	-4.225932364186521e-06,2.399370861438333e-14
37		2.344228815319919e+00,0.000000000000000e+00
	-4.225932364186522e-02,2.455259388392482e-10
	1.000000000000000e+00,0.000000000000000e+00
	0.000000000000000e+00,0.000000000000000e+00
	4.225932364186522e-06,-2.455259388392483e-14
	5.784786930464878e-24,1.463848474840661e-13
	4.225932331256314e-14,-4.692468259853992e-15
	-4.225932406445846e-06,-1.171397853402873e-13
	-4.225932364186521e-06,2.455259388392483e-14
	-5.784786930464878e-24,-1.463848474840661e-13
	-4.225932364186521e-06,2.455259388392483e-14
38		2.398832919019488e+00,0.000000000000000e+00
	-4.225932364186522e-02,2.512449726373557e-10
	1.000000000000000e+00,0.000000000000000e+00
