LTspice 24.0.9 for Windows
Circuit: * GA CMOS Amp | W=6.7075422166799925e-06 L=9.598511951234974e-07 Vbias=0.8559606943810817
Start Time: Mon Sep  8 18:43:03 2025
solver = Normal
Maximum thread count: 2
tnom = 27
temp = 27
method = modified trap
AsciiRawFile = 1
Instance "m1": Length shorter than recommended for a level 3 MOSFET.
Direct Newton iteration for .op point succeeded.
Semiconductor Device Operating Points:
                        --- MOSFET Transistors ---
Name:          m1
Model:        n_1u
Id:          3.18e-06
Vgs:         8.56e-01
Vds:         1.77e+00
Vbs:         0.00e+00
Vth:         8.29e-01
Vdsat:       6.97e-02
Gm:          7.41e-05
Gds:         2.40e-07
Gmb:         2.00e-05
Cbd:         0.00e+00
Cbs:         0.00e+00
Cgsov:       1.34e-15
Cgdov:       1.34e-15
Cgbov:       7.60e-17
Cgs:         5.87e-15
Cgd:         0.00e+00
Cgb:         0.00e+00



gain_db: MAX(db(v(out)/v(g)))=(28.7591dB,95.4821°) FROM 1 TO 1e+09
gain_lin: MAX(mag(v(out)/v(g)))=(-2.5937dB,0°) FROM 1 TO 1e+09

Measurement "fc" FAIL'ed

Total elapsed time: 0.767 seconds.

