LTspice 24.0.9 for Windows
Circuit: * Amplificador CMOS – W=3.77308502275278e-06 L=1.1456256610888894e-06 Vbias=0.9287427424601938
Start Time: Wed Jul 30 16:10:04 2025
solver = Normal
Maximum thread count: 2
tnom = 27
temp = 27
method = modified trap
AsciiRawFile = 1
Instance "m1": Length shorter than recommended for a level 1 MOSFET.
Instance "m1": Width narrower than recommended for a level 1 MOSFET.
Direct Newton iteration for .op point succeeded.
Semiconductor Device Operating Points:
                        --- MOSFET Transistors ---
Name:          m1
Model:        nmos
Id:          2.68e-12
Vgs:        -9.29e-01
Vds:         8.71e-01
Vbs:        -9.29e-01
Vth:         0.00e+00
Vdsat:       0.00e+00
Gm:          0.00e+00
Gds:         0.00e+00
Gmb:         0.00e+00
Cbd:         0.00e+00
Cbs:         0.00e+00
Cgsov:       0.00e+00
Cgdov:       0.00e+00
Cgbov:       0.00e+00
Cgs:         0.00e+00
Cgd:         0.00e+00
Cgb:         0.00e+00


.measure op idd find i(vdd)
  Error: FIND can not be evaluated over an interval.

gain_lin: MAX(mag(v(out)/v(in)))=(-infdB,0°) FROM 1 TO 1e+09

Measurement "gain_db" FAIL'ed

Measurement "fc" FAIL'ed

Total elapsed time: 0.301 seconds.

