Title: * GA CMOS Amp | W=2.058644377353076e-06 L=1e-06 Vbias=1.2811489770233844
Date: Sat Sep  6 22:07:15 2025
Plotname: AC Analysis
Flags: complex forward log
No. Variables: 13
No. Points:          901
Offset:    0.0000000000000000e+00
Command: Linear Technology Corporation LTspice
Variables:
	0	frequency	frequency
	1	V(out)	voltage
	2	V(g)	voltage
	3	V(vdd)	voltage
	4	V(m1#dbody)	voltage
	5	V(m1#sbody)	voltage
	6	Id(M1)	device_current
	7	Ig(M1)	device_current
	8	Ib(M1)	device_current
	9	Is(M1)	device_current
	10	I(Rload)	device_current
	11	I(Vg)	device_current
	12	I(Vdd)	device_current
Values:
0		1.000000000000000e+00,0.000000000000000e+00
	-4.755729897815595e-01,1.489210341484604e-09
	1.000000000000000e+00,0.000000000000000e+00
	0.000000000000000e+00,0.000000000000000e+00
	1.479984612439112e-05,1.250356871533026e-13
	1.479984969118757e-05,1.433221667995107e-13
	4.755729897815595e-05,-1.489210341484603e-13
	9.829991748953574e-06,4.514990359783718e-13
	-7.893252936811667e-06,-7.521984981382522e-14
	-4.949403779029785e-05,-2.273581520160863e-13
	-4.755729897815596e-05,1.489210341484604e-13
	-9.829991749477074e-06,-4.514990359783719e-13
	-4.755729897815596e-05,1.489210341484604e-13
1		1.023292992280754e+00,0.000000000000000e+00
	-4.755729897815595e-01,1.523898506473223e-09
	1.000000000000000e+00,0.000000000000000e+00
	0.000000000000000e+00,0.000000000000000e+00
	1.479984612439112e-05,1.279481424489833e-13
	1.479984969118757e-05,1.466605689244327e-13
	4.755729897815595e-05,-1.523898506473224e-13
	9.829991748953574e-06,4.620157995381841e-13
	-7.893252936811667e-06,-7.697194519489817e-14
	-4.949403779029785e-05,-2.326540036959636e-13
	-4.755729897815596e-05,1.523898506473224e-13
	-9.829991749477074e-06,-4.620157995381841e-13
	-4.755729897815596e-05,1.523898506473224e-13
2		1.047128548050899e+00,0.000000000000000e+00
	-4.755729897815595e-01,1.559394662621156e-09
	1.000000000000000e+00,0.000000000000000e+00
	0.000000000000000e+00,0.000000000000000e+00
	1.479984612439112e-05,1.309284375433843e-13
	1.479984969118757e-05,1.500767324242805e-13
	4.755729897815595e-05,-1.559394662621157e-13
	9.829991748953574e-06,4.727775299904134e-13
	-7.893252936811667e-06,-7.876485212015753e-14
	-4.949403779029785e-05,-2.380732116081401e-13
	-4.755729897815596e-05,1.559394662621157e-13
	-9.829991749477074e-06,-4.727775299904134e-13
	-4.755729897815596e-05,1.559394662621157e-13
3		1.071519305237606e+00,0.000000000000000e+00
	-4.755729897815595e-01,1.595717630460240e-09
	1.000000000000000e+00,0.000000000000000e+00
	0.000000000000000e+00,0.000000000000000e+00
	1.479984612439112e-05,1.339781526284135e-13
	1.479984969118757e-05,1.535724685941600e-13
	4.755729897815595e-05,-1.595717630460241e-13
	9.829991748953574e-06,4.837899333469940e-13
	-7.893252936811667e-06,-8.059952121258712e-14
	-4.949403779029785e-05,-2.436186490883828e-13
	-4.755729897815596e-05,1.595717630460241e-13
	-9.829991749477074e-06,-4.837899333469939e-13
	-4.755729897815596e-05,1.595717630460241e-13
4		1.096478196143185e+00,0.000000000000000e+00
	-4.755729897815595e-01,1.632886668908814e-09
	1.000000000000000e+00,0.000000000000000e+00
	0.000000000000000e+00,0.000000000000000e+00
	1.479984612439112e-05,1.370989047033768e-13
	1.479984969118757e-05,1.571496309196601e-13
	4.755729897815595e-05,-1.632886668908814e-13
	9.829991748953574e-06,4.950588485299519e-13
	-7.893252936811667e-06,-8.247692523802436e-14
	-4.949403779029785e-05,-2.492932564010462e-13
	-4.755729897815596e-05,1.632886668908814e-13
	-9.829991749477074e-06,-4.950588485299520e-13
	-4.755729897815596e-05,1.632886668908814e-13
5		1.122018454301963e+00,0.000000000000000e+00
	-4.755729897815595e-01,1.670921485483053e-09
	1.000000000000000e+00,0.000000000000000e+00
	0.000000000000000e+00,0.000000000000000e+00
	1.479984612439112e-05,1.402923484323324e-13
	1.479984969118757e-05,1.608101160595951e-13
	4.755729897815595e-05,-1.670921485483053e-13
	9.829991748953574e-06,5.065902504672793e-13
	-7.893252936811667e-06,-8.439805962093402e-14
	-4.949403779029785e-05,-2.551000422980400e-13
	-4.755729897815596e-05,1.670921485483053e-13
	-9.829991749477074e-06,-5.065902504672792e-13
	-4.755729897815596e-05,1.670921485483053e-13
6		1.148153621496882e+00,0.000000000000000e+00
	-4.755729897815595e-01,1.709842246746156e-09
	1.000000000000000e+00,0.000000000000000e+00
	0.000000000000000e+00,0.000000000000000e+00
	1.479984612439112e-05,1.435601770214156e-13
	1.479984969118757e-05,1.645558648516385e-13
	4.755729897815595e-05,-1.709842246746156e-13
	9.829991748953574e-06,5.183902532609189e-13
	-7.893252936811667e-06,-8.636394297219504e-14
	-4.949403779029785e-05,-2.610420856141082e-13
	-4.755729897815596e-05,1.709842246746156e-13
	-9.829991749477074e-06,-5.183902532609189e-13
	-4.755729897815596e-05,1.709842246746156e-13
7		1.174897554939529e+00,0.000000000000000e+00
	-4.755729897815595e-01,1.749669589000922e-09
	1.000000000000000e+00,0.000000000000000e+00
	0.000000000000000e+00,0.000000000000000e+00
	1.479984612439112e-05,1.469041231165991e-13
	1.479984969118757e-05,1.683888633413805e-13
	4.755729897815595e-05,-1.749669589000922e-13
	9.829991748953574e-06,5.304651134285435e-13
	-7.893252936811667e-06,-8.837561762918186e-14
	-4.949403779029785e-05,-2.671225368992695e-13
	-4.755729897815596e-05,1.749669589000922e-13
	-9.829991749477074e-06,-5.304651134285436e-13
	-4.755729897815596e-05,1.749669589000922e-13
8		1.202264434617413e+00,0.000000000000000e+00
	-4.755729897815595e-01,1.790424629231391e-09
	1.000000000000000e+00,0.000000000000000e+00
	0.000000000000000e+00,0.000000000000000e+00
	1.479984612439112e-05,1.503259597223651e-13
	1.479984969118757e-05,1.723111438353563e-13
	4.755729897815595e-05,-1.790424629231391e-13
	9.829991748953574e-06,5.428212332208441e-13
	-7.893252936811667e-06,-9.043415020842530e-14
	-4.949403779029785e-05,-2.733446200892798e-13
	-4.755729897815596e-05,1.790424629231391e-13
	-9.829991749477074e-06,-5.428212332208440e-13
	-4.755729897815596e-05,1.790424629231391e-13
9		1.230268770812381e+00,0.000000000000000e+00
	-4.755729897815595e-01,1.832128976299349e-09
	1.000000000000000e+00,0.000000000000000e+00
	0.000000000000000e+00,0.000000000000000e+00
	1.479984612439112e-05,1.538275011417750e-13
	1.479984969118757e-05,1.763247859786011e-13
	4.755729897815595e-05,-1.832128976299349e-13
	9.829991748953574e-06,5.554651640160866e-13
	-7.893252936811667e-06,-9.254063217114667e-14
	-4.949403779029785e-05,-2.797116342150050e-13
	-4.755729897815596e-05,1.832128976299350e-13
	-9.829991749477074e-06,-5.554651640160864e-13
	-4.755729897815596e-05,1.832128976299350e-13
10		1.258925411794167e+00,0.000000000000000e+00
	-4.755729897815595e-01,1.874804742401636e-09
	1.000000000000000e+00,0.000000000000000e+00
	0.000000000000000e+00,0.000000000000000e+00
	1.479984612439112e-05,1.574106039384381e-13
	1.479984969118757e-05,1.804319178573063e-13
	4.755729897815595e-05,-1.874804742401636e-13
	9.829991748953574e-06,5.684036097937410e-13
	-7.893252936811667e-06,-9.469618040196535e-14
	-4.949403779029785e-05,-2.862269551516122e-13
	-4.755729897815596e-05,1.874804742401636e-13
	-9.829991749477074e-06,-5.684036097937411e-13
	-4.755729897815596e-05,1.874804742401636e-13
11		1.288249551693134e+00,0.000000000000000e+00
	-4.755729897815595e-01,1.918474554794319e-09
	1.000000000000000e+00,0.000000000000000e+00
	0.000000000000000e+00,0.000000000000000e+00
	1.479984612439112e-05,1.610771679208850e-13
	1.479984969118757e-05,1.846347171271582e-13
	4.755729897815595e-05,-1.918474554794319e-13
	9.829991748953574e-06,5.816434306890197e-13
	-7.893252936811667e-06,-9.690193780108521e-14
	-4.949403779029785e-05,-2.928940374085026e-13
	-4.755729897815596e-05,1.918474554794319e-13
	-9.829991749477074e-06,-5.816434306890196e-13
	-4.755729897815596e-05,1.918474554794319e-13
12		1.318256738556407e+00,0.000000000000000e+00
	-4.755729897815595e-01,1.963161567789966e-09
	1.000000000000000e+00,0.000000000000000e+00
	0.000000000000000e+00,0.000000000000000e+00
	1.479984612439112e-05,1.648291371498720e-13
	1.479984969118757e-05,1.889354121679604e-13
	4.755729897815595e-05,-1.963161567789966e-13
	9.829991748953574e-06,5.951916466302103e-13
	-7.893252936811667e-06,-9.915907389027603e-14
	-4.949403779029785e-05,-2.997164159609377e-13
	-4.755729897815596e-05,1.963161567789966e-13
	-9.829991749477074e-06,-5.951916466302102e-13
	-4.755729897815596e-05,1.963161567789966e-13
13		1.348962882591653e+00,0.000000000000000e+00
	-4.755729897815595e-01,2.008889475034371e-09
	1.000000000000000e+00,0.000000000000000e+00
	0.000000000000000e+00,0.000000000000000e+00
	1.479984612439112e-05,1.686685009691472e-13
	1.479984969118757e-05,1.933362832651497e-13
	4.755729897815595e-05,-2.008889475034371e-13
	9.829991748953574e-06,6.090554410607371e-13
	-7.893252936811667e-06,-1.014687854329689e-13
	-4.949403779029785e-05,-3.066977081243311e-13
	-4.755729897815596e-05,2.008889475034371e-13
	-9.829991749477074e-06,-6.090554410607371e-13
	-4.755729897815596e-05,2.008889475034371e-13
14		1.380384264602885e+00,0.000000000000000e+00
	-4.755729897815595e-01,2.055682522069235e-09
	1.000000000000000e+00,0.000000000000000e+00
	0.000000000000000e+00,0.000000000000000e+00
	1.479984612439112e-05,1.725972950602280e-13
	1.479984969118757e-05,1.978396638188346e-13
	4.755729897815595e-05,-2.055682522069235e-13
	9.829991748953574e-06,6.232421647479163e-13
	-7.893252936811667e-06,-1.038322970687966e-13
	-4.949403779029785e-05,-3.138416154721962e-13
	-4.755729897815596e-05,2.055682522069235e-13
	-9.829991749477074e-06,-6.232421647479161e-13
	-4.755729897815596e-05,2.055682522069235e-13
15		1.412537544622754e+00,0.000000000000000e+00
	-4.755729897815595e-01,2.103565519187474e-09
	1.000000000000000e+00,0.000000000000000e+00
	0.000000000000000e+00,0.000000000000000e+00
	1.479984612439112e-05,1.766176025217449e-13
	1.479984969118757e-05,2.024479415809937e-13
	4.755729897815595e-05,-2.103565519187475e-13
	9.829991748953574e-06,6.377593396804299e-13
	-7.893252936811667e-06,-1.062508619629130e-13
	-4.949403779029785e-05,-3.211519257987694e-13
	-4.755729897815596e-05,2.103565519187475e-13
	-9.829991749477074e-06,-6.377593396804298e-13
	-4.755729897815596e-05,2.103565519187475e-13
16		1.445439770745927e+00,0.000000000000000e+00
	-4.755729897815595e-01,2.152563854587969e-09
	1.000000000000000e+00,0.000000000000000e+00
	0.000000000000000e+00,0.000000000000000e+00
	1.479984612439112e-05,1.807315549739292e-13
	1.479984969118757e-05,2.071635599214943e-13
	4.755729897815595e-05,-2.152563854587969e-13
	9.829991748953574e-06,6.526146630565850e-13
	-7.893252936811667e-06,-1.087257624704386e-13
	-4.949403779029785e-05,-3.286325151273494e-13
	-4.755729897815596e-05,2.152563854587969e-13
	-9.829991749477074e-06,-6.526146630565849e-13
	-4.755729897815596e-05,2.152563854587969e-13
17		1.479108388168207e+00,0.000000000000000e+00
	-4.755729897815595e-01,2.202703507836716e-09
	1.000000000000000e+00,0.000000000000000e+00
	0.000000000000000e+00,0.000000000000000e+00
	1.479984612439112e-05,1.849413336888256e-13
	1.479984969118757e-05,2.119890191235992e-13
	4.755729897815595e-05,-2.202703507836716e-13
	9.829991748953574e-06,6.678160113654688e-13
	-7.893252936811667e-06,-1.112583108163816e-13
	-4.949403779029785e-05,-3.362873497654155e-13
	-4.755729897815596e-05,2.202703507836716e-13
	-9.829991749477074e-06,-6.678160113654688e-13
	-4.755729897815596e-05,2.202703507836716e-13
18		1.513561248436208e+00,0.000000000000000e+00
	-4.755729897815595e-01,2.254011063641547e-09
	1.000000000000000e+00,0.000000000000000e+00
	0.000000000000000e+00,0.000000000000000e+00
	1.479984612439112e-05,1.892491707468318e-13
	1.479984969118757e-05,2.169268777096498e-13
	4.755729897815595e-05,-2.254011063641547e-13
	9.829991748953574e-06,6.833714445631687e-13
	-7.893252936811667e-06,-1.138498497913974e-13
	-4.949403779029785e-05,-3.441204884076166e-13
	-4.755729897815596e-05,2.254011063641547e-13
	-9.829991749477074e-06,-6.833714445631687e-13
	-4.755729897815596e-05,2.254011063641547e-13
19		1.548816618912481e+00,0.000000000000000e+00
	-4.755729897815595e-01,2.306513725947684e-09
	1.000000000000000e+00,0.000000000000000e+00
	0.000000000000000e+00,0.000000000000000e+00
	1.479984612439112e-05,1.936573502201768e-13
	1.479984969118757e-05,2.219797537976287e-13
	4.755729897815595e-05,-2.306513725947684e-13
	9.829991748953574e-06,6.992892103462663e-13
	-7.893252936811667e-06,-1.165017534637534e-13
	-4.949403779029785e-05,-3.521360842877446e-13
	-4.755729897815596e-05,2.306513725947684e-13
	-9.829991749477074e-06,-6.992892103462662e-13
	-4.755729897815596e-05,2.306513725947684e-13
20		1.584893192461113e+00,0.000000000000000e+00
	-4.755729897815595e-01,2.360239332361637e-09
	1.000000000000000e+00,0.000000000000000e+00
	0.000000000000000e+00,0.000000000000000e+00
	1.479984612439112e-05,1.981682093839667e-13
	1.479984969118757e-05,2.271503264893206e-13
	4.755729897815595e-05,-2.360239332361637e-13
	9.829991748953574e-06,7.155777485248766e-13
	-7.893252936811667e-06,-1.192154279078789e-13
	-4.949403779029785e-05,-3.603383873808340e-13
	-4.755729897815596e-05,2.360239332361637e-13
	-9.829991749477074e-06,-7.155777485248765e-13
	-4.755729897815596e-05,2.360239332361637e-13
21		1.621810097358929e+00,0.000000000000000e+00
	-4.755729897815595e-01,2.415216368911068e-09
	1.000000000000000e+00,0.000000000000000e+00
	0.000000000000000e+00,0.000000000000000e+00
	1.479984612439112e-05,2.027841399554383e-13
	1.479984969118757e-05,2.324413372908071e-13
	4.755729897815595e-05,-2.415216368911068e-13
	9.829991748953574e-06,7.322456954975458e-13
	-7.893252936811667e-06,-1.219923119498839e-13
	-4.949403779029785e-05,-3.687317466565551e-13
	-4.755729897815596e-05,2.415216368911068e-13
	-9.829991749477074e-06,-7.322456954975459e-13
	-4.755729897815596e-05,2.415216368911068e-13
22		1.659586907437560e+00,0.000000000000000e+00
	-4.755729897815595e-01,2.471473985148465e-09
	1.000000000000000e+00,0.000000000000000e+00
	0.000000000000000e+00,0.000000000000000e+00
	1.479984612439112e-05,2.075075893620798e-13
	1.479984969118757e-05,2.378555915660501e-13
	4.755729897815595e-05,-2.471473985148465e-13
	9.829991748953574e-06,7.493018888303857e-13
	-7.893252936811667e-06,-1.248338779304440e-13
	-4.949403779029785e-05,-3.773206123850953e-13
	-4.755729897815596e-05,2.471473985148465e-13
	-9.829991749477074e-06,-7.493018888303857e-13
	-4.755729897815596e-05,2.471473985148465e-13
23		1.698243652461743e+00,0.000000000000000e+00
	-4.755729897815595e-01,2.529042009606613e-09
	1.000000000000000e+00,0.000000000000000e+00
	0.000000000000000e+00,0.000000000000000e+00
	1.479984612439112e-05,2.123410620392886e-13
	1.479984969118757e-05,2.433959600243323e-13
	4.755729897815595e-05,-2.529042009606613e-13
	9.829991748953574e-06,7.667553719428665e-13
	-7.893252936811667e-06,-1.277416324854544e-13
	-4.949403779029785e-05,-3.861095384967508e-13
	-4.755729897815596e-05,2.529042009606613e-13
	-9.829991749477074e-06,-7.667553719428664e-13
	-4.755729897815596e-05,2.529042009606613e-13
24		1.737800828749374e+00,0.000000000000000e+00
	-4.755729897815595e-01,2.587950965614082e-09
	1.000000000000000e+00,0.000000000000000e+00
	0.000000000000000e+00,0.000000000000000e+00
	1.479984612439112e-05,2.172871207582567e-13
	1.479984969118757e-05,2.490653802423458e-13
	4.755729897815595e-05,-2.587950965614082e-13
	9.829991748953574e-06,7.846153989027582e-13
	-7.893252936811667e-06,-1.307171173448690e-13
	-4.949403779029785e-05,-3.951031849964810e-13
	-4.755729897815596e-05,2.587950965614082e-13
	-9.829991749477074e-06,-7.846153989027582e-13
	-4.755729897815596e-05,2.587950965614082e-13
25		1.778279410038922e+00,0.000000000000000e+00
	-4.755729897815595e-01,2.648232087479101e-09
	1.000000000000000e+00,0.000000000000000e+00
	0.000000000000000e+00,0.000000000000000e+00
	1.479984612439112e-05,2.223483879847861e-13
	1.479984969118757e-05,2.548668582217338e-13
	4.755729897815595e-05,-2.648232087479102e-13
	9.829991748953574e-06,8.028914393327610e-13
	-7.893252936811667e-06,-1.337619101501454e-13
	-4.949403779029785e-05,-4.043063204347054e-13
	-4.755729897815596e-05,2.648232087479102e-13
	-9.829991749477074e-06,-8.028914393327610e-13
	-4.755729897815596e-05,2.648232087479102e-13
26		1.819700858609982e+00,0.000000000000000e+00
	-4.755729897815595e-01,2.709917337050397e-09
	1.000000000000000e+00,0.000000000000000e+00
	0.000000000000000e+00,0.000000000000000e+00
	1.479984612439112e-05,2.275275472697538e-13
	1.479984969118757e-05,2.608034699829127e-13
	4.755729897815595e-05,-2.709917337050397e-13
	9.829991748953574e-06,8.215931834314224e-13
	-7.893252936811667e-06,-1.368776252907317e-13
	-4.949403779029785e-05,-4.137238244356511e-13
	-4.755729897815596e-05,2.709917337050398e-13
	-9.829991749477074e-06,-8.215931834314223e-13
	-4.755729897815596e-05,2.709917337050398e-13
27		1.862087136662866e+00,0.000000000000000e+00
	-4.755729897815595e-01,2.773039420663794e-09
	1.000000000000000e+00,0.000000000000000e+00
	0.000000000000000e+00,0.000000000000000e+00
	1.479984612439112e-05,2.328273446719672e-13
	1.479984969118757e-05,2.668783631960185e-13
	4.755729897815595e-05,-2.773039420663794e-13
	9.829991748953574e-06,8.407305471110108e-13
	-7.893252936811667e-06,-1.400659147600367e-13
	-4.949403779029785e-05,-4.233606902845948e-13
	-4.755729897815596e-05,2.773039420663794e-13
	-9.829991749477074e-06,-8.407305471110107e-13
	-4.755729897815596e-05,2.773039420663794e-13
28		1.905460717963246e+00,0.000000000000000e+00
	-4.755729897815595e-01,2.837631806483542e-09
	1.000000000000000e+00,0.000000000000000e+00
	0.000000000000000e+00,0.000000000000000e+00
	1.479984612439112e-05,2.382505902141598e-13
	1.479984969118757e-05,2.730947588498437e-13
	4.755729897815595e-05,-2.837631806483543e-13
	9.829991748953574e-06,8.603136772550618e-13
	-7.893252936811667e-06,-1.433284690313389e-13
	-4.949403779029785e-05,-4.332220275753685e-13
	-4.755729897815596e-05,2.837631806483542e-13
	-9.829991749477074e-06,-8.603136772550618e-13
	-4.755729897815596e-05,2.837631806483542e-13
29		1.949844599758044e+00,0.000000000000000e+00
	-4.755729897815595e-01,2.903728742247587e-09
	1.000000000000000e+00,0.000000000000000e+00
	0.000000000000000e+00,0.000000000000000e+00
	1.479984612439112e-05,2.438001593729033e-13
	1.479984969118757e-05,2.794559529596476e-13
	4.755729897815595e-05,-2.903728742247586e-13
	9.829991748953574e-06,8.803529570983911e-13
	-7.893252936811667e-06,-1.466670179540983e-13
	-4.949403779029785e-05,-4.433130649195342e-13
	-4.755729897815596e-05,2.903728742247587e-13
	-9.829991749477074e-06,-8.803529570983911e-13
	-4.755729897815596e-05,2.903728742247587e-13
30		1.995262314968878e+00,0.000000000000000e+00
	-4.755729897815595e-01,2.971365273426163e-09
	1.000000000000000e+00,0.000000000000000e+00
	0.000000000000000e+00,0.000000000000000e+00
	1.479984612439112e-05,2.494789946032230e-13
	1.479984969118757e-05,2.859653183147474e-13
	4.755729897815595e-05,-2.971365273426163e-13
	9.829991748953574e-06,9.008590117324230e-13
	-7.893252936811667e-06,-1.500833316711443e-13
	-4.949403779029785e-05,-4.536391527186625e-13
	-4.755729897815596e-05,2.971365273426163e-13
	-9.829991749477074e-06,-9.008590117324229e-13
	-4.755729897815596e-05,2.971365273426163e-13
31		2.041737944669527e+00,0.000000000000000e+00
	-4.755729897815595e-01,3.040577261803379e-09
	1.000000000000000e+00,0.000000000000000e+00
	0.000000000000000e+00,0.000000000000000e+00
	1.479984612439112e-05,2.552901068987261e-13
	1.479984969118757e-05,2.926263062668162e-13
	4.755729897815595e-05,-3.040577261803378e-13
	9.829991748953574e-06,9.218427137387538e-13
	-7.893252936811667e-06,-1.535792215572301e-13
	-4.949403779029785e-05,-4.642057660011860e-13
	-4.755729897815596e-05,3.040577261803379e-13
	-9.829991749477074e-06,-9.218427137387538e-13
	-4.755729897815596e-05,3.040577261803379e-13
32		2.089296130854037e+00,0.000000000000000e+00
	-4.755729897815595e-01,3.111401404491602e-09
	1.000000000000000e+00,0.000000000000000e+00
	0.000000000000000e+00,0.000000000000000e+00
	1.479984612439112e-05,2.612365773880710e-13
