Title: * GA CMOS Amp | W=1.4410654596587136e-06 L=5.700948397717032e-07 Vbias=0.8813150855055555
Date: Mon Sep  8 18:46:29 2025
Plotname: AC Analysis
Flags: complex forward log
No. Variables: 11
No. Points:          901
Offset:    0.0000000000000000e+00
Command: Linear Technology Corporation LTspice
Variables:
	0	frequency	frequency
	1	V(out)	voltage
	2	V(g)	voltage
	3	V(vdd)	voltage
	4	Id(M1)	device_current
	5	Ig(M1)	device_current
	6	Ib(M1)	device_current
	7	Is(M1)	device_current
	8	I(Rload)	device_current
	9	I(Vg)	device_current
	10	I(Vdd)	device_current
Values:
0		1.000000000000000e+00,0.000000000000000e+00
	-2.358001589666317e-01,2.234603699603160e-11
	1.000000000000000e+00,0.000000000000000e+00
	0.000000000000000e+00,0.000000000000000e+00
	2.358001589666317e-05,-2.234603699603160e-15
	4.046635492388516e-26,8.290046530713184e-15
	2.358001591022934e-13,-3.840634184654884e-16
	-2.358001613246333e-05,-5.671379412644535e-15
	-2.358001589666317e-05,2.234603699603160e-15
	-4.046635492388516e-26,-8.290046530713184e-15
	-2.358001589666317e-05,2.234603699603160e-15
1		1.023292992280754e+00,0.000000000000000e+00
	-2.358001589666317e-01,2.286654306328561e-11
	1.000000000000000e+00,0.000000000000000e+00
	0.000000000000000e+00,0.000000000000000e+00
	2.358001589666317e-05,-2.286654306328561e-15
	4.237347547636023e-26,8.483146520560178e-15
	2.358001591022934e-13,-3.930094047071261e-16
	-2.358001613246333e-05,-5.803482809524491e-15
	-2.358001589666317e-05,2.286654306328561e-15
	-4.237347547636023e-26,-8.483146520560178e-15
	-2.358001589666317e-05,2.286654306328561e-15
2		1.047128548050899e+00,0.000000000000000e+00
	-2.358001589666317e-01,2.339917327434625e-11
	1.000000000000000e+00,0.000000000000000e+00
	0.000000000000000e+00,0.000000000000000e+00
	2.358001589666317e-05,-2.339917327434625e-15
	4.437047585143147e-26,8.680744386980091e-15
	2.358001591022934e-13,-4.021637697372327e-16
	-2.358001613246333e-05,-5.938663289808234e-15
	-2.358001589666317e-05,2.339917327434625e-15
	-4.437047585143147e-26,-8.680744386980091e-15
	-2.358001589666317e-05,2.339917327434625e-15
3		1.071519305237606e+00,0.000000000000000e+00
	-2.358001589666317e-01,2.394421003680162e-11
	1.000000000000000e+00,0.000000000000000e+00
	0.000000000000000e+00,0.000000000000000e+00
	2.358001589666317e-05,-2.394421003680162e-15
	4.646159195463692e-26,8.882944898977217e-15
	2.358001591022934e-13,-4.115313673213198e-16
	-2.358001613246333e-05,-6.076992527975735e-15
	-2.358001589666317e-05,2.394421003680162e-15
	-4.646159195463692e-26,-8.882944898977217e-15
	-2.358001589666317e-05,2.394421003680162e-15
4		1.096478196143185e+00,0.000000000000000e+00
	-2.358001589666317e-01,2.450194233635760e-11
	1.000000000000000e+00,0.000000000000000e+00
	0.000000000000000e+00,0.000000000000000e+00
	2.358001589666317e-05,-2.450194233635760e-15
	4.865125932359231e-26,9.089855265939458e-15
	2.358001591022934e-13,-4.211171642836253e-16
	-2.358001613246333e-05,-6.218543868020073e-15
	-2.358001589666317e-05,2.450194233635760e-15
	-4.865125932359231e-26,-9.089855265939458e-15
	-2.358001589666317e-05,2.450194233635760e-15
5		1.122018454301963e+00,0.000000000000000e+00
	-2.358001589666317e-01,2.507266589006186e-11
	1.000000000000000e+00,0.000000000000000e+00
	0.000000000000000e+00,0.000000000000000e+00
	2.358001589666317e-05,-2.507266589006186e-15
	5.094412253636102e-26,9.301585194482158e-15
	2.358001591022934e-13,-4.309262431405755e-16
	-2.358001613246333e-05,-6.363392362335396e-15
	-2.358001589666317e-05,2.507266589006186e-15
	-5.094412253636102e-26,-9.301585194482158e-15
	-2.358001589666317e-05,2.507266589006186e-15
6		1.148153621496882e+00,0.000000000000000e+00
	-2.358001589666317e-01,2.565668330309700e-11
	1.000000000000000e+00,0.000000000000000e+00
	0.000000000000000e+00,0.000000000000000e+00
	2.358001589666317e-05,-2.565668330309700e-15
	5.334504506322682e-26,9.518246946616008e-15
	2.358001591022934e-13,-4.409638047956236e-16
	-2.358001613246333e-05,-6.511614811510684e-15
	-2.358001589666317e-05,2.565668330309700e-15
	-5.334504506322682e-26,-9.518246946616008e-15
	-2.358001589666317e-05,2.565668330309700e-15
7		1.174897554939529e+00,0.000000000000000e+00
	-2.358001589666317e-01,2.625430422922579e-11
	1.000000000000000e+00,0.000000000000000e+00
	0.000000000000000e+00,0.000000000000000e+00
	2.358001589666317e-05,-2.625430422922579e-15
	5.585911958276649e-26,9.739955399269844e-15
	2.358001591022934e-13,-4.512351712968190e-16
	-2.358001613246333e-05,-6.663289805050446e-15
	-2.358001589666317e-05,2.625430422922579e-15
	-5.585911958276649e-26,-9.739955399269844e-15
	-2.358001589666317e-05,2.625430422922579e-15
8		1.202264434617413e+00,0.000000000000000e+00
	-2.358001589666317e-01,2.686584553497372e-11
	1.000000000000000e+00,0.000000000000000e+00
	0.000000000000000e+00,0.000000000000000e+00
	2.358001589666317e-05,-2.686584553497372e-15
	5.849167878410386e-26,9.966828105199929e-15
	2.358001591022934e-13,-4.617457886586426e-16
	-2.358001613246333e-05,-6.818497763043914e-15
	-2.358001589666317e-05,2.686584553497372e-15
	-5.849167878410386e-26,-9.966828105199929e-15
	-2.358001589666317e-05,2.686584553497372e-15
9		1.230268770812381e+00,0.000000000000000e+00
	-2.358001589666317e-01,2.749163146763579e-11
	1.000000000000000e+00,0.000000000000000e+00
	0.000000000000000e+00,0.000000000000000e+00
	2.358001589666317e-05,-2.749163146763579e-15
	6.124830667825826e-26,1.019898535531795e-14
	2.358001591022934e-13,-4.725012297495389e-16
	-2.358001613246333e-05,-6.977320978804835e-15
	-2.358001589666317e-05,2.749163146763579e-15
	-6.124830667825826e-26,-1.019898535531795e-14
	-2.358001589666317e-05,2.749163146763579e-15
10		1.258925411794167e+00,0.000000000000000e+00
	-2.358001589666317e-01,2.813199382719677e-11
	1.000000000000000e+00,0.000000000000000e+00
	0.000000000000000e+00,0.000000000000000e+00
	2.358001589666317e-05,-2.813199382719677e-15
	6.413485044258080e-26,1.043655024247090e-14
	2.358001591022934e-13,-4.835071972467417e-16
	-2.358001613246333e-05,-7.139843662504480e-15
	-2.358001589666317e-05,2.813199382719677e-15
	-6.413485044258080e-26,-1.043655024247090e-14
	-2.358001589666317e-05,2.813199382719677e-15
11		1.288249551693134e+00,0.000000000000000e+00
	-2.358001589666317e-01,2.878727214225589e-11
	1.000000000000000e+00,0.000000000000000e+00
	0.000000000000000e+00,0.000000000000000e+00
	2.358001589666317e-05,-2.878727214225589e-15
	6.715743282340123e-26,1.067964872670648e-14
	2.358001591022934e-13,-4.947695266599006e-16
	-2.358001613246333e-05,-7.306151985820988e-15
	-2.358001589666317e-05,2.878727214225589e-15
	-6.715743282340123e-26,-1.067964872670648e-14
	-2.358001589666317e-05,2.878727214225589e-15
12		1.318256738556407e+00,0.000000000000000e+00
	-2.358001589666317e-01,2.945781385004942e-11
	1.000000000000000e+00,0.000000000000000e+00
	0.000000000000000e+00,0.000000000000000e+00
	2.358001589666317e-05,-2.945781385004942e-15
	7.032246512319395e-26,1.092840970205882e-14
	2.358001591022934e-13,-5.062941894251403e-16
	-2.358001613246333e-05,-7.476334127628734e-15
	-2.358001589666317e-05,2.945781385004942e-15
	-7.032246512319395e-26,-1.092840970205882e-14
	-2.358001589666317e-05,2.945781385004942e-15
13		1.348962882591653e+00,0.000000000000000e+00
	-2.358001589666317e-01,3.014397448066652e-11
	1.000000000000000e+00,0.000000000000000e+00
	0.000000000000000e+00,0.000000000000000e+00
	2.358001589666317e-05,-3.014397448066652e-15
	7.363666079981012e-26,1.118296506488979e-14
	2.358001591022934e-13,-5.180872960712102e-16
	-2.358001613246333e-05,-7.650480320751929e-15
	-2.358001589666317e-05,3.014397448066652e-15
	-7.363666079981012e-26,-1.118296506488979e-14
	-2.358001589666317e-05,3.014397448066652e-15
14		1.380384264602885e+00,0.000000000000000e+00
	-2.358001589666317e-01,3.084611784555593e-11
	1.000000000000000e+00,0.000000000000000e+00
	0.000000000000000e+00,0.000000000000000e+00
	2.358001589666317e-05,-3.084611784555593e-15
	7.710704970662175e-26,1.144344978382221e-14
	2.358001591022934e-13,-5.301550994593538e-16
	-2.358001613246333e-05,-7.828682899807266e-15
	-2.358001589666317e-05,3.084611784555593e-15
	-7.710704970662175e-26,-1.144344978382221e-14
	-2.358001589666317e-05,3.084611784555593e-15
15		1.412537544622754e+00,0.000000000000000e+00
	-2.358001589666317e-01,3.156461623042370e-11
	1.000000000000000e+00,0.000000000000000e+00
	0.000000000000000e+00,0.000000000000000e+00
	2.358001589666317e-05,-3.156461623042370e-15
	8.074099300378338e-26,1.171000197130198e-14
	2.358001591022934e-13,-5.425039980986631e-16
	-2.358001613246333e-05,-8.011036350160948e-15
	-2.358001589666317e-05,3.156461623042370e-15
	-8.074099300378338e-26,-1.171000197130198e-14
	-2.358001589666317e-05,3.156461623042370e-15
16		1.445439770745927e+00,0.000000000000000e+00
	-2.358001589666317e-01,3.229985059262391e-11
	1.000000000000000e+00,0.000000000000000e+00
	0.000000000000000e+00,0.000000000000000e+00
	2.358001589666317e-05,-3.229985059262392e-15
	8.454619877223947e-26,1.198276295682713e-14
	2.358001591022934e-13,-5.551405395386541e-16
	-2.358001613246333e-05,-8.197637358026086e-15
	-2.358001589666317e-05,3.229985059262391e-15
	-8.454619877223947e-26,-1.198276295682713e-14
	-2.358001589666317e-05,3.229985059262391e-15
17		1.479108388168207e+00,0.000000000000000e+00
	-2.358001589666317e-01,3.305221076314742e-11
	1.000000000000000e+00,0.000000000000000e+00
	0.000000000000000e+00,0.000000000000000e+00
	2.358001589666317e-05,-3.305221076314742e-15
	8.853073836359788e-26,1.226187736188261e-14
	2.358001591022934e-13,-5.680714238408615e-16
	-2.358001613246333e-05,-8.388584861727008e-15
	-2.358001589666317e-05,3.305221076314742e-15
	-8.853073836359788e-26,-1.226187736188261e-14
	-2.358001589666317e-05,3.305221076314742e-15
18		1.513561248436208e+00,0.000000000000000e+00
	-2.358001589666317e-01,3.382209565331527e-11
	1.000000000000000e+00,0.000000000000000e+00
	0.000000000000000e+00,0.000000000000000e+00
	2.358001589666317e-05,-3.382209565331527e-15
	9.270306352054832e-26,1.254749317662050e-14
	2.358001591022934e-13,-5.813035071313029e-16
	-2.358001613246333e-05,-8.583980104157667e-15
	-2.358001589666317e-05,3.382209565331527e-15
	-9.270306352054832e-26,-1.254749317662050e-14
	-2.358001589666317e-05,3.382209565331527e-15
19		1.548816618912481e+00,0.000000000000000e+00
	-2.358001589666317e-01,3.460991346628687e-11
	1.000000000000000e+00,0.000000000000000e+00
	0.000000000000000e+00,0.000000000000000e+00
	2.358001589666317e-05,-3.460991346628687e-15
	9.707202430414206e-26,1.283976183832633e-14
	2.358001591022934e-13,-5.948438052356873e-16
	-2.358001613246333e-05,-8.783926686461959e-15
	-2.358001589666317e-05,3.460991346628687e-15
	-9.707202430414206e-26,-1.283976183832633e-14
	-2.358001589666317e-05,3.460991346628687e-15
20		1.584893192461113e+00,0.000000000000000e+00
	-2.358001589666317e-01,3.541608191349465e-11
	1.000000000000000e+00,0.000000000000000e+00
	0.000000000000000e+00,0.000000000000000e+00
	2.358001589666317e-05,-3.541608191349466e-15
	1.016468878659579e-25,1.313883831171319e-14
	2.358001591022934e-13,-6.086994973992967e-16
	-2.358001613246333e-05,-8.988530622964428e-15
	-2.358001589666317e-05,3.541608191349466e-15
	-1.016468878659579e-25,-1.313883831171319e-14
	-2.358001589666317e-05,3.541608191349466e-15
21		1.621810097358929e+00,0.000000000000000e+00
	-2.358001589666317e-01,3.624102843612024e-11
	1.000000000000000e+00,0.000000000000000e+00
	0.000000000000000e+00,0.000000000000000e+00
	2.358001589666317e-05,-3.624102843612024e-15
	1.064373581049731e-25,1.344488117108600e-14
	2.358001591022934e-13,-6.228779300935194e-16
	-2.358001613246333e-05,-9.197900397380459e-15
	-2.358001589666317e-05,3.624102843612024e-15
	-1.064373581049731e-25,-1.344488117108600e-14
	-2.358001589666317e-05,3.624102843612024e-15
22		1.659586907437560e+00,0.000000000000000e+00
	-2.358001589666317e-01,3.708519043172938e-11
	1.000000000000000e+00,0.000000000000000e+00
	0.000000000000000e+00,0.000000000000000e+00
	2.358001589666317e-05,-3.708519043172938e-15
	1.114535962508341e-25,1.375805268441976e-14
	2.358001591022934e-13,-6.373866209110378e-16
	-2.358001613246333e-05,-9.412147020335788e-15
	-2.358001589666317e-05,3.708519043172938e-15
	-1.114535962508341e-25,-1.375805268441976e-14
	-2.358001589666317e-05,3.708519043172938e-15
23		1.698243652461743e+00,0.000000000000000e+00
	-2.358001589666317e-01,3.794901548618595e-11
	1.000000000000000e+00,0.000000000000000e+00
	0.000000000000000e+00,0.000000000000000e+00
	2.358001589666317e-05,-3.794901548618596e-15
	1.167062424171871e-25,1.407851889939616e-14
	2.358001591022934e-13,-6.522332625517751e-16
	-2.358001613246333e-05,-9.631384088225793e-15
	-2.358001589666317e-05,3.794901548618595e-15
	-1.167062424171871e-25,-1.407851889939616e-14
	-2.358001589666317e-05,3.794901548618595e-15
24		1.737800828749374e+00,0.000000000000000e+00
	-2.358001589666317e-01,3.883296161096789e-11
	1.000000000000000e+00,0.000000000000000e+00
	0.000000000000000e+00,0.000000000000000e+00
	2.358001589666317e-05,-3.883296161096789e-15
	1.222064381707854e-25,1.440644973144425e-14
	2.358001591022934e-13,-6.674257269016445e-16
	-2.358001613246333e-05,-9.855727843445812e-15
	-2.358001589666317e-05,3.883296161096789e-15
	-1.222064381707854e-25,-1.440644973144425e-14
	-2.358001589666317e-05,3.883296161096789e-15
25		1.778279410038922e+00,0.000000000000000e+00
	-2.358001589666317e-01,3.973749748601100e-11
	1.000000000000000e+00,0.000000000000000e+00
	0.000000000000000e+00,0.000000000000000e+00
	2.358001589666317e-05,-3.973749748601099e-15
	1.279658501642466e-25,1.474201905383185e-14
	2.358001591022934e-13,-6.829720692063434e-16
	-2.358001613246333e-05,-1.008529723602441e-14
	-2.358001589666317e-05,3.973749748601100e-15
	-1.279658501642466e-25,-1.474201905383185e-14
	-2.358001589666317e-05,3.973749748601100e-15
26		1.819700858609982e+00,0.000000000000000e+00
	-2.358001589666317e-01,4.066310270820912e-11
	1.000000000000000e+00,0.000000000000000e+00
	0.000000000000000e+00,0.000000000000000e+00
	2.358001589666317e-05,-4.066310270820913e-15
	1.339966948825864e-25,1.508540478985548e-14
	2.358001591022934e-13,-6.988805323423323e-16
	-2.358001613246333e-05,-1.032021398669224e-14
	-2.358001589666317e-05,4.066310270820913e-15
	-1.339966948825864e-25,-1.508540478985548e-14
	-2.358001589666317e-05,4.066310270820913e-15
27		1.862087136662866e+00,0.000000000000000e+00
	-2.358001589666317e-01,4.161026804570295e-11
	1.000000000000000e+00,0.000000000000000e+00
	0.000000000000000e+00,0.000000000000000e+00
	2.358001589666317e-05,-4.161026804570295e-15
	1.403117645560221e-25,1.543678900717764e-14
	2.358001591022934e-13,-7.151595511873536e-16
	-2.358001613246333e-05,-1.056060265141999e-14
	-2.358001589666317e-05,4.161026804570295e-15
	-1.403117645560221e-25,-1.543678900717764e-14
	-2.358001589666317e-05,4.161026804570295e-15
28		1.905460717963246e+00,0.000000000000000e+00
	-2.358001589666317e-01,4.257949569809162e-11
	1.000000000000000e+00,0.000000000000000e+00
	0.000000000000000e+00,0.000000000000000e+00
	2.358001589666317e-05,-4.257949569809162e-15
	1.469244542940071e-25,1.579635801436145e-14
	2.358001591022934e-13,-7.318177570926679e-16
	-2.358001613246333e-05,-1.080659068745963e-14
	-2.358001589666317e-05,4.257949569809162e-15
	-1.469244542940071e-25,-1.579635801436145e-14
	-2.358001589666317e-05,4.257949569809162e-15
29		1.949844599758044e+00,0.000000000000000e+00
	-2.358001589666317e-01,4.357129956270568e-11
	1.000000000000000e+00,0.000000000000000e+00
	0.000000000000000e+00,0.000000000000000e+00
	2.358001589666317e-05,-4.357129956270568e-15
	1.538487904980544e-25,1.616430245965401e-14
	2.358001591022934e-13,-7.488639824595478e-16
	-2.358001613246333e-05,-1.105830852092389e-14
	-2.358001589666317e-05,4.357129956270568e-15
	-1.538487904980544e-25,-1.616430245965401e-14
	-2.358001589666317e-05,4.357129956270568e-15
30		1.995262314968878e+00,0.000000000000000e+00
	-2.358001589666317e-01,4.458620550708219e-11
	1.000000000000000e+00,0.000000000000000e+00
	0.000000000000000e+00,0.000000000000000e+00
	2.358001589666317e-05,-4.458620550708219e-15
	1.610994606136147e-25,1.654081743207050e-14
	2.358001591022934e-13,-7.663072654223136e-16
	-2.358001613246333e-05,-1.131588961593997e-14
	-2.358001589666317e-05,4.458620550708219e-15
	-1.610994606136147e-25,-1.654081743207050e-14
	-2.358001589666317e-05,4.458620550708219e-15
31		2.041737944669527e+00,0.000000000000000e+00
	-2.358001589666317e-01,4.562475164778677e-11
	1.000000000000000e+00,0.000000000000000e+00
	0.000000000000000e+00,0.000000000000000e+00
	2.358001589666317e-05,-4.562475164778678e-15
	1.686918442841174e-25,1.692610256483308e-14
	2.358001591022934e-13,-7.841568546404801e-16
	-2.358001613246333e-05,-1.157947054541392e-14
	-2.358001589666317e-05,4.562475164778677e-15
	-1.686918442841174e-25,-1.692610256483308e-14
	-2.358001589666317e-05,4.562475164778677e-15
32		2.089296130854037e+00,0.000000000000000e+00
	-2.358001589666317e-01,4.668748863573000e-11
	1.000000000000000e+00,0.000000000000000e+00
	0.000000000000000e+00,0.000000000000000e+00
	2.358001589666317e-05,-4.668748863573000e-15
	1.766420459732563e-25,1.732036214121899e-14
	2.358001591022934e-13,-8.024222142025229e-16
	-2.358001613246333e-05,-1.184919106344347e-14
	-2.358001589666317e-05,4.668748863573001e-15
	-1.766420459732563e-25,-1.732036214121899e-14
	-2.358001589666317e-05,4.668748863573001e-15
33		2.137962089502230e+00,0.000000000000000e+00
	-2.358001589666317e-01,4.777497994812984e-11
	1.000000000000000e+00,0.000000000000000e+00
	0.000000000000000e+00,0.000000000000000e+00
	2.358001589666317e-05,-4.777497994812985e-15
	1.849669291247161e-25,1.772380520287427e-14
	2.358001591022934e-13,-8.211130286438462e-16
	-2.358001613246333e-05,-1.212519417941744e-14
	-2.358001589666317e-05,4.777497994812984e-15
	-1.849669291247161e-25,-1.772380520287427e-14
	-2.358001589666317e-05,4.777497994812984e-15
34		2.187761623949550e+00,0.000000000000000e+00
	-2.358001589666317e-01,4.888780218727482e-11
	1.000000000000000e+00,0.000000000000000e+00
	0.000000000000000e+00,0.000000000000000e+00
	2.358001589666317e-05,-4.888780218727482e-15
	1.936841519317976e-25,1.813664566065041e-14
	2.358001591022934e-13,-8.402392080816746e-16
	-2.358001613246333e-05,-1.240762623384125e-14
	-2.358001589666317e-05,4.888780218727482e-15
	-1.936841519317976e-25,-1.813664566065041e-14
	-2.358001589666317e-05,4.888780218727482e-15
35		2.238721138568337e+00,0.000000000000000e+00
	-2.358001589666317e-01,5.002654538624604e-11
	1.000000000000000e+00,0.000000000000000e+00
	0.000000000000000e+00,0.000000000000000e+00
	2.358001589666317e-05,-5.002654538624605e-15
	2.028122047928130e-25,1.855910240802271e-14
	2.358001591022934e-13,-8.598108934695056e-16
	-2.358001613246333e-05,-1.269663697592860e-14
	-2.358001589666317e-05,5.002654538624604e-15
	-2.028122047928130e-25,-1.855910240802271e-14
	-2.358001589666317e-05,5.002654538624604e-15
36		2.290867652767770e+00,0.000000000000000e+00
	-2.358001589666317e-01,5.119181332176068e-11
	1.000000000000000e+00,0.000000000000000e+00
	0.000000000000000e+00,0.000000000000000e+00
	2.358001589666317e-05,-5.119181332176068e-15
	2.123704495317000e-25,1.899139943715051e-14
	2.358001591022934e-13,-8.798384619739982e-16
	-2.358001613246333e-05,-1.299237964300044e-14
	-2.358001589666317e-05,5.119181332176068e-15
	-2.123704495317000e-25,-1.899139943715051e-14
	-2.358001589666317e-05,5.119181332176068e-15
37		2.344228815319919e+00,0.000000000000000e+00
	-2.358001589666317e-01,5.238422383430225e-11
	1.000000000000000e+00,0.000000000000000e+00
	0.000000000000000e+00,0.000000000000000e+00
	2.358001589666317e-05,-5.238422383430225e-15
	2.223791604670458e-25,1.943376595764078e-14
	2.358001591022934e-13,-9.003325324770727e-16
	-2.358001613246333e-05,-1.329501104173348e-14
	-2.358001589666317e-05,5.238422383430225e-15
	-2.223791604670458e-25,-1.943376595764078e-14
	-2.358001589666317e-05,5.238422383430225e-15
38		2.398832919019488e+00,0.000000000000000e+00
	-2.358001589666317e-01,5.360440915570795e-11
	1.000000000000000e+00,0.000000000000000e+00
