Title: * GA CMOS Amp | W=2.904607683521253e-05 L=6.86804594860233e-07 Vbias=0.8682812076288349
Date: Mon Sep  8 18:47:16 2025
Plotname: AC Analysis
Flags: complex forward log
No. Variables: 11
No. Points:          901
Offset:    0.0000000000000000e+00
Command: Linear Technology Corporation LTspice
Variables:
	0	frequency	frequency
	1	V(out)	voltage
	2	V(g)	voltage
	3	V(vdd)	voltage
	4	Id(M1)	device_current
	5	Ig(M1)	device_current
	6	Ib(M1)	device_current
	7	Is(M1)	device_current
	8	I(Rload)	device_current
	9	I(Vg)	device_current
	10	I(Vdd)	device_current
Values:
0		1.000000000000000e+00,0.000000000000000e+00
	-7.033417766480309e+00,2.509023382999664e-09
	1.000000000000000e+00,0.000000000000000e+00
	0.000000000000000e+00,0.000000000000000e+00
	7.033417766480309e-04,-2.509023382999664e-13
	9.158029847916708e-23,4.363085720707666e-13
	7.033417685070598e-12,-4.323153866741174e-15
	-7.033417836814486e-04,-1.810830799040591e-13
	-7.033417766480308e-04,2.509023382999665e-13
	-9.158029847916708e-23,-4.363085720707666e-13
	-7.033417766480308e-04,2.509023382999665e-13
1		1.023292992280754e+00,0.000000000000000e+00
	-7.033417766480309e+00,2.567466045292107e-09
	1.000000000000000e+00,0.000000000000000e+00
	0.000000000000000e+00,0.000000000000000e+00
	7.033417766480309e-04,-2.567466045292107e-13
	9.589634497655820e-23,4.464715042720379e-13
	7.033417685070598e-12,-4.423853056387679e-15
	-7.033417836814486e-04,-1.853010466864395e-13
	-7.033417766480308e-04,2.567466045292107e-13
	-9.589634497655820e-23,-4.464715042720379e-13
	-7.033417766480308e-04,2.567466045292107e-13
2		1.047128548050899e+00,0.000000000000000e+00
	-7.033417766480309e+00,2.627270012066194e-09
	1.000000000000000e+00,0.000000000000000e+00
	0.000000000000000e+00,0.000000000000000e+00
	7.033417766480309e-04,-2.627270012066194e-13
	1.004158004786916e-22,4.568711615746231e-13
	7.033417685070598e-12,-4.526897831481360e-15
	-7.033417836814486e-04,-1.896172625365224e-13
	-7.033417766480308e-04,2.627270012066194e-13
	-1.004158004786916e-22,-4.568711615746231e-13
	-7.033417766480308e-04,2.627270012066194e-13
3		1.071519305237606e+00,0.000000000000000e+00
	-7.033417766480309e+00,2.688466992176708e-09
	1.000000000000000e+00,0.000000000000000e+00
	0.000000000000000e+00,0.000000000000000e+00
	7.033417766480309e-04,-2.688466992176708e-13
	1.051482513566211e-22,4.675130580144799e-13
	7.033417685070598e-12,-4.632342827725718e-15
	-7.033417836814486e-04,-1.940340159690833e-13
	-7.033417766480308e-04,2.688466992176708e-13
	-1.051482513566211e-22,-4.675130580144799e-13
	-7.033417766480308e-04,2.688466992176708e-13
4		1.096478196143185e+00,0.000000000000000e+00
	-7.033417766480309e+00,2.751089433072542e-09
	1.000000000000000e+00,0.000000000000000e+00
	0.000000000000000e+00,0.000000000000000e+00
	7.033417766480309e-04,-2.751089433072542e-13
	1.101037357731496e-22,4.784028360659628e-13
	7.033417685070598e-12,-4.740243953453793e-15
	-7.033417836814486e-04,-1.985536488052548e-13
	-7.033417766480308e-04,2.751089433072542e-13
	-1.101037357731496e-22,-4.784028360659628e-13
	-7.033417766480308e-04,2.751089433072542e-13
5		1.122018454301963e+00,0.000000000000000e+00
	-7.033417766480309e+00,2.815170538000766e-09
	1.000000000000000e+00,0.000000000000000e+00
	0.000000000000000e+00,0.000000000000000e+00
	7.033417766480309e-04,-2.815170538000765e-13
	1.152927649751181e-22,4.895462696335383e-13
	7.033417685070598e-12,-4.850658419270554e-15
	-7.033417836814486e-04,-2.031785574141912e-13
	-7.033417766480308e-04,2.815170538000766e-13
	-1.152927649751181e-22,-4.895462696335383e-13
	-7.033417766480308e-04,2.815170538000766e-13
6		1.148153621496882e+00,0.000000000000000e+00
	-7.033417766480309e+00,2.880744283611424e-09
	1.000000000000000e+00,0.000000000000000e+00
	0.000000000000000e+00,0.000000000000000e+00
	7.033417766480309e-04,-2.880744283611423e-13
	1.207263455891690e-22,5.009492671131842e-13
	7.033417685070598e-12,-4.963644768387162e-15
	-7.033417836814486e-04,-2.079111939836547e-13
	-7.033417766480308e-04,2.880744283611424e-13
	-1.207263455891690e-22,-5.009492671131842e-13
	-7.033417766480308e-04,2.880744283611424e-13
7		1.174897554939529e+00,0.000000000000000e+00
	-7.033417766480309e+00,2.947845437972411e-09
	1.000000000000000e+00,0.000000000000000e+00
	0.000000000000000e+00,0.000000000000000e+00
	7.033417766480309e-04,-2.947845437972411e-13
	1.264160029682776e-22,5.126178745251011e-13
	7.033417685070598e-12,-5.079262907661650e-15
	-7.033417836814486e-04,-2.127540678201984e-13
	-7.033417766480308e-04,2.947845437972411e-13
	-1.264160029682776e-22,-5.126178745251011e-13
	-7.033417766480308e-04,2.947845437972411e-13
8		1.202264434617413e+00,0.000000000000000e+00
	-7.033417766480309e+00,3.016509579003958e-09
	1.000000000000000e+00,0.000000000000000e+00
	0.000000000000000e+00,0.000000000000000e+00
	7.033417766480309e-04,-3.016509579003958e-13
	1.323738056385708e-22,5.245582787193908e-13
	7.033417685070598e-12,-5.197574139361670e-15
	-7.033417836814486e-04,-2.177097466796333e-13
	-7.033417766480308e-04,3.016509579003958e-13
	-1.323738056385708e-22,-5.245582787193908e-13
	-7.033417766480308e-04,3.016509579003958e-13
9		1.230268770812381e+00,0.000000000000000e+00
	-7.033417766480309e+00,3.086773113342519e-09
	1.000000000000000e+00,0.000000000000000e+00
	0.000000000000000e+00,0.000000000000000e+00
	7.033417766480309e-04,-3.086773113342519e-13
	1.386123908982886e-22,5.367768106564073e-13
	7.033417685070598e-12,-5.318641193668440e-15
	-7.033417836814486e-04,-2.227808581284869e-13
	-7.033417766480308e-04,3.086773113342519e-13
	-1.386123908982886e-22,-5.367768106564073e-13
	-7.033417766480308e-04,3.086773113342519e-13
10		1.258925411794167e+00,0.000000000000000e+00
	-7.033417766480309e+00,3.158673295644045e-09
	1.000000000000000e+00,0.000000000000000e+00
	0.000000000000000e+00,0.000000000000000e+00
	7.033417766480309e-04,-3.158673295644045e-13
	1.451449916231886e-22,5.492799487635148e-13
	7.033417685070598e-12,-5.442528261936631e-15
	-7.033417836814486e-04,-2.279700909371736e-13
	-7.033417766480308e-04,3.158673295644045e-13
	-1.451449916231886e-22,-5.492799487635149e-13
	-7.033417766480308e-04,3.158673295644045e-13
11		1.288249551693134e+00,0.000000000000000e+00
	-7.033417766480309e+00,3.232248248336907e-09
	1.000000000000000e+00,0.000000000000000e+00
	0.000000000000000e+00,0.000000000000000e+00
	7.033417766480309e-04,-3.232248248336907e-13
	1.519854643352495e-22,5.620743223700364e-13
	7.033417685070598e-12,-5.569301030729693e-15
	-7.033417836814486e-04,-2.332801965056160e-13
	-7.033417766480308e-04,3.232248248336907e-13
	-1.519854643352495e-22,-5.620743223700365e-13
	-7.033417766480308e-04,3.232248248336907e-13
12		1.318256738556407e+00,0.000000000000000e+00
	-7.033417766480309e+00,3.307536981834899e-09
	1.000000000000000e+00,0.000000000000000e+00
	0.000000000000000e+00,0.000000000000000e+00
	7.033417766480309e-04,-3.307536981834900e-13
	1.591483185942116e-22,5.751667152222118e-13
	7.033417685070598e-12,-5.699026716647722e-15
	-7.033417836814486e-04,-2.387139903220741e-13
	-7.033417766480308e-04,3.307536981834900e-13
	-1.591483185942116e-22,-5.751667152222118e-13
	-7.033417766480308e-04,3.307536981834900e-13
13		1.348962882591653e+00,0.000000000000000e+00
	-7.033417766480309e+00,3.384579415221089e-09
	1.000000000000000e+00,0.000000000000000e+00
	0.000000000000000e+00,0.000000000000000e+00
	7.033417766480309e-04,-3.384579415221089e-13
	1.666487477742988e-22,5.885640690800295e-13
	7.033417685070598e-12,-5.831774101966452e-15
	-7.033417836814486e-04,-2.442743534559542e-13
	-7.033417766480308e-04,3.384579415221089e-13
	-1.666487477742988e-22,-5.885640690800295e-13
	-7.033417766480308e-04,3.384579415221089e-13
14		1.380384264602885e+00,0.000000000000000e+00
	-7.033417766480309e+00,3.463416397413433e-09
	1.000000000000000e+00,0.000000000000000e+00
	0.000000000000000e+00,0.000000000000000e+00
	7.033417766480309e-04,-3.463416397413433e-13
	1.745026612914021e-22,6.022734873978399e-13
	7.033417685070598e-12,-5.967613571106662e-15
	-7.033417836814486e-04,-2.499642340853899e-13
	-7.033417766480308e-04,3.463416397413433e-13
	-1.745026612914021e-22,-6.022734873978400e-13
	-7.033417766480308e-04,3.463416397413433e-13
15		1.412537544622754e+00,0.000000000000000e+00
	-7.033417766480309e+00,3.544089728823421e-09
	1.000000000000000e+00,0.000000000000000e+00
	0.000000000000000e+00,0.000000000000000e+00
	7.033417766480309e-04,-3.544089728823421e-13
	1.827267183490838e-22,6.163022390907006e-13
	7.033417685070598e-12,-6.106617147952928e-15
	-7.033417836814486e-04,-2.557866490604056e-13
	-7.033417766480308e-04,3.544089728823422e-13
	-1.827267183490838e-22,-6.163022390907006e-13
	-7.033417766480308e-04,3.544089728823422e-13
16		1.445439770745927e+00,0.000000000000000e+00
	-7.033417766480309e+00,3.626642183519204e-09
	1.000000000000000e+00,0.000000000000000e+00
	0.000000000000000e+00,0.000000000000000e+00
	7.033417766480309e-04,-3.626642183519204e-13
	1.913383632749817e-22,6.306577623884517e-13
	7.033417685070598e-12,-6.248858534041707e-15
	-7.033417836814486e-04,-2.617446855024895e-13
	-7.033417766480308e-04,3.626642183519204e-13
	-1.913383632749817e-22,-6.306577623884518e-13
	-7.033417766480308e-04,3.626642183519204e-13
17		1.479108388168207e+00,0.000000000000000e+00
	-7.033417766480309e+00,3.711117531904974e-09
	1.000000000000000e+00,0.000000000000000e+00
	0.000000000000000e+00,0.000000000000000e+00
	7.033417766480309e-04,-3.711117531904974e-13
	2.003558625225671e-22,6.453476687795636e-13
	7.033417685070598e-12,-6.394413147638757e-15
	-7.033417836814486e-04,-2.678415024414274e-13
	-7.033417766480308e-04,3.711117531904974e-13
	-2.003558625225671e-22,-6.453476687795636e-13
	-7.033417766480308e-04,3.711117531904974e-13
18		1.513561248436208e+00,0.000000000000000e+00
	-7.033417766480309e+00,3.797560563928607e-09
	1.000000000000000e+00,0.000000000000000e+00
	0.000000000000000e+00,0.000000000000000e+00
	7.033417766480309e-04,-3.797560563928609e-13
	2.097983434167413e-22,6.603797470468486e-13
	7.033417685070598e-12,-6.543358163726634e-15
	-7.033417836814486e-04,-2.740803324902611e-13
	-7.033417766480308e-04,3.797560563928608e-13
	-2.097983434167413e-22,-6.603797470468486e-13
	-7.033417766480308e-04,3.797560563928608e-13
19		1.548816618912481e+00,0.000000000000000e+00
	-7.033417766480309e+00,3.886017112829894e-09
	1.000000000000000e+00,0.000000000000000e+00
	0.000000000000000e+00,0.000000000000000e+00
	7.033417766480309e-04,-3.886017112829894e-13
	2.196858347254563e-22,6.757619673971771e-13
	7.033417685070598e-12,-6.695772554924333e-15
	-7.033417836814486e-04,-2.804644835592634e-13
	-7.033417766480308e-04,3.886017112829894e-13
	-2.196858347254563e-22,-6.757619673971773e-13
	-7.033417766480308e-04,3.886017112829894e-13
20		1.584893192461113e+00,0.000000000000000e+00
	-7.033417766480309e+00,3.976534079441919e-09
	1.000000000000000e+00,0.000000000000000e+00
	0.000000000000000e+00,0.000000000000000e+00
	7.033417766480309e-04,-3.976534079441919e-13
	2.300393091434170e-22,6.915024856873868e-13
	7.033417685070598e-12,-6.851737133359978e-15
	-7.033417836814486e-04,-2.869973406098350e-13
	-7.033417766480308e-04,3.976534079441919e-13
	-2.300393091434170e-22,-6.915024856873869e-13
	-7.033417766480308e-04,3.976534079441919e-13
21		1.621810097358929e+00,0.000000000000000e+00
	-7.033417766480309e+00,4.069159457058514e-09
	1.000000000000000e+00,0.000000000000000e+00
	0.000000000000000e+00,0.000000000000000e+00
	7.033417766480309e-04,-4.069159457058514e-13
	2.408807277779782e-22,7.076096477486253e-13
	7.033417685070598e-12,-7.011334593517096e-15
	-7.033417836814486e-04,-2.936823674492567e-13
	-7.033417766480308e-04,4.069159457058515e-13
	-2.408807277779782e-22,-7.076096477486255e-13
	-7.033417766480308e-04,4.069159457058515e-13
22		1.659586907437560e+00,0.000000000000000e+00
	-7.033417766480309e+00,4.163942356880937e-09
	1.000000000000000e+00,0.000000000000000e+00
	0.000000000000000e+00,0.000000000000000e+00
	7.033417766480309e-04,-4.163942356880937e-13
	2.522330867315983e-22,7.240919938114213e-13
	7.033417685070598e-12,-7.174649556081707e-15
	-7.033417836814486e-04,-3.005231085672459e-13
	-7.033417766480308e-04,4.163942356880937e-13
	-2.522330867315983e-22,-7.240919938114213e-13
	-7.033417766480308e-04,4.163942356880937e-13
23		1.698243652461743e+00,0.000000000000000e+00
	-7.033417766480309e+00,4.260933034057269e-09
	1.000000000000000e+00,0.000000000000000e+00
	0.000000000000000e+00,0.000000000000000e+00
	7.033417766480309e-04,-4.260933034057269e-13
	2.641204658796551e-22,7.409582630338266e-13
	7.033417685070598e-12,-7.341768612808640e-15
	-7.033417836814486e-04,-3.075231910152910e-13
	-7.033417766480308e-04,4.260933034057269e-13
	-2.641204658796551e-22,-7.409582630338267e-13
	-7.033417766480308e-04,4.260933034057269e-13
24		1.737800828749374e+00,0.000000000000000e+00
	-7.033417766480309e+00,4.360182914328376e-09
	1.000000000000000e+00,0.000000000000000e+00
	0.000000000000000e+00,0.000000000000000e+00
	7.033417766480309e-04,-4.360182914328375e-13
	2.765680799470904e-22,7.582173981350344e-13
	7.033417685070598e-12,-7.512780372433845e-15
	-7.033417836814486e-04,-3.146863263297630e-13
	-7.033417766480308e-04,4.360182914328376e-13
	-2.765680799470904e-22,-7.582173981350345e-13
	-7.033417766480308e-04,4.360182914328376e-13
25		1.778279410038922e+00,0.000000000000000e+00
	-7.033417766480309e+00,4.461744621294501e-09
	1.000000000000000e+00,0.000000000000000e+00
	0.000000000000000e+00,0.000000000000000e+00
	7.033417766480309e-04,-4.461744621294502e-13
	2.896023319922218e-22,7.758785501369273e-13
	7.033417685070598e-12,-7.687775507655967e-15
	-7.033417836814486e-04,-3.220163124998211e-13
	-7.033417766480308e-04,4.461744621294502e-13
	-2.896023319922218e-22,-7.758785501369274e-13
	-7.033417766480308e-04,4.461744621294502e-13
26		1.819700858609982e+00,0.000000000000000e+00
	-7.033417766480309e+00,4.565672004317011e-09
	1.000000000000000e+00,0.000000000000000e+00
	0.000000000000000e+00,0.000000000000000e+00
	7.033417766480309e-04,-4.565672004317011e-13
	3.032508694111698e-22,7.939510832160693e-13
	7.033417685070598e-12,-7.866846803211934e-15
	-7.033417836814486e-04,-3.295170359811562e-13
	-7.033417766480308e-04,4.565672004317011e-13
	-3.032508694111698e-22,-7.939510832160694e-13
	-7.033417766480308e-04,4.565672004317011e-13
27		1.862087136662866e+00,0.000000000000000e+00
	-7.033417766480309e+00,4.672020167070022e-09
	1.000000000000000e+00,0.000000000000000e+00
	0.000000000000000e+00,0.000000000000000e+00
	7.033417766480309e-04,-4.672020167070022e-13
	3.175426425816912e-22,8.124445796687176e-13
	7.033417685070598e-12,-8.050089205072992e-15
	-7.033417836814486e-04,-3.371924737566423e-13
	-7.033417766480308e-04,4.672020167070022e-13
	-3.175426425816912e-22,-8.124445796687178e-13
	-7.033417766480308e-04,4.672020167070022e-13
28		1.905460717963246e+00,0.000000000000000e+00
	-7.033417766480309e+00,4.780845496757111e-09
	1.000000000000000e+00,0.000000000000000e+00
	0.000000000000000e+00,0.000000000000000e+00
	7.033417766480309e-04,-4.780845496757110e-13
	3.325079662708119e-22,8.313688449914814e-13
	7.033417685070598e-12,-8.237599870786352e-15
	-7.033417836814486e-04,-3.450466954449841e-13
	-7.033417766480308e-04,4.780845496757111e-13
	-3.325079662708119e-22,-8.313688449914814e-13
	-7.033417766480308e-04,4.780845496757111e-13
29		1.949844599758044e+00,0.000000000000000e+00
	-7.033417766480309e+00,4.892205694008553e-09
	1.000000000000000e+00,0.000000000000000e+00
	0.000000000000000e+00,0.000000000000000e+00
	7.033417766480309e-04,-4.892205694008554e-13
	3.481785839365129e-22,8.507339130803277e-13
	7.033417685070598e-12,-8.429478220988390e-15
	-7.033417836814486e-04,-3.530838654584839e-13
	-7.033417766480308e-04,4.892205694008554e-13
	-3.481785839365129e-22,-8.507339130803278e-13
	-7.033417766480308e-04,4.892205694008554e-13
30		1.995262314968878e+00,0.000000000000000e+00
	-7.033417766480309e+00,5.006159803474955e-09
	1.000000000000000e+00,0.000000000000000e+00
	0.000000000000000e+00,0.000000000000000e+00
	7.033417766480309e-04,-5.006159803474955e-13
	3.645877350598589e-22,8.705500515506833e-13
	7.033417685070598e-12,-8.625825992120697e-15
	-7.033417836814486e-04,-3.613082452110672e-13
	-7.033417766480308e-04,5.006159803474955e-13
	-3.645877350598589e-22,-8.705500515506834e-13
	-7.033417766480308e-04,5.006159803474955e-13
31		2.041737944669527e+00,0.000000000000000e+00
	-7.033417766480309e+00,5.122768245133517e-09
	1.000000000000000e+00,0.000000000000000e+00
	0.000000000000000e+00,0.000000000000000e+00
	7.033417766480309e-04,-5.122768245133517e-13
	3.817702256503958e-22,8.908277671814633e-13
	7.033417685070598e-12,-8.826747290370193e-15
	-7.033417836814486e-04,-3.697241953777413e-13
	-7.033417766480308e-04,5.122768245133517e-13
	-3.817702256503958e-22,-8.908277671814635e-13
	-7.033417766480308e-04,5.122768245133517e-13
32		2.089296130854037e+00,0.000000000000000e+00
	-7.033417766480309e+00,5.242092846323506e-09
	1.000000000000000e+00,0.000000000000000e+00
	0.000000000000000e+00,0.000000000000000e+00
	7.033417766480309e-04,-5.242092846323506e-13
	3.997625020743635e-22,9.115778114859028e-13
	7.033417685070598e-12,-9.032348646868991e-15
	-7.033417836814486e-04,-3.783361782066831e-13
	-7.033417766480308e-04,5.242092846323506e-13
	-3.997625020743635e-22,-9.115778114859028e-13
	-7.033417766480308e-04,5.242092846323506e-13
33		2.137962089502230e+00,0.000000000000000e+00
	-7.033417766480309e+00,5.364196874527915e-09
	1.000000000000000e+00,0.000000000000000e+00
	0.000000000000000e+00,0.000000000000000e+00
	7.033417766480309e-04,-5.364196874527915e-13
	4.186027283623228e-22,9.328111864121505e-13
	7.033417685070598e-12,-9.242739074177550e-15
	-7.033417836814486e-04,-3.871487598851814e-13
	-7.033417766480308e-04,5.364196874527915e-13
	-4.186027283623228e-22,-9.328111864121507e-13
	-7.033417766480308e-04,5.364196874527915e-13
34		2.187761623949550e+00,0.000000000000000e+00
	-7.033417766480309e+00,5.489145070918740e-09
	1.000000000000000e+00,0.000000000000000e+00
	0.000000000000000e+00,0.000000000000000e+00
	7.033417766480309e-04,-5.489145070918740e-13
	4.383308671601841e-22,9.545391501766499e-13
	7.033417685070598e-12,-9.458030124085529e-15
	-7.033417836814486e-04,-3.961666129606904e-13
	-7.033417766480308e-04,5.489145070918740e-13
	-4.383308671601841e-22,-9.545391501766499e-13
	-7.033417766480308e-04,5.489145070918740e-13
35		2.238721138568337e+00,0.000000000000000e+00
	-7.033417766480309e+00,5.617003684683589e-09
	1.000000000000000e+00,0.000000000000000e+00
	0.000000000000000e+00,0.000000000000000e+00
	7.033417766480309e-04,-5.617003684683591e-13
	4.589887644953354e-22,9.767732232333922e-13
	7.033417685070598e-12,-9.678335946756823e-15
	-7.033417836814486e-04,-4.053945188182763e-13
	-7.033417766480308e-04,5.617003684683590e-13
	-4.589887644953354e-22,-9.767732232333922e-13
	-7.033417766480308e-04,5.617003684683590e-13
36		2.290867652767770e+00,0.000000000000000e+00
	-7.033417766480309e+00,5.747840508151891e-09
	1.000000000000000e+00,0.000000000000000e+00
	0.000000000000000e+00,0.000000000000000e+00
	7.033417766480309e-04,-5.747840508151890e-13
	4.806202385376767e-22,9.995251943822147e-13
	7.033417685070598e-12,-9.903773351255208e-15
	-7.033417836814486e-04,-4.148373702157704e-13
	-7.033417766480308e-04,5.747840508151891e-13
	-4.806202385376767e-22,-9.995251943822149e-13
	-7.033417766480308e-04,5.747840508151891e-13
37		2.344228815319919e+00,0.000000000000000e+00
	-7.033417766480309e+00,5.881724912739278e-09
	1.000000000000000e+00,0.000000000000000e+00
	0.000000000000000e+00,0.000000000000000e+00
	7.033417766480309e-04,-5.881724912739280e-13
	5.032711725438343e-22,1.022807127019379e-12
	7.033417685070598e-12,-1.013446186747636e-14
	-7.033417836814486e-04,-4.245001738779746e-13
	-7.033417766480308e-04,5.881724912739279e-13
	-5.032711725438343e-22,-1.022807127019379e-12
	-7.033417766480308e-04,5.881724912739279e-13
38		2.398832919019488e+00,0.000000000000000e+00
	-7.033417766480309e+00,6.018727885729234e-09
	1.000000000000000e+00,0.000000000000000e+00
