LTspice 24.0.9 for Windows
Circuit: * GA CMOS Amp | W=3.3655441338529843e-06 L=9.690709958202255e-07 Vbias=1.3935755162067534
Start Time: Sat Sep  6 22:13:43 2025
solver = Normal
Maximum thread count: 2
tnom = 27
temp = 27
method = modified trap
AsciiRawFile = 1
Direct Newton iteration for .op point succeeded.
Semiconductor Device Operating Points:
                        --- BSIM4 MOSFETS ---
Name:      m1
Model:      n
Id:      1.23e-04
Vgs:     1.39e+00
Vds:     5.66e-01
Vbs:     0.00e+00
Vth:     2.36e-01
Vdsat:   8.02e-01
Gm:      3.20e-05
Gds:     1.01e-04
Gmb      6.81e-05
Cbd:     1.45e-15
Cbs:     2.69e-15


.measure op idd find i(vdd)
  Error: FIND can not be evaluated over an interval.

gain_db: MAX(db(v(out)/v(g)))=(30.0969dB,121.424°) FROM 1 TO 1e+09
gain_lin: MAX(mag(v(out)/v(g)))=(1.76452dB,0°) FROM 1 TO 1e+09
fc: mag(v(out)/v(g))=1 AT 7.7304e+08

Total elapsed time: 6.526 seconds.

