LTspice 24.0.9 for Windows
Circuit: * GA CMOS Amp | W=6.466112090729727e-06 L=8.885153849957487e-07 Vbias=0.6763402038736108
Start Time: Sat Sep  6 22:05:27 2025
solver = Normal
Maximum thread count: 2
tnom = 27
temp = 27
method = modified trap
AsciiRawFile = 1
Direct Newton iteration for .op point succeeded.
Semiconductor Device Operating Points:
                        --- BSIM4 MOSFETS ---
Name:      m1
Model:      n
Id:      1.19e-04
Vgs:     6.76e-01
Vds:     6.05e-01
Vbs:     0.00e+00
Vth:     2.37e-01
Vdsat:   3.33e-01
Gm:      3.09e-04
Gds:     1.68e-05
Gmb      1.62e-04
Cbd:     2.77e-15
Cbs:     5.17e-15


.measure op idd find i(vdd)
  Error: FIND can not be evaluated over an interval.

gain_db: MAX(db(v(out)/v(g)))=(29.1156dB,72.8241°) FROM 1 TO 1e+09
gain_lin: MAX(mag(v(out)/v(g)))=(11.7096dB,0°) FROM 1 TO 1e+09

Measurement "fc" FAIL'ed

Total elapsed time: 6.161 seconds.

