Title: * GA CMOS Amp | W=4.571593744098072e-05 L=2.443455915561206e-07 Vbias=0.7254087294741541
Date: Sat Sep  6 22:36:18 2025
Plotname: AC Analysis
Flags: complex forward log
No. Variables: 13
No. Points:          901
Offset:    0.0000000000000000e+00
Command: Linear Technology Corporation LTspice
Variables:
	0	frequency	frequency
	1	V(out)	voltage
	2	V(g)	voltage
	3	V(vdd)	voltage
	4	V(m1#dbody)	voltage
	5	V(m1#sbody)	voltage
	6	Id(M1)	device_current
	7	Ig(M1)	device_current
	8	Ib(M1)	device_current
	9	Is(M1)	device_current
	10	I(Rload)	device_current
	11	I(Vg)	device_current
	12	I(Vdd)	device_current
Values:
0		1.000000000000000e+00,0.000000000000000e+00
	-1.036359126658198e-02,1.010386727360691e-10
	1.000000000000000e+00,0.000000000000000e+00
	0.000000000000000e+00,0.000000000000000e+00
	1.711570764846668e-08,2.384815243137515e-15
	1.711580435345763e-08,1.350455992050992e-14
	1.036359126658175e-06,-1.010386727360654e-14
	1.155859021820085e-06,2.983250129885640e-12
	-9.128422548418984e-09,-6.461127449413534e-15
	-2.183089725929841e-06,-2.966685135162620e-12
	-1.036359126658198e-06,1.010386727360691e-14
	-1.155859021814698e-06,-2.983250129885640e-12
	-1.036359126658198e-06,1.010386727360691e-14
1		1.023292992280754e+00,0.000000000000000e+00
	-1.036359126658198e-02,1.033921657601680e-10
	1.000000000000000e+00,0.000000000000000e+00
	0.000000000000000e+00,0.000000000000000e+00
	1.711570764846666e-08,2.440364726186955e-15
	1.711580435345762e-08,1.381912153049335e-14
	1.036359126658175e-06,-1.033921657601636e-14
	1.155859021820085e-06,3.052738952132625e-12
	-9.128422548418976e-09,-6.611626441217698e-15
	-2.183089725929841e-06,-3.035788109115391e-12
	-1.036359126658198e-06,1.033921657601680e-14
	-1.155859021814698e-06,-3.052738952132624e-12
	-1.036359126658198e-06,1.033921657601680e-14
2		1.047128548050899e+00,0.000000000000000e+00
	-1.036359126658198e-02,1.058004786791100e-10
	1.000000000000000e+00,0.000000000000000e+00
	0.000000000000000e+00,0.000000000000000e+00
	1.711570764846664e-08,2.497208122916248e-15
	1.711580435345760e-08,1.414101022162993e-14
	1.036359126658175e-06,-1.058004786791104e-14
	1.155859021820085e-06,3.123846376979807e-12
	-9.128422548418969e-09,-6.765631004876210e-15
	-2.183089725929841e-06,-3.106500698107020e-12
	-1.036359126658198e-06,1.058004786791100e-14
	-1.155859021814698e-06,-3.123846376979807e-12
	-1.036359126658198e-06,1.058004786791100e-14
3		1.071519305237606e+00,0.000000000000000e+00
	-1.036359126658198e-02,1.082648884122826e-10
	1.000000000000000e+00,0.000000000000000e+00
	0.000000000000000e+00,0.000000000000000e+00
	1.711570764846662e-08,2.555375572446775e-15
	1.711580435345759e-08,1.447039666356442e-14
	1.036359126658175e-06,-1.082648884122798e-14
	1.155859021820085e-06,3.196610106525059e-12
	-9.128422548418961e-09,-6.923222795647222e-15
	-2.183089725929841e-06,-3.178860394888184e-12
	-1.036359126658198e-06,1.082648884122827e-14
	-1.155859021814698e-06,-3.196610106525058e-12
	-1.036359126658198e-06,1.082648884122827e-14
4		1.096478196143185e+00,0.000000000000000e+00
	-1.036359126658198e-02,1.107867016223466e-10
	1.000000000000000e+00,0.000000000000000e+00
	0.000000000000000e+00,0.000000000000000e+00
	1.711570764846661e-08,2.614897915930216e-15
	1.711580435345758e-08,1.480745550134828e-14
	1.036359126658175e-06,-1.107867016223483e-14
	1.155859021820085e-06,3.271068721060929e-12
	-9.128422548418954e-09,-7.084485370784177e-15
	-2.183089725929841e-06,-3.252905565527909e-12
	-1.036359126658198e-06,1.107867016223466e-14
	-1.155859021814698e-06,-3.271068721060927e-12
	-1.036359126658198e-06,1.107867016223466e-14
5		1.122018454301963e+00,0.000000000000000e+00
	-1.036359126658198e-02,1.133672554080462e-10
	1.000000000000000e+00,0.000000000000000e+00
	0.000000000000000e+00,0.000000000000000e+00
	1.711570764846658e-08,2.675806712900934e-15
	1.711580435345756e-08,1.515236544803879e-14
	1.036359126658175e-06,-1.133672554080422e-14
	1.155859021820085e-06,3.347261699530416e-12
	-9.128422548418944e-09,-7.249504233838966e-15
	-2.183089725929841e-06,-3.328675469755773e-12
	-1.036359126658198e-06,1.133672554080462e-14
	-1.155859021814698e-06,-3.347261699530416e-12
	-1.036359126658198e-06,1.133672554080462e-14
6		1.148153621496882e+00,0.000000000000000e+00
	-1.036359126658198e-02,1.160079180131561e-10
	1.000000000000000e+00,0.000000000000000e+00
	0.000000000000000e+00,0.000000000000000e+00
	1.711570764846656e-08,2.738134258009326e-15
	1.711580435345755e-08,1.550530937945513e-14
	1.036359126658175e-06,-1.160079180131548e-14
	1.155859021820085e-06,3.425229440459242e-12
	-9.128422548418939e-09,-7.418366879997074e-15
	-2.183089725929841e-06,-3.406210281777929e-12
	-1.036359126658198e-06,1.160079180131561e-14
	-1.155859021814698e-06,-3.425229440459241e-12
	-1.036359126658198e-06,1.160079180131561e-14
7		1.174897554939529e+00,0.000000000000000e+00
	-1.036359126658198e-02,1.187100895519429e-10
	1.000000000000000e+00,0.000000000000000e+00
	0.000000000000000e+00,0.000000000000000e+00
	1.711570764846654e-08,2.801913598144796e-15
	1.711580435345753e-08,1.586647443114147e-14
	1.036359126658175e-06,-1.187100895519383e-14
	1.155859021820085e-06,3.505013283375672e-12
	-9.128422548418929e-09,-7.591162842468644e-15
	-2.183089725929841e-06,-3.485551111578009e-12
	-1.036359126658198e-06,1.187100895519429e-14
	-1.155859021814698e-06,-3.505013283375670e-12
	-1.036359126658198e-06,1.187100895519429e-14
8		1.202264434617413e+00,0.000000000000000e+00
	-1.036359126658198e-02,1.214752027515239e-10
	1.000000000000000e+00,0.000000000000000e+00
	0.000000000000000e+00,0.000000000000000e+00
	1.711570764846652e-08,2.867178549957731e-15
	1.711580435345751e-08,1.623605209758884e-14
	1.036359126658175e-06,-1.214752027515190e-14
	1.155859021820085e-06,3.586655530729281e-12
	-9.128422548418919e-09,-7.767983739960216e-15
	-2.183089725929841e-06,-3.566740026714169e-12
	-1.036359126658198e-06,1.214752027515239e-14
	-1.155859021814698e-06,-3.586655530729281e-12
	-1.036359126658198e-06,1.214752027515239e-14
9		1.230268770812381e+00,0.000000000000000e+00
	-1.036359126658198e-02,1.243047237115182e-10
	1.000000000000000e+00,0.000000000000000e+00
	0.000000000000000e+00,0.000000000000000e+00
	1.711570764846649e-08,2.933963717789434e-15
	1.711580435345749e-08,1.661423833376790e-14
	1.036359126658175e-06,-1.243047237115160e-14
	1.155859021820085e-06,3.670199470320282e-12
	-9.128422548418906e-09,-7.948923325252130e-15
	-2.183089725929841e-06,-3.649820074623879e-12
	-1.036359126658198e-06,1.243047237115182e-14
	-1.155859021814698e-06,-3.670199470320282e-12
	-1.036359126658198e-06,1.243047237115182e-14
10		1.258925411794167e+00,0.000000000000000e+00
	-1.036359126658198e-02,1.272001526813919e-10
	1.000000000000000e+00,0.000000000000000e+00
	0.000000000000000e+00,0.000000000000000e+00
	1.711570764846647e-08,3.002304512019910e-15
	1.711580435345748e-08,1.700123365902696e-14
	1.036359126658175e-06,-1.272001526813849e-14
	1.155859021820085e-06,3.755689398251281e-12
	-9.128422548418901e-09,-8.134077534907532e-15
	-2.183089725929841e-06,-3.734835305448235e-12
	-1.036359126658198e-06,1.272001526813919e-14
	-1.155859021814698e-06,-3.755689398251280e-12
	-1.036359126658198e-06,1.272001526813919e-14
11		1.288249551693134e+00,0.000000000000000e+00
	-1.036359126658198e-02,1.301630248559103e-10
	1.000000000000000e+00,0.000000000000000e+00
	0.000000000000000e+00,0.000000000000000e+00
	1.711570764846644e-08,3.072237167842865e-15
	1.711580435345746e-08,1.739724326340997e-14
	1.036359126658175e-06,-1.301630248559066e-14
	1.155859021820085e-06,3.843170642413660e-12
	-9.128422548418890e-09,-8.323544540139189e-15
	-2.183089725929841e-06,-3.821830795387929e-12
	-1.036359126658198e-06,1.301630248559103e-14
	-1.155859021814698e-06,-3.843170642413657e-12
	-1.036359126658198e-06,1.301630248559103e-14
12		1.318256738556407e+00,0.000000000000000e+00
	-1.036359126658198e-02,1.331949111891186e-10
	1.000000000000000e+00,0.000000000000000e+00
	0.000000000000000e+00,0.000000000000000e+00
	1.711570764846641e-08,3.143798764478080e-15
	1.711580435345744e-08,1.780247711645098e-14
	1.036359126658175e-06,-1.331949111891144e-14
	1.155859021820085e-06,3.932689586521020e-12
	-9.128422548418876e-09,-8.517424798861167e-15
	-2.183089725929841e-06,-3.910852670603249e-12
	-1.036359126658198e-06,1.331949111891186e-14
	-1.155859021814698e-06,-3.932689586521020e-12
	-1.036359126658198e-06,1.331949111891186e-14
13		1.348962882591653e+00,0.000000000000000e+00
	-1.036359126658198e-02,1.362974192272825e-10
	1.000000000000000e+00,0.000000000000000e+00
	0.000000000000000e+00,0.000000000000000e+00
	1.711570764846638e-08,3.217027244831306e-15
	1.711580435345742e-08,1.821715007850278e-14
	1.036359126658175e-06,-1.362974192272800e-14
	1.155859021820085e-06,4.024293694702457e-12
	-9.128422548418865e-09,-8.715821108952941e-15
	-2.183089725929841e-06,-4.001948131670775e-12
	-1.036359126658198e-06,1.362974192272825e-14
	-1.155859021814698e-06,-4.024293694702456e-12
	-1.036359126658198e-06,1.362974192272825e-14
14		1.380384264602885e+00,0.000000000000000e+00
	-1.036359126658198e-02,1.394721939612303e-10
	1.000000000000000e+00,0.000000000000000e+00
	0.000000000000000e+00,0.000000000000000e+00
	1.711570764846635e-08,3.291961435612136e-15
	1.711580435345740e-08,1.864148201465868e-14
	1.036359126658175e-06,-1.394721939612233e-14
	1.155859021820085e-06,4.118031536668649e-12
	-9.128422548418851e-09,-8.918838662764215e-15
	-2.183089725929841e-06,-4.095165478609762e-12
	-1.036359126658198e-06,1.394721939612303e-14
	-1.155859021814698e-06,-4.118031536668650e-12
	-1.036359126658198e-06,1.394721939612303e-14
15		1.412537544622754e+00,0.000000000000000e+00
	-1.036359126658198e-02,1.427209186985491e-10
	1.000000000000000e+00,0.000000000000000e+00
	0.000000000000000e+00,0.000000000000000e+00
	1.711570764846631e-08,3.368641067920404e-15
	1.711580435345737e-08,1.907569791132795e-14
	1.036359126658175e-06,-1.427209186985391e-14
	1.155859021820085e-06,4.213952813464174e-12
	-9.128422548418840e-09,-9.126585102889280e-15
	-2.183089725929841e-06,-4.190554136491430e-12
	-1.036359126658198e-06,1.427209186985491e-14
	-1.155859021814698e-06,-4.213952813464173e-12
	-1.036359126658198e-06,1.427209186985491e-14
16		1.445439770745927e+00,0.000000000000000e+00
	-1.036359126658198e-02,1.460453159560965e-10
	1.000000000000000e+00,0.000000000000000e+00
	0.000000000000000e+00,0.000000000000000e+00
	1.711570764846628e-08,3.447106798312081e-15
	1.711580435345735e-08,1.952002799552649e-14
	1.036359126658175e-06,-1.460453159560958e-14
	1.155859021820085e-06,4.312108383819657e-12
	-9.128422548418827e-09,-9.339170579240514e-15
	-2.183089725929841e-06,-4.288164681644807e-12
	-1.036359126658198e-06,1.460453159560965e-14
	-1.155859021814698e-06,-4.312108383819656e-12
	-1.036359126658198e-06,1.460453159560965e-14
17		1.479108388168207e+00,0.000000000000000e+00
	-1.036359126658198e-02,1.494471483733021e-10
	1.000000000000000e+00,0.000000000000000e+00
	0.000000000000000e+00,0.000000000000000e+00
	1.711570764846624e-08,3.527400230356093e-15
	1.711580435345732e-08,1.997470785694638e-14
	1.036359126658175e-06,-1.494471483733032e-14
	1.155859021820085e-06,4.412550291117743e-12
	-9.128422548418812e-09,-9.556707807451405e-15
	-2.183089725929841e-06,-4.388048868472961e-12
	-1.036359126658198e-06,1.494471483733021e-14
	-1.155859021814698e-06,-4.412550291117742e-12
	-1.036359126658198e-06,1.494471483733021e-14
18		1.513561248436208e+00,0.000000000000000e+00
	-1.036359126658198e-02,1.529282196467421e-10
	1.000000000000000e+00,0.000000000000000e+00
	0.000000000000000e+00,0.000000000000000e+00
	1.711570764846620e-08,3.609563936692915e-15
	1.711580435345730e-08,2.043997857286856e-14
	1.036359126658175e-06,-1.529282196467411e-14
	1.155859021820084e-06,4.515331790987187e-12
	-9.128422548418795e-09,-9.779312128639794e-15
	-2.183089725929841e-06,-4.490259656893874e-12
	-1.036359126658198e-06,1.529282196467422e-14
	-1.155859021814698e-06,-4.515331790987186e-12
	-1.036359126658198e-06,1.529282196467422e-14
19		1.548816618912481e+00,0.000000000000000e+00
	-1.036359126658198e-02,1.564903754864832e-10
	1.000000000000000e+00,0.000000000000000e+00
	0.000000000000000e+00,0.000000000000000e+00
	1.711570764846616e-08,3.693641481607214e-15
	1.711580435345727e-08,2.091608683598518e-14
	1.036359126658175e-06,-1.564903754864825e-14
	1.155859021820084e-06,4.620507379539695e-12
	-9.128422548418779e-09,-1.000710157056330e-14
	-2.183089725929841e-06,-4.594851240420484e-12
	-1.036359126658198e-06,1.564903754864832e-14
	-1.155859021814698e-06,-4.620507379539695e-12
	-1.036359126658198e-06,1.564903754864832e-14
20		1.584893192461113e+00,0.000000000000000e+00
	-1.036359126658198e-02,1.601355045947021e-10
	1.000000000000000e+00,0.000000000000000e+00
	0.000000000000000e+00,0.000000000000000e+00
	1.711570764846612e-08,3.779677444126167e-15
	1.711580435345724e-08,2.140328508519938e-14
	1.036359126658175e-06,-1.601355045946943e-14
	1.155859021820084e-06,4.728132822264481e-12
	-9.128422548418764e-09,-1.024019691019915e-14
	-2.183089725929841e-06,-4.701879074894812e-12
	-1.036359126658198e-06,1.601355045947021e-14
	-1.155859021814698e-06,-4.728132822264481e-12
	-1.036359126658198e-06,1.601355045947021e-14
21		1.621810097358929e+00,0.000000000000000e+00
	-1.036359126658198e-02,1.638655396671012e-10
	1.000000000000000e+00,0.000000000000000e+00
	0.000000000000000e+00,0.000000000000000e+00
	1.711570764846608e-08,3.867717441655921e-15
	1.711580435345721e-08,2.190183163947169e-14
	1.036359126658175e-06,-1.638655396670961e-14
	1.155859021820084e-06,4.838265183595866e-12
	-9.128422548418747e-09,-1.047872173778182e-14
	-2.183089725929841e-06,-4.811399907891375e-12
	-1.036359126658198e-06,1.638655396671012e-14
	-1.155859021814698e-06,-4.838265183595868e-12
	-1.036359126658198e-06,1.638655396671012e-14
22		1.659586907437560e+00,0.000000000000000e+00
	-1.036359126658198e-02,1.676824584176486e-10
	1.000000000000000e+00,0.000000000000000e+00
	0.000000000000000e+00,0.000000000000000e+00
	1.711570764846604e-08,3.957808154168570e-15
	1.711580435345718e-08,2.241199083478430e-14
	1.036359126658175e-06,-1.676824584176461e-14
	1.155859021820084e-06,4.950962857169607e-12
	-9.128422548418729e-09,-1.072280252233215e-14
	-2.183089725929841e-06,-4.923471808805511e-12
	-1.036359126658198e-06,1.676824584176486e-14
	-1.155859021814698e-06,-4.950962857169606e-12
	-1.036359126658198e-06,1.676824584176486e-14
23		1.698243652461743e+00,0.000000000000000e+00
	-1.036359126658198e-02,1.715882846271888e-10
	1.000000000000000e+00,0.000000000000000e+00
	0.000000000000000e+00,0.000000000000000e+00
	1.711570764846599e-08,4.049997348952309e-15
	1.711580435345714e-08,2.293403316429525e-14
	1.036359126658175e-06,-1.715882846271863e-14
	1.155859021820084e-06,5.066285596783959e-12
	-9.128422548418711e-09,-1.097256867871287e-14
	-2.183089725929841e-06,-5.038154199642528e-12
	-1.036359126658198e-06,1.715882846271888e-14
	-1.155859021814698e-06,-5.066285596783959e-12
	-1.036359126658198e-06,1.715882846271888e-14
24		1.737800828749374e+00,0.000000000000000e+00
	-1.036359126658198e-02,1.755850892164777e-10
	1.000000000000000e+00,0.000000000000000e+00
	0.000000000000000e+00,0.000000000000000e+00
	1.711570764846594e-08,4.144333905938530e-15
	1.711580435345711e-08,2.346823542175773e-14
	1.036359126658175e-06,-1.755850892164749e-14
	1.155859021820084e-06,5.184294548081944e-12
	-9.128422548418689e-09,-1.122815263624617e-14
	-2.183089725929841e-06,-5.155507886524050e-12
	-1.036359126658198e-06,1.755850892164777e-14
	-1.155859021814698e-06,-5.184294548081943e-12
	-1.036359126658198e-06,1.755850892164777e-14
25		1.778279410038922e+00,0.000000000000000e+00
	-1.036359126658198e-02,1.796749913442127e-10
	1.000000000000000e+00,0.000000000000000e+00
	0.000000000000000e+00,0.000000000000000e+00
	1.711570764846588e-08,4.240867843618430e-15
	1.711580435345707e-08,2.401488084827966e-14
	1.036359126658175e-06,-1.796749913442127e-14
	1.155859021820084e-06,5.305052280971573e-12
	-9.128422548418670e-09,-1.148968990892939e-14
	-2.183089725929841e-06,-5.275595091928222e-12
	-1.036359126658198e-06,1.796749913442127e-14
	-1.155859021814698e-06,-5.305052280971572e-12
	-1.036359126658198e-06,1.796749913442127e-14
26		1.819700858609982e+00,0.000000000000000e+00
	-1.036359126658198e-02,1.838601595306379e-10
	1.000000000000000e+00,0.000000000000000e+00
	0.000000000000000e+00,0.000000000000000e+00
	1.711570764846583e-08,4.339650345563533e-15
	1.711580435345703e-08,2.457425928250187e-14
	1.036359126658175e-06,-1.838601595306345e-14
	1.155859021820084e-06,5.428622822801239e-12
	-9.128422548418648e-09,-1.175731916728634e-14
	-2.183089725929841e-06,-5.398479487680890e-12
	-1.036359126658198e-06,1.838601595306379e-14
	-1.155859021814698e-06,-5.428622822801238e-12
	-1.036359126658198e-06,1.838601595306379e-14
27		1.862087136662866e+00,0.000000000000000e+00
	-1.036359126658198e-02,1.881428128073233e-10
	1.000000000000000e+00,0.000000000000000e+00
	0.000000000000000e+00,0.000000000000000e+00
	1.711570764846577e-08,4.440733787563915e-15
	1.711580435345699e-08,2.514666731427443e-14
	1.036359126658175e-06,-1.881428128073195e-14
	1.155859021820084e-06,5.555071692307876e-12
	-9.128422548418625e-09,-1.203118231189230e-14
	-2.183089725929841e-06,-5.524226228715251e-12
	-1.036359126658198e-06,1.881428128073233e-14
	-1.155859021814698e-06,-5.555071692307873e-12
	-1.036359126658198e-06,1.881428128073233e-14
28		1.905460717963246e+00,0.000000000000000e+00
	-1.036359126658198e-02,1.925252218937236e-10
	1.000000000000000e+00,0.000000000000000e+00
	0.000000000000000e+00,0.000000000000000e+00
	1.711570764846571e-08,4.544171765398534e-15
	1.711580435345695e-08,2.573240844191252e-14
	1.036359126658175e-06,-1.925252218937214e-14
	1.155859021820084e-06,5.684465934355837e-12
	-9.128422548418600e-09,-1.231142454861156e-14
	-2.183089725929841e-06,-5.652901987617854e-12
	-1.036359126658198e-06,1.925252218937237e-14
	-1.155859021814698e-06,-5.684465934355836e-12
	-1.036359126658198e-06,1.925252218937237e-14
29		1.949844599758044e+00,0.000000000000000e+00
	-1.036359126658198e-02,1.970097104011447e-10
	1.000000000000000e+00,0.000000000000000e+00
	0.000000000000000e+00,0.000000000000000e+00
	1.711570764846565e-08,4.650019123252367e-15
	1.711580435345690e-08,2.633179323311519e-14
	1.036359126658175e-06,-1.970097104011371e-14
	1.155859021820084e-06,5.816874155484997e-12
	-9.128422548418577e-09,-1.259819446558745e-14
	-2.183089725929841e-06,-5.784574989979296e-12
	-1.036359126658198e-06,1.970097104011447e-14
	-1.155859021814698e-06,-5.816874155484997e-12
	-1.036359126658198e-06,1.970097104011447e-14
30		1.995262314968878e+00,0.000000000000000e+00
	-1.036359126658198e-02,2.015986560647521e-10
	1.000000000000000e+00,0.000000000000000e+00
	0.000000000000000e+00,0.000000000000000e+00
	1.711570764846558e-08,4.758331982795638e-15
	1.711580435345686e-08,2.694513948963256e-14
	1.036359126658175e-06,-2.015986560647488e-14
	1.155859021820084e-06,5.952366560286828e-12
	-9.128422548418549e-09,-1.289164411202582e-14
	-2.183089725929841e-06,-5.919315050568327e-12
	-1.036359126658198e-06,2.015986560647521e-14
	-1.155859021814698e-06,-5.952366560286827e-12
	-1.036359126658198e-06,2.015986560647521e-14
31		2.041737944669527e+00,0.000000000000000e+00
	-1.036359126658198e-02,2.062944920042787e-10
	1.000000000000000e+00,0.000000000000000e+00
	0.000000000000000e+00,0.000000000000000e+00
	1.711570764846551e-08,4.869167772940169e-15
	1.711580435345681e-08,2.757277241576841e-14
	1.036359126658175e-06,-2.062944920042752e-14
	1.155859021820084e-06,6.091014988627807e-12
	-9.128422548418521e-09,-1.319192907881346e-14
	-2.183089725929841e-06,-6.057193610348566e-12
	-1.036359126658198e-06,2.062944920042787e-14
	-1.155859021814698e-06,-6.091014988627804e-12
	-1.036359126658198e-06,2.062944920042787e-14
32		2.089296130854037e+00,0.000000000000000e+00
	-1.036359126658198e-02,2.110997080140965e-10
	1.000000000000000e+00,0.000000000000000e+00
	0.000000000000000e+00,0.000000000000000e+00
	1.711570764846544e-08,4.982585260288972e-15
