Title: * GA CMOS Amp | W=1.1772161228637984e-05 L=1e-06 Vbias=1.4133010251213274
Date: Sat Sep  6 22:07:56 2025
Plotname: AC Analysis
Flags: complex forward log
No. Variables: 13
No. Points:          901
Offset:    0.0000000000000000e+00
Command: Linear Technology Corporation LTspice
Variables:
	0	frequency	frequency
	1	V(out)	voltage
	2	V(g)	voltage
	3	V(vdd)	voltage
	4	V(m1#dbody)	voltage
	5	V(m1#sbody)	voltage
	6	Id(M1)	device_current
	7	Ig(M1)	device_current
	8	Ib(M1)	device_current
	9	Is(M1)	device_current
	10	I(Rload)	device_current
	11	I(Vg)	device_current
	12	I(Vdd)	device_current
Values:
0		1.000000000000000e+00,0.000000000000000e+00
	2.720858706319575e-02,1.426073707557880e-09
	1.000000000000000e+00,0.000000000000000e+00
	0.000000000000000e+00,0.000000000000000e+00
	2.372616836878083e-04,1.334771099749110e-13
	2.372616834835037e-04,1.262515100705328e-13
	-2.720858706319573e-06,-1.426073707557876e-13
	1.520664857886826e-04,3.018052094685234e-12
	-1.265395646338077e-04,-6.785796451133651e-14
	-2.280606244855536e-05,-2.807586759418110e-12
	2.720858706319575e-06,1.426073707557880e-13
	-1.520664857886933e-04,-3.018052094685233e-12
	2.720858706319575e-06,1.426073707557880e-13
1		1.023292992280754e+00,0.000000000000000e+00
	2.720858706319575e-02,1.459291231419812e-09
	1.000000000000000e+00,0.000000000000000e+00
	0.000000000000000e+00,0.000000000000000e+00
	2.372616836878083e-04,1.365861912672140e-13
	2.372616834835037e-04,1.291922855200393e-13
	-2.720858706319573e-06,-1.459291231419812e-13
	1.520664857886826e-04,3.088351558829651e-12
	-1.265395646338077e-04,-6.943857955488676e-14
	-2.280606244855536e-05,-2.872983856132783e-12
	2.720858706319575e-06,1.459291231419812e-13
	-1.520664857886933e-04,-3.088351558829651e-12
	2.720858706319575e-06,1.459291231419812e-13
2		1.047128548050899e+00,0.000000000000000e+00
	2.720858706319575e-02,1.493282490808646e-09
	1.000000000000000e+00,0.000000000000000e+00
	0.000000000000000e+00,0.000000000000000e+00
	2.372616836878083e-04,1.397676923660588e-13
	2.372616834835037e-04,1.322015604293906e-13
	-2.720858706319573e-06,-1.493282490808643e-13
	1.520664857886826e-04,3.160288507849724e-12
	-1.265395646338077e-04,-7.105601185244526e-14
	-2.280606244855536e-05,-2.939904246916415e-12
	2.720858706319575e-06,1.493282490808646e-13
	-1.520664857886933e-04,-3.160288507849724e-12
	2.720858706319575e-06,1.493282490808646e-13
3		1.071519305237606e+00,0.000000000000000e+00
	2.720858706319575e-02,1.528065508340036e-09
	1.000000000000000e+00,0.000000000000000e+00
	0.000000000000000e+00,0.000000000000000e+00
	2.372616836878083e-04,1.430233001454402e-13
	2.372616834835037e-04,1.352809303559760e-13
	-2.720858706319573e-06,-1.528065508340037e-13
	1.520664857886826e-04,3.233901083668024e-12
	-1.265395646338077e-04,-7.271111898802543e-14
	-2.280606244855536e-05,-3.008383413845995e-12
	2.720858706319575e-06,1.528065508340036e-13
	-1.520664857886933e-04,-3.233901083668023e-12
	2.720858706319575e-06,1.528065508340036e-13
4		1.096478196143185e+00,0.000000000000000e+00
	2.720858706319575e-02,1.563658726430287e-09
	1.000000000000000e+00,0.000000000000000e+00
	0.000000000000000e+00,0.000000000000000e+00
	2.372616836878083e-04,1.463547407716959e-13
	2.372616834835037e-04,1.384320280224909e-13
	-2.720858706319573e-06,-1.563658726430285e-13
	1.520664857886826e-04,3.309228316646625e-12
	-1.265395646338077e-04,-7.440477852133851e-14
	-2.280606244855536e-05,-3.078457665482258e-12
	2.720858706319575e-06,1.563658726430288e-13
	-1.520664857886933e-04,-3.309228316646624e-12
	2.720858706319575e-06,1.563658726430288e-13
5		1.122018454301963e+00,0.000000000000000e+00
	2.720858706319575e-02,1.600081017074762e-09
	1.000000000000000e+00,0.000000000000000e+00
	0.000000000000000e+00,0.000000000000000e+00
	2.372616836878083e-04,1.497637806187428e-13
	2.372616834835037e-04,1.416565241826280e-13
	-2.720858706319573e-06,-1.600081017074762e-13
	1.520664857886826e-04,3.386310146281528e-12
	-1.265395646338077e-04,-7.613788845308725e-14
	-2.280606244855536e-05,-3.150164156120965e-12
	2.720858706319575e-06,1.600081017074762e-13
	-1.520664857886933e-04,-3.386310146281528e-12
	2.720858706319575e-06,1.600081017074762e-13
6		1.148153621496882e+00,0.000000000000000e+00
	2.720858706319575e-02,1.637351691854066e-09
	1.000000000000000e+00,0.000000000000000e+00
	0.000000000000000e+00,0.000000000000000e+00
	2.372616836878083e-04,1.532522272046317e-13
	2.372616834835037e-04,1.449561285069324e-13
	-2.720858706319573e-06,-1.637351691854065e-13
	1.520664857886826e-04,3.465187442379103e-12
	-1.265395646338077e-04,-7.791136770109794e-14
	-2.280606244855536e-05,-3.223540905492599e-12
	2.720858706319575e-06,1.637351691854066e-13
	-1.520664857886933e-04,-3.465187442379102e-12
	2.720858706319575e-06,1.637351691854066e-13
7		1.174897554939529e+00,0.000000000000000e+00
	2.720858706319575e-02,1.675490512173302e-09
	1.000000000000000e+00,0.000000000000000e+00
	0.000000000000000e+00,0.000000000000000e+00
	2.372616836878083e-04,1.568219301499176e-13
	2.372616834835037e-04,1.483325904892924e-13
	-2.720858706319573e-06,-1.675490512173302e-13
	1.520664857886826e-04,3.545902026725805e-12
	-1.265395646338077e-04,-7.972615658754262e-14
	-2.280606244855536e-05,-3.298626818920932e-12
	2.720858706319575e-06,1.675490512173302e-13
	-1.520664857886933e-04,-3.545902026725806e-12
	2.720858706319575e-06,1.675490512173302e-13
8		1.202264434617413e+00,0.000000000000000e+00
	2.720858706319575e-02,1.714517699739832e-09
	1.000000000000000e+00,0.000000000000000e+00
	0.000000000000000e+00,0.000000000000000e+00
	2.372616836878083e-04,1.604747821583526e-13
	2.372616834835037e-04,1.517877003745437e-13
	-2.720858706319573e-06,-1.714517699739832e-13
	1.520664857886826e-04,3.628496695262640e-12
	-1.265395646338077e-04,-8.158321733751043e-14
	-2.280606244855536e-05,-3.375461707951146e-12
	2.720858706319575e-06,1.714517699739832e-13
	-1.520664857886933e-04,-3.628496695262641e-12
	2.720858706319575e-06,1.714517699739832e-13
9		1.230268770812381e+00,0.000000000000000e+00
	2.720858706319575e-02,1.754453947285088e-09
	1.000000000000000e+00,0.000000000000000e+00
	0.000000000000000e+00,0.000000000000000e+00
	2.372616836878083e-04,1.642127200204228e-13
	2.372616834835037e-04,1.553232901076814e-13
	-2.720858706319573e-06,-1.754453947285086e-13
	1.520664857886826e-04,3.713015240776134e-12
	-1.265395646338077e-04,-8.348353458919215e-14
	-2.280606244855536e-05,-3.454086311458434e-12
	2.720858706319575e-06,1.754453947285088e-13
	-1.520664857886933e-04,-3.713015240776135e-12
	2.720858706319575e-06,1.754453947285088e-13
10		1.258925411794167e+00,0.000000000000000e+00
	2.720858706319575e-02,1.795320429536138e-09
	1.000000000000000e+00,0.000000000000000e+00
	0.000000000000000e+00,0.000000000000000e+00
	2.372616836878083e-04,1.680377256402602e-13
	2.372616834835037e-04,1.589412343051809e-13
	-2.720858706319573e-06,-1.795320429536138e-13
	1.520664857886826e-04,3.799502476117855e-12
	-1.265395646338077e-04,-8.542811591594829e-14
	-2.280606244855536e-05,-3.534542317248293e-12
	2.720858706319575e-06,1.795320429536138e-13
	-1.520664857886933e-04,-3.799502476117856e-12
	2.720858706319575e-06,1.795320429536138e-13
11		1.288249551693134e+00,0.000000000000000e+00
	2.720858706319575e-02,1.837138814442804e-09
	1.000000000000000e+00,0.000000000000000e+00
	0.000000000000000e+00,0.000000000000000e+00
	2.372616836878083e-04,1.719518270864742e-13
	2.372616834835037e-04,1.626434512489451e-13
	-2.720858706319573e-06,-1.837138814442799e-13
	1.520664857886826e-04,3.888004257964775e-12
	-1.265395646338077e-04,-8.741799236053785e-14
	-2.280606244855536e-05,-3.616872384159958e-12
	2.720858706319575e-06,1.837138814442804e-13
	-1.520664857886933e-04,-3.888004257964776e-12
	2.720858706319575e-06,1.837138814442804e-13
12		1.318256738556407e+00,0.000000000000000e+00
	2.720858706319575e-02,1.879931274666294e-09
	1.000000000000000e+00,0.000000000000000e+00
	0.000000000000000e+00,0.000000000000000e+00
	2.372616836878083e-04,1.759570996674611e-13
	2.372616834835037e-04,1.664319039034020e-13
	-2.720858706319573e-06,-1.879931274666292e-13
	1.520664857886826e-04,3.978567511133088e-12
	-1.265395646338077e-04,-8.945421898179089e-14
	-2.280606244855536e-05,-3.701120164684668e-12
	2.720858706319575e-06,1.879931274666294e-13
	-1.520664857886933e-04,-3.978567511133088e-12
	2.720858706319575e-06,1.879931274666294e-13
13		1.348962882591653e+00,0.000000000000000e+00
	2.720858706319575e-02,1.923720499335444e-09
	1.000000000000000e+00,0.000000000000000e+00
	0.000000000000000e+00,0.000000000000000e+00
	2.372616836878083e-04,1.800556670317591e-13
	2.372616834835037e-04,1.703086009562951e-13
	-2.720858706319573e-06,-1.923720499335443e-13
	1.520664857886826e-04,4.071240253458370e-12
	-1.265395646338077e-04,-9.153787541401462e-14
	-2.280606244855536e-05,-3.787330328110811e-12
	2.720858706319575e-06,1.923720499335444e-13
	-1.520664857886933e-04,-4.071240253458371e-12
	2.720858706319575e-06,1.923720499335444e-13
14		1.380384264602885e+00,0.000000000000000e+00
	2.720858706319575e-02,1.968529706076793e-09
	1.000000000000000e+00,0.000000000000000e+00
	0.000000000000000e+00,0.000000000000000e+00
	2.372616836878083e-04,1.842497022940359e-13
	2.372616834835037e-04,1.742755978837161e-13
	-2.720858706319573e-06,-1.968529706076790e-13
	1.520664857886826e-04,4.166071621255272e-12
	-1.265395646338077e-04,-9.367006643942990e-14
	-2.280606244855536e-05,-3.875548584208163e-12
	2.720858706319575e-06,1.968529706076793e-13
	-1.520664857886933e-04,-4.166071621255272e-12
	2.720858706319575e-06,1.968529706076793e-13
15		1.412537544622754e+00,0.000000000000000e+00
	2.720858706319575e-02,2.014382653324875e-09
	1.000000000000000e+00,0.000000000000000e+00
	0.000000000000000e+00,0.000000000000000e+00
	2.372616836878083e-04,1.885414291873021e-13
	2.372616834835037e-04,1.783349980399453e-13
	-2.720858706319573e-06,-2.014382653324872e-13
	1.520664857886826e-04,4.263111895370240e-12
	-1.265395646338077e-04,-9.585192257394125e-14
	-2.280606244855536e-05,-3.965821707463812e-12
	2.720858706319575e-06,2.014382653324875e-13
	-1.520664857886933e-04,-4.263111895370240e-12
	2.720858706319575e-06,2.014382653324875e-13
16		1.445439770745927e+00,0.000000000000000e+00
	2.720858706319575e-02,2.061303652919256e-09
	1.000000000000000e+00,0.000000000000000e+00
	0.000000000000000e+00,0.000000000000000e+00
	2.372616836878083e-04,1.929331232419642e-13
	2.372616834835037e-04,1.824889537726780e-13
	-2.720858706319573e-06,-2.061303652919251e-13
	1.520664857886826e-04,4.362412527841090e-12
	-1.265395646338077e-04,-9.808460066655147e-14
	-2.280606244855536e-05,-4.058197561882613e-12
	2.720858706319575e-06,2.061303652919256e-13
	-1.520664857886933e-04,-4.362412527841090e-12
	2.720858706319575e-06,2.061303652919256e-13
17		1.479108388168207e+00,0.000000000000000e+00
	2.720858706319575e-02,2.109317582994994e-09
	1.000000000000000e+00,0.000000000000000e+00
	0.000000000000000e+00,0.000000000000000e+00
	2.372616836878083e-04,1.974271129923411e-13
	2.372616834835037e-04,1.867396675642279e-13
	-2.720858706319573e-06,-2.109317582994993e-13
	1.520664857886827e-04,4.464026169177556e-12
	-1.265395646338077e-04,-1.003692845127383e-13
	-2.280606244855537e-05,-4.152725126365318e-12
	2.720858706319575e-06,2.109317582994994e-13
	-1.520664857886933e-04,-4.464026169177556e-12
	2.720858706319575e-06,2.109317582994994e-13
18		1.513561248436208e+00,0.000000000000000e+00
	2.720858706319575e-02,2.158449901173355e-09
	1.000000000000000e+00,0.000000000000000e+00
	0.000000000000000e+00,0.000000000000000e+00
	2.372616836878083e-04,2.020257812112833e-13
	2.372616834835037e-04,1.910893931993122e-13
	-2.720858706319573e-06,-2.158449901173356e-13
	1.520664857886827e-04,4.568006696277294e-12
	-1.265395646338077e-04,-1.027071854821184e-13
	-2.280606244855537e-05,-4.249454520677840e-12
	2.720858706319575e-06,2.158449901173355e-13
	-1.520664857886933e-04,-4.568006696277294e-12
	2.720858706319575e-06,2.158449901173355e-13
19		1.548816618912481e+00,0.000000000000000e+00
	2.720858706319575e-02,2.208726658059781e-09
	1.000000000000000e+00,0.000000000000000e+00
	0.000000000000000e+00,0.000000000000000e+00
	2.372616836878083e-04,2.067315661735510e-13
	2.372616834835037e-04,1.955404369600377e-13
	-2.720858706319573e-06,-2.208726658059779e-13
	1.520664857886827e-04,4.674409240992114e-12
	-1.265395646338077e-04,-1.050995431607313e-13
	-2.280606244855537e-05,-4.348437032025405e-12
	2.720858706319575e-06,2.208726658059781e-13
	-1.520664857886933e-04,-4.674409240992114e-12
	2.720858706319575e-06,2.208726658059781e-13
20		1.584893192461113e+00,0.000000000000000e+00
	2.720858706319575e-02,2.260174511056263e-09
	1.000000000000000e+00,0.000000000000000e+00
	0.000000000000000e+00,0.000000000000000e+00
	2.372616836878083e-04,2.115469629486198e-13
	2.372616834835037e-04,2.000951588487231e-13
	-2.720858706319573e-06,-2.260174511056259e-13
	1.520664857886827e-04,4.783290219359629e-12
	-1.265395646338077e-04,-1.075476260082850e-13
	-2.280606244855537e-05,-4.449725142245718e-12
	2.720858706319575e-06,2.260174511056263e-13
	-1.520664857886933e-04,-4.783290219359630e-12
	2.720858706319575e-06,2.260174511056263e-13
21		1.621810097358929e+00,0.000000000000000e+00
	2.720858706319575e-02,2.312820738495454e-09
	1.000000000000000e+00,0.000000000000000e+00
	0.000000000000000e+00,0.000000000000000e+00
	2.372616836878083e-04,2.164745247235989e-13
	2.372616834835037e-04,2.047559738392026e-13
	-2.720858706319573e-06,-2.312820738495446e-13
	1.520664857886827e-04,4.894707361515778e-12
	-1.265395646338077e-04,-1.100527320307094e-13
	-2.280606244855537e-05,-4.553372555635524e-12
	2.720858706319575e-06,2.312820738495454e-13
	-1.520664857886933e-04,-4.894707361515779e-12
	2.720858706319575e-06,2.312820738495454e-13
22		1.659586907437560e+00,0.000000000000000e+00
	2.720858706319575e-02,2.366693254103997e-09
	1.000000000000000e+00,0.000000000000000e+00
	0.000000000000000e+00,0.000000000000000e+00
	2.372616836878083e-04,2.215168641569657e-13
	2.372616834835037e-04,2.095253531572775e-13
	-2.720858706319573e-06,-2.366693254104000e-13
	1.520664857886827e-04,5.008719742304117e-12
	-1.265395646338077e-04,-1.126161894683767e-13
	-2.280606244855537e-05,-4.659434227425340e-12
	2.720858706319575e-06,2.366693254103997e-13
	-1.520664857886933e-04,-5.008719742304116e-12
	2.720858706319575e-06,2.366693254103997e-13
23		1.698243652461743e+00,0.000000000000000e+00
	2.720858706319575e-02,2.421820621802754e-09
	1.000000000000000e+00,0.000000000000000e+00
	0.000000000000000e+00,0.000000000000000e+00
	2.372616836878083e-04,2.266766547638307e-13
	2.372616834835037e-04,2.144058255909923e-13
	-2.720858706319573e-06,-2.421820621802750e-13
	1.520664857886827e-04,5.125387812598067e-12
	-1.265395646338077e-04,-1.152393575003515e-13
	-2.280606244855537e-05,-4.767966392917440e-12
	2.720858706319575e-06,2.421820621802754e-13
	-1.520664857886933e-04,-5.125387812598068e-12
	2.720858706319575e-06,2.421820621802754e-13
24		1.737800828749374e+00,0.000000000000000e+00
	2.720858706319575e-02,2.478232070851776e-09
	1.000000000000000e+00,0.000000000000000e+00
	0.000000000000000e+00,0.000000000000000e+00
	2.372616836878083e-04,2.319566323334717e-13
	2.372616834835037e-04,2.193999788314319e-13
	-2.720858706319573e-06,-2.478232070851770e-13
	1.520664857886827e-04,5.244773431352783e-12
	-1.265395646338077e-04,-1.179236269650462e-13
	-2.280606244855537e-05,-4.879026597302560e-12
	2.720858706319575e-06,2.478232070851776e-13
	-1.520664857886933e-04,-5.244773431352786e-12
	2.720858706319575e-06,2.478232070851776e-13
25		1.778279410038922e+00,0.000000000000000e+00
	2.720858706319575e-02,2.535957511348044e-09
	1.000000000000000e+00,0.000000000000000e+00
	0.000000000000000e+00,0.000000000000000e+00
	2.372616836878083e-04,2.373595963798851e-13
	2.372616834835037e-04,2.245104608447501e-13
	-2.720858706319573e-06,-2.535957511348038e-13
	1.520664857886827e-04,5.366939898403588e-12
	-1.265395646338077e-04,-1.206704210976616e-13
	-2.280606244855537e-05,-4.992673726171123e-12
	2.720858706319575e-06,2.535957511348044e-13
	-1.520664857886933e-04,-5.366939898403590e-12
	2.720858706319575e-06,2.535957511348044e-13
26		1.819700858609982e+00,0.000000000000000e+00
	2.720858706319575e-02,2.595027550084195e-09
	1.000000000000000e+00,0.000000000000000e+00
	0.000000000000000e+00,0.000000000000000e+00
	2.372616836878083e-04,2.428884116261247e-13
	2.372616834835037e-04,2.297399812761554e-13
	-2.720858706319573e-06,-2.595027550084193e-13
	1.520664857886827e-04,5.491951988028375e-12
	-1.265395646338077e-04,-1.234811962848048e-13
	-2.280606244855537e-05,-5.108968036735151e-12
	2.720858706319575e-06,2.595027550084195e-13
	-1.520664857886933e-04,-5.491951988028374e-12
	2.720858706319575e-06,2.595027550084195e-13
27		1.862087136662866e+00,0.000000000000000e+00
	2.720858706319575e-02,2.655473506776650e-09
	1.000000000000000e+00,0.000000000000000e+00
	0.000000000000000e+00,0.000000000000000e+00
	2.372616836878083e-04,2.485460095232165e-13
	2.372616834835037e-04,2.350913128866014e-13
	-2.720858706319573e-06,-2.655473506776644e-13
	1.520664857886827e-04,5.619875983291790e-12
	-1.265395646338077e-04,-1.263574428366850e-13
	-2.280606244855537e-05,-5.227971189777441e-12
	2.720858706319575e-06,2.655473506776650e-13
	-1.520664857886933e-04,-5.619875983291793e-12
	2.720858706319575e-06,2.655473506776650e-13
28		1.905460717963246e+00,0.000000000000000e+00
	2.720858706319576e-02,2.717327430671745e-09
	1.000000000000000e+00,0.000000000000000e+00
	0.000000000000000e+00,0.000000000000000e+00
	2.372616836878083e-04,2.543353898044531e-13
	2.372616834835037e-04,2.405672930229414e-13
	-2.720858706319573e-06,-2.717327430671748e-13
	1.520664857886827e-04,5.750779711189402e-12
	-1.265395646338077e-04,-1.293006857772957e-13
	-2.280606244855537e-05,-5.349746282344932e-12
	2.720858706319576e-06,2.717327430671745e-13
	-1.520664857886933e-04,-5.750779711189403e-12
	2.720858706319576e-06,2.717327430671745e-13
29		1.949844599758044e+00,0.000000000000000e+00
	2.720858706319576e-02,2.780622117538664e-09
	1.000000000000000e+00,0.000000000000000e+00
	0.000000000000000e+00,0.000000000000000e+00
	2.372616836878083e-04,2.602596220758908e-13
	2.372616834835037e-04,2.461708251223267e-13
	-2.720858706319573e-06,-2.780622117538655e-13
	1.520664857886827e-04,5.884732578610455e-12
	-1.265395646338077e-04,-1.323124856530025e-13
	-2.280606244855537e-05,-5.474357881203587e-12
	2.720858706319576e-06,2.780622117538664e-13
	-1.520664857886933e-04,-5.884732578610456e-12
	2.720858706319576e-06,2.780622117538664e-13
30		1.995262314968878e+00,0.000000000000000e+00
	2.720858706319576e-02,2.845391127058186e-09
	1.000000000000000e+00,0.000000000000000e+00
	0.000000000000000e+00,0.000000000000000e+00
	2.372616836878083e-04,2.663218474438964e-13
	2.372616834835037e-04,2.519048802516479e-13
	-2.720858706319573e-06,-2.845391127058179e-13
	1.520664857886827e-04,6.021805609138330e-12
	-1.265395646338077e-04,-1.353944393599653e-13
	-2.280606244855537e-05,-5.601872057072546e-12
	2.720858706319576e-06,2.845391127058186e-13
	-1.520664857886933e-04,-6.021805609138330e-12
	2.720858706319576e-06,2.845391127058186e-13
31		2.041737944669527e+00,0.000000000000000e+00
	2.720858706319576e-02,2.911668800616478e-09
	1.000000000000000e+00,0.000000000000000e+00
	0.000000000000000e+00,0.000000000000000e+00
	2.372616836878083e-04,2.725252801806032e-13
	2.372616834835037e-04,2.577724986828338e-13
	-2.720858706319573e-06,-2.911668800616479e-13
	1.520664857886827e-04,6.162071480708191e-12
	-1.265395646338077e-04,-1.385481809908339e-13
	-2.280606244855537e-05,-5.732356419655709e-12
	2.720858706319576e-06,2.911668800616478e-13
	-1.520664857886933e-04,-6.162071480708191e-12
	2.720858706319576e-06,2.911668800616478e-13
32		2.089296130854037e+00,0.000000000000000e+00
	2.720858706319576e-02,2.979490279513350e-09
	1.000000000000000e+00,0.000000000000000e+00
	0.000000000000000e+00,0.000000000000000e+00
	2.372616836878083e-04,2.788732094281605e-13
	2.372616834835037e-04,2.637767915048438e-13
	-2.720858706319573e-06,-2.979490279513350e-13
