Title: * GA CMOS Amp | W=1.8617040899553504e-05 L=5.753557964958086e-07 Vbias=0.5769684730026553
Date: Sat Sep  6 22:34:20 2025
Plotname: AC Analysis
Flags: complex forward log
No. Variables: 13
No. Points:          901
Offset:    0.0000000000000000e+00
Command: Linear Technology Corporation LTspice
Variables:
	0	frequency	frequency
	1	V(out)	voltage
	2	V(g)	voltage
	3	V(vdd)	voltage
	4	V(m1#dbody)	voltage
	5	V(m1#sbody)	voltage
	6	Id(M1)	device_current
	7	Ig(M1)	device_current
	8	Ib(M1)	device_current
	9	Is(M1)	device_current
	10	I(Rload)	device_current
	11	I(Vg)	device_current
	12	I(Vdd)	device_current
Values:
0		1.000000000000000e+00,0.000000000000000e+00
	-1.843163178942964e-01,7.036804166888518e-10
	1.000000000000000e+00,0.000000000000000e+00
	0.000000000000000e+00,0.000000000000000e+00
	1.843709131659256e-09,-2.874369496264973e-14
	1.845115917243911e-09,5.008411516516564e-14
	1.843163178942949e-05,-7.036804166888518e-14
	5.249815341570078e-07,2.592300649526971e-12
	-9.839680375683215e-10,-2.145634127654182e-14
	-1.895562935554893e-05,-2.500476266581544e-12
	-1.843163178942964e-05,7.036804166888518e-14
	-5.249815341612507e-07,-2.592300649526971e-12
	-1.843163178942964e-05,7.036804166888518e-14
1		1.023292992280754e+00,0.000000000000000e+00
	-1.843163178942964e-01,7.200712392029031e-10
	1.000000000000000e+00,0.000000000000000e+00
	0.000000000000000e+00,0.000000000000000e+00
	1.843709131659205e-09,-2.941322162753503e-14
	1.845115917243874e-09,5.125072407309629e-14
	1.843163178942949e-05,-7.200712392029016e-14
	5.249815341570078e-07,2.652683088545797e-12
	-9.839680375683008e-10,-2.195612366826956e-14
	-1.895562935554893e-05,-2.558719840957237e-12
	-1.843163178942964e-05,7.200712392029031e-14
	-5.249815341612507e-07,-2.652683088545797e-12
	-1.843163178942964e-05,7.200712392029031e-14
2		1.047128548050899e+00,0.000000000000000e+00
	-1.843163178942964e-01,7.368438530192494e-10
	1.000000000000000e+00,0.000000000000000e+00
	0.000000000000000e+00,0.000000000000000e+00
	1.843709131659152e-09,-3.009834357185724e-14
	1.845115917243836e-09,5.244450679331403e-14
	1.843163178942949e-05,-7.368438530192489e-14
	5.249815341570078e-07,2.714472015250581e-12
	-9.839680375682797e-10,-2.246754748738987e-14
	-1.895562935554893e-05,-2.618320082461266e-12
	-1.843163178942964e-05,7.368438530192494e-14
	-5.249815341612507e-07,-2.714472015250581e-12
	-1.843163178942964e-05,7.368438530192494e-14
3		1.071519305237606e+00,0.000000000000000e+00
	-1.843163178942964e-01,7.540071511997479e-10
	1.000000000000000e+00,0.000000000000000e+00
	0.000000000000000e+00,0.000000000000000e+00
	1.843709131659097e-09,-3.079942405634008e-14
	1.845115917243795e-09,5.366609628521857e-14
	1.843163178942949e-05,-7.540071511997490e-14
	5.249815341570078e-07,2.777700190948136e-12
	-9.839680375682571e-10,-2.299088389758108e-14
	-1.895562935554893e-05,-2.679308591930580e-12
	-1.843163178942964e-05,7.540071511997479e-14
	-5.249815341612507e-07,-2.777700190948135e-12
	-1.843163178942964e-05,7.540071511997479e-14
4		1.096478196143185e+00,0.000000000000000e+00
	-1.843163178942964e-01,7.715702339522769e-10
	1.000000000000000e+00,0.000000000000000e+00
	0.000000000000000e+00,0.000000000000000e+00
	1.843709131659038e-09,-3.151683480313608e-14
	1.845115917243753e-09,5.491614025172839e-14
	1.843163178942949e-05,-7.715702339522755e-14
	5.249815341570077e-07,2.842401140054139e-12
	-9.839680375682334e-10,-2.352641037873516e-14
	-1.895562935554893e-05,-2.741717706280176e-12
	-1.843163178942964e-05,7.715702339522769e-14
	-5.249815341612507e-07,-2.842401140054139e-12
	-1.843163178942964e-05,7.715702339522769e-14
5		1.122018454301963e+00,0.000000000000000e+00
	-1.843163178942964e-01,7.895424134557870e-10
	1.000000000000000e+00,0.000000000000000e+00
	0.000000000000000e+00,0.000000000000000e+00
	1.843709131658977e-09,-3.225095619291933e-14
	1.845115917243709e-09,5.619530148270068e-14
	1.843163178942949e-05,-7.895424134557822e-14
	5.249815341570077e-07,2.908609167868227e-12
	-9.839680375682090e-10,-2.407441087408088e-14
	-1.895562935554893e-05,-2.805580515648568e-12
	-1.843163178942964e-05,7.895424134557870e-14
	-5.249815341612507e-07,-2.908609167868227e-12
	-1.843163178942964e-05,7.895424134557870e-14
6		1.148153621496882e+00,0.000000000000000e+00
	-1.843163178942964e-01,8.079332187977406e-10
	1.000000000000000e+00,0.000000000000000e+00
	0.000000000000000e+00,0.000000000000000e+00
	1.843709131658913e-09,-3.300217746656791e-14
	1.845115917243663e-09,5.750425820635193e-14
	1.843163178942949e-05,-8.079332187977396e-14
	5.249815341570077e-07,2.976359378763113e-12
	-9.839680375681831e-10,-2.463517594073457e-14
	-1.895562935554893e-05,-2.870930880942604e-12
	-1.843163178942964e-05,8.079332187977407e-14
	-5.249815341612507e-07,-2.976359378763112e-12
	-1.843163178942964e-05,8.079332187977407e-14
7		1.174897554939529e+00,0.000000000000000e+00
	-1.843163178942964e-01,8.267524010265609e-10
	1.000000000000000e+00,0.000000000000000e+00
	0.000000000000000e+00,0.000000000000000e+00
	1.843709131658846e-09,-3.377089693154477e-14
	1.845115917243615e-09,5.884370444886295e-14
	1.843163178942949e-05,-8.267524010265643e-14
	5.249815341570077e-07,3.045687694797392e-12
	-9.839680375681558e-10,-2.520900290375711e-14
	-1.895562935554893e-05,-2.937803451790978e-12
	-1.843163178942964e-05,8.267524010265609e-14
	-5.249815341612507e-07,-3.045687694797391e-12
	-1.843163178942964e-05,8.267524010265609e-14
8		1.202264434617413e+00,0.000000000000000e+00
	-1.843163178942964e-01,8.460099383217678e-10
	1.000000000000000e+00,0.000000000000000e+00
	0.000000000000000e+00,0.000000000000000e+00
	1.843709131658775e-09,-3.455752217308533e-14
	1.845115917243564e-09,6.021435040236136e-14
	1.843163178942949e-05,-8.460099383217667e-14
	5.249815341570076e-07,3.116630874761895e-12
	-9.839680375681275e-10,-2.579619601379986e-14
	-1.895562935554893e-05,-3.006233684915919e-12
	-1.843163178942964e-05,8.460099383217678e-14
	-5.249815341612507e-07,-3.116630874761894e-12
	-1.843163178942964e-05,8.460099383217678e-14
9		1.230268770812381e+00,0.000000000000000e+00
	-1.843163178942964e-01,8.657160412845379e-10
	1.000000000000000e+00,0.000000000000000e+00
	0.000000000000000e+00,0.000000000000000e+00
	1.843709131658702e-09,-3.536247027030513e-14
	1.845115917243511e-09,6.161692280147405e-14
	1.843163178942949e-05,-8.657160412845361e-14
	5.249815341570076e-07,3.189226533669683e-12
	-9.839680375680979e-10,-2.639706660842206e-14
	-1.895562935554893e-05,-3.076257862932808e-12
	-1.843163178942964e-05,8.657160412845380e-14
	-5.249815341612507e-07,-3.189226533669684e-12
	-1.843163178942964e-05,8.657160412845380e-14
10		1.258925411794167e+00,0.000000000000000e+00
	-1.843163178942964e-01,8.858811583515036e-10
	1.000000000000000e+00,0.000000000000000e+00
	0.000000000000000e+00,0.000000000000000e+00
	1.843709131658625e-09,-3.618616801733966e-14
	1.845115917243455e-09,6.305216530865269e-14
	1.843163178942949e-05,-8.858811583515068e-14
	5.249815341570076e-07,3.263513162700028e-12
	-9.839680375680669e-10,-2.701193327716662e-14
	-1.895562935554893e-05,-3.147913113587711e-12
	-1.843163178942964e-05,8.858811583515036e-14
	-5.249815341612507e-07,-3.263513162700028e-12
	-1.843163178942964e-05,8.858811583515036e-14
11		1.288249551693134e+00,0.000000000000000e+00
	-1.843163178942964e-01,9.065159813346508e-10
	1.000000000000000e+00,0.000000000000000e+00
	0.000000000000000e+00,0.000000000000000e+00
	1.843709131658545e-09,-3.702905214963751e-14
	1.845115917243397e-09,6.452083890847208e-14
	1.843163178942949e-05,-9.065159813346507e-14
	5.249815341570076e-07,3.339530149606939e-12
	-9.839680375680344e-10,-2.764112203047998e-14
	-1.895562935554893e-05,-3.221237429442995e-12
	-1.843163178942964e-05,9.065159813346509e-14
	-5.249815341612507e-07,-3.339530149606939e-12
	-1.843163178942964e-05,9.065159813346509e-14
12		1.318256738556407e+00,0.000000000000000e+00
	-1.843163178942964e-01,9.276314510902593e-10
	1.000000000000000e+00,0.000000000000000e+00
	0.000000000000000e+00,0.000000000000000e+00
	1.843709131658460e-09,-3.789156957552279e-14
	1.845115917243336e-09,6.602372231111477e-14
	1.843163178942949e-05,-9.276314510902594e-14
	5.249815341570075e-07,3.417317799603080e-12
	-9.839680375680005e-10,-2.828496647256725e-14
	-1.895562935554893e-05,-3.296269688021487e-12
	-1.843163178942964e-05,9.276314510902594e-14
	-5.249815341612507e-07,-3.417317799603080e-12
	-1.843163178942964e-05,9.276314510902594e-14
13		1.348962882591653e+00,0.000000000000000e+00
	-1.843163178942964e-01,9.492387633198894e-10
	1.000000000000000e+00,0.000000000000000e+00
	0.000000000000000e+00,0.000000000000000e+00
	1.843709131658372e-09,-3.877417761315111e-14
	1.845115917243273e-09,6.756161236525422e-14
	1.843163178942949e-05,-9.492387633198876e-14
	5.249815341570075e-07,3.496917356730118e-12
	-9.839680375679649e-10,-2.894380797827416e-14
	-1.895562935554893e-05,-3.373049672419856e-12
	-1.843163178942964e-05,9.492387633198894e-14
	-5.249815341612507e-07,-3.496917356730118e-12
	-1.843163178942964e-05,9.492387633198894e-14
14		1.380384264602885e+00,0.000000000000000e+00
	-1.843163178942964e-01,9.713493745064924e-10
	1.000000000000000e+00,0.000000000000000e+00
	0.000000000000000e+00,0.000000000000000e+00
	1.843709131658279e-09,-3.967734423298677e-14
	1.845115917243206e-09,6.913532448055346e-14
	1.843163178942949e-05,-9.713493745064890e-14
	5.249815341570075e-07,3.578371025726868e-12
	-9.839680375679275e-10,-2.961799587408776e-14
	-1.895562935554893e-05,-3.451618092402132e-12
	-1.843163178942964e-05,9.713493745064925e-14
	-5.249815341612507e-07,-3.578371025726868e-12
	-1.843163178942964e-05,9.713493745064925e-14
15		1.412537544622754e+00,0.000000000000000e+00
	-1.843163178942964e-01,9.939750079887873e-10
	1.000000000000000e+00,0.000000000000000e+00
	0.000000000000000e+00,0.000000000000000e+00
	1.843709131658182e-09,-4.060154830592652e-14
	1.845115917243136e-09,7.074569306000645e-14
	1.843163178942949e-05,-9.939750079887889e-14
	5.249815341570074e-07,3.661721994406799e-12
	-9.839680375678884e-10,-3.030788762335431e-14
	-1.895562935554893e-05,-3.532016605984566e-12
	-1.843163178942964e-05,9.939750079887874e-14
	-5.249815341612507e-07,-3.661721994406798e-12
	-1.843163178942964e-05,9.939750079887874e-14
16		1.445439770745927e+00,0.000000000000000e+00
	-1.843163178942964e-01,1.017127660177132e-09
	1.000000000000000e+00,0.000000000000000e+00
	0.000000000000000e+00,0.000000000000000e+00
	1.843709131658081e-09,-4.154727985720316e-14
	1.845115917243063e-09,7.239357194234973e-14
	1.843163178942949e-05,-1.017127660177131e-13
	5.249815341570074e-07,3.747014456556783e-12
	-9.839680375678475e-10,-3.101384901581104e-14
	-1.895562935554893e-05,-3.614287841523259e-12
	-1.843163178942964e-05,1.017127660177132e-13
	-5.249815341612507e-07,-3.747014456556783e-12
	-1.843163178942964e-05,1.017127660177132e-13
17		1.479108388168207e+00,0.000000000000000e+00
	-1.843163178942964e-01,1.040819606914180e-09
	1.000000000000000e+00,0.000000000000000e+00
	0.000000000000000e+00,0.000000000000000e+00
	1.843709131657974e-09,-4.251504032620336e-14
	1.845115917242986e-09,7.407983485477907e-14
	1.843163178942949e-05,-1.040819606914181e-13
	5.249815341570073e-07,3.834293635369234e-12
	-9.839680375678047e-10,-3.173625436153278e-14
	-1.895562935554893e-05,-3.698475420316282e-12
	-1.843163178942964e-05,1.040819606914180e-13
	-5.249815341612507e-07,-3.834293635369232e-12
	-1.843163178942964e-05,1.040819606914180e-13
18		1.513561248436208e+00,0.000000000000000e+00
	-1.843163178942964e-01,1.065063409983689e-09
	1.000000000000000e+00,0.000000000000000e+00
	0.000000000000000e+00,0.000000000000000e+00
	1.843709131657863e-09,-4.350534283233762e-14
	1.845115917242906e-09,7.580537587621093e-14
	1.843163178942949e-05,-1.065063409983688e-13
	5.249815341570073e-07,3.923605807420035e-12
	-9.839680375677598e-10,-3.247548668939599e-14
	-1.895562935554893e-05,-3.784623979732270e-12
	-1.843163178942964e-05,1.065063409983689e-13
	-5.249815341612507e-07,-3.923605807420035e-12
	-1.843163178942964e-05,1.065063409983689e-13
19		1.548816618912481e+00,0.000000000000000e+00
	-1.843163178942964e-01,1.089871923770953e-09
	1.000000000000000e+00,0.000000000000000e+00
	0.000000000000000e+00,0.000000000000000e+00
	1.843709131657747e-09,-4.451871244710273e-14
	1.845115917242822e-09,7.757110991133527e-14
	1.843163178942949e-05,-1.089871923770952e-13
	5.249815341570073e-07,4.014998327204990e-12
	-9.839680375677129e-10,-3.323193795016587e-14
	-1.895562935554893e-05,-3.872779196877730e-12
	-1.843163178942964e-05,1.089871923770953e-13
	-5.249815341612507e-07,-4.014998327204990e-12
	-1.843163178942964e-05,1.089871923770953e-13
20		1.584893192461113e+00,0.000000000000000e+00
	-1.843163178942964e-01,1.115258302078361e-09
	1.000000000000000e+00,0.000000000000000e+00
	0.000000000000000e+00,0.000000000000000e+00
	1.843709131657625e-09,-4.555568647248217e-14
	1.845115917242734e-09,7.937797317570957e-14
	1.843163178942949e-05,-1.115258302078357e-13
	5.249815341570072e-07,4.108519652247817e-12
	-9.839680375676634e-10,-3.400600922431361e-14
	-1.895562935554893e-05,-3.962987812815668e-12
	-1.843163178942964e-05,1.115258302078361e-13
	-5.249815341612507e-07,-4.108519652247817e-12
	-1.843163178942964e-05,1.115258302078361e-13
21		1.621810097358929e+00,0.000000000000000e+00
	-1.843163178942964e-01,1.141236005099718e-09
	1.000000000000000e+00,0.000000000000000e+00
	0.000000000000000e+00,0.000000000000000e+00
	1.843709131657497e-09,-4.661681472583020e-14
	1.845115917242642e-09,8.122692369215319e-14
	1.843163178942949e-05,-1.141236005099720e-13
	5.249815341570072e-07,4.204219368792952e-12
	-9.839680375676119e-10,-3.479811093467475e-14
	-1.895562935554893e-05,-4.055297657348306e-12
	-1.843163178942964e-05,1.141236005099718e-13
	-5.249815341612507e-07,-4.204219368792951e-12
	-1.843163178942964e-05,1.141236005099718e-13
22		1.659586907437560e+00,0.000000000000000e+00
	-1.843163178942964e-01,1.167818806557025e-09
	1.000000000000000e+00,0.000000000000000e+00
	0.000000000000000e+00,0.000000000000000e+00
	1.843709131657363e-09,-4.770265983139229e-14
	1.845115917242545e-09,8.311894179870396e-14
	1.843163178942949e-05,-1.167818806557025e-13
	5.249815341570071e-07,4.302148218096843e-12
	-9.839680375675582e-10,-3.560866306406098e-14
	-1.895562935554893e-05,-4.149757674377079e-12
	-1.843163178942964e-05,1.167818806557025e-13
	-5.249815341612507e-07,-4.302148218096843e-12
	-1.843163178942964e-05,1.167818806557025e-13
23		1.698243652461743e+00,0.000000000000000e+00
	-1.843163178942964e-01,1.195020801003478e-09
	1.000000000000000e+00,0.000000000000000e+00
	0.000000000000000e+00,0.000000000000000e+00
	1.843709131657223e-09,-4.881379751861634e-14
	1.845115917242444e-09,8.505503066840561e-14
	1.843163178942949e-05,-1.195020801003476e-13
	5.249815341570071e-07,4.402358123331633e-12
	-9.839680375675015e-10,-3.643809537794012e-14
	-1.895562935554893e-05,-4.246417947853345e-12
	-1.843163178942964e-05,1.195020801003478e-13
	-5.249815341612507e-07,-4.402358123331633e-12
	-1.843163178942964e-05,1.195020801003478e-13
24		1.737800828749374e+00,0.000000000000000e+00
	-1.843163178942964e-01,1.222856411296592e-09
	1.000000000000000e+00,0.000000000000000e+00
	0.000000000000000e+00,0.000000000000000e+00
	1.843709131657076e-09,-4.995081692741174e-14
	1.845115917242339e-09,8.703621684120412e-14
	1.843163178942949e-05,-1.222856411296594e-13
	5.249815341570070e-07,4.504902217115511e-12
	-9.839680375674426e-10,-3.728684765230387e-14
	-1.895562935554893e-05,-4.345329728333548e-12
	-1.843163178942964e-05,1.222856411296592e-13
	-5.249815341612507e-07,-4.504902217115512e-12
	-1.843163178942964e-05,1.222856411296592e-13
25		1.778279410038922e+00,0.000000000000000e+00
	-1.843163178942964e-01,1.251340396245394e-09
	1.000000000000000e+00,0.000000000000000e+00
	0.000000000000000e+00,0.000000000000000e+00
	1.843709131656923e-09,-5.111432092051937e-14
	1.845115917242228e-09,8.906355076823227e-14
	1.843163178942949e-05,-1.251340396245389e-13
	5.249815341570069e-07,4.609834869684335e-12
	-9.839680375673807e-10,-3.815536990684261e-14
	-1.895562935554893e-05,-4.446545460152954e-12
	-1.843163178942964e-05,1.251340396245394e-13
	-5.249815341612507e-07,-4.609834869684335e-12
	-1.843163178942964e-05,1.251340396245394e-13
26		1.819700858609982e+00,0.000000000000000e+00
	-1.843163178942964e-01,1.280487858435734e-09
	1.000000000000000e+00,0.000000000000000e+00
	0.000000000000000e+00,0.000000000000000e+00
	1.843709131656762e-09,-5.230492640315702e-14
	1.845115917242112e-09,9.113810736877325e-14
	1.843163178942949e-05,-1.280487858435730e-13
	5.249815341570069e-07,4.717211717719443e-12
	-9.839680375673158e-10,-3.904412264355201e-14
	-1.895562935554893e-05,-4.550118809232318e-12
	-1.843163178942964e-05,1.280487858435734e-13
	-5.249815341612507e-07,-4.717211717719443e-12
	-1.843163178942964e-05,1.280487858435734e-13
27		1.862087136662866e+00,0.000000000000000e+00
	-1.843163178942964e-01,1.310314252237876e-09
	1.000000000000000e+00,0.000000000000000e+00
	0.000000000000000e+00,0.000000000000000e+00
	1.843709131656593e-09,-5.352326465011117e-14
	1.845115917241991e-09,9.326098660019660e-14
	1.843163178942949e-05,-1.310314252237876e-13
	5.249815341570068e-07,4.827089693846965e-12
	-9.839680375672478e-10,-3.995357709089707e-14
	-1.895562935554893e-05,-4.656104691532280e-12
	-1.843163178942964e-05,1.310314252237877e-13
	-5.249815341612507e-07,-4.827089693846963e-12
	-1.843163178942964e-05,1.310314252237877e-13
28		1.905460717963246e+00,0.000000000000000e+00
	-1.843163178942964e-01,1.340835392000615e-09
	1.000000000000000e+00,0.000000000000000e+00
	0.000000000000000e+00,0.000000000000000e+00
	1.843709131656417e-09,-5.476998164044705e-14
	1.845115917241863e-09,9.543331404117042e-14
	1.843163178942949e-05,-1.340835392000611e-13
	5.249815341570068e-07,4.939527056824250e-12
	-9.839680375671766e-10,-4.088421545366381e-14
	-1.895562935554893e-05,-4.764559302170525e-12
	-1.843163178942964e-05,1.340835392000615e-13
	-5.249815341612507e-07,-4.939527056824249e-12
	-1.843163178942964e-05,1.340835392000615e-13
29		1.949844599758044e+00,0.000000000000000e+00
	-1.843163178942964e-01,1.372067460436248e-09
	1.000000000000000e+00,0.000000000000000e+00
	0.000000000000000e+00,0.000000000000000e+00
	1.843709131656233e-09,-5.604573840001484e-14
	1.845115917241730e-09,9.765624148845838e-14
	1.843163178942949e-05,-1.372067460436251e-13
	5.249815341570066e-07,5.054583422429435e-12
	-9.839680375671024e-10,-4.183653116863080e-14
	-1.895562935554893e-05,-4.875540145217179e-12
	-1.843163178942964e-05,1.372067460436248e-13
	-5.249815341612507e-07,-5.054583422429434e-12
	-1.843163178942964e-05,1.372067460436248e-13
30		1.995262314968878e+00,0.000000000000000e+00
	-1.843163178942964e-01,1.404027017200863e-09
	1.000000000000000e+00,0.000000000000000e+00
	0.000000000000000e+00,0.000000000000000e+00
	1.843709131656039e-09,-5.735121135193570e-14
	1.845115917241591e-09,9.993094756761635e-14
	1.843163178942949e-05,-1.404027017200866e-13
	5.249815341570065e-07,5.172319795070510e-12
	-9.839680375670242e-10,-4.281102916619516e-14
	-1.895562935554893e-05,-4.989106064184228e-12
	-1.843163178942964e-05,1.404027017200863e-13
	-5.249815341612507e-07,-5.172319795070510e-12
	-1.843163178942964e-05,1.404027017200863e-13
31		2.041737944669527e+00,0.000000000000000e+00
	-1.843163178942964e-01,1.436731007674493e-09
	1.000000000000000e+00,0.000000000000000e+00
	0.000000000000000e+00,0.000000000000000e+00
	1.843709131655837e-09,-5.868709267524827e-14
	1.845115917241445e-09,1.022586383579172e-13
	1.843163178942949e-05,-1.436731007674484e-13
	5.249815341570064e-07,5.292798600130678e-12
	-9.839680375669425e-10,-4.380822613809445e-14
	-1.895562935554893e-05,-5.105317273225135e-12
	-1.843163178942964e-05,1.436731007674493e-13
	-5.249815341612507e-07,-5.292798600130679e-12
	-1.843163178942964e-05,1.436731007674493e-13
32		2.089296130854037e+00,0.000000000000000e+00
	-1.843163178942964e-01,1.470196771945775e-09
	1.000000000000000e+00,0.000000000000000e+00
	0.000000000000000e+00,0.000000000000000e+00
