LTspice 24.0.9 for Windows
Circuit: * GA CMOS Amp | W=5e-05 L=8.480342601475386e-07 Vbias=1.2942694089040947
Start Time: Sat Sep  6 22:07:48 2025
solver = Normal
Maximum thread count: 2
tnom = 27
temp = 27
method = modified trap
AsciiRawFile = 1
Direct Newton iteration for .op point succeeded.
Semiconductor Device Operating Points:
                        --- BSIM4 MOSFETS ---
Name:      m1
Model:      n
Id:      1.77e-04
Vgs:     1.29e+00
Vds:     3.22e-02
Vbs:     0.00e+00
Vth:     2.38e-01
Vdsat:   7.37e-01
Gm:     -2.28e-05
Gds:     5.57e-03
Gmb      9.77e-05
Cbd:     2.47e-14
Cbs:     4.00e-14


.measure op idd find i(vdd)
  Error: FIND can not be evaluated over an interval.

gain_db: MAX(db(v(out)/v(g)))=(32.1672dB,180°) FROM 1 TO 1e+09
gain_lin: MAX(mag(v(out)/v(g)))=(-4.21339dB,0°) FROM 1 TO 1e+09

Measurement "fc" FAIL'ed

Total elapsed time: 5.148 seconds.

