LTspice 24.0.9 for Windows
Circuit: * GA CMOS Amp | W=1.5119362730592628e-05 L=7.075055158117835e-07 Vbias=1.0051471172081066
Start Time: Mon Sep  8 18:44:43 2025
solver = Normal
Maximum thread count: 2
tnom = 27
temp = 27
method = modified trap
AsciiRawFile = 1
Instance "m1": Length shorter than recommended for a level 3 MOSFET.
Direct Newton iteration for .op point succeeded.
Semiconductor Device Operating Points:
                        --- MOSFET Transistors ---
Name:          m1
Model:        n_1u
Id:          9.91e-05
Vgs:         1.01e+00
Vds:         8.09e-01
Vbs:         0.00e+00
Vth:         7.83e-01
Vdsat:       2.08e-01
Gm:          6.11e-04
Gds:         3.35e-05
Gmb:         1.27e-04
Cbd:         0.00e+00
Cbs:         0.00e+00
Cgsov:       3.02e-15
Cgdov:       3.02e-15
Cgbov:       5.08e-17
Cgs:         8.83e-15
Cgd:         0.00e+00
Cgb:         0.00e+00



gain_db: MAX(db(v(out)/v(g)))=(29.6338dB,64.1662°) FROM 1 TO 1e+09
gain_lin: MAX(mag(v(out)/v(g)))=(13.2112dB,0°) FROM 1 TO 1e+09

Measurement "fc" FAIL'ed

Total elapsed time: 0.471 seconds.

