LTspice 24.0.9 for Windows
Circuit: * GA CMOS Amp | W=4.199095112161807e-05 L=8.299788518753425e-07 Vbias=1.258407835226035
Start Time: Sat Sep  6 22:06:22 2025
solver = Normal
Maximum thread count: 2
tnom = 27
temp = 27
method = modified trap
AsciiRawFile = 1
Direct Newton iteration for .op point succeeded.
Semiconductor Device Operating Points:
                        --- BSIM4 MOSFETS ---
Name:      m1
Model:      n
Id:      1.76e-04
Vgs:     1.26e+00
Vds:     3.70e-02
Vbs:     0.00e+00
Vth:     2.39e-01
Vdsat:   7.14e-01
Gm:     -1.92e-05
Gds:     4.76e-03
Gmb      9.90e-05
Cbd:     2.07e-14
Cbs:     3.36e-14


.measure op idd find i(vdd)
  Error: FIND can not be evaluated over an interval.

gain_db: MAX(db(v(out)/v(g)))=(32.3705dB,180°) FROM 1 TO 1e+09
gain_lin: MAX(mag(v(out)/v(g)))=(-4.29357dB,0°) FROM 1 TO 1e+09

Measurement "fc" FAIL'ed

Total elapsed time: 1.699 seconds.

