Title: * GA CMOS Amp | W=4.9522028871582335e-05 L=7.763615587895772e-07 Vbias=1.1371678660780677
Date: Sat Sep  6 22:03:41 2025
Plotname: AC Analysis
Flags: complex forward log
No. Variables: 13
No. Points:          901
Offset:    0.0000000000000000e+00
Command: Linear Technology Corporation LTspice
Variables:
	0	frequency	frequency
	1	V(out)	voltage
	2	V(g)	voltage
	3	V(vdd)	voltage
	4	V(m1#dbody)	voltage
	5	V(m1#sbody)	voltage
	6	Id(M1)	device_current
	7	Ig(M1)	device_current
	8	Ib(M1)	device_current
	9	Is(M1)	device_current
	10	I(Rload)	device_current
	11	I(Vg)	device_current
	12	I(Vdd)	device_current
Values:
0		1.000000000000000e+00,0.000000000000000e+00
	3.654564883212076e-03,8.032732777340876e-10
	1.000000000000000e+00,0.000000000000000e+00
	0.000000000000000e+00,0.000000000000000e+00
	7.256596679231215e-05,1.168870838925656e-13
	7.256596676137985e-05,1.126110040655266e-13
	-3.654564883212041e-07,-8.032732777340774e-14
	6.778068831529725e-05,1.005933834954682e-11
	-3.870184897075469e-05,-6.039846473111297e-14
	-2.871338285622136e-05,-9.918612557042298e-12
	3.654564883212076e-07,8.032732777340877e-14
	-6.778068831531092e-05,-1.005933834954682e-11
	3.654564883212076e-07,8.032732777340877e-14
1		1.023292992280754e+00,0.000000000000000e+00
	3.654564883212076e-03,8.219839159916838e-10
	1.000000000000000e+00,0.000000000000000e+00
	0.000000000000000e+00,0.000000000000000e+00
	7.256596679231215e-05,1.196097338353950e-13
	7.256596676137985e-05,1.152340513139529e-13
	-3.654564883212075e-07,-8.219839159916791e-14
	6.778068831529726e-05,1.029365044007231e-11
	-3.870184897075469e-05,-6.180532570386418e-14
	-2.871338285622136e-05,-1.014964672276927e-11
	3.654564883212076e-07,8.219839159916838e-14
	-6.778068831531092e-05,-1.029365044007231e-11
	3.654564883212076e-07,8.219839159916838e-14
2		1.047128548050899e+00,0.000000000000000e+00
	3.654564883212076e-03,8.411303810017820e-10
	1.000000000000000e+00,0.000000000000000e+00
	0.000000000000000e+00,0.000000000000000e+00
	7.256596679231215e-05,1.223958024423259e-13
	7.256596676137985e-05,1.179181971816888e-13
	-3.654564883212075e-07,-8.411303810017877e-14
	6.778068831529726e-05,1.053342036031369e-11
	-3.870184897075469e-05,-6.324495667839377e-14
	-2.871338285622136e-05,-1.038606236553512e-11
	3.654564883212076e-07,8.411303810017821e-14
	-6.778068831531092e-05,-1.053342036031369e-11
	3.654564883212076e-07,8.411303810017821e-14
3		1.071519305237606e+00,0.000000000000000e+00
	3.654564883212076e-03,8.607228244735644e-10
	1.000000000000000e+00,0.000000000000000e+00
	0.000000000000000e+00,0.000000000000000e+00
	7.256596679231214e-05,1.252467669238117e-13
	7.256596676137983e-05,1.206648648384023e-13
	-3.654564883212075e-07,-8.607228244735581e-14
	6.778068831529725e-05,1.077877523945641e-11
	-3.870184897075468e-05,-6.471812096610022e-14
	-2.871338285622136e-05,-1.062798483604296e-11
	3.654564883212076e-07,8.607228244735645e-14
	-6.778068831531092e-05,-1.077877523945642e-11
	3.654564883212076e-07,8.607228244735645e-14
4		1.096478196143185e+00,0.000000000000000e+00
	3.654564883212076e-03,8.807716345798957e-10
	1.000000000000000e+00,0.000000000000000e+00
	0.000000000000000e+00,0.000000000000000e+00
	7.256596679231214e-05,1.281641388989574e-13
	7.256596676137983e-05,1.234755106036414e-13
	-3.654564883212075e-07,-8.807716345798919e-14
	6.778068831529725e-05,1.102984516790506e-11
	-3.870184897075468e-05,-6.622559965818848e-14
	-2.871338285622136e-05,-1.087554240478888e-11
	3.654564883212076e-07,8.807716345798958e-14
	-6.778068831531092e-05,-1.102984516790505e-11
	3.654564883212076e-07,8.807716345798958e-14
5		1.122018454301963e+00,0.000000000000000e+00
	3.654564883212076e-03,9.012874414652727e-10
	1.000000000000000e+00,0.000000000000000e+00
	0.000000000000000e+00,0.000000000000000e+00
	7.256596679231214e-05,1.311494651970003e-13
	7.256596676137983e-05,1.263516247189943e-13
	-3.654564883212075e-07,-9.012874414652650e-14
	6.778068831529725e-05,1.128676326625898e-11
	-3.870184897075468e-05,-6.776819203981500e-14
	-2.871338285622136e-05,-1.112886633007264e-11
	3.654564883212076e-07,9.012874414652727e-14
	-6.778068831531092e-05,-1.128676326625898e-11
	3.654564883212076e-07,9.012874414652727e-14
6		1.148153621496882e+00,0.000000000000000e+00
	3.654564883212076e-03,9.222811228820639e-10
	1.000000000000000e+00,0.000000000000000e+00
	0.000000000000000e+00,0.000000000000000e+00
	7.256596679231214e-05,1.342043286774591e-13
	7.256596676137983e-05,1.292947321382345e-13
	-3.654564883212075e-07,-9.222811228820503e-14
	6.778068831529725e-05,1.154966575589465e-11
	-3.870184897075468e-05,-6.934671601387907e-14
	-2.871338285622136e-05,-1.138809092759257e-11
	3.654564883212076e-07,9.222811228820639e-14
	-6.778068831531092e-05,-1.154966575589465e-11
	3.654564883212076e-07,9.222811228820639e-14
7		1.174897554939529e+00,0.000000000000000e+00
	3.654564883212076e-03,9.437638099580409e-10
	1.000000000000000e+00,0.000000000000000e+00
	0.000000000000000e+00,0.000000000000000e+00
	7.256596679231214e-05,1.373303490693870e-13
	7.256596676137983e-05,1.323063933358726e-13
	-3.654564883212041e-07,-9.437638099580269e-14
	6.778068831529725e-05,1.181869203119199e-11
	-3.870184897075468e-05,-7.096200853468600e-14
	-2.871338285622136e-05,-1.165335364166150e-11
	3.654564883212077e-07,9.437638099580409e-14
	-6.778068831531092e-05,-1.181869203119199e-11
	3.654564883212077e-07,9.437638099580409e-14
8		1.202264434617413e+00,0.000000000000000e+00
	3.654564883212076e-03,9.657468930982489e-10
	1.000000000000000e+00,0.000000000000000e+00
	0.000000000000000e+00,0.000000000000000e+00
	7.256596679231214e-05,1.405291838301735e-13
	7.256596676137983e-05,1.353882051345395e-13
	-3.654564883212041e-07,-9.657468930982245e-14
	6.778068831529725e-05,1.209398473344316e-11
	-3.870184897075468e-05,-7.261492605171126e-14
	-2.871338285622136e-05,-1.192479511808163e-11
	3.654564883212077e-07,9.657468930982490e-14
	-6.778068831531092e-05,-1.209398473344316e-11
	3.654564883212077e-07,9.657468930982490e-14
9		1.230268770812381e+00,0.000000000000000e+00
	3.654564883212076e-03,9.882420280243484e-10
	1.000000000000000e+00,0.000000000000000e+00
	0.000000000000000e+00,0.000000000000000e+00
	7.256596679231214e-05,1.438025290243504e-13
	7.256596676137983e-05,1.385418015516435e-13
	-3.654564883212041e-07,-9.882420280243357e-14
	6.778068831529725e-05,1.237568982648281e-11
	-3.870184897075468e-05,-7.430634496370130e-14
	-2.871338285622136e-05,-1.220255927871667e-11
	3.654564883212077e-07,9.882420280243484e-14
	-6.778068831531092e-05,-1.237568982648281e-11
	3.654564883212077e-07,9.882420280243484e-14
10		1.258925411794167e+00,0.000000000000000e+00
	3.654564883212076e-03,1.011261141954636e-09
	1.000000000000000e+00,0.000000000000000e+00
	0.000000000000000e+00,0.000000000000000e+00
	7.256596679231214e-05,1.471521202228675e-13
	7.256596676137983e-05,1.417688546657477e-13
	-3.654564883212041e-07,-1.011261141954644e-13
	6.778068831529725e-05,1.266395667408008e-11
	-3.870184897075468e-05,-7.603716208335184e-14
	-2.871338285622136e-05,-1.248679339780127e-11
	3.654564883212077e-07,1.011261141954637e-13
	-6.778068831531092e-05,-1.266395667408008e-11
	3.654564883212077e-07,1.011261141954637e-13
11		1.288249551693134e+00,0.000000000000000e+00
	3.654564883212076e-03,1.034816439928013e-09
	1.000000000000000e+00,0.000000000000000e+00
	0.000000000000000e+00,0.000000000000000e+00
	7.256596679231214e-05,1.505797334233154e-13
	7.256596676137983e-05,1.450710755031283e-13
	-3.654564883212041e-07,-1.034816439928003e-13
	6.778068831529725e-05,1.295893811913324e-11
	-3.870184897075468e-05,-7.780829511280982e-14
	-2.871338285622136e-05,-1.277764818002763e-11
	3.654564883212077e-07,1.034816439928013e-13
	-6.778068831531092e-05,-1.295893811913324e-11
	3.654564883212077e-07,1.034816439928013e-13
12		1.318256738556407e+00,0.000000000000000e+00
	3.654564883212076e-03,1.058920411275253e-09
	1.000000000000000e+00,0.000000000000000e+00
	0.000000000000000e+00,0.000000000000000e+00
	7.256596679231214e-05,1.540871859915827e-13
	7.256596676137983e-05,1.484502149449834e-13
	-3.654564883212075e-07,-1.058920411275255e-13
	6.778068831529725e-05,1.326079056470898e-11
	-3.870184897075468e-05,-7.962068313025115e-14
	-2.871338285622136e-05,-1.307527784045120e-11
	3.654564883212077e-07,1.058920411275253e-13
	-6.778068831531092e-05,-1.326079056470898e-11
	3.654564883212077e-07,1.058920411275253e-13
13		1.348962882591653e+00,0.000000000000000e+00
	3.654564883212076e-03,1.083585836241021e-09
	1.000000000000000e+00,0.000000000000000e+00
	0.000000000000000e+00,0.000000000000000e+00
	7.256596679231214e-05,1.576763376254477e-13
	7.256596676137983e-05,1.519080646557732e-13
	-3.654564883212075e-07,-1.083585836240988e-13
	6.778068831529725e-05,1.356967405696944e-11
	-3.870184897075468e-05,-8.147528708779244e-14
	-2.871338285622136e-05,-1.337984018625755e-11
	3.654564883212077e-07,1.083585836241021e-13
	-6.778068831531092e-05,-1.356967405696944e-11
	3.654564883212077e-07,1.083585836241021e-13
14		1.380384264602885e+00,0.000000000000000e+00
	3.654564883212076e-03,1.108825792760117e-09
	1.000000000000000e+00,0.000000000000000e+00
	0.000000000000000e+00,0.000000000000000e+00
	7.256596679231214e-05,1.613490913406149e-13
	7.256596676137983e-05,1.554464580331844e-13
	-3.654564883212075e-07,-1.108825792760091e-13
	6.778068831529725e-05,1.388575237003078e-11
	-3.870184897075468e-05,-8.337309032100064e-14
	-2.871338285622136e-05,-1.369149670043377e-11
	3.654564883212077e-07,1.108825792760118e-13
	-6.778068831531092e-05,-1.388575237003078e-11
	3.654564883212077e-07,1.108825792760118e-13
15		1.412537544622754e+00,0.000000000000000e+00
	3.654564883212077e-03,1.134653663391580e-09
	1.000000000000000e+00,0.000000000000000e+00
	0.000000000000000e+00,0.000000000000000e+00
	7.256596679231214e-05,1.651073944797185e-13
	7.256596676137983e-05,1.590672711802220e-13
	-3.654564883212041e-07,-1.134653663391569e-13
	6.778068831529725e-05,1.420919309279837e-11
	-3.870184897075468e-05,-8.531509907027033e-14
	-2.871338285622137e-05,-1.401041262738894e-11
	3.654564883212077e-07,1.134653663391580e-13
	-6.778068831531092e-05,-1.420919309279837e-11
	3.654564883212077e-07,1.134653663391580e-13
16		1.445439770745927e+00,0.000000000000000e+00
	3.654564883212077e-03,1.161083142414289e-09
	1.000000000000000e+00,0.000000000000000e+00
	0.000000000000000e+00,0.000000000000000e+00
	7.256596679231214e-05,1.689532397448300e-13
	7.256596676137983e-05,1.627724238999434e-13
	-3.654564883212041e-07,-1.161083142414283e-13
	6.778068831529725e-05,1.454016771782466e-11
	-3.870184897075468e-05,-8.730234301434588e-14
	-2.871338285622137e-05,-1.433675706056889e-11
	3.654564883212077e-07,1.161083142414289e-13
	-6.778068831531092e-05,-1.454016771782467e-11
	3.654564883212077e-07,1.161083142414289e-13
17		1.479108388168207e+00,0.000000000000000e+00
	3.654564883212077e-03,1.188128243087859e-09
	1.000000000000000e+00,0.000000000000000e+00
	0.000000000000000e+00,0.000000000000000e+00
	7.256596679231214e-05,1.728886662540147e-13
	7.256596676137983e-05,1.665638807133645e-13
	-3.654564883212041e-07,-1.188128243087832e-13
	6.778068831529725e-05,1.487885173223682e-11
	-3.870184897075468e-05,-8.933587581627077e-14
	-2.871338285622137e-05,-1.467070303211177e-11
	3.654564883212077e-07,1.188128243087859e-13
	-6.778068831531092e-05,-1.487885173223683e-11
	3.654564883212077e-07,1.188128243087859e-13
18		1.513561248436208e+00,0.000000000000000e+00
	3.654564883212077e-03,1.215803305082650e-09
	1.000000000000000e+00,0.000000000000000e+00
	0.000000000000000e+00,0.000000000000000e+00
	7.256596679231214e-05,1.769157606224994e-13
	7.256596676137983e-05,1.704436519010733e-13
	-3.654564883212041e-07,-1.215803305082641e-13
	6.778068831529725e-05,1.522542471078230e-11
	-3.870184897075468e-05,-9.141677568205357e-14
	-2.871338285622137e-05,-1.501242760459198e-11
	3.654564883212077e-07,1.215803305082650e-13
	-6.778068831531092e-05,-1.522542471078230e-11
	3.654564883212077e-07,1.215803305082650e-13
19		1.548816618912481e+00,0.000000000000000e+00
	3.654564883212077e-03,1.244123002082855e-09
	1.000000000000000e+00,0.000000000000000e+00
	0.000000000000000e+00,0.000000000000000e+00
	7.256596679231214e-05,1.810366580690229e-13
	7.256596676137983e-05,1.744137945691085e-13
	-3.654564883212041e-07,-1.244123002082875e-13
	6.778068831529726e-05,1.558007041104175e-11
	-3.870184897075468e-05,-9.354614593234708e-14
	-2.871338285622137e-05,-1.536211196490112e-11
	3.654564883212077e-07,1.244123002082855e-13
	-6.778068831531092e-05,-1.558007041104175e-11
	3.654564883212077e-07,1.244123002082855e-13
20		1.584893192461113e+00,0.000000000000000e+00
	3.654564883212077e-03,1.273102349566680e-09
	1.000000000000000e+00,0.000000000000000e+00
	0.000000000000000e+00,0.000000000000000e+00
	7.256596679231214e-05,1.852535435479583e-13
	7.256596676137983e-05,1.784764137396638e-13
	-3.654564883212075e-07,-1.273102349566708e-13
	6.778068831529726e-05,1.594297687085976e-11
	-3.870184897075468e-05,-9.572511558744355e-14
	-2.871338285622137e-05,-1.571994152031565e-11
	3.654564883212077e-07,1.273102349566680e-13
	-6.778068831531092e-05,-1.594297687085976e-11
	3.654564883212077e-07,1.273102349566680e-13
21		1.621810097358929e+00,0.000000000000000e+00
	3.654564883212077e-03,1.302756712767747e-09
	1.000000000000000e+00,0.000000000000000e+00
	0.000000000000000e+00,0.000000000000000e+00
	7.256596679231214e-05,1.895686529078032e-13
	7.256596676137983e-05,1.826336634671985e-13
	-3.654564883212075e-07,-1.302756712767733e-13
	6.778068831529726e-05,1.631433650804494e-11
	-3.870184897075468e-05,-9.795483996589616e-14
	-2.871338285622137e-05,-1.608610599680227e-11
	3.654564883212077e-07,1.302756712767747e-13
	-6.778068831531092e-05,-1.631433650804493e-11
	3.654564883212077e-07,1.302756712767747e-13
22		1.659586907437560e+00,0.000000000000000e+00
	3.654564883212077e-03,1.333101814821947e-09
	1.000000000000000e+00,0.000000000000000e+00
	0.000000000000000e+00,0.000000000000000e+00
	7.256596679231214e-05,1.939842740766576e-13
	7.256596676137983e-05,1.868877479805459e-13
	-3.654564883212075e-07,-1.333101814821937e-13
	6.778068831529726e-05,1.669434622239245e-11
	-3.870184897075468e-05,-1.002365012970843e-13
	-2.871338285622137e-05,-1.646079953961318e-11
	3.654564883212077e-07,1.333101814821947e-13
	-6.778068831531092e-05,-1.669434622239245e-11
	3.654564883212077e-07,1.333101814821947e-13
23		1.698243652461743e+00,0.000000000000000e+00
	3.654564883212077e-03,1.364153745104054e-09
	1.000000000000000e+00,0.000000000000000e+00
	0.000000000000000e+00,0.000000000000000e+00
	7.256596679231214e-05,1.985027482753129e-13
	7.256596676137983e-05,1.912409228516242e-13
	-3.654564883212075e-07,-1.364153745104077e-13
	6.778068831529726e-05,1.708320750008288e-11
	-3.870184897075468e-05,-1.025713093480471e-13
	-2.871338285622137e-05,-1.684422081622443e-11
	3.654564883212077e-07,1.364153745104054e-13
	-6.778068831531092e-05,-1.708320750008287e-11
	3.654564883212077e-07,1.364153745104054e-13
24		1.737800828749374e+00,0.000000000000000e+00
	3.654564883212077e-03,1.395928967758524e-09
	1.000000000000000e+00,0.000000000000000e+00
	0.000000000000000e+00,0.000000000000000e+00
	7.256596679231214e-05,2.031264712585982e-13
	7.256596676137983e-05,1.956954961913713e-13
	-3.654564883212075e-07,-1.395928967758518e-13
	6.778068831529726e-05,1.748112652051282e-11
	-3.870184897075468e-05,-1.049605020649180e-13
	-2.871338285622137e-05,-1.723657312167205e-11
	3.654564883212077e-07,1.395928967758524e-13
	-6.778068831531092e-05,-1.748112652051282e-11
	3.654564883212077e-07,1.395928967758524e-13
25		1.778279410038922e+00,0.000000000000000e+00
	3.654564883212078e-03,1.428444330429004e-09
	1.000000000000000e+00,0.000000000000000e+00
	0.000000000000000e+00,0.000000000000000e+00
	7.256596679231214e-05,2.078578945856416e-13
	7.256596676137983e-05,2.002538298735353e-13
	-3.654564883212075e-07,-1.428444330429004e-13
	6.778068831529726e-05,1.788831426561402e-11
	-3.870184897075468e-05,-1.074053462293002e-13
	-2.871338285622138e-05,-1.763806448634182e-11
	3.654564883212078e-07,1.428444330429004e-13
	-6.778068831531092e-05,-1.788831426561402e-11
	3.654564883212078e-07,1.428444330429004e-13
26		1.819700858609982e+00,0.000000000000000e+00
	3.654564883212078e-03,1.461717073191174e-09
	1.000000000000000e+00,0.000000000000000e+00
	0.000000000000000e+00,0.000000000000000e+00
	7.256596679231214e-05,2.126995269197187e-13
	7.256596676137983e-05,2.049183407869710e-13
	-3.654564883212075e-07,-1.461717073191196e-13
	6.778068831529726e-05,1.830498663171867e-11
	-3.870184897075468e-05,-1.099071381299310e-13
	-2.871338285622138e-05,-1.804890778626962e-11
	3.654564883212078e-07,1.461717073191174e-13
	-6.778068831531092e-05,-1.830498663171866e-11
	3.654564883212078e-07,1.461717073191174e-13
27		1.862087136662866e+00,0.000000000000000e+00
	3.654564883212078e-03,1.495764837693662e-09
	1.000000000000000e+00,0.000000000000000e+00
	0.000000000000000e+00,0.000000000000000e+00
	7.256596679231212e-05,2.176539353583798e-13
	7.256596676137982e-05,2.096915021171068e-13
	-3.654564883212075e-07,-1.495764837693660e-13
	6.778068831529725e-05,1.873136454403060e-11
	-3.870184897075467e-05,-1.124672042499912e-13
	-2.871338285622138e-05,-1.846932085601124e-11
	3.654564883212078e-07,1.495764837693662e-13
	-6.778068831531092e-05,-1.873136454403060e-11
	3.654564883212078e-07,1.495764837693662e-13
28		1.905460717963246e+00,0.000000000000000e+00
	3.654564883212078e-03,1.530605676511884e-09
	1.000000000000000e+00,0.000000000000000e+00
	0.000000000000000e+00,0.000000000000000e+00
	7.256596679231212e-05,2.227237467945582e-13
	7.256596676137982e-05,2.145758446572603e-13
	-3.654564883212041e-07,-1.530605676511845e-13
	6.778068831529725e-05,1.916767407376269e-11
	-3.870184897075467e-05,-1.150869019704243e-13
	-2.871338285622138e-05,-1.889952660414108e-11
	3.654564883212078e-07,1.530605676511884e-13
	-6.778068831531092e-05,-1.916767407376269e-11
	3.654564883212078e-07,1.530605676511884e-13
29		1.949844599758044e+00,0.000000000000000e+00
	3.654564883212078e-03,1.566258062719754e-09
	1.000000000000000e+00,0.000000000000000e+00
	0.000000000000000e+00,0.000000000000000e+00
	7.256596679231212e-05,2.279116493093846e-13
	7.256596676137982e-05,2.195739581504983e-13
	-3.654564883212041e-07,-1.566258062719757e-13
	6.778068831529725e-05,1.961414655800285e-11
	-3.870184897075467e-05,-1.177676202896373e-13
	-2.871338285622138e-05,-1.933975313144124e-11
	3.654564883212078e-07,1.566258062719754e-13
	-6.778068831531092e-05,-1.961414655800285e-11
	3.654564883212078e-07,1.566258062719754e-13
30		1.995262314968878e+00,0.000000000000000e+00
	3.654564883212078e-03,1.602740899684354e-09
	1.000000000000000e+00,0.000000000000000e+00
	0.000000000000000e+00,0.000000000000000e+00
	7.256596679231212e-05,2.332203935974420e-13
	7.256596676137982e-05,2.246884926627524e-13
	-3.654564883212075e-07,-1.602740899684358e-13
	6.778068831529726e-05,2.007101872237199e-11
	-3.870184897075467e-05,-1.205107805599666e-13
	-2.871338285622138e-05,-1.979023385184359e-11
	3.654564883212079e-07,1.602740899684354e-13
	-6.778068831531092e-05,-2.007101872237200e-11
	3.654564883212079e-07,1.602740899684354e-13
31		2.041737944669527e+00,0.000000000000000e+00
	3.654564883212079e-03,1.640073531088750e-09
	1.000000000000000e+00,0.000000000000000e+00
	0.000000000000000e+00,0.000000000000000e+00
	7.256596679231212e-05,2.386527944252217e-13
	7.256596676137982e-05,2.299221599879202e-13
	-3.654564883212041e-07,-1.640073531088750e-13
	6.778068831529726e-05,2.053853280653907e-11
	-3.870184897075467e-05,-1.233178372412976e-13
	-2.871338285622139e-05,-2.025120761618890e-11
	3.654564883212079e-07,1.640073531088750e-13
	-6.778068831531092e-05,-2.053853280653907e-11
	3.654564883212079e-07,1.640073531088750e-13
32		2.089296130854037e+00,0.000000000000000e+00
	3.654564883212079e-03,1.678275751188270e-09
	1.000000000000000e+00,0.000000000000000e+00
	0.000000000000000e+00,0.000000000000000e+00
	7.256596679231212e-05,2.442117321235487e-13
	7.256596676137982e-05,2.352777350856931e-13
