Title: * GA CMOS Amp | W=1.76049306229839e-05 L=9.526541503115229e-07 Vbias=1.39206470565705
Date: Mon Sep  8 18:43:46 2025
Plotname: AC Analysis
Flags: complex forward log
No. Variables: 11
No. Points:          901
Offset:    0.0000000000000000e+00
Command: Linear Technology Corporation LTspice
Variables:
	0	frequency	frequency
	1	V(out)	voltage
	2	V(g)	voltage
	3	V(vdd)	voltage
	4	Id(M1)	device_current
	5	Ig(M1)	device_current
	6	Ib(M1)	device_current
	7	Is(M1)	device_current
	8	I(Rload)	device_current
	9	I(Vg)	device_current
	10	I(Vdd)	device_current
Values:
0		1.000000000000000e+00,0.000000000000000e+00
	-2.393485594096971e-01,1.077117003130791e-10
	1.000000000000000e+00,0.000000000000000e+00
	0.000000000000000e+00,0.000000000000000e+00
	2.393485594096972e-05,-1.077117003130793e-14
	9.875669744030836e-24,2.103114697240259e-13
	2.401475828091304e-13,9.384348821617799e-16
	-2.393485618111730e-05,-2.004787345748798e-13
	-2.393485594096971e-05,1.077117003130791e-14
	-9.875669744030836e-24,-2.103114697240260e-13
	-2.393485594096971e-05,1.077117003130791e-14
1		1.023292992280754e+00,0.000000000000000e+00
	-2.393485594096971e-01,1.102206281170186e-10
	1.000000000000000e+00,0.000000000000000e+00
	0.000000000000000e+00,0.000000000000000e+00
	2.393485594096972e-05,-1.102206281170186e-14
	1.034109572009721e-23,2.152102531648617e-13
	2.401475828091304e-13,9.602938386279253e-16
	-2.393485618111730e-05,-2.051484841917878e-13
	-2.393485594096971e-05,1.102206281170186e-14
	-1.034109572009721e-23,-2.152102531648618e-13
	-2.393485594096971e-05,1.102206281170186e-14
2		1.047128548050899e+00,0.000000000000000e+00
	-2.393485594096971e-01,1.127879963569281e-10
	1.000000000000000e+00,0.000000000000000e+00
	0.000000000000000e+00,0.000000000000000e+00
	2.393485594096972e-05,-1.127879963569284e-14
	1.082845654664076e-23,2.202231439305700e-13
	2.401475828091304e-13,9.826619555983894e-16
	-2.393485618111730e-05,-2.099270062504755e-13
	-2.393485594096971e-05,1.127879963569281e-14
	-1.082845654664076e-23,-2.202231439305700e-13
	-2.393485594096971e-05,1.127879963569281e-14
3		1.071519305237606e+00,0.000000000000000e+00
	-2.393485594096971e-01,1.154151662854318e-10
	1.000000000000000e+00,0.000000000000000e+00
	0.000000000000000e+00,0.000000000000000e+00
	2.393485594096972e-05,-1.154151662854319e-14
	1.133878598131620e-23,2.253527999221881e-13
	2.401475828091304e-13,1.005551092944740e-15
	-2.393485618111730e-05,-2.148168343865897e-13
	-2.393485594096971e-05,1.154151662854318e-14
	-1.133878598131620e-23,-2.253527999221881e-13
	-2.393485594096971e-05,1.154151662854318e-14
4		1.096478196143185e+00,0.000000000000000e+00
	-2.393485594096971e-01,1.181035308628003e-10
	1.000000000000000e+00,0.000000000000000e+00
	0.000000000000000e+00,0.000000000000000e+00
	2.393485594096972e-05,-1.181035308628001e-14
	1.187316650127552e-23,2.306019409512219e-13
	2.401475828091304e-13,1.028973386790567e-15
	-2.393485618111730e-05,-2.198205612517325e-13
	-2.393485594096971e-05,1.181035308628003e-14
	-1.187316650127552e-23,-2.306019409512219e-13
	-2.393485594096971e-05,1.181035308628003e-14
5		1.122018454301963e+00,0.000000000000000e+00
	-2.393485594096971e-01,1.208545154955173e-10
	1.000000000000000e+00,0.000000000000000e+00
	0.000000000000000e+00,0.000000000000000e+00
	2.393485594096972e-05,-1.208545154955173e-14
	1.243273159924722e-23,2.359733501817257e-13
	2.401475828091304e-13,1.052941255946211e-15
	-2.393485618111730e-05,-2.249408398881202e-13
	-2.393485594096971e-05,1.208545154955173e-14
	-1.243273159924722e-23,-2.359733501817258e-13
	-2.393485594096971e-05,1.208545154955173e-14
6		1.148153621496882e+00,0.000000000000000e+00
	-2.393485594096971e-01,1.236695787920487e-10
	1.000000000000000e+00,0.000000000000000e+00
	0.000000000000000e+00,0.000000000000000e+00
	2.393485594096972e-05,-1.236695787920488e-14
	1.301866818782627e-23,2.414698756059723e-13
	2.401475828091304e-13,1.077467408493042e-15
	-2.393485618111730e-05,-2.301803851352605e-13
	-2.393485594096971e-05,1.236695787920487e-14
	-1.301866818782627e-23,-2.414698756059724e-13
	-2.393485594096971e-05,1.236695787920487e-14
7		1.174897554939529e+00,0.000000000000000e+00
	-2.393485594096971e-01,1.265502133362160e-10
	1.000000000000000e+00,0.000000000000000e+00
	0.000000000000000e+00,0.000000000000000e+00
	2.393485594096972e-05,-1.265502133362160e-14
	1.363221911707496e-23,2.470944315544969e-13
	2.401475828091304e-13,1.102564848521820e-15
	-2.393485618111730e-05,-2.355419750693971e-13
	-2.393485594096971e-05,1.265502133362160e-14
	-1.363221911707496e-23,-2.470944315544969e-13
	-2.393485594096971e-05,1.265502133362160e-14
8		1.202264434617413e+00,0.000000000000000e+00
	-2.393485594096971e-01,1.294979464785842e-10
	1.000000000000000e+00,0.000000000000000e+00
	0.000000000000000e+00,0.000000000000000e+00
	2.393485594096972e-05,-1.294979464785843e-14
	1.427468581077442e-23,2.528500002413131e-13
	2.401475828091304e-13,1.128246883027488e-15
	-2.393485618111730e-05,-2.410284524764822e-13
	-2.393485594096971e-05,1.294979464785843e-14
	-1.427468581077442e-23,-2.528500002413132e-13
	-2.393485594096971e-05,1.294979464785843e-14
9		1.230268770812381e+00,0.000000000000000e+00
	-2.393485594096971e-01,1.325143411462834e-10
	1.000000000000000e+00,0.000000000000000e+00
	0.000000000000000e+00,0.000000000000000e+00
	2.393485594096972e-05,-1.325143411462833e-14
	1.494743102691899e-23,2.587396333451227e-13
	2.401475828091304e-13,1.154527128964621e-15
	-2.393485618111730e-05,-2.466427263594590e-13
	-2.393485594096971e-05,1.325143411462834e-14
	-1.494743102691899e-23,-2.587396333451227e-13
	-2.393485594096971e-05,1.325143411462834e-14
10		1.258925411794167e+00,0.000000000000000e+00
	-2.393485594096971e-01,1.356009966716930e-10
	1.000000000000000e+00,0.000000000000000e+00
	0.000000000000000e+00,0.000000000000000e+00
	2.393485594096972e-05,-1.356009966716929e-14
	1.565188174830865e-23,2.647664536273558e-13
	2.401475828091304e-13,1.181419520467534e-15
	-2.393485618111730e-05,-2.523877734806540e-13
	-2.393485594096971e-05,1.356009966716930e-14
	-1.565188174830865e-23,-2.647664536273558e-13
	-2.393485594096971e-05,1.356009966716930e-14
11		1.288249551693134e+00,0.000000000000000e+00
	-2.393485594096971e-01,1.387595496404294e-10
	1.000000000000000e+00,0.000000000000000e+00
	0.000000000000000e+00,0.000000000000000e+00
	2.393485594096972e-05,-1.387595496404290e-14
	1.638953220937082e-23,2.709336565879005e-13
	2.401475828091304e-13,1.208938316238084e-15
	-2.393485618111730e-05,-2.582666399400957e-13
	-2.393485594096971e-05,1.387595496404294e-14
	-1.638953220937082e-23,-2.709336565879005e-13
	-2.393485594096971e-05,1.387595496404294e-14
12		1.318256738556407e+00,0.000000000000000e+00
	-2.393485594096971e-01,1.419916747590848e-10
	1.000000000000000e+00,0.000000000000000e+00
	0.000000000000000e+00,0.000000000000000e+00
	2.393485594096972e-05,-1.419916747590846e-14
	1.716194706563192e-23,2.772445121593989e-13
	2.401475828091304e-13,1.237098107106114e-15
	-2.393485618111730e-05,-2.642824427905966e-13
	-2.393485594096971e-05,1.419916747590848e-14
	-1.716194706563192e-23,-2.772445121593990e-13
	-2.393485594096971e-05,1.419916747590848e-14
13		1.348962882591653e+00,0.000000000000000e+00
	-2.393485594096971e-01,1.452990857431795e-10
	1.000000000000000e+00,0.000000000000000e+00
	0.000000000000000e+00,0.000000000000000e+00
	2.393485594096972e-05,-1.452990857431796e-14
	1.797076471256154e-23,2.837023664410092e-13
	2.401475828091304e-13,1.265913823765540e-15
	-2.393485618111730e-05,-2.704383716904568e-13
	-2.393485594096971e-05,1.452990857431795e-14
	-1.797076471256154e-23,-2.837023664410093e-13
	-2.393485594096971e-05,1.452990857431795e-14
14		1.380384264602885e+00,0.000000000000000e+00
	-2.393485594096971e-01,1.486835362257960e-10
	1.000000000000000e+00,0.000000000000000e+00
	0.000000000000000e+00,0.000000000000000e+00
	2.393485594096972e-05,-1.486835362257958e-14
	1.881770076082892e-23,2.903106434725514e-13
	2.401475828091304e-13,1.295400744690551e-15
	-2.393485618111730e-05,-2.767376905946624e-13
	-2.393485594096971e-05,1.486835362257960e-14
	-1.881770076082892e-23,-2.903106434725515e-13
	-2.393485594096971e-05,1.486835362257960e-14
15		1.412537544622754e+00,0.000000000000000e+00
	-2.393485594096971e-01,1.521468206873787e-10
	1.000000000000000e+00,0.000000000000000e+00
	0.000000000000000e+00,0.000000000000000e+00
	2.393485594096972e-05,-1.521468206873790e-14
	1.970455167534308e-23,2.970728470499783e-13
	2.401475828091304e-13,1.325574504237146e-15
	-2.393485618111730e-05,-2.831837394854775e-13
	-2.393485594096971e-05,1.521468206873787e-14
	-1.970455167534308e-23,-2.970728470499783e-13
	-2.393485594096971e-05,1.521468206873787e-14
16		1.445439770745927e+00,0.000000000000000e+00
	-2.393485594096971e-01,1.556907754071911e-10
	1.000000000000000e+00,0.000000000000000e+00
	0.000000000000000e+00,0.000000000000000e+00
	2.393485594096972e-05,-1.556907754071910e-14
	2.063319858579592e-23,3.039925625831350e-13
	2.401475828091304e-13,1.356451100931933e-15
	-2.393485618111730e-05,-2.897799361433478e-13
	-2.393485594096971e-05,1.556907754071911e-14
	-2.063319858579592e-23,-3.039925625831350e-13
	-2.393485594096971e-05,1.556907754071911e-14
17		1.479108388168207e+00,0.000000000000000e+00
	-2.393485594096971e-01,1.593172794369354e-10
	1.000000000000000e+00,0.000000000000000e+00
	0.000000000000000e+00,0.000000000000000e+00
	2.393485594096972e-05,-1.593172794369356e-14
	2.160561127679035e-23,3.110734589967906e-13
	2.401475828091304e-13,1.388046905955145e-15
	-2.393485618111730e-05,-2.965297779590522e-13
	-2.393485594096971e-05,1.593172794369354e-14
	-2.160561127679035e-23,-3.110734589967907e-13
	-2.393485594096971e-05,1.593172794369354e-14
18		1.513561248436208e+00,0.000000000000000e+00
	-2.393485594096971e-01,1.630282555970507e-10
	1.000000000000000e+00,0.000000000000000e+00
	0.000000000000000e+00,0.000000000000000e+00
	2.393485594096972e-05,-1.630282555970507e-14
	2.262385236601762e-23,3.183192906759503e-13
	2.401475828091304e-13,1.420378671820885e-15
	-2.393485618111730e-05,-3.034368437880661e-13
	-2.393485594096971e-05,1.630282555970507e-14
	-2.262385236601762e-23,-3.183192906759504e-13
	-2.393485594096971e-05,1.630282555970507e-14
19		1.548816618912481e+00,0.000000000000000e+00
	-2.393485594096971e-01,1.668256714962176e-10
	1.000000000000000e+00,0.000000000000000e+00
	0.000000000000000e+00,0.000000000000000e+00
	2.393485594096972e-05,-1.668256714962176e-14
	2.369008167934594e-23,3.257338994564804e-13
	2.401475828091304e-13,1.453463541259326e-15
	-2.393485618111730e-05,-3.105047958481180e-13
	-2.393485594096971e-05,1.668256714962176e-14
	-2.369008167934594e-23,-3.257338994564804e-13
	-2.393485594096971e-05,1.668256714962176e-14
20		1.584893192461113e+00,0.000000000000000e+00
	-2.393485594096971e-01,1.707115405746106e-10
	1.000000000000000e+00,0.000000000000000e+00
	0.000000000000000e+00,0.000000000000000e+00
	2.393485594096972e-05,-1.707115405746106e-14
	2.480656083210072e-23,3.333212166621001e-13
	2.401475828091304e-13,1.487319056306227e-15
	-2.393485618111730e-05,-3.177373816609453e-13
	-2.393485594096971e-05,1.707115405746106e-14
	-2.480656083210072e-23,-3.333212166621002e-13
	-2.393485594096971e-05,1.707115405746106e-14
21		1.621810097358929e+00,0.000000000000000e+00
	-2.393485594096971e-01,1.746879231714506e-10
	1.000000000000000e+00,0.000000000000000e+00
	0.000000000000000e+00,0.000000000000000e+00
	2.393485594096972e-05,-1.746879231714505e-14
	2.597565802625395e-23,3.410852651888219e-13
	2.401475828091304e-13,1.521963167603820e-15
	-2.393485618111730e-05,-3.251384360392807e-13
	-2.393485594096971e-05,1.746879231714507e-14
	-2.597565802625395e-23,-3.410852651888220e-13
	-2.393485594096971e-05,1.746879231714507e-14
22		1.659586907437560e+00,0.000000000000000e+00
	-2.393485594096971e-01,1.787569276174242e-10
	1.000000000000000e+00,0.000000000000000e+00
	0.000000000000000e+00,0.000000000000000e+00
	2.393485594096972e-05,-1.787569276174243e-14
	2.719985307369799e-23,3.490301616379442e-13
	2.401475828091304e-13,1.557414243918386e-15
	-2.393485618111730e-05,-3.327118831201201e-13
	-2.393485594096971e-05,1.787569276174242e-14
	-2.719985307369799e-23,-3.490301616379442e-13
	-2.393485594096971e-05,1.787569276174242e-14
23		1.698243652461743e+00,0.000000000000000e+00
	-2.393485594096971e-01,1.829207113525482e-10
	1.000000000000000e+00,0.000000000000000e+00
	0.000000000000000e+00,0.000000000000000e+00
	2.393485594096972e-05,-1.829207113525484e-14
	2.848174265625918e-23,3.571601184987272e-13
	2.401475828091304e-13,1.593691081879894e-15
	-2.393485618111730e-05,-3.404617384453523e-13
	-2.393485594096971e-05,1.829207113525482e-14
	-2.848174265625918e-23,-3.571601184987273e-13
	-2.393485594096971e-05,1.829207113525482e-14
24		1.737800828749374e+00,0.000000000000000e+00
	-2.393485594096971e-01,1.871814820700731e-10
	1.000000000000000e+00,0.000000000000000e+00
	0.000000000000000e+00,0.000000000000000e+00
	2.393485594096972e-05,-1.871814820700733e-14
	2.982404583360802e-23,3.654794463819112e-13
	2.401475828091304e-13,1.630812915948007e-15
	-2.393485618111730e-05,-3.483921110908519e-13
	-2.393485594096971e-05,1.871814820700731e-14
	-2.982404583360802e-23,-3.654794463819113e-13
	-2.393485594096971e-05,1.871814820700731e-14
25		1.778279410038922e+00,0.000000000000000e+00
	-2.393485594096971e-01,1.915414988870315e-10
	1.000000000000000e+00,0.000000000000000e+00
	0.000000000000000e+00,0.000000000000000e+00
	2.393485594096972e-05,-1.915414988870316e-14
	3.122960981074946e-23,3.739925563052594e-13
	2.401475828091304e-13,1.668799428610548e-15
	-2.393485618111730e-05,-3.565072058451668e-13
	-2.393485594096971e-05,1.915414988870315e-14
	-3.122960981074946e-23,-3.739925563052595e-13
	-2.393485594096971e-05,1.915414988870315e-14
26		1.819700858609982e+00,0.000000000000000e+00
	-2.393485594096971e-01,1.960030735420512e-10
	1.000000000000000e+00,0.000000000000000e+00
	0.000000000000000e+00,0.000000000000000e+00
	2.393485594096972e-05,-1.960030735420515e-14
	3.270141597732620e-23,3.827039620323372e-13
	2.401475828091304e-13,1.707670760819389e-15
	-2.393485618111730e-05,-3.648113254389515e-13
	-2.393485594096971e-05,1.960030735420512e-14
	-3.270141597732620e-23,-3.827039620323373e-13
	-2.393485594096971e-05,1.960030735420512e-14
27		1.862087136662866e+00,0.000000000000000e+00
	-2.393485594096971e-01,2.005685716210702e-10
	1.000000000000000e+00,0.000000000000000e+00
	0.000000000000000e+00,0.000000000000000e+00
	2.393485594096972e-05,-2.005685716210705e-14
	3.424258623154607e-23,3.916182824657705e-13
	2.401475828091304e-13,1.747447522669200e-15
	-2.393485618111730e-05,-3.733088728263326e-13
	-2.393485594096971e-05,2.005685716210702e-14
	-3.424258623154607e-23,-3.916182824657705e-13
	-2.393485594096971e-05,2.005685716210702e-14
28		1.905460717963246e+00,0.000000000000000e+00
	-2.393485594096971e-01,2.052404138116017e-10
	1.000000000000000e+00,0.000000000000000e+00
	0.000000000000000e+00,0.000000000000000e+00
	2.393485594096972e-05,-2.052404138116019e-14
	3.585638960214655e-23,4.007402440962478e-13
	2.401475828091304e-13,1.788150804325762e-15
	-2.393485618111730e-05,-3.820043535194134e-13
	-2.393485594096971e-05,2.052404138116017e-14
	-3.585638960214655e-23,-4.007402440962479e-13
	-2.393485594096971e-05,2.052404138116017e-14
29		1.949844599758044e+00,0.000000000000000e+00
	-2.393485594096971e-01,2.100210771862141e-10
	1.000000000000000e+00,0.000000000000000e+00
	0.000000000000000e+00,0.000000000000000e+00
	2.393485594096972e-05,-2.100210771862143e-14
	3.754624918244310e-23,4.100746835085693e-13
	2.401475828091304e-13,1.829802187207801e-15
	-2.393485618111730e-05,-3.909023779771556e-13
	-2.393485594096971e-05,2.100210771862141e-14
	-3.754624918244310e-23,-4.100746835085694e-13
	-2.393485594096971e-05,2.100210771862141e-14
30		1.995262314968878e+00,0.000000000000000e+00
	-2.393485594096971e-01,2.149130965159082e-10
	1.000000000000000e+00,0.000000000000000e+00
	0.000000000000000e+00,0.000000000000000e+00
	2.393485594096972e-05,-2.149130965159083e-14
	3.931574939116890e-23,4.196265499460671e-13
	2.401475828091304e-13,1.872423755429581e-15
	-2.393485618111730e-05,-4.000076640499058e-13
	-2.393485594096971e-05,2.149130965159082e-14
	-3.931574939116890e-23,-4.196265499460671e-13
	-2.393485594096971e-05,2.149130965159082e-14
31		2.041737944669527e+00,0.000000000000000e+00
	-2.393485594096971e-01,2.199190656140862e-10
	1.000000000000000e+00,0.000000000000000e+00
	0.000000000000000e+00,0.000000000000000e+00
	2.393485594096972e-05,-2.199190656140859e-14
	4.116864357550772e-23,4.294009079347602e-13
	2.401475828091304e-13,1.916038107511139e-15
	-2.393485618111730e-05,-4.093250394808627e-13
	-2.393485594096971e-05,2.199190656140863e-14
	-4.116864357550772e-23,-4.294009079347603e-13
	-2.393485594096971e-05,2.199190656140863e-14
32		2.089296130854037e+00,0.000000000000000e+00
	-2.393485594096971e-01,2.250416387118258e-10
	1.000000000000000e+00,0.000000000000000e+00
	0.000000000000000e+00,0.000000000000000e+00
	2.393485594096972e-05,-2.250416387118256e-14
	4.310886197244640e-23,4.394029399686334e-13
	2.401475828091304e-13,1.960668368359046e-15
	-2.393485618111730e-05,-4.188594444658099e-13
	-2.393485594096971e-05,2.250416387118258e-14
	-4.310886197244640e-23,-4.394029399686335e-13
	-2.393485594096971e-05,2.250416387118258e-14
33		2.137962089502230e+00,0.000000000000000e+00
	-2.393485594096971e-01,2.302835318651886e-10
	1.000000000000000e+00,0.000000000000000e+00
	0.000000000000000e+00,0.000000000000000e+00
	2.393485594096972e-05,-2.302835318651884e-14
	4.514052004533444e-23,4.496379492574634e-13
	2.401475828091304e-13,2.006338201528389e-15
	-2.393485618111730e-05,-4.286159342724730e-13
	-2.393485594096971e-05,2.302835318651887e-14
	-4.514052004533444e-23,-4.496379492574635e-13
	-2.393485594096971e-05,2.302835318651887e-14
34		2.187761623949550e+00,0.000000000000000e+00
	-2.393485594096971e-01,2.356475243953093e-10
	1.000000000000000e+00,0.000000000000000e+00
	0.000000000000000e+00,0.000000000000000e+00
	2.393485594096972e-05,-2.356475243953094e-14
	4.726792721333356e-23,4.601113625386516e-13
	2.401475828091304e-13,2.053071821769163e-15
	-2.393485618111730e-05,-4.385996819208899e-13
	-2.393485594096971e-05,2.356475243953093e-14
	-4.726792721333356e-23,-4.601113625386517e-13
	-2.393485594096971e-05,2.356475243953093e-14
35		2.238721138568337e+00,0.000000000000000e+00
	-2.393485594096971e-01,2.411364603620280e-10
	1.000000000000000e+00,0.000000000000000e+00
	0.000000000000000e+00,0.000000000000000e+00
	2.393485594096972e-05,-2.411364603620283e-14
	4.949559599227358e-23,4.708287329545518e-13
	2.401475828091304e-13,2.100894007865399e-15
	-2.393485618111730e-05,-4.488159809262143e-13
	-2.393485594096971e-05,2.411364603620280e-14
	-4.949559599227358e-23,-4.708287329545519e-13
	-2.393485594096971e-05,2.411364603620280e-14
36		2.290867652767770e+00,0.000000000000000e+00
	-2.393485594096971e-01,2.467532500718491e-10
	1.000000000000000e+00,0.000000000000000e+00
	0.000000000000000e+00,0.000000000000000e+00
	2.393485594096972e-05,-2.467532500718490e-14
	5.182825156630335e-23,4.817957429968193e-13
	2.401475828091304e-13,2.149830115773367e-15
	-2.393485618111730e-05,-4.592702481054078e-13
	-2.393485594096971e-05,2.467532500718491e-14
	-5.182825156630335e-23,-4.817957429968194e-13
	-2.393485594096971e-05,2.467532500718491e-14
37		2.344228815319919e+00,0.000000000000000e+00
	-2.393485594096971e-01,2.525008716210236e-10
	1.000000000000000e+00,0.000000000000000e+00
	0.000000000000000e+00,0.000000000000000e+00
	2.393485594096972e-05,-2.525008716210239e-14
	5.427084181063997e-23,4.930182075193444e-13
	2.401475828091304e-13,2.199906092064975e-15
	-2.393485618111730e-05,-4.699680264493070e-13
	-2.393485594096971e-05,2.525008716210236e-14
	-5.427084181063997e-23,-4.930182075193445e-13
	-2.393485594096971e-05,2.525008716210236e-14
38		2.398832919019488e+00,0.000000000000000e+00
	-2.393485594096971e-01,2.583823724745758e-10
	1.000000000000000e+00,0.000000000000000e+00
	0.000000000000000e+00,0.000000000000000e+00
