Title: * GA CMOS Amp | W=1e-06 L=7.072859132127728e-07 Vbias=1.3967275314579624
Date: Sat Sep  6 22:08:04 2025
Plotname: AC Analysis
Flags: complex forward log
No. Variables: 13
No. Points:          901
Offset:    0.0000000000000000e+00
Command: Linear Technology Corporation LTspice
Variables:
	0	frequency	frequency
	1	V(out)	voltage
	2	V(g)	voltage
	3	V(vdd)	voltage
	4	V(m1#dbody)	voltage
	5	V(m1#sbody)	voltage
	6	Id(M1)	device_current
	7	Ig(M1)	device_current
	8	Ib(M1)	device_current
	9	Is(M1)	device_current
	10	I(Rload)	device_current
	11	I(Vg)	device_current
	12	I(Vdd)	device_current
Values:
0		1.000000000000000e+00,0.000000000000000e+00
	-3.018587740812839e-01,5.242396096522862e-10
	1.000000000000000e+00,0.000000000000000e+00
	0.000000000000000e+00,0.000000000000000e+00
	1.183428693682377e-05,4.594367296271741e-14
	1.183428920076419e-05,5.140749711307926e-14
	3.018587740812839e-05,-5.242396096522862e-14
	7.297818291774016e-06,1.575859219147443e-13
	-6.311620760914243e-06,-2.705325532741574e-14
	-3.117207493898817e-05,-7.810870562209993e-14
	-3.018587740812839e-05,5.242396096522863e-14
	-7.297818291895908e-06,-1.575859219147443e-13
	-3.018587740812839e-05,5.242396096522863e-14
1		1.023292992280754e+00,0.000000000000000e+00
	-3.018587740812839e-01,5.364507188331824e-10
	1.000000000000000e+00,0.000000000000000e+00
	0.000000000000000e+00,0.000000000000000e+00
	1.183428693682377e-05,4.701383858238749e-14
	1.183428920076419e-05,5.260493154650711e-14
	3.018587740812839e-05,-5.364507188331825e-14
	7.297818291774016e-06,1.612565695774600e-13
	-6.311620760914243e-06,-2.768340659492650e-14
	-3.117207493898817e-05,-7.992809109921520e-14
	-3.018587740812839e-05,5.364507188331824e-14
	-7.297818291895908e-06,-1.612565695774599e-13
	-3.018587740812839e-05,5.364507188331824e-14
2		1.047128548050899e+00,0.000000000000000e+00
	-3.018587740812839e-01,5.489462612859687e-10
	1.000000000000000e+00,0.000000000000000e+00
	0.000000000000000e+00,0.000000000000000e+00
	1.183428693682377e-05,4.810893156157565e-14
	1.183428920076419e-05,5.383025781094948e-14
	3.018587740812839e-05,-5.489462612859687e-14
	7.297818291774016e-06,1.650127176078486e-13
	-6.311620760914243e-06,-2.832823597104710e-14
	-3.117207493898817e-05,-8.178985550820463e-14
	-3.018587740812839e-05,5.489462612859687e-14
	-7.297818291895908e-06,-1.650127176078486e-13
	-3.018587740812839e-05,5.489462612859687e-14
3		1.071519305237606e+00,0.000000000000000e+00
	-3.018587740812839e-01,5.617328623126515e-10
	1.000000000000000e+00,0.000000000000000e+00
	0.000000000000000e+00,0.000000000000000e+00
	1.183428693682377e-05,4.922953253307477e-14
	1.183428920076419e-05,5.508412559061095e-14
	3.018587740812839e-05,-5.617328623126516e-14
	7.297818291774016e-06,1.688563575653145e-13
	-6.311620760914243e-06,-2.898808535284809e-14
	-3.117207493898817e-05,-8.369498598120122e-14
	-3.018587740812839e-05,5.617328623126516e-14
	-7.297818291895908e-06,-1.688563575653145e-13
	-3.018587740812839e-05,5.617328623126516e-14
4		1.096478196143185e+00,0.000000000000000e+00
	-3.018587740812839e-01,5.748173015383459e-10
	1.000000000000000e+00,0.000000000000000e+00
	0.000000000000000e+00,0.000000000000000e+00
	1.183428693682377e-05,5.037623565435280e-14
	1.183428920076419e-05,5.636719970278513e-14
	3.018587740812839e-05,-5.748173015383461e-14
	7.297818291774016e-06,1.727895273986396e-13
	-6.311620760914243e-06,-2.966330460120581e-14
	-3.117207493898817e-05,-8.564449264359916e-14
	-3.018587740812839e-05,5.748173015383459e-14
	-7.297818291895908e-06,-1.727895273986396e-13
	-3.018587740812839e-05,5.748173015383459e-14
5		1.122018454301963e+00,0.000000000000000e+00
	-3.018587740812839e-01,5.882065165059228e-10
	1.000000000000000e+00,0.000000000000000e+00
	0.000000000000000e+00,0.000000000000000e+00
	1.183428693682377e-05,5.154964892258310e-14
	1.183428920076419e-05,5.768016045034983e-14
	3.018587740812839e-05,-5.882065165059228e-14
	7.297818291774016e-06,1.768143125265313e-13
	-6.311620760914243e-06,-3.035425172630336e-14
	-3.117207493898817e-05,-8.763940914963563e-14
	-3.018587740812839e-05,5.882065165059228e-14
	-7.297818291895908e-06,-1.768143125265313e-13
	-3.018587740812839e-05,5.882065165059228e-14
6		1.148153621496882e+00,0.000000000000000e+00
	-3.018587740812839e-01,6.019076063543844e-10
	1.000000000000000e+00,0.000000000000000e+00
	0.000000000000000e+00,0.000000000000000e+00
	1.183428693682377e-05,5.275039449701240e-14
	1.183428920076419e-05,5.902370398247248e-14
	3.018587740812839e-05,-6.019076063543845e-14
	7.297818291774016e-06,1.809328469433386e-13
	-6.311620760914243e-06,-3.106129307745221e-14
	-3.117207493898817e-05,-8.968079323044795e-14
	-3.018587740812839e-05,6.019076063543845e-14
	-7.297818291895908e-06,-1.809328469433386e-13
	-3.018587740812839e-05,6.019076063543845e-14
7		1.174897554939529e+00,0.000000000000000e+00
	-3.018587740812839e-01,6.159278355829243e-10
	1.000000000000000e+00,0.000000000000000e+00
	0.000000000000000e+00,0.000000000000000e+00
	1.183428693682377e-05,5.397910902883804e-14
	1.183428920076419e-05,6.039854266371774e-14
	3.018587740812839e-05,-6.159278355829243e-14
	7.297818291774016e-06,1.851473143505246e-13
	-6.311620760914243e-06,-3.178480353733554e-14
	-3.117207493898817e-05,-9.176972725489667e-14
	-3.018587740812839e-05,6.159278355829244e-14
	-7.297818291895908e-06,-1.851473143505246e-13
	-3.018587740812839e-05,6.159278355829244e-14
8		1.202264434617413e+00,0.000000000000000e+00
	-3.018587740812839e-01,6.302746379026589e-10
	1.000000000000000e+00,0.000000000000000e+00
	0.000000000000000e+00,0.000000000000000e+00
	1.183428693682377e-05,5.523644399876877e-14
	1.183428920076419e-05,6.180540545175252e-14
	3.018587740812839e-05,-6.302746379026590e-14
	7.297818291774016e-06,1.894599493144938e-13
	-6.311620760914243e-06,-3.252516672077600e-14
	-3.117207493898817e-05,-9.390731880345190e-14
	-3.018587740812839e-05,6.302746379026589e-14
	-7.297818291895908e-06,-1.894599493144938e-13
	-3.018587740812839e-05,6.302746379026589e-14
9		1.230268770812381e+00,0.000000000000000e+00
	-3.018587740812839e-01,6.449556201780806e-10
	1.000000000000000e+00,0.000000000000000e+00
	0.000000000000000e+00,0.000000000000000e+00
	1.183428693682377e-05,5.652306606244839e-14
	1.183428920076419e-05,6.324503828384905e-14
	3.018587740812839e-05,-6.449556201780806e-14
	7.297818291774016e-06,1.938730384513883e-13
	-6.311620760914243e-06,-3.328277517813326e-14
	-3.117207493898817e-05,-9.609470125544700e-14
	-3.018587740812839e-05,6.449556201780806e-14
	-7.297818291895908e-06,-1.938730384513883e-13
	-3.018587740812839e-05,6.449556201780806e-14
10		1.258925411794167e+00,0.000000000000000e+00
	-3.018587740812839e-01,6.599785664603175e-10
	1.000000000000000e+00,0.000000000000000e+00
	0.000000000000000e+00,0.000000000000000e+00
	1.183428693682377e-05,5.783965740392555e-14
	1.183428920076419e-05,6.471820447239076e-14
	3.018587740812839e-05,-6.599785664603177e-14
	7.297818291774016e-06,1.983889216394829e-13
	-6.311620760914243e-06,-3.405803060343959e-14
	-3.117207493898817e-05,-9.833303439001151e-14
	-3.018587740812839e-05,6.599785664603176e-14
	-7.297818291895908e-06,-1.983889216394828e-13
	-3.018587740812839e-05,6.599785664603176e-14
11		1.288249551693134e+00,0.000000000000000e+00
	-3.018587740812839e-01,6.753514421143410e-10
	1.000000000000000e+00,0.000000000000000e+00
	0.000000000000000e+00,0.000000000000000e+00
	1.183428693682377e-05,5.918691609735667e-14
	1.183428920076419e-05,6.622568510959042e-14
	3.018587740812839e-05,-6.753514421143411e-14
	7.297818291774016e-06,2.030099932598185e-13
	-6.311620760914243e-06,-3.485134404738321e-14
	-3.117207493898817e-05,-1.006235050010012e-13
	-3.018587740812839e-05,6.753514421143411e-14
	-7.297818291895908e-06,-2.030099932598185e-13
	-3.018587740812839e-05,6.753514421143411e-14
12		1.318256738556407e+00,0.000000000000000e+00
	-3.018587740812839e-01,6.910823980423065e-10
	1.000000000000000e+00,0.000000000000000e+00
	0.000000000000000e+00,0.000000000000000e+00
	1.183428693682377e-05,6.056555647713403e-14
	1.183428920076419e-05,6.776827948163577e-14
	3.018587740812839e-05,-6.910823980423066e-14
	7.297818291774016e-06,2.077387034657354e-13
	-6.311620760914243e-06,-3.566313613525281e-14
	-3.117207493898817e-05,-1.029673275262519e-13
	-3.018587740812839e-05,6.910823980423065e-14
	-7.297818291895908e-06,-2.077387034657354e-13
	-3.018587740812839e-05,6.910823980423065e-14
13		1.348962882591653e+00,0.000000000000000e+00
	-3.018587740812839e-01,7.071797750052711e-10
	1.000000000000000e+00,0.000000000000000e+00
	0.000000000000000e+00,0.000000000000000e+00
	1.183428693682377e-05,6.197630951663549e-14
	1.183428920076419e-05,6.934680549248150e-14
	3.018587740812839e-05,-7.071797750052711e-14
	7.297818291774016e-06,2.125775594819767e-13
	-6.311620760914243e-06,-3.649383728995874e-14
	-3.117207493898817e-05,-1.053657446914908e-13
	-3.018587740812839e-05,7.071797750052711e-14
	-7.297818291895908e-06,-2.125775594819767e-13
	-3.018587740812839e-05,7.071797750052711e-14
14		1.380384264602885e+00,0.000000000000000e+00
	-3.018587740812839e-01,7.236521080455744e-10
	1.000000000000000e+00,0.000000000000000e+00
	0.000000000000000e+00,0.000000000000000e+00
	1.183428693682377e-05,6.341992321579611e-14
	1.183428920076419e-05,7.096210009751283e-14
	3.018587740812839e-05,-7.236521080455745e-14
	7.297818291774016e-06,2.175291269340519e-13
	-6.311620760914243e-06,-3.734388796024885e-14
	-3.117207493898817e-05,-1.078200281692456e-13
	-3.018587740812839e-05,7.236521080455745e-14
	-7.297818291895908e-06,-2.175291269340519e-13
	-3.018587740812839e-05,7.236521080455745e-14
15		1.412537544622754e+00,0.000000000000000e+00
	-3.018587740812839e-01,7.405081310122314e-10
	1.000000000000000e+00,0.000000000000000e+00
	0.000000000000000e+00,0.000000000000000e+00
	1.183428693682377e-05,6.489716299770768e-14
	1.183428920076419e-05,7.261501974731032e-14
	3.018587740812839e-05,-7.405081310122313e-14
	7.297818291774016e-06,2.225960312085660e-13
	-6.311620760914243e-06,-3.821373885424028e-14
	-3.117207493898817e-05,-1.103314792531026e-13
	-3.018587740812839e-05,7.405081310122314e-14
	-7.297818291895908e-06,-2.225960312085660e-13
	-3.018587740812839e-05,7.405081310122314e-14
16		1.445439770745927e+00,0.000000000000000e+00
	-3.018587740812839e-01,7.577567811917346e-10
	1.000000000000000e+00,0.000000000000000e+00
	0.000000000000000e+00,0.000000000000000e+00
	1.183428693682377e-05,6.640881211445611e-14
	1.183428920076419e-05,7.430644084175119e-14
	3.018587740812839e-05,-7.577567811917347e-14
	7.297818291774016e-06,2.277809588452335e-13
	-6.311620760914243e-06,-3.910385117839083e-14
	-3.117207493898817e-05,-1.129014295476692e-13
	-3.018587740812839e-05,7.577567811917347e-14
	-7.297818291895908e-06,-2.277809588452335e-13
	-3.018587740812839e-05,7.577567811917347e-14
17		1.479108388168207e+00,0.000000000000000e+00
	-3.018587740812839e-01,7.754072040467229e-10
	1.000000000000000e+00,0.000000000000000e+00
	0.000000000000000e+00,0.000000000000000e+00
	1.183428693682377e-05,6.795567206241217e-14
	1.183428920076419e-05,7.603726019468840e-14
	3.018587740812839e-05,-7.754072040467229e-14
	7.297818291774016e-06,2.330866589613183e-13
	-6.311620760914243e-06,-4.001469688203684e-14
	-3.117207493898817e-05,-1.155312416746092e-13
	-3.018587740812839e-05,7.754072040467229e-14
	-7.297818291895908e-06,-2.330866589613184e-13
	-3.018587740812839e-05,7.754072040467229e-14
18		1.513561248436208e+00,0.000000000000000e+00
	-3.018587740812839e-01,7.934687580650243e-10
	1.000000000000000e+00,0.000000000000000e+00
	0.000000000000000e+00,0.000000000000000e+00
	1.183428693682377e-05,6.953856300719541e-14
	1.183428920076419e-05,7.780839550945300e-14
	3.018587740812839e-05,-7.934687580650243e-14
	7.297818291774016e-06,2.385159447092511e-13
	-6.311620760914243e-06,-4.094675890762685e-14
	-3.117207493898817e-05,-1.182223099951218e-13
	-3.018587740812839e-05,7.934687580650243e-14
	-7.297818291895908e-06,-2.385159447092511e-13
	-3.018587740812839e-05,7.934687580650243e-14
19		1.548816618912481e+00,0.000000000000000e+00
	-3.018587740812839e-01,8.119510197216524e-10
	1.000000000000000e+00,0.000000000000000e+00
	0.000000000000000e+00,0.000000000000000e+00
	1.183428693682377e-05,7.115832421853673e-14
	1.183428920076419e-05,7.962078586543253e-14
	3.018587740812839e-05,-8.119510197216525e-14
	7.297818291774016e-06,2.440716947682004e-13
	-6.311620760914243e-06,-4.190053144678410e-14
	-3.117207493898817e-05,-1.209760613492511e-13
	-3.018587740812839e-05,8.119510197216525e-14
	-7.297818291895908e-06,-2.440716947682004e-13
	-3.018587740812839e-05,8.119510197216525e-14
20		1.584893192461113e+00,0.000000000000000e+00
	-3.018587740812839e-01,8.308637885563794e-10
	1.000000000000000e+00,0.000000000000000e+00
	0.000000000000000e+00,0.000000000000000e+00
	1.183428693682377e-05,7.281581451527053e-14
	1.183428920076419e-05,8.147539221598365e-14
	3.018587740812839e-05,-8.308637885563795e-14
	7.297818291774016e-06,2.497568548703867e-13
	-6.311620760914243e-06,-4.287652020233354e-14
	-3.117207493898817e-05,-1.237939558124152e-13
	-3.018587740812839e-05,8.308637885563794e-14
	-7.297818291895908e-06,-2.497568548703867e-13
	-3.018587740812839e-05,8.308637885563794e-14
21		1.621810097358929e+00,0.000000000000000e+00
	-3.018587740812839e-01,8.502170923695811e-10
	1.000000000000000e+00,0.000000000000000e+00
	0.000000000000000e+00,0.000000000000000e+00
	1.183428693682377e-05,7.451191272069155e-14
	1.183428920076419e-05,8.337319789794197e-14
	3.018587740812839e-05,-8.502170923695812e-14
	7.297818291774016e-06,2.555744393629480e-13
	-6.311620760914243e-06,-4.387524265643209e-14
	-3.117207493898817e-05,-1.266774874695578e-13
	-3.018587740812839e-05,8.502170923695812e-14
	-7.297818291895908e-06,-2.555744393629480e-13
	-3.018587740812839e-05,8.502170923695812e-14
22		1.659586907437560e+00,0.000000000000000e+00
	-3.018587740812839e-01,8.700211925391110e-10
	1.000000000000000e+00,0.000000000000000e+00
	0.000000000000000e+00,0.000000000000000e+00
	1.183428693682377e-05,7.624751812851883e-14
	1.183428920076419e-05,8.531520915300051e-14
	3.018587740812839e-05,-8.700211925391111e-14
	7.297818291774016e-06,2.615275328061872e-13
	-6.311620760914243e-06,-4.489722834494457e-14
	-3.117207493898817e-05,-1.296281852073316e-13
	-3.018587740812839e-05,8.700211925391110e-14
	-7.297818291895908e-06,-2.615275328061872e-13
	-3.018587740812839e-05,8.700211925391110e-14
23		1.698243652461743e+00,0.000000000000000e+00
	-3.018587740812839e-01,8.902865894610171e-10
	1.000000000000000e+00,0.000000000000000e+00
	0.000000000000000e+00,0.000000000000000e+00
	1.183428693682377e-05,7.802355097971308e-14
	1.183428920076419e-05,8.730245566123227e-14
	3.018587740812839e-05,-8.902865894610172e-14
	7.297818291774016e-06,2.676192916090465e-13
	-6.311620760914243e-06,-4.594301913821063e-14
	-3.117207493898817e-05,-1.326476135247341e-13
	-3.018587740812839e-05,8.902865894610171e-14
	-7.297818291895908e-06,-2.676192916090465e-13
	-3.018587740812839e-05,8.902865894610171e-14
24		1.737800828749374e+00,0.000000000000000e+00
	-3.018587740812839e-01,9.110240281169914e-10
	1.000000000000000e+00,0.000000000000000e+00
	0.000000000000000e+00,0.000000000000000e+00
	1.183428693682377e-05,7.984095295040054e-14
	1.183428920076419e-05,8.933599108704022e-14
	3.018587740812839e-05,-9.110240281169914e-14
	7.297818291774016e-06,2.738529457026768e-13
	-6.311620760914243e-06,-4.701316952835150e-14
	-3.117207493898817e-05,-1.357373733626262e-13
	-3.018587740812839e-05,9.110240281169914e-14
	-7.297818291895908e-06,-2.738529457026768e-13
	-3.018587740812839e-05,9.110240281169914e-14
25		1.778279410038922e+00,0.000000000000000e+00
	-3.018587740812839e-01,9.322445037715019e-10
	1.000000000000000e+00,0.000000000000000e+00
	0.000000000000000e+00,0.000000000000000e+00
	1.183428693682377e-05,8.170068765116228e-14
	1.183428920076419e-05,9.141689363782417e-14
	3.018587740812839e-05,-9.322445037715022e-14
	7.297818291774016e-06,2.802318002529911e-13
	-6.311620760914243e-06,-4.810824692326918e-14
	-3.117207493898817e-05,-1.388991029525717e-13
	-3.018587740812839e-05,9.322445037715020e-14
	-7.297818291895908e-06,-2.802318002529910e-13
	-3.018587740812839e-05,9.322445037715020e-14
26		1.819700858609982e+00,0.000000000000000e+00
	-3.018587740812839e-01,9.539592678016270e-10
	1.000000000000000e+00,0.000000000000000e+00
	0.000000000000000e+00,0.000000000000000e+00
	1.183428693682377e-05,8.360374113795311e-14
	1.183428920076419e-05,9.354626663566051e-14
	3.018587740812839e-05,-9.539592678016271e-14
	7.297818291774016e-06,2.867592374131058e-13
	-6.311620760914243e-06,-4.922883194749350e-14
	-3.117207493898817e-05,-1.421344786854496e-13
	-3.018587740812839e-05,9.539592678016271e-14
	-7.297818291895908e-06,-2.867592374131057e-13
	-3.018587740812839e-05,9.539592678016271e-14
27		1.862087136662866e+00,0.000000000000000e+00
	-3.018587740812839e-01,9.761798336626843e-10
	1.000000000000000e+00,0.000000000000000e+00
	0.000000000000000e+00,0.000000000000000e+00
	1.183428693682377e-05,8.555112243492161e-14
	1.183428920076419e-05,9.572523910229833e-14
	3.018587740812839e-05,-9.761798336626843e-14
	7.297818291774016e-06,2.934387181166042e-13
	-6.311620760914243e-06,-5.037551875003700e-14
	-3.117207493898817e-05,-1.454452160002988e-13
	-3.018587740812839e-05,9.761798336626843e-14
	-7.297818291895908e-06,-2.934387181166041e-13
	-3.018587740812839e-05,9.761798336626843e-14
28		1.905460717963246e+00,0.000000000000000e+00
	-3.018587740812839e-01,9.989179829928170e-10
	1.000000000000000e+00,0.000000000000000e+00
	0.000000000000000e+00,0.000000000000000e+00
	1.183428693682377e-05,8.754386406940811e-14
	1.183428920076419e-05,9.795496635778149e-14
	3.018587740812839e-05,-9.989179829928168e-14
	7.297818291774016e-06,3.002737839125686e-13
	-6.311620760914243e-06,-5.154891531942060e-14
	-3.117207493898817e-05,-1.488330702938663e-13
	-3.018587740812839e-05,9.989179829928171e-14
	-7.297818291895908e-06,-3.002737839125686e-13
	-3.018587740812839e-05,9.989179829928171e-14
29		1.949844599758044e+00,0.000000000000000e+00
	-3.018587740812839e-01,1.022185771859775e-09
	1.000000000000000e+00,0.000000000000000e+00
	0.000000000000000e+00,0.000000000000000e+00
	1.183428693682377e-05,8.958302261940421e-14
	1.183428920076419e-05,1.002366306330148e-13
	3.018587740812839e-05,-1.022185771859775e-13
	7.297818291774016e-06,3.072680588433569e-13
	-6.311620760914243e-06,-5.274964380603711e-14
	-3.117207493898817e-05,-1.522998378513423e-13
	-3.018587740812839e-05,1.022185771859775e-13
	-7.297818291895908e-06,-3.072680588433570e-13
	-3.018587740812839e-05,1.022185771859775e-13
30		1.995262314968878e+00,0.000000000000000e+00
	-3.018587740812839e-01,1.045995537153201e-09
	1.000000000000000e+00,0.000000000000000e+00
	0.000000000000000e+00,0.000000000000000e+00
	1.183428693682377e-05,9.166967927376461e-14
	1.183428920076419e-05,1.025714416965984e-13
	3.018587740812839e-05,-1.045995537153202e-13
	7.297818291774016e-06,3.144252513661175e-13
	-6.311620760914243e-06,-5.397834085202366e-14
	-3.117207493898817e-05,-1.558473567987737e-13
	-3.018587740812839e-05,1.045995537153201e-13
	-7.297818291895908e-06,-3.144252513661175e-13
	-3.018587740812839e-05,1.045995537153201e-13
31		2.041737944669527e+00,0.000000000000000e+00
	-3.018587740812839e-01,1.070359903125814e-09
	1.000000000000000e+00,0.000000000000000e+00
	0.000000000000000e+00,0.000000000000000e+00
	1.183428693682377e-05,9.380494040546760e-14
	1.183428920076419e-05,1.049606374962631e-13
	3.018587740812839e-05,-1.070359903125814e-13
	7.297818291774016e-06,3.217491563190626e-13
	-6.311620760914243e-06,-5.523565792881776e-14
	-3.117207493898817e-05,-1.594775080776635e-13
	-3.018587740812839e-05,1.070359903125814e-13
	-7.297818291895908e-06,-3.217491563190626e-13
	-3.018587740812839e-05,1.070359903125814e-13
32		2.089296130854037e+00,0.000000000000000e+00
	-3.018587740812839e-01,1.095291788086952e-09
	1.000000000000000e+00,0.000000000000000e+00
	0.000000000000000e+00,0.000000000000000e+00
	1.183428693682377e-05,9.598993815822879e-14
