LTspice 24.0.9 for Windows
Circuit: * GA CMOS Amp | W=2.5210634542879555e-05 L=4.6849222028131916e-07 Vbias=0.8506972491731174
Start Time: Mon Sep  8 18:42:28 2025
solver = Normal
Maximum thread count: 2
tnom = 27
temp = 27
method = modified trap
AsciiRawFile = 1
Instance "m1": Length shorter than recommended for a level 3 MOSFET.
Direct Newton iteration for .op point succeeded.
Semiconductor Device Operating Points:
                        --- MOSFET Transistors ---
Name:          m1
Model:        n_1u
Id:          1.57e-04
Vgs:         8.51e-01
Vds:         2.33e-01
Vbs:         0.00e+00
Vth:         6.99e-01
Vdsat:       1.48e-01
Gm:          1.22e-03
Gds:         1.51e-04
Gmb:         1.34e-04
Cbd:         0.00e+00
Cbs:         0.00e+00
Cgsov:       5.04e-15
Cgdov:       5.04e-15
Cgbov:       2.68e-17
Cgs:         7.79e-15
Cgd:         0.00e+00
Cgb:         0.00e+00



gain_db: MAX(db(v(out)/v(g)))=(29.7018dB,63.2592°) FROM 1 TO 1e+09
gain_lin: MAX(mag(v(out)/v(g)))=(13.7485dB,0°) FROM 1 TO 1e+09

Measurement "fc" FAIL'ed

Total elapsed time: 0.842 seconds.

