LTspice 24.0.9 for Windows
Circuit: * GA CMOS Amp | W=2.9605411566863508e-05 L=9.987584791468936e-07 Vbias=1.1178793988260156
Start Time: Mon Sep  8 18:44:18 2025
solver = Normal
Maximum thread count: 2
tnom = 27
temp = 27
method = modified trap
AsciiRawFile = 1
Instance "m1": Length shorter than recommended for a level 3 MOSFET.
Direct Newton iteration for .op point succeeded.
Semiconductor Device Operating Points:
                        --- MOSFET Transistors ---
Name:          m1
Model:        n_1u
Id:          1.65e-04
Vgs:         1.12e+00
Vds:         1.55e-01
Vbs:         0.00e+00
Vth:         8.08e-01
Vdsat:       2.81e-01
Gm:          5.78e-04
Gds:         6.12e-04
Gmb:         1.39e-04
Cbd:         0.00e+00
Cbs:         0.00e+00
Cgsov:       5.92e-15
Cgdov:       5.92e-15
Cgbov:       7.99e-17
Cgs:         2.46e-14
Cgd:         1.43e-14
Cgb:         0.00e+00



gain_db: MAX(db(v(out)/v(g)))=(28.7384dB,93.7987°) FROM 1 TO 1e+09
gain_lin: MAX(mag(v(out)/v(g)))=(-1.81183dB,0°) FROM 1 TO 1e+09

Measurement "fc" FAIL'ed

Total elapsed time: 0.429 seconds.

