Title: * GA CMOS Amp | W=1.4657834069194693e-05 L=6.103925110489871e-07 Vbias=0.82889735285347
Date: Sat Sep  6 22:03:32 2025
Plotname: AC Analysis
Flags: complex forward log
No. Variables: 13
No. Points:          901
Offset:    0.0000000000000000e+00
Command: Linear Technology Corporation LTspice
Variables:
	0	frequency	frequency
	1	V(out)	voltage
	2	V(g)	voltage
	3	V(vdd)	voltage
	4	V(m1#dbody)	voltage
	5	V(m1#sbody)	voltage
	6	Id(M1)	device_current
	7	Ig(M1)	device_current
	8	Ib(M1)	device_current
	9	Is(M1)	device_current
	10	I(Rload)	device_current
	11	I(Vg)	device_current
	12	I(Vdd)	device_current
Values:
0		1.000000000000000e+00,0.000000000000000e+00
	-4.209115192248857e-02,5.824861113495964e-10
	1.000000000000000e+00,0.000000000000000e+00
	0.000000000000000e+00,0.000000000000000e+00
	1.840437808326891e-07,1.351824862740472e-14
	1.840441016181646e-07,2.768140873098754e-14
	4.209115192248847e-06,-5.824861113495922e-14
	1.730097074107250e-06,2.301924512802673e-12
	-9.815683288486027e-08,-1.381924800620758e-14
	-5.841055433471236e-06,-2.229856653661507e-12
	-4.209115192248858e-06,5.824861113495964e-14
	-1.730097074048587e-06,-2.301924512802673e-12
	-4.209115192248858e-06,5.824861113495964e-14
1		1.023292992280754e+00,0.000000000000000e+00
	-4.209115192248857e-02,5.960539558449092e-10
	1.000000000000000e+00,0.000000000000000e+00
	0.000000000000000e+00,0.000000000000000e+00
	1.840437808326891e-07,1.383312908833216e-14
	1.840441016181646e-07,2.832619157087881e-14
	4.209115192248847e-06,-5.960539558449046e-14
	1.730097074107250e-06,2.355543222710265e-12
	-9.815683288486022e-08,-1.414113964334199e-14
	-5.841055433471236e-06,-2.281796687482432e-12
	-4.209115192248858e-06,5.960539558449093e-14
	-1.730097074048587e-06,-2.355543222710265e-12
	-4.209115192248858e-06,5.960539558449093e-14
2		1.047128548050899e+00,0.000000000000000e+00
	-4.209115192248857e-02,6.099378360373175e-10
	1.000000000000000e+00,0.000000000000000e+00
	0.000000000000000e+00,0.000000000000000e+00
	1.840437808326890e-07,1.415534405740535e-14
	1.840441016181645e-07,2.898599333248246e-14
	4.209115192248847e-06,-6.099378360373121e-14
	1.730097074107250e-06,2.410410872813837e-12
	-9.815683288486020e-08,-1.447052909989542e-14
	-5.841055433471236e-06,-2.334946560110210e-12
	-4.209115192248858e-06,6.099378360373175e-14
	-1.730097074048587e-06,-2.410410872813837e-12
	-4.209115192248858e-06,6.099378360373175e-14
3		1.071519305237606e+00,0.000000000000000e+00
	-4.209115192248857e-02,6.241451133438746e-10
	1.000000000000000e+00,0.000000000000000e+00
	0.000000000000000e+00,0.000000000000000e+00
	1.840437808326889e-07,1.448506437726594e-14
	1.840441016181645e-07,2.966116385142598e-14
	4.209115192248847e-06,-6.241451133438671e-14
	1.730097074107250e-06,2.466556554667736e-12
	-9.815683288486019e-08,-1.480759102251773e-14
	-5.841055433471236e-06,-2.389334452310831e-12
	-4.209115192248858e-06,6.241451133438747e-14
	-1.730097074048587e-06,-2.466556554667736e-12
	-4.209115192248858e-06,6.241451133438747e-14
4		1.096478196143185e+00,0.000000000000000e+00
	-4.209115192248857e-02,6.386833206510636e-10
	1.000000000000000e+00,0.000000000000000e+00
	0.000000000000000e+00,0.000000000000000e+00
	1.840437808326889e-07,1.482246486999179e-14
	1.840441016181645e-07,3.035206111205539e-14
	4.209115192248847e-06,-6.386833206510597e-14
	1.730097074107250e-06,2.524010037455654e-12
	-9.815683288486016e-08,-1.515250412590178e-14
	-5.841055433471236e-06,-2.444989201264646e-12
	-4.209115192248858e-06,6.386833206510636e-14
	-1.730097074048587e-06,-2.524010037455654e-12
	-4.209115192248858e-06,6.386833206510636e-14
5		1.122018454301963e+00,0.000000000000000e+00
	-4.209115192248857e-02,6.535601663088355e-10
	1.000000000000000e+00,0.000000000000000e+00
	0.000000000000000e+00,0.000000000000000e+00
	1.840437808326889e-07,1.516772442979027e-14
	1.840441016181644e-07,3.105905143724350e-14
	4.209115192248847e-06,-6.535601663088299e-14
	1.730097074107250e-06,2.582801783774655e-12
	-9.815683288486014e-08,-1.550545128754052e-14
	-5.841055433471236e-06,-2.501940315856232e-12
	-4.209115192248858e-06,6.535601663088355e-14
	-1.730097074048587e-06,-2.582801783774655e-12
	-4.209115192248858e-06,6.535601663088355e-14
6		1.148153621496882e+00,0.000000000000000e+00
	-4.209115192248857e-02,6.687835382176755e-10
	1.000000000000000e+00,0.000000000000000e+00
	0.000000000000000e+00,0.000000000000000e+00
	1.840437808326888e-07,1.552102611784997e-14
	1.840441016181644e-07,3.178250968261874e-14
	4.209115192248847e-06,-6.687835382176716e-14
	1.730097074107250e-06,2.642962965786836e-12
	-9.815683288486012e-08,-1.586661964469080e-14
	-5.841055433471236e-06,-2.560217992320379e-12
	-4.209115192248858e-06,6.687835382176755e-14
	-1.730097074048587e-06,-2.642962965786837e-12
	-4.209115192248858e-06,6.687835382176755e-14
7		1.174897554939529e+00,0.000000000000000e+00
	-4.209115192248857e-02,6.843615080108752e-10
	1.000000000000000e+00,0.000000000000000e+00
	0.000000000000000e+00,0.000000000000000e+00
	1.840437808326887e-07,1.588255725940242e-14
	1.840441016181643e-07,3.252281943531896e-14
	4.209115192248847e-06,-6.843615080108712e-14
	1.730097074107250e-06,2.704525481747228e-12
	-9.815683288486008e-08,-1.623620069359623e-14
	-5.841055433471236e-06,-2.619853130252544e-12
	-4.209115192248858e-06,6.843615080108753e-14
	-1.730097074048587e-06,-2.704525481747227e-12
	-4.209115192248858e-06,6.843615080108753e-14
8		1.202264434617413e+00,0.000000000000000e+00
	-4.209115192248857e-02,7.003023353342178e-10
	1.000000000000000e+00,0.000000000000000e+00
	0.000000000000000e+00,0.000000000000000e+00
	1.840437808326887e-07,1.625250954304432e-14
	1.840441016181642e-07,3.328037321737420e-14
	4.209115192248847e-06,-7.003023353342116e-14
	1.730097074107250e-06,2.767521972916669e-12
	-9.815683288486006e-08,-1.661439039102095e-14
	-5.841055433471236e-06,-2.680877348992227e-12
	-4.209115192248858e-06,7.003023353342178e-14
	-1.730097074048587e-06,-2.767521972916668e-12
	-4.209115192248858e-06,7.003023353342178e-14
9		1.230268770812381e+00,0.000000000000000e+00
	-4.209115192248857e-02,7.166144722253517e-10
	1.000000000000000e+00,0.000000000000000e+00
	0.000000000000000e+00,0.000000000000000e+00
	1.840437808326886e-07,1.663107912237333e-14
	1.840441016181642e-07,3.405557269382712e-14
	4.209115192248847e-06,-7.166144722253485e-14
	1.730097074107250e-06,2.831985840868634e-12
	-9.815683288486003e-08,-1.700138925814843e-14
	-5.841055433471236e-06,-2.743323004387951e-12
	-4.209115192248858e-06,7.166144722253518e-14
	-1.730097074048587e-06,-2.831985840868634e-12
	-4.209115192248858e-06,7.166144722253518e-14
10		1.258925411794167e+00,0.000000000000000e+00
	-4.209115192248857e-02,7.333065675951735e-10
	1.000000000000000e+00,0.000000000000000e+00
	0.000000000000000e+00,0.000000000000000e+00
	1.840437808326885e-07,1.701846671999141e-14
	1.840441016181641e-07,3.484882888570111e-14
	4.209115192248847e-06,-7.333065675951723e-14
	1.730097074107250e-06,2.897951265199193e-12
	-9.815683288485998e-08,-1.739740248690059e-14
	-5.841055433471236e-06,-2.807223205952775e-12
	-4.209115192248858e-06,7.333065675951736e-14
	-1.730097074048587e-06,-2.897951265199192e-12
	-4.209115192248858e-06,7.333065675951736e-14
11		1.288249551693134e+00,0.000000000000000e+00
	-4.209115192248857e-02,7.503874718135944e-10
	1.000000000000000e+00,0.000000000000000e+00
	0.000000000000000e+00,0.000000000000000e+00
	1.840437808326884e-07,1.741487773393044e-14
	1.840441016181641e-07,3.566056238792908e-14
	4.209115192248847e-06,-7.503874718135898e-14
	1.730097074107250e-06,2.965453221649479e-12
	-9.815683288485995e-08,-1.780264004873314e-14
	-5.841055433471236e-06,-2.872611834419387e-12
	-4.209115192248858e-06,7.503874718135944e-14
	-1.730097074048587e-06,-2.965453221649479e-12
	-4.209115192248858e-06,7.503874718135944e-14
12		1.318256738556407e+00,0.000000000000000e+00
	-4.209115192248857e-02,7.678662414021230e-10
	1.000000000000000e+00,0.000000000000000e+00
	0.000000000000000e+00,0.000000000000000e+00
	1.840437808326883e-07,1.782052234655718e-14
	1.840441016181640e-07,3.649120359235848e-14
	4.209115192248847e-06,-7.678662414021198e-14
	1.730097074107250e-06,3.034527500650298e-12
	-9.815683288485993e-08,-1.821731680596534e-14
	-5.841055433471236e-06,-2.939523559704121e-12
	-4.209115192248858e-06,7.678662414021231e-14
	-1.730097074048587e-06,-3.034527500650297e-12
	-4.209115192248858e-06,7.678662414021231e-14
13		1.348962882591653e+00,0.000000000000000e+00
	-4.209115192248857e-02,7.857521438357543e-10
	1.000000000000000e+00,0.000000000000000e+00
	0.000000000000000e+00,0.000000000000000e+00
	1.840437808326883e-07,1.823561563601454e-14
	1.840441016181639e-07,3.734119291595070e-14
	4.209115192248847e-06,-7.857521438357499e-14
	1.730097074107249e-06,3.105210726298682e-12
	-9.815683288485987e-08,-1.864165262570274e-14
	-5.841055433471236e-06,-3.007993859289404e-12
	-4.209115192248858e-06,7.857521438357543e-14
	-1.730097074048587e-06,-3.105210726298681e-12
	-4.209115192248858e-06,7.857521438357543e-14
14		1.380384264602885e+00,0.000000000000000e+00
	-4.209115192248857e-02,8.040546624567066e-10
	1.000000000000000e+00,0.000000000000000e+00
	0.000000000000000e+00,0.000000000000000e+00
	1.840437808326882e-07,1.866037769025901e-14
	1.840441016181639e-07,3.821098103429608e-14
	4.209115192248847e-06,-8.040546624567037e-14
	1.730097074107249e-06,3.177540375776472e-12
	-9.815683288485985e-08,-1.907587249641373e-14
	-5.841055433471236e-06,-3.078059037034388e-12
	-4.209115192248858e-06,8.040546624567066e-14
	-1.730097074048587e-06,-3.177540375776472e-12
	-4.209115192248858e-06,8.040546624567066e-14
15		1.412537544622754e+00,0.000000000000000e+00
	-4.209115192248857e-02,8.227835015026149e-10
	1.000000000000000e+00,0.000000000000000e+00
	0.000000000000000e+00,0.000000000000000e+00
	1.840437808326881e-07,1.909503372375419e-14
	1.840441016181638e-07,3.910102912056801e-14
	4.209115192248847e-06,-8.227835015026090e-14
	1.730097074107249e-06,3.251554799221218e-12
	-9.815683288485978e-08,-1.952020664722135e-14
	-5.841055433471236e-06,-3.149756242423735e-12
	-4.209115192248858e-06,8.227835015026150e-14
	-1.730097074048587e-06,-3.251554799221217e-12
	-4.209115192248858e-06,8.227835015026150e-14
16		1.445439770745927e+00,0.000000000000000e+00
	-4.209115192248857e-02,8.419485912518471e-10
	1.000000000000000e+00,0.000000000000000e+00
	0.000000000000000e+00,0.000000000000000e+00
	1.840437808326880e-07,1.953981419688232e-14
	1.840441016181637e-07,4.001180909004292e-14
	4.209115192248847e-06,-8.419485912518433e-14
	1.730097074107249e-06,3.327293240059926e-12
	-9.815683288485975e-08,-1.997489066997379e-14
	-5.841055433471236e-06,-3.223123490264767e-12
	-4.209115192248858e-06,8.419485912518471e-14
	-1.730097074048587e-06,-3.327293240059926e-12
	-4.209115192248858e-06,8.419485912518471e-14
17		1.479108388168207e+00,0.000000000000000e+00
	-4.209115192248857e-02,8.615600932886681e-10
	1.000000000000000e+00,0.000000000000000e+00
	0.000000000000000e+00,0.000000000000000e+00
	1.840437808326879e-07,1.999495493813768e-14
	1.840441016181636e-07,4.094380385031630e-14
	4.209115192248847e-06,-8.615600932886643e-14
	1.730097074107249e-06,3.404795855816447e-12
	-9.815683288485970e-08,-2.044016564415841e-14
	-5.841055433471236e-06,-3.298199680843422e-12
	-4.209115192248858e-06,8.615600932886682e-14
	-1.730097074048587e-06,-3.404795855816447e-12
	-4.209115192248858e-06,8.615600932886682e-14
18		1.513561248436208e+00,0.000000000000000e+00
	-4.209115192248857e-02,8.816284058910469e-10
	1.000000000000000e+00,0.000000000000000e+00
	0.000000000000000e+00,0.000000000000000e+00
	1.840437808326878e-07,2.046069726916575e-14
	1.840441016181635e-07,4.189750755734643e-14
	4.209115192248847e-06,-8.816284058910430e-14
	1.730097074107249e-06,3.484103739403524e-12
	-9.815683288485966e-08,-2.091627826472512e-14
	-5.841055433471236e-06,-3.375024620549694e-12
	-4.209115192248858e-06,8.816284058910469e-14
	-1.730097074048587e-06,-3.484103739403523e-12
	-4.209115192248858e-06,8.816284058910469e-14
19		1.548816618912481e+00,0.000000000000000e+00
	-4.209115192248857e-02,9.021641695439605e-10
	1.000000000000000e+00,0.000000000000000e+00
	0.000000000000000e+00,0.000000000000000e+00
	1.840437808326876e-07,2.093728813271524e-14
	1.840441016181634e-07,4.287342587746252e-14
	4.209115192248847e-06,-9.021641695439602e-14
	1.730097074107249e-06,3.565258940910796e-12
	-9.815683288485961e-08,-2.140348097288745e-14
	-5.841055433471236e-06,-3.453639042983513e-12
	-4.209115192248858e-06,9.021641695439605e-14
	-1.730097074048587e-06,-3.565258940910796e-12
	-4.209115192248858e-06,9.021641695439605e-14
20		1.584893192461113e+00,0.000000000000000e+00
	-4.209115192248857e-02,9.231782725811211e-10
	1.000000000000000e+00,0.000000000000000e+00
	0.000000000000000e+00,0.000000000000000e+00
	1.840437808326875e-07,2.142498022357052e-14
	1.840441016181633e-07,4.387207625547575e-14
	4.209115192248847e-06,-9.231782725811150e-14
	1.730097074107249e-06,3.648304489900320e-12
	-9.815683288485956e-08,-2.190203208997020e-14
	-5.841055433471236e-06,-3.534084630552239e-12
	-4.209115192248858e-06,9.231782725811212e-14
	-1.730097074048587e-06,-3.648304489900320e-12
	-4.209115192248858e-06,9.231782725811212e-14
21		1.621810097358929e+00,0.000000000000000e+00
	-4.209115192248857e-02,9.446818569581131e-10
	1.000000000000000e+00,0.000000000000000e+00
	0.000000000000000e+00,0.000000000000000e+00
	1.840437808326874e-07,2.192403212253344e-14
	1.840441016181632e-07,4.489398818903518e-14
	4.209115192248847e-06,-9.446818569581070e-14
	1.730097074107249e-06,3.733284418221410e-12
	-9.815683288485950e-08,-2.241219595437469e-14
	-5.841055433471236e-06,-3.616404036571224e-12
	-4.209115192248858e-06,9.446818569581131e-14
	-1.730097074048587e-06,-3.733284418221408e-12
	-4.209115192248858e-06,9.446818569581131e-14
22		1.659586907437560e+00,0.000000000000000e+00
	-4.209115192248857e-02,9.666863241600067e-10
	1.000000000000000e+00,0.000000000000000e+00
	0.000000000000000e+00,0.000000000000000e+00
	1.840437808326873e-07,2.243470843352663e-14
	1.840441016181631e-07,4.593970350937466e-14
	4.209115192248847e-06,-9.666863241600059e-14
	1.730097074107249e-06,3.820243783356901e-12
	-9.815683288485944e-08,-2.293424306173470e-14
	-5.841055433471236e-06,-3.700640907879166e-12
	-4.209115192248858e-06,9.666863241600067e-14
	-1.730097074048587e-06,-3.820243783356900e-12
	-4.209115192248858e-06,9.666863241600067e-14
23		1.698243652461743e+00,0.000000000000000e+00
	-4.209115192248857e-02,9.892033412465765e-10
	1.000000000000000e+00,0.000000000000000e+00
	0.000000000000000e+00,0.000000000000000e+00
	1.840437808326872e-07,2.295727992388975e-14
	1.840441016181630e-07,4.700977666859867e-14
	4.209115192248847e-06,-9.892033412465694e-14
	1.730097074107249e-06,3.909228692313231e-12
	-9.815683288485940e-08,-2.346845020833663e-14
	-5.841055433471236e-06,-3.786839907980237e-12
	-4.209115192248858e-06,9.892033412465766e-14
	-1.730097074048587e-06,-3.909228692313231e-12
	-4.209115192248858e-06,9.892033412465766e-14
24		1.737800828749374e+00,0.000000000000000e+00
	-4.209115192248857e-02,1.012244847038329e-09
	1.000000000000000e+00,0.000000000000000e+00
	0.000000000000000e+00,0.000000000000000e+00
	1.840437808326870e-07,2.349202366794400e-14
	1.840441016181629e-07,4.810477503366028e-14
	4.209115192248847e-06,-1.012244847038323e-13
	1.730097074107249e-06,4.000286326066984e-12
	-9.815683288485932e-08,-2.401510063788067e-14
	-5.841055433471236e-06,-3.875046740725272e-12
	-4.209115192248858e-06,1.012244847038329e-13
	-1.730097074048587e-06,-4.000286326066984e-12
	-4.209115192248858e-06,1.012244847038329e-13
25		1.778279410038922e+00,0.000000000000000e+00
	-4.209115192248857e-02,1.035823058446626e-09
	1.000000000000000e+00,0.000000000000000e+00
	0.000000000000000e+00,0.000000000000000e+00
	1.840437808326869e-07,2.403922319390071e-14
	1.840441016181628e-07,4.922527918718675e-14
	4.209115192248847e-06,-1.035823058446623e-13
	1.730097074107249e-06,4.093464964580872e-12
	-9.815683288485926e-08,-2.457448419166035e-14
	-5.841055433471236e-06,-3.965308174544549e-12
	-4.209115192248858e-06,1.035823058446626e-13
	-1.730097074048587e-06,-4.093464964580869e-12
	-4.209115192248858e-06,1.035823058446626e-13
26		1.819700858609982e+00,0.000000000000000e+00
	-4.209115192248857e-02,1.059950476951250e-09
	1.000000000000000e+00,0.000000000000000e+00
	0.000000000000000e+00,0.000000000000000e+00
	1.840437808326867e-07,2.459916863419159e-14
	1.840441016181627e-07,5.037188323531188e-14
	4.209115192248847e-06,-1.059950476951244e-13
	1.730097074107249e-06,4.188814012402389e-12
	-9.815683288485918e-08,-2.514689746224023e-14
	-5.841055433471236e-06,-4.057672067245025e-12
	-4.209115192248858e-06,1.059950476951250e-13
	-1.730097074048587e-06,-4.188814012402389e-12
	-4.209115192248858e-06,1.059950476951250e-13
27		1.862087136662866e+00,0.000000000000000e+00
	-4.209115192248857e-02,1.084639895228857e-09
	1.000000000000000e+00,0.000000000000000e+00
	0.000000000000000e+00,0.000000000000000e+00
	1.840437808326865e-07,2.517215687930076e-14
	1.840441016181625e-07,5.154519512267903e-14
	4.209115192248847e-06,-1.084639895228851e-13
	1.730097074107249e-06,4.286384024858792e-12
	-9.815683288485911e-08,-2.573264395071309e-14
	-5.841055433471236e-06,-4.152187391385195e-12
	-4.209115192248858e-06,1.084639895228858e-13
	-1.730097074048587e-06,-4.286384024858793e-12
	-4.209115192248858e-06,1.084639895228858e-13
28		1.905460717963246e+00,0.000000000000000e+00
	-4.209115192248857e-02,1.109904403935821e-09
	1.000000000000000e+00,0.000000000000000e+00
	0.000000000000000e+00,0.000000000000000e+00
	1.840437808326864e-07,2.575849173518029e-14
	1.840441016181624e-07,5.274583695478159e-14
	4.209115192248847e-06,-1.109904403935820e-13
	1.730097074107248e-06,4.386226734862176e-12
	-9.815683288485905e-08,-2.633203422762047e-14
	-5.841055433471236e-06,-4.248904260240975e-12
	-4.209115192248858e-06,1.109904403935821e-13
	-1.730097074048587e-06,-4.386226734862176e-12
	-4.209115192248858e-06,1.109904403935821e-13
29		1.949844599758044e+00,0.000000000000000e+00
	-4.209115192248857e-02,1.135757398649073e-09
	1.000000000000000e+00,0.000000000000000e+00
	0.000000000000000e+00,0.000000000000000e+00
	1.840437808326862e-07,2.635848408433168e-14
	1.840441016181622e-07,5.397444532781122e-14
	4.209115192248847e-06,-1.135757398649065e-13
	1.730097074107248e-06,4.488395080338959e-12
	-9.815683288485896e-08,-2.694538609762097e-14
	-5.841055433471236e-06,-4.347873954376431e-12
	-4.209115192248858e-06,1.135757398649073e-13
	-1.730097074048587e-06,-4.488395080338959e-12
	-4.209115192248858e-06,1.135757398649073e-13
30		1.995262314968878e+00,0.000000000000000e+00
	-4.209115192248857e-02,1.162212586968615e-09
	1.000000000000000e+00,0.000000000000000e+00
	0.000000000000000e+00,0.000000000000000e+00
	1.840437808326860e-07,2.697245205064038e-14
	1.840441016181621e-07,5.523167166618988e-14
	4.209115192248847e-06,-1.162212586968614e-13
	1.730097074107248e-06,4.592943232298269e-12
	-9.815683288485888e-08,-2.757302476799478e-14
	-5.841055433471236e-06,-4.449148948833413e-12
	-4.209115192248858e-06,1.162212586968615e-13
	-1.730097074048587e-06,-4.592943232298269e-12
	-4.209115192248858e-06,1.162212586968615e-13
31		2.041737944669527e+00,0.000000000000000e+00
	-4.209115192248857e-02,1.189283995785470e-09
	1.000000000000000e+00,0.000000000000000e+00
	0.000000000000000e+00,0.000000000000000e+00
	1.840437808326858e-07,2.760072116804894e-14
	1.840441016181619e-07,5.651818256796356e-14
	4.209115192248847e-06,-1.189283995785467e-13
	1.730097074107248e-06,4.699926623554134e-12
	-9.815683288485879e-08,-2.821528302107271e-14
	-5.841055433471236e-06,-4.552782940954515e-12
	-4.209115192248858e-06,1.189283995785470e-13
	-1.730097074048587e-06,-4.699926623554134e-12
	-4.209115192248858e-06,1.189283995785470e-13
32		2.089296130854037e+00,0.000000000000000e+00
	-4.209115192248857e-02,1.216985978718926e-09
	1.000000000000000e+00,0.000000000000000e+00
	0.000000000000000e+00,0.000000000000000e+00
	1.840437808326856e-07,2.824362455315954e-14
