Title: * GA CMOS Amp | W=1.9789286374961295e-05 L=7.398626836930959e-07 Vbias=0.5843579516464352
Date: Mon Sep  8 18:43:34 2025
Plotname: AC Analysis
Flags: complex forward log
No. Variables: 11
No. Points:          901
Offset:    0.0000000000000000e+00
Command: Linear Technology Corporation LTspice
Variables:
	0	frequency	frequency
	1	V(out)	voltage
	2	V(g)	voltage
	3	V(vdd)	voltage
	4	Id(M1)	device_current
	5	Ig(M1)	device_current
	6	Ib(M1)	device_current
	7	Is(M1)	device_current
	8	I(Rload)	device_current
	9	I(Vg)	device_current
	10	I(Vdd)	device_current
Values:
0		1.000000000000000e+00,0.000000000000000e+00
	-3.295954589681438e-02,2.568279825876103e-10
	1.000000000000000e+00,0.000000000000000e+00
	0.000000000000000e+00,0.000000000000000e+00
	3.295954589681438e-06,-2.568279825876103e-14
	6.386785603756226e-24,1.311957539859319e-13
	3.295954572026731e-14,-3.374520648402274e-15
	-3.295954622640984e-06,-1.021384350787686e-13
	-3.295954589681438e-06,2.568279825876103e-14
	-6.386785603756226e-24,-1.311957539859319e-13
	-3.295954589681438e-06,2.568279825876103e-14
1		1.023292992280754e+00,0.000000000000000e+00
	-3.295954589681438e-02,2.628102748035052e-10
	1.000000000000000e+00,0.000000000000000e+00
	0.000000000000000e+00,0.000000000000000e+00
	3.295954589681438e-06,-2.628102748035052e-14
	6.687785535973645e-24,1.342516956707939e-13
	3.295954572026731e-14,-3.453123331816761e-15
	-3.295954622640984e-06,-1.045175448586266e-13
	-3.295954589681438e-06,2.628102748035052e-14
	-6.687785535973645e-24,-1.342516956707939e-13
	-3.295954589681438e-06,2.628102748035052e-14
2		1.047128548050899e+00,0.000000000000000e+00
	-3.295954589681438e-02,2.689319125058060e-10
	1.000000000000000e+00,0.000000000000000e+00
	0.000000000000000e+00,0.000000000000000e+00
	3.295954589681438e-06,-2.689319125058061e-14
	7.002971157959885e-24,1.373788193817318e-13
	3.295954572026731e-14,-3.533556906929265e-15
	-3.295954622640984e-06,-1.069520712242220e-13
	-3.295954589681438e-06,2.689319125058060e-14
	-7.002971157959885e-24,-1.373788193817319e-13
	-3.295954589681438e-06,2.689319125058060e-14
3		1.071519305237606e+00,0.000000000000000e+00
	-3.295954589681438e-02,2.751961414678522e-10
	1.000000000000000e+00,0.000000000000000e+00
	0.000000000000000e+00,0.000000000000000e+00
	3.295954589681438e-06,-2.751961414678522e-14
	7.333011020676861e-24,1.405787831611296e-13
	3.295954572026731e-14,-3.615864020685985e-15
	-3.295954622640984e-06,-1.094433049936584e-13
	-3.295954589681438e-06,2.751961414678522e-14
	-7.333011020676861e-24,-1.405787831611297e-13
	-3.295954589681438e-06,2.751961414678522e-14
4		1.096478196143185e+00,0.000000000000000e+00
	-3.295954589681438e-02,2.816062830667562e-10
	1.000000000000000e+00,0.000000000000000e+00
	0.000000000000000e+00,0.000000000000000e+00
	3.295954589681438e-06,-2.816062830667562e-14
	7.678605182922606e-24,1.438532836721396e-13
	3.295954572026731e-14,-3.700088313408044e-15
	-3.295954622640984e-06,-1.119925670520559e-13
	-3.295954589681438e-06,2.816062830667562e-14
	-7.678605182922606e-24,-1.438532836721396e-13
	-3.295954589681438e-06,2.816062830667562e-14
5		1.122018454301963e+00,0.000000000000000e+00
	-3.295954589681438e-02,2.881657360444420e-10
	1.000000000000000e+00,0.000000000000000e+00
	0.000000000000000e+00,0.000000000000000e+00
	3.295954589681438e-06,-2.881657360444420e-14
	8.040486696249861e-24,1.472040570982759e-13
	3.295954572026731e-14,-3.786274441930391e-15
	-3.295954622640984e-06,-1.146012090519013e-13
	-3.295954589681438e-06,2.881657360444420e-14
	-8.040486696249861e-24,-1.472040570982759e-13
	-3.295954589681438e-06,2.881657360444420e-14
6		1.148153621496882e+00,0.000000000000000e+00
	-3.295954589681438e-02,2.948779783097030e-10
	1.000000000000000e+00,0.000000000000000e+00
	0.000000000000000e+00,0.000000000000000e+00
	3.295954589681438e-06,-2.948779783097030e-14
	8.419423159866691e-24,1.506328800639617e-13
	3.295954572026731e-14,-3.874468103279118e-15
	-3.295954622640984e-06,-1.172706141297123e-13
	-3.295954589681438e-06,2.948779783097030e-14
	-8.419423159866691e-24,-1.506328800639617e-13
	-3.295954589681438e-06,2.948779783097030e-14
7		1.174897554939529e+00,0.000000000000000e+00
	-3.295954589681438e-02,3.017465687822353e-10
	1.000000000000000e+00,0.000000000000000e+00
	0.000000000000000e+00,0.000000000000000e+00
	3.295954589681438e-06,-3.017465687822353e-14
	8.816218348817323e-24,1.541415705765194e-13
	3.295954572026731e-14,-3.964716058900823e-15
	-3.295954622640984e-06,-1.200021976393950e-13
	-3.295954589681438e-06,3.017465687822353e-14
	-8.816218348817323e-24,-1.541415705765194e-13
	-3.295954589681438e-06,3.017465687822353e-14
8		1.202264434617413e+00,0.000000000000000e+00
	-3.295954589681438e-02,3.087751492796240e-10
	1.000000000000000e+00,0.000000000000000e+00
	0.000000000000000e+00,0.000000000000000e+00
	3.295954589681438e-06,-3.087751492796240e-14
	9.231713918896783e-24,1.577319889901015e-13
	3.295954572026731e-14,-4.057066159456148e-15
	-3.295954622640984e-06,-1.227974079026830e-13
	-3.295954589681438e-06,3.087751492796240e-14
	-9.231713918896783e-24,-1.577319889901016e-13
	-3.295954589681438e-06,3.087751492796240e-14
9		1.230268770812381e+00,0.000000000000000e+00
	-3.295954589681438e-02,3.159674464482829e-10
	1.000000000000000e+00,0.000000000000000e+00
	0.000000000000000e+00,0.000000000000000e+00
	3.295954589681438e-06,-3.159674464482829e-14
	9.666791191915667e-24,1.614060389920760e-13
	3.295954572026731e-14,-4.151567370190860e-15
	-3.295954622640984e-06,-1.256577269770568e-13
	-3.295954589681438e-06,3.159674464482829e-14
	-9.666791191915667e-24,-1.614060389920760e-13
	-3.295954589681438e-06,3.159674464482829e-14
10		1.258925411794167e+00,0.000000000000000e+00
	-3.295954589681438e-02,3.233272737393724e-10
	1.000000000000000e+00,0.000000000000000e+00
	0.000000000000000e+00,0.000000000000000e+00
	3.295954589681438e-06,-3.233272737393724e-14
	1.012237302510188e-23,1.651656686123855e-13
	3.295954572026731e-14,-4.248269796897767e-15
	-3.295954622640984e-06,-1.285846714415505e-13
	-3.295954589681438e-06,3.233272737393724e-14
	-1.012237302510188e-23,-1.651656686123855e-13
	-3.295954589681438e-06,3.233272737393724e-14
11		1.288249551693134e+00,0.000000000000000e+00
	-3.295954589681438e-02,3.308585334307409e-10
	1.000000000000000e+00,0.000000000000000e+00
	0.000000000000000e+00,0.000000000000000e+00
	3.295954589681438e-06,-3.308585334307410e-14
	1.059942576860452e-23,1.690128712564194e-13
	3.295954572026731e-14,-4.347224712483484e-15
	-3.295954622640984e-06,-1.315797932008618e-13
	-3.295954589681438e-06,3.308585334307409e-14
	-1.059942576860452e-23,-1.690128712564194e-13
	-3.295954589681438e-06,3.308585334307409e-14
12		1.318256738556407e+00,0.000000000000000e+00
	-3.295954589681438e-02,3.385652186959648e-10
	1.000000000000000e+00,0.000000000000000e+00
	0.000000000000000e+00,0.000000000000000e+00
	3.295954589681438e-06,-3.385652186959649e-14
	1.109896131525214e-23,1.729496867619433e-13
	3.295954572026731e-14,-4.448484584154029e-15
	-3.295954622640984e-06,-1.346446803081927e-13
	-3.295954589681438e-06,3.385652186959648e-14
	-1.109896131525214e-23,-1.729496867619433e-13
	-3.295954589681438e-06,3.385652186959648e-14
13		1.348962882591653e+00,0.000000000000000e+00
	-3.295954589681438e-02,3.464514157215818e-10
	1.000000000000000e+00,0.000000000000000e+00
	0.000000000000000e+00,0.000000000000000e+00
	3.295954589681438e-06,-3.464514157215818e-14
	1.162203924691308e-23,1.769782024806481e-13
	3.295954572026731e-14,-4.552103101233804e-15
	-3.295954622640984e-06,-1.377809578072561e-13
	-3.295954589681438e-06,3.464514157215818e-14
	-1.162203924691308e-23,-1.769782024806481e-13
	-3.295954589681438e-06,3.464514157215818e-14
14		1.380384264602885e+00,0.000000000000000e+00
	-3.295954589681438e-02,3.545213058736409e-10
	1.000000000000000e+00,0.000000000000000e+00
	0.000000000000000e+00,0.000000000000000e+00
	3.295954589681438e-06,-3.545213058736409e-14
	1.216976908201067e-23,1.811005543848916e-13
	3.295954572026731e-14,-4.658135203632052e-15
	-3.295954622640984e-06,-1.409902885938954e-13
	-3.295954589681438e-06,3.545213058736409e-14
	-1.216976908201067e-23,-1.811005543848916e-13
	-3.295954589681438e-06,3.545213058736409e-14
15		1.412537544622754e+00,0.000000000000000e+00
	-3.295954589681438e-02,3.627791679147185e-10
	1.000000000000000e+00,0.000000000000000e+00
	0.000000000000000e+00,0.000000000000000e+00
	3.295954589681438e-06,-3.627791679147185e-14
	1.274331262896055e-23,1.853189282002191e-13
	3.295954572026731e-14,-4.766637110972958e-15
	-3.295954622640984e-06,-1.442743742977743e-13
	-3.295954589681438e-06,3.627791679147185e-14
	-1.274331262896055e-23,-1.853189282002192e-13
	-3.295954589681438e-06,3.627791679147185e-14
16		1.445439770745927e+00,0.000000000000000e+00
	-3.295954589681438e-02,3.712293802725744e-10
	1.000000000000000e+00,0.000000000000000e+00
	0.000000000000000e+00,0.000000000000000e+00
	3.295954589681438e-06,-3.712293802725744e-14
	1.334388645052215e-23,1.896355605642644e-13
	3.295954572026731e-14,-4.877666352403987e-15
	-3.295954622640984e-06,-1.476349561846030e-13
	-3.295954589681438e-06,3.712293802725744e-14
	-1.334388645052215e-23,-1.896355605642644e-13
	-3.295954589681438e-06,3.712293802725744e-14
17		1.479108388168207e+00,0.000000000000000e+00
	-3.295954589681438e-02,3.798764233616526e-10
	1.000000000000000e+00,0.000000000000000e+00
	0.000000000000000e+00,0.000000000000000e+00
	3.295954589681438e-06,-3.798764233616525e-14
	1.397276444429133e-23,1.940527402126443e-13
	3.295954572026731e-14,-4.991281797098622e-15
	-3.295954622640984e-06,-1.510738160793804e-13
	-3.295954589681438e-06,3.798764233616525e-14
	-1.397276444429133e-23,-1.940527402126443e-13
	-3.295954589681438e-06,3.798764233616525e-14
18		1.513561248436208e+00,0.000000000000000e+00
	-3.295954589681438e-02,3.887248819586560e-10
	1.000000000000000e+00,0.000000000000000e+00
	0.000000000000000e+00,0.000000000000000e+00
	3.295954589681438e-06,-3.887248819586560e-14
	1.463128054480802e-23,1.985728091924766e-13
	3.295954572026731e-14,-5.107543685469523e-15
	-3.295954622640984e-06,-1.545927773111415e-13
	-3.295954589681438e-06,3.887248819586560e-14
	-1.463128054480802e-23,-1.985728091924767e-13
	-3.295954589681438e-06,3.887248819586560e-14
19		1.548816618912481e+00,0.000000000000000e+00
	-3.295954589681438e-02,3.977794476334560e-10
	1.000000000000000e+00,0.000000000000000e+00
	0.000000000000000e+00,0.000000000000000e+00
	3.295954589681438e-06,-3.977794476334561e-14
	1.532083155301019e-23,2.031981641041646e-13
	3.295954572026731e-14,-5.226513661108766e-15
	-3.295954622640984e-06,-1.581937056797102e-13
	-3.295954589681438e-06,3.977794476334560e-14
	-1.532083155301019e-23,-2.031981641041647e-13
	-3.295954589681438e-06,3.977794476334560e-14
20		1.584893192461113e+00,0.000000000000000e+00
	-3.295954589681438e-02,4.070449212366247e-10
	1.000000000000000e+00,0.000000000000000e+00
	0.000000000000000e+00,0.000000000000000e+00
	3.295954589681438e-06,-4.070449212366248e-14
	1.604288009903597e-23,2.079312573721063e-13
	3.295954572026731e-14,-5.348254803472227e-15
	-3.295954622640984e-06,-1.618785104449716e-13
	-3.295954589681438e-06,4.070449212366248e-14
	-1.604288009903597e-23,-2.079312573721064e-13
	-3.295954589681438e-06,4.070449212366248e-14
21		1.621810097358929e+00,0.000000000000000e+00
	-3.295954589681438e-02,4.165262154449096e-10
	1.000000000000000e+00,0.000000000000000e+00
	0.000000000000000e+00,0.000000000000000e+00
	3.295954589681438e-06,-4.165262154449096e-14
	1.679895774465820e-23,2.127745985450023e-13
	3.295954572026731e-14,-5.472831661325046e-15
	-3.295954622640984e-06,-1.656491453391863e-13
	-3.295954589681438e-06,4.165262154449096e-14
	-1.679895774465820e-23,-2.127745985450023e-13
	-3.295954589681438e-06,4.165262154449096e-14
22		1.659586907437560e+00,0.000000000000000e+00
	-3.295954589681438e-02,4.262283573659997e-10
	1.000000000000000e+00,0.000000000000000e+00
	0.000000000000000e+00,0.000000000000000e+00
	3.295954589681438e-06,-4.262283573659997e-14
	1.759066823193237e-23,2.177307556264516e-13
	3.295954572026731e-14,-5.600310286966112e-15
	-3.295954622640984e-06,-1.695076096028855e-13
	-3.295954589681438e-06,4.262283573659997e-14
	-1.759066823193237e-23,-2.177307556264516e-13
	-3.295954589681438e-06,4.262283573659997e-14
23		1.698243652461743e+00,0.000000000000000e+00
	-3.295954589681438e-02,4.361564912039644e-10
	1.000000000000000e+00,0.000000000000000e+00
	0.000000000000000e+00,0.000000000000000e+00
	3.295954589681438e-06,-4.361564912039645e-14
	1.841969088494842e-23,2.228023564365413e-13
	3.295954572026731e-14,-5.730758271250258e-15
	-3.295954622640984e-06,-1.734559490448946e-13
	-3.295954589681438e-06,4.361564912039644e-14
	-1.841969088494842e-23,-2.228023564365413e-13
	-3.295954589681438e-06,4.361564912039644e-14
24		1.737800828749374e+00,0.000000000000000e+00
	-3.295954589681438e-02,4.463158809867790e-10
	1.000000000000000e+00,0.000000000000000e+00
	0.000000000000000e+00,0.000000000000000e+00
	3.295954589681438e-06,-4.463158809867791e-14
	1.928778417190242e-23,2.279920900051514e-13
	3.295954572026731e-14,-5.864244779425358e-15
	-3.295954622640984e-06,-1.774962571270482e-13
	-3.295954589681438e-06,4.463158809867790e-14
	-1.928778417190242e-23,-2.279920900051515e-13
	-3.295954589681438e-06,4.463158809867790e-14
25		1.778279410038922e+00,0.000000000000000e+00
	-3.295954589681438e-02,4.567119133573821e-10
	1.000000000000000e+00,0.000000000000000e+00
	0.000000000000000e+00,0.000000000000000e+00
	3.295954589681438e-06,-4.567119133573822e-14
	2.019678943504330e-23,2.333027079977144e-13
	3.295954572026731e-14,-6.000840587804911e-15
	-3.295954622640984e-06,-1.816306760741713e-13
	-3.295954589681438e-06,4.567119133573821e-14
	-2.019678943504330e-23,-2.333027079977145e-13
	-3.295954589681438e-06,4.567119133573821e-14
26		1.819700858609982e+00,0.000000000000000e+00
	-3.295954589681438e-02,4.673501004297441e-10
	1.000000000000000e+00,0.000000000000000e+00
	0.000000000000000e+00,0.000000000000000e+00
	3.295954589681438e-06,-4.673501004297440e-14
	2.114863479640664e-23,2.387370261741842e-13
	3.295954572026731e-14,-6.140618121294762e-15
	-3.295954622640984e-06,-1.858613980099151e-13
	-3.295954589681438e-06,4.673501004297441e-14
	-2.114863479640664e-23,-2.387370261741842e-13
	-3.295954589681438e-06,4.673501004297441e-14
27		1.862087136662866e+00,0.000000000000000e+00
	-3.295954589681438e-02,4.782360827114636e-10
	1.000000000000000e+00,0.000000000000000e+00
	0.000000000000000e+00,0.000000000000000e+00
	3.295954589681438e-06,-4.782360827114637e-14
	2.214533924762001e-23,2.442979258819897e-13
	3.295954572026731e-14,-6.283651491793071e-15
	-3.295954622640984e-06,-1.901906661190502e-13
	-3.295954589681438e-06,4.782360827114637e-14
	-2.214533924762001e-23,-2.442979258819897e-13
	-3.295954589681438e-06,4.782360827114637e-14
28		1.905460717963246e+00,0.000000000000000e+00
	-3.295954589681438e-02,4.893756320944398e-10
	1.000000000000000e+00,0.000000000000000e+00
	0.000000000000000e+00,0.000000000000000e+00
	3.295954589681438e-06,-4.893756320944398e-14
	2.318901693245493e-23,2.499883555837631e-13
	3.295954572026731e-14,-6.430016537486409e-15
	-3.295954622640984e-06,-1.946207758368327e-13
	-3.295954589681438e-06,4.893756320944398e-14
	-2.318901693245493e-23,-2.499883555837632e-13
	-3.295954589681438e-06,4.893756320944398e-14
29		1.949844599758044e+00,0.000000000000000e+00
	-3.295954589681438e-02,5.007746549152049e-10
	1.000000000000000e+00,0.000000000000000e+00
	0.000000000000000e+00,0.000000000000000e+00
	3.295954589681438e-06,-5.007746549152049e-14
	2.428188163120927e-23,2.558113324206541e-13
	3.295954572026731e-14,-6.579790863059208e-15
	-3.295954622640984e-06,-1.991540760660744e-13
	-3.295954589681438e-06,5.007746549152049e-14
	-2.428188163120927e-23,-2.558113324206541e-13
	-3.295954589681438e-06,5.007746549152049e-14
30		1.995262314968878e+00,0.000000000000000e+00
	-3.295954589681438e-02,5.124391950865419e-10
	1.000000000000000e+00,0.000000000000000e+00
	0.000000000000000e+00,0.000000000000000e+00
	3.295954589681438e-06,-5.124391950865420e-14
	2.542625145643196e-23,2.617699438120579e-13
	3.295954572026731e-14,-6.733053880841424e-15
	-3.295954622640984e-06,-2.037929704225622e-13
	-3.295954589681438e-06,5.124391950865419e-14
	-2.542625145643196e-23,-2.617699438120579e-13
	-3.295954589681438e-06,5.124391950865419e-14
31		2.041737944669527e+00,0.000000000000000e+00
	-3.295954589681438e-02,5.243754373020485e-10
	1.000000000000000e+00,0.000000000000000e+00
	0.000000000000000e+00,0.000000000000000e+00
	3.295954589681438e-06,-5.243754373020486e-14
	2.662455376995066e-23,2.678673490926055e-13
	3.295954572026731e-14,-6.889886852913777e-15
	-3.295954622640984e-06,-2.085399185094869e-13
	-3.295954589681438e-06,5.243754373020486e-14
	-2.662455376995066e-23,-2.678673490926056e-13
	-3.295954589681438e-06,5.243754373020486e-14
32		2.089296130854037e+00,0.000000000000000e+00
	-3.295954589681438e-02,5.365897103153423e-10
	1.000000000000000e+00,0.000000000000000e+00
	0.000000000000000e+00,0.000000000000000e+00
	3.295954589681438e-06,-5.365897103153423e-14
	2.787933033163154e-23,2.741067811872857e-13
	3.295954572026731e-14,-7.050372934193957e-15
	-3.295954622640984e-06,-2.133974372215575e-13
	-3.295954589681438e-06,5.365897103153423e-14
	-2.787933033163154e-23,-2.741067811872857e-13
	-3.295954589681438e-06,5.365897103153423e-14
33		2.137962089502230e+00,0.000000000000000e+00
	-3.295954589681438e-02,5.490884902956497e-10
	1.000000000000000e+00,0.000000000000000e+00
	0.000000000000000e+00,0.000000000000000e+00
	3.295954589681438e-06,-5.490884902956497e-14
	2.919324269079274e-23,2.804915483255835e-13
	3.295954572026731e-14,-7.214597216526605e-15
	-3.295954622640984e-06,-2.183681020794919e-13
	-3.295954589681438e-06,5.490884902956497e-14
	-2.919324269079274e-23,-2.804915483255835e-13
	-3.295954589681438e-06,5.490884902956497e-14
34		2.187761623949550e+00,0.000000000000000e+00
	-3.295954589681438e-02,5.618784042615571e-10
	1.000000000000000e+00,0.000000000000000e+00
	0.000000000000000e+00,0.000000000000000e+00
	3.295954589681438e-06,-5.618784042615571e-14
	3.056907783170733e-23,2.870250357955480e-13
	3.295954572026731e-14,-7.382646773799846e-15
	-3.295954622640984e-06,-2.234545485955924e-13
	-3.295954589681438e-06,5.618784042615571e-14
	-3.056907783170733e-23,-2.870250357955481e-13
	-3.295954589681438e-06,5.618784042615571e-14
35		2.238721138568337e+00,0.000000000000000e+00
	-3.295954589681438e-02,5.749662335947439e-10
	1.000000000000000e+00,0.000000000000000e+00
	0.000000000000000e+00,0.000000000000000e+00
	3.295954589681438e-06,-5.749662335947440e-14
	3.200975408517063e-23,2.937107077387169e-13
	3.295954572026731e-14,-7.554610708113564e-15
	-3.295954622640984e-06,-2.286594736711290e-13
	-3.295954589681438e-06,5.749662335947439e-14
	-3.200975408517063e-23,-2.937107077387170e-13
	-3.295954589681438e-06,5.749662335947439e-14
36		2.290867652767770e+00,0.000000000000000e+00
	-3.295954589681438e-02,5.883589176355606e-10
	1.000000000000000e+00,0.000000000000000e+00
	0.000000000000000e+00,0.000000000000000e+00
	3.295954589681438e-06,-5.883589176355607e-14
	3.351832731867108e-23,3.005521089868497e-13
	3.295954572026731e-14,-7.730580197021702e-15
	-3.295954622640984e-06,-2.339856370262719e-13
	-3.295954589681438e-06,5.883589176355607e-14
	-3.351832731867108e-23,-3.005521089868497e-13
	-3.295954589681438e-06,5.883589176355607e-14
37		2.344228815319919e+00,0.000000000000000e+00
	-3.295954589681438e-02,6.020635573623586e-10
	1.000000000000000e+00,0.000000000000000e+00
	0.000000000000000e+00,0.000000000000000e+00
	3.295954589681438e-06,-6.020635573623586e-14
	3.509799741829484e-23,3.075528669414447e-13
	3.295954572026731e-14,-7.910648541876682e-15
	-3.295954622640984e-06,-2.394358626633321e-13
	-3.295954589681438e-06,6.020635573623586e-14
	-3.509799741829484e-23,-3.075528669414447e-13
	-3.295954589681438e-06,6.020635573623586e-14
38		2.398832919019488e+00,0.000000000000000e+00
	-3.295954589681438e-02,6.160874191565234e-10
	1.000000000000000e+00,0.000000000000000e+00
