LTspice 24.0.9 for Windows
Circuit: * GA CMOS Amp | W=2.7451632070646824e-05 L=9.126126403555542e-07 Vbias=1.1314010273048736
Start Time: Mon Sep  8 18:45:11 2025
solver = Normal
Maximum thread count: 2
tnom = 27
temp = 27
method = modified trap
AsciiRawFile = 1
Instance "m1": Length shorter than recommended for a level 3 MOSFET.
Direct Newton iteration for .op point succeeded.
Semiconductor Device Operating Points:
                        --- MOSFET Transistors ---
Name:          m1
Model:        n_1u
Id:          1.66e-04
Vgs:         1.13e+00
Vds:         1.36e-01
Vbs:         0.00e+00
Vth:         8.02e-01
Vdsat:       2.90e-01
Gm:          5.25e-04
Gds:         7.90e-04
Gmb:         1.24e-04
Cbd:         0.00e+00
Cbs:         0.00e+00
Cgsov:       5.49e-15
Cgdov:       5.49e-15
Cgbov:       7.13e-17
Cgs:         1.98e-14
Cgd:         1.29e-14
Cgb:         0.00e+00



gain_db: MAX(db(v(out)/v(g)))=(28.8405dB,99.5481°) FROM 1 TO 1e+09
gain_lin: MAX(mag(v(out)/v(g)))=(-4.50374dB,0°) FROM 1 TO 1e+09

Measurement "fc" FAIL'ed

Total elapsed time: 0.587 seconds.

