Title: * GA CMOS Amp | W=4.7869765993765926e-05 L=1e-06 Vbias=0.9541151601875031
Date: Mon Sep  8 18:43:43 2025
Plotname: AC Analysis
Flags: complex forward log
No. Variables: 11
No. Points:          901
Offset:    0.0000000000000000e+00
Command: Linear Technology Corporation LTspice
Variables:
	0	frequency	frequency
	1	V(out)	voltage
	2	V(g)	voltage
	3	V(vdd)	voltage
	4	Id(M1)	device_current
	5	Ig(M1)	device_current
	6	Ib(M1)	device_current
	7	Is(M1)	device_current
	8	I(Rload)	device_current
	9	I(Vg)	device_current
	10	I(Vdd)	device_current
Values:
0		1.000000000000000e+00,0.000000000000000e+00
	-9.095188845023751e+00,2.243097136881254e-08
	1.000000000000000e+00,0.000000000000000e+00
	0.000000000000000e+00,0.000000000000000e+00
	9.095188845023750e-04,-2.243097136881254e-12
	4.161681483801392e-21,2.194363473743907e-12
	9.095188794813747e-12,9.422816259643141e-14
	-9.095188935975638e-04,-4.549449945908463e-14
	-9.095188845023751e-04,2.243097136881254e-12
	-4.161681483801392e-21,-2.194363473743907e-12
	-9.095188845023751e-04,2.243097136881254e-12
1		1.023292992280754e+00,0.000000000000000e+00
	-9.095188845023751e+00,2.295345581175611e-08
	1.000000000000000e+00,0.000000000000000e+00
	0.000000000000000e+00,0.000000000000000e+00
	9.095188845023750e-04,-2.295345581175611e-12
	4.357815489583265e-21,2.245476765198993e-12
	9.095188794813747e-12,9.642301846041937e-14
	-9.095188935975638e-04,-4.655420248380183e-14
	-9.095188845023751e-04,2.295345581175611e-12
	-4.357815489583265e-21,-2.245476765198993e-12
	-9.095188845023751e-04,2.295345581175611e-12
2		1.047128548050899e+00,0.000000000000000e+00
	-9.095188845023751e+00,2.348811048079597e-08
	1.000000000000000e+00,0.000000000000000e+00
	0.000000000000000e+00,0.000000000000000e+00
	9.095188845023750e-04,-2.348811048079597e-12
	4.563193006281043e-21,2.297780638157386e-12
	9.095188794813747e-12,9.866899908510578e-14
	-9.095188935975638e-04,-4.763858916289383e-14
	-9.095188845023751e-04,2.348811048079597e-12
	-4.563193006281043e-21,-2.297780638157386e-12
	-9.095188845023751e-04,2.348811048079597e-12
3		1.071519305237606e+00,0.000000000000000e+00
	-9.095188845023751e+00,2.403521885691465e-08
	1.000000000000000e+00,0.000000000000000e+00
	0.000000000000000e+00,0.000000000000000e+00
	9.095188845023750e-04,-2.403521885691465e-12
	4.778249667143087e-21,2.351302824824851e-12
	9.095188794813747e-12,1.009672953191450e-13
	-9.095188935975638e-04,-4.874823445253108e-14
	-9.095188845023751e-04,2.403521885691465e-12
	-4.778249667143087e-21,-2.351302824824851e-12
	-9.095188845023751e-04,2.403521885691465e-12
4		1.096478196143185e+00,0.000000000000000e+00
	-9.095188845023751e+00,2.459507102421499e-08
	1.000000000000000e+00,0.000000000000000e+00
	0.000000000000000e+00,0.000000000000000e+00
	9.095188845023750e-04,-2.459507102421499e-12
	5.003441636180233e-21,2.406071703373212e-12
	9.095188794813747e-12,1.033191257496218e-13
	-9.095188935975638e-04,-4.988372670133428e-14
	-9.095188845023751e-04,2.459507102421500e-12
	-5.003441636180233e-21,-2.406071703373212e-12
	-9.095188845023751e-04,2.459507102421500e-12
5		1.122018454301963e+00,0.000000000000000e+00
	-9.095188845023751e+00,2.516796382372664e-08
	1.000000000000000e+00,0.000000000000000e+00
	0.000000000000000e+00,0.000000000000000e+00
	9.095188845023750e-04,-2.516796382372664e-12
	5.239246575750827e-21,2.462116312986825e-12
	9.095188794813747e-12,1.057257373481624e-13
	-9.095188935975638e-04,-5.104566796232372e-14
	-9.095188845023751e-04,2.516796382372664e-12
	-5.239246575750827e-21,-2.462116312986825e-12
	-9.095188845023751e-04,2.516796382372664e-12
6		1.148153621496882e+00,0.000000000000000e+00
	-9.095188845023751e+00,2.575420101079500e-08
	1.000000000000000e+00,0.000000000000000e+00
	0.000000000000000e+00,0.000000000000000e+00
	9.095188845023750e-04,-2.575420101079500e-12
	5.486164659746608e-21,2.519466369259546e-12
	9.095188794813747e-12,1.081884061320903e-13
	-9.095188935975638e-04,-5.223467431213605e-14
	-9.095188845023751e-04,2.575420101079500e-12
	-5.486164659746608e-21,-2.519466369259546e-12
	-9.095188845023751e-04,2.575420101079500e-12
7		1.174897554939529e+00,0.000000000000000e+00
	-9.095188845023751e+00,2.635409341613643e-08
	1.000000000000000e+00,0.000000000000000e+00
	0.000000000000000e+00,0.000000000000000e+00
	9.095188845023750e-04,-2.635409341613644e-12
	5.744719634528622e-21,2.578152279950328e-12
	9.095188794813747e-12,1.107084378409918e-13
	-9.095188935975638e-04,-5.345137617767621e-14
	-9.095188845023751e-04,2.635409341613644e-12
	-5.744719634528622e-21,-2.578152279950328e-12
	-9.095188845023751e-04,2.635409341613644e-12
8		1.202264434617413e+00,0.000000000000000e+00
	-9.095188845023751e+00,2.696795911064477e-08
	1.000000000000000e+00,0.000000000000000e+00
	0.000000000000000e+00,0.000000000000000e+00
	9.095188845023750e-04,-2.696795911064478e-12
	6.015459929863452e-21,2.638205161105820e-12
	9.095188794813747e-12,1.132871686290365e-13
	-9.095188935975638e-04,-5.469641867037863e-14
	-9.095188845023751e-04,2.696795911064478e-12
	-6.015459929863452e-21,-2.638205161105820e-12
	-9.095188845023751e-04,2.696795911064478e-12
9		1.230268770812381e+00,0.000000000000000e+00
	-9.095188845023751e+00,2.759612357403672e-08
	1.000000000000000e+00,0.000000000000000e+00
	0.000000000000000e+00,0.000000000000000e+00
	9.095188845023750e-04,-2.759612357403672e-12
	6.298959822216282e-21,2.699656853558504e-12
	9.095188794813747e-12,1.159259657734210e-13
	-9.095188935975638e-04,-5.597046192825263e-14
	-9.095188845023751e-04,2.759612357403672e-12
	-6.298959822216282e-21,-2.699656853558504e-12
	-9.095188845023751e-04,2.759612357403672e-12
10		1.258925411794167e+00,0.000000000000000e+00
	-9.095188845023751e+00,2.823891986742549e-08
	1.000000000000000e+00,0.000000000000000e+00
	0.000000000000000e+00,0.000000000000000e+00
	9.095188845023750e-04,-2.823891986742550e-12
	6.595820652868288e-21,2.762539939809126e-12
	9.095188794813747e-12,1.186262283993211e-13
	-9.095188935975638e-04,-5.727418146589773e-14
	-9.095188845023751e-04,2.823891986742549e-12
	-6.595820652868288e-21,-2.762539939809126e-12
	-9.095188845023751e-04,2.823891986742549e-12
11		1.288249551693134e+00,0.000000000000000e+00
	-9.095188845023751e+00,2.889668880991427e-08
	1.000000000000000e+00,0.000000000000000e+00
	0.000000000000000e+00,0.000000000000000e+00
	9.095188845023750e-04,-2.889668880991427e-12
	6.906672103442108e-21,2.826887761302376e-12
	9.095188794813747e-12,1.213893882217205e-13
	-9.095188935975638e-04,-5.860826853266930e-14
	-9.095188845023751e-04,2.889668880991427e-12
	-6.906672103442108e-21,-2.826887761302376e-12
	-9.095188845023751e-04,2.889668880991427e-12
12		1.318256738556407e+00,0.000000000000000e+00
	-9.095188845023751e+00,2.956977915930296e-08
	1.000000000000000e+00,0.000000000000000e+00
	0.000000000000000e+00,0.000000000000000e+00
	9.095188845023750e-04,-2.956977915930296e-12
	7.232173531540986e-21,2.892734436104950e-12
	9.095188794813747e-12,1.242169103045345e-13
	-9.095188935975638e-04,-5.997343047918920e-14
	-9.095188845023751e-04,2.956977915930296e-12
	-7.232173531540986e-21,-2.892734436104950e-12
	-9.095188845023751e-04,2.956977915930296e-12
13		1.348962882591653e+00,0.000000000000000e+00
	-9.095188845023751e+00,3.025854779700420e-08
	1.000000000000000e+00,0.000000000000000e+00
	0.000000000000000e+00,0.000000000000000e+00
	9.095188845023750e-04,-3.025854779700421e-12
	7.573015369334658e-21,2.960114876995415e-12
	9.095188794813747e-12,1.271102938373970e-13
	-9.095188935975638e-04,-6.137039113239124e-14
	-9.095188845023751e-04,3.025854779700420e-12
	-7.573015369334658e-21,-2.960114876995415e-12
	-9.095188845023751e-04,3.025854779700420e-12
14		1.380384264602885e+00,0.000000000000000e+00
	-9.095188845023751e+00,3.096335991726666e-08
	1.000000000000000e+00,0.000000000000000e+00
	0.000000000000000e+00,0.000000000000000e+00
	9.095188845023750e-04,-3.096335991726666e-12
	7.929920588058550e-21,3.029064809975414e-12
	9.095188794813747e-12,1.300710729305568e-13
	-9.095188935975638e-04,-6.279989117930485e-14
	-9.095188845023751e-04,3.096335991726666e-12
	-7.929920588058550e-21,-3.029064809975414e-12
	-9.095188845023751e-04,3.096335991726666e-12
15		1.412537544622754e+00,0.000000000000000e+00
	-9.095188845023751e+00,3.168458922080576e-08
	1.000000000000000e+00,0.000000000000000e+00
	0.000000000000000e+00,0.000000000000000e+00
	9.095188845023750e-04,-3.168458922080576e-12
	8.303646231532683e-21,3.099620793212076e-12
	9.095188794813747e-12,1.331008174282770e-13
	-9.095188935975638e-04,-6.426268855977660e-14
	-9.095188845023751e-04,3.168458922080576e-12
	-8.303646231532683e-21,-3.099620793212076e-12
	-9.095188845023751e-04,3.168458922080576e-12
16		1.445439770745927e+00,0.000000000000000e+00
	-9.095188845023751e+00,3.242261811294485e-08
	1.000000000000000e+00,0.000000000000000e+00
	0.000000000000000e+00,0.000000000000000e+00
	9.095188845023750e-04,-3.242261811294485e-12
	8.694985021953139e-21,3.171820236421629e-12
	9.095188794813747e-12,1.362011337411964e-13
	-9.095188935975638e-04,-6.575955886834012e-14
	-9.095188845023751e-04,3.242261811294485e-12
	-8.694985021953139e-21,-3.171820236421629e-12
	-9.095188845023751e-04,3.242261811294485e-12
17		1.479108388168207e+00,0.000000000000000e+00
	-9.095188845023751e+00,3.317783790637151e-08
	1.000000000000000e+00,0.000000000000000e+00
	0.000000000000000e+00,0.000000000000000e+00
	9.095188845023750e-04,-3.317783790637151e-12
	9.104767041362110e-21,3.245701420704537e-12
	9.095188794813747e-12,1.393736656980601e-13
	-9.095188935975638e-04,-6.729129576544621e-14
	-9.095188845023751e-04,3.317783790637152e-12
	-9.104767041362110e-21,-3.245701420704537e-12
	-9.095188845023751e-04,3.317783790637152e-12
18		1.513561248436208e+00,0.000000000000000e+00
	-9.095188845023751e+00,3.395064902861674e-08
	1.000000000000000e+00,0.000000000000000e+00
	0.000000000000000e+00,0.000000000000000e+00
	9.095188845023750e-04,-3.395064902861674e-12
	9.533861492363191e-21,3.321303518842641e-12
	9.095188794813747e-12,1.426200954173056e-13
	-9.095188935975638e-04,-6.885871139827271e-14
	-9.095188845023751e-04,3.395064902861674e-12
	-9.533861492363191e-21,-3.321303518842641e-12
	-9.095188845023751e-04,3.395064902861674e-12
19		1.548816618912481e+00,0.000000000000000e+00
	-9.095188845023751e+00,3.474146123436689e-08
	1.000000000000000e+00,0.000000000000000e+00
	0.000000000000000e+00,0.000000000000000e+00
	9.095188845023750e-04,-3.474146123436690e-12
	9.983178541816648e-21,3.398666616069085e-12
	9.095188794813747e-12,1.459421441989405e-13
	-9.095188935975638e-04,-7.046263683133524e-14
	-9.095188845023751e-04,3.474146123436690e-12
	-9.983178541816648e-21,-3.398666616069085e-12
	-9.095188845023751e-04,3.474146123436690e-12
20		1.584893192461113e+00,0.000000000000000e+00
	-9.095188845023751e+00,3.555069382272113e-08
	1.000000000000000e+00,0.000000000000000e+00
	0.000000000000000e+00,0.000000000000000e+00
	9.095188845023750e-04,-3.555069382272112e-12
	1.045367125142536e-20,3.477831731322038e-12
	9.095188794813747e-12,1.493415734372037e-13
	-9.095188935975638e-04,-7.210392248712921e-14
	-9.095188845023751e-04,3.555069382272113e-12
	-1.045367125142536e-20,-3.477831731322038e-12
	-9.095188845023751e-04,3.555069382272113e-12
21		1.621810097358929e+00,0.000000000000000e+00
	-9.095188845023751e+00,3.637877585950922e-08
	1.000000000000000e+00,0.000000000000000e+00
	0.000000000000000e+00,0.000000000000000e+00
	9.095188845023750e-04,-3.637877585950921e-12
	1.094633759930647e-20,3.558840838993484e-12
	9.095188794813747e-12,1.528201855544711e-13
	-9.095188935975638e-04,-7.378343859703393e-14
	-9.095188845023751e-04,3.637877585950922e-12
	-1.094633759930647e-20,-3.558840838993484e-12
	-9.095188845023751e-04,3.637877585950922e-12
22		1.659586907437560e+00,0.000000000000000e+00
	-9.095188845023751e+00,3.722614640478806e-08
	1.000000000000000e+00,0.000000000000000e+00
	0.000000000000000e+00,0.000000000000000e+00
	9.095188845023750e-04,-3.722614640478805e-12
	1.146222259683676e-20,3.641736891184592e-12
	9.095188794813747e-12,1.563798249569358e-13
	-9.095188935975638e-04,-7.550207566272214e-14
	-9.095188845023751e-04,3.722614640478806e-12
	-1.146222259683676e-20,-3.641736891184592e-12
	-9.095188845023751e-04,3.722614640478806e-12
23		1.698243652461743e+00,0.000000000000000e+00
	-9.095188845023751e+00,3.809325474563701e-08
	1.000000000000000e+00,0.000000000000000e+00
	0.000000000000000e+00,0.000000000000000e+00
	9.095188845023750e-04,-3.809325474563700e-12
	1.200242050526188e-20,3.726563840479492e-12
	9.095188794813747e-12,1.600223790125232e-13
	-9.095188935975638e-04,-7.726074492831479e-14
	-9.095188845023751e-04,3.809325474563701e-12
	-1.200242050526188e-20,-3.726563840479492e-12
	-9.095188845023751e-04,3.809325474563701e-12
24		1.737800828749374e+00,0.000000000000000e+00
	-9.095188845023751e+00,3.898056063437592e-08
	1.000000000000000e+00,0.000000000000000e+00
	0.000000000000000e+00,0.000000000000000e+00
	9.095188845023750e-04,-3.898056063437592e-12
	1.256807715677121e-20,3.813366663249518e-12
	9.095188794813747e-12,1.637497790516097e-13
	-9.095188935975638e-04,-7.906037886353515e-14
	-9.095188845023751e-04,3.898056063437592e-12
	-1.256807715677121e-20,-3.813366663249518e-12
	-9.095188845023751e-04,3.898056063437592e-12
25		1.778279410038922e+00,0.000000000000000e+00
	-9.095188845023751e+00,3.988853453233190e-08
	1.000000000000000e+00,0.000000000000000e+00
	0.000000000000000e+00,0.000000000000000e+00
	9.095188845023750e-04,-3.988853453233191e-12
	1.316039238496152e-20,3.902191383500274e-12
	9.095188794813747e-12,1.675640013910339e-13
	-9.095188935975638e-04,-8.090193165811709e-14
	-9.095188845023751e-04,3.988853453233191e-12
	-1.316039238496152e-20,-3.902191383500274e-12
	-9.095188845023751e-04,3.988853453233191e-12
26		1.819700858609982e+00,0.000000000000000e+00
	-9.095188845023751e+00,4.081765785928411e-08
	1.000000000000000e+00,0.000000000000000e+00
	0.000000000000000e+00,0.000000000000000e+00
	9.095188845023750e-04,-4.081765785928411e-12
	1.378062256984487e-20,3.993085097274171e-12
	9.095188794813747e-12,1.714670683819676e-13
	-9.095188935975638e-04,-8.278637972772789e-14
	-9.095188845023751e-04,4.081765785928411e-12
	-1.378062256984487e-20,-3.993085097274171e-12
	-9.095188845023751e-04,4.081765785928411e-12
27		1.862087136662866e+00,0.000000000000000e+00
	-9.095188845023751e+00,4.176842324871887e-08
	1.000000000000000e+00,0.000000000000000e+00
	0.000000000000000e+00,0.000000000000000e+00
	9.095188845023750e-04,-4.176842324871887e-12
	1.443008330279911e-20,4.086095997621372e-12
	9.095188794813747e-12,1.754610494821930e-13
	-9.095188935975638e-04,-8.471472223167726e-14
	-9.095188845023751e-04,4.176842324871887e-12
	-1.443008330279911e-20,-4.086095997621372e-12
	-9.095188845023751e-04,4.176842324871887e-12
28		1.905460717963246e+00,0.000000000000000e+00
	-9.095188845023751e+00,4.274133480903055e-08
	1.000000000000000e+00,0.000000000000000e+00
	0.000000000000000e+00,0.000000000000000e+00
	9.095188845023750e-04,-4.274133480903056e-12
	1.511015217711356e-20,4.181273400152387e-12
	9.095188794813747e-12,1.795480623533540e-13
	-9.095188935975638e-04,-8.668798160268596e-14
	-9.095188845023751e-04,4.274133480903055e-12
	-1.511015217711356e-20,-4.181273400152387e-12
	-9.095188845023751e-04,4.274133480903055e-12
29		1.949844599758044e+00,0.000000000000000e+00
	-9.095188845023751e+00,4.373690839080643e-08
	1.000000000000000e+00,0.000000000000000e+00
	0.000000000000000e+00,0.000000000000000e+00
	9.095188845023750e-04,-4.373690839080644e-12
	1.582227171004906e-20,4.278667769185860e-12
	9.095188794813747e-12,1.837302739837749e-13
	-9.095188935975638e-04,-8.870720408899149e-14
	-9.095188845023751e-04,4.373690839080643e-12
	-1.582227171004906e-20,-4.278667769185860e-12
	-9.095188845023751e-04,4.373690839080643e-12
30		1.995262314968878e+00,0.000000000000000e+00
	-9.095188845023751e+00,4.475567186033752e-08
	1.000000000000000e+00,0.000000000000000e+00
	0.000000000000000e+00,0.000000000000000e+00
	9.095188845023750e-04,-4.475567186033754e-12
	1.656795240261049e-20,4.378330744505417e-12
	9.095188794813747e-12,1.880099018374206e-13
	-9.095188935975638e-04,-9.077346030908371e-14
	-9.095188845023751e-04,4.475567186033753e-12
	-1.656795240261049e-20,-4.378330744505417e-12
	-9.095188845023751e-04,4.475567186033753e-12
31		2.041737944669527e+00,0.000000000000000e+00
	-9.095188845023751e+00,4.579816537950032e-08
	1.000000000000000e+00,0.000000000000000e+00
	0.000000000000000e+00,0.000000000000000e+00
	9.095188845023750e-04,-4.579816537950033e-12
	1.734877594352193e-20,4.480315168739769e-12
	9.095188794813747e-12,1.923892150296238e-13
	-9.095188935975638e-04,-9.288784581936051e-14
	-9.095188845023751e-04,4.579816537950032e-12
	-1.734877594352193e-20,-4.480315168739769e-12
	-9.095188845023751e-04,4.579816537950032e-12
32		2.089296130854037e+00,0.000000000000000e+00
	-9.095188845023751e+00,4.686494169215773e-08
	1.000000000000000e+00,0.000000000000000e+00
	0.000000000000000e+00,0.000000000000000e+00
	9.095188845023750e-04,-4.686494169215774e-12
	1.816639856420050e-20,4.584675115380571e-12
	9.095188794813747e-12,1.968705355302092e-13
	-9.095188935975638e-04,-9.505148169500664e-14
	-9.095188845023751e-04,4.686494169215773e-12
	-1.816639856420050e-20,-4.584675115380571e-12
	-9.095188845023751e-04,4.686494169215773e-12
33		2.137962089502230e+00,0.000000000000000e+00
	-9.095188845023751e+00,4.795656641723116e-08
	1.000000000000000e+00,0.000000000000000e+00
	0.000000000000000e+00,0.000000000000000e+00
	9.095188845023750e-04,-4.795656641723116e-12
	1.902255455184522e-20,4.691465917452895e-12
	9.095188794813747e-12,2.014562393946233e-13
	-9.095188935975638e-04,-9.726551512440284e-14
	-9.095188845023751e-04,4.795656641723116e-12
	-1.902255455184522e-20,-4.691465917452895e-12
	-9.095188845023751e-04,4.795656641723116e-12
34		2.187761623949550e+00,0.000000000000000e+00
	-9.095188845023751e+00,4.907361834859919e-08
	1.000000000000000e+00,0.000000000000000e+00
	0.000000000000000e+00,0.000000000000000e+00
	9.095188845023750e-04,-4.907361834859919e-12
	1.991905992809271e-20,4.800744196853547e-12
	9.095188794813747e-12,2.061487580237513e-13
	-9.095188935975638e-04,-9.953112001737905e-14
	-9.095188845023751e-04,4.907361834859919e-12
	-1.991905992809271e-20,-4.800744196853547e-12
	-9.095188845023751e-04,4.907361834859919e-12
35		2.238721138568337e+00,0.000000000000000e+00
	-9.095188845023751e+00,5.021668976198178e-08
	1.000000000000000e+00,0.000000000000000e+00
	0.000000000000000e+00,0.000000000000000e+00
	9.095188845023750e-04,-5.021668976198178e-12
	2.085781630104257e-20,4.912567894372731e-12
	9.095188794813747e-12,2.109505794530852e-13
	-9.095188935975638e-04,-1.018494976276385e-13
	-9.095188845023751e-04,5.021668976198178e-12
	-2.085781630104257e-20,-4.912567894372731e-12
	-9.095188845023751e-04,5.021668976198178e-12
36		2.290867652767770e+00,0.000000000000000e+00
	-9.095188845023751e+00,5.138638672897265e-08
	1.000000000000000e+00,0.000000000000000e+00
	0.000000000000000e+00,0.000000000000000e+00
	9.095188845023750e-04,-5.138638672897265e-12
	2.184081489882309e-20,5.026996300415036e-12
	9.095188794813747e-12,2.158642496719073e-13
	-9.095188935975638e-04,-1.042218771896782e-13
	-9.095188845023751e-04,5.138638672897265e-12
	-2.184081489882309e-20,-5.026996300415036e-12
	-9.095188845023751e-04,5.138638672897265e-12
37		2.344228815319919e+00,0.000000000000000e+00
	-9.095188845023751e+00,5.258332943838645e-08
	1.000000000000000e+00,0.000000000000000e+00
	0.000000000000000e+00,0.000000000000000e+00
	9.095188845023750e-04,-5.258332943838645e-12
	2.287014079325307e-20,5.144090086435983e-12
	9.095188794813747e-12,2.208923739732056e-13
	-9.095188935975638e-04,-1.066495165705428e-13
	-9.095188845023751e-04,5.258332943838645e-12
	-2.287014079325307e-20,-5.144090086435983e-12
	-9.095188845023751e-04,5.258332943838645e-12
38		2.398832919019488e+00,0.000000000000000e+00
	-9.095188845023751e+00,5.380815252509114e-08
	1.000000000000000e+00,0.000000000000000e+00
	0.000000000000000e+00,0.000000000000000e+00
