LTspice 24.0.9 for Windows
Circuit: * GA CMOS Amp | W=1e-06 L=7.609369547209052e-07 Vbias=1.4847995362313269
Start Time: Sat Sep  6 22:16:09 2025
solver = Normal
Maximum thread count: 2
tnom = 27
temp = 27
method = modified trap
AsciiRawFile = 1
Direct Newton iteration for .op point succeeded.
Semiconductor Device Operating Points:
                        --- BSIM4 MOSFETS ---
Name:      m1
Model:      n
Id:      5.62e-05
Vgs:     1.48e+00
Vds:     1.24e+00
Vbs:     0.00e+00
Vth:     2.40e-01
Vdsat:   8.59e-01
Gm:      2.73e-05
Gds:     4.44e-06
Gmb      3.06e-05
Cbd:     3.83e-16
Cbs:     8.00e-16


.measure op idd find i(vdd)
  Error: FIND can not be evaluated over an interval.

gain_db: MAX(db(v(out)/v(g)))=(29.4681dB,113.451°) FROM 1 TO 1e+09
gain_lin: MAX(mag(v(out)/v(g)))=(-4.5325dB,0°) FROM 1 TO 1e+09

Measurement "fc" FAIL'ed

Total elapsed time: 2.524 seconds.

