Title: * GA CMOS Amp | W=1e-06 L=8.053501148922855e-07 Vbias=1.4914675125577017
Date: Sat Sep  6 22:15:42 2025
Plotname: AC Analysis
Flags: complex forward log
No. Variables: 13
No. Points:          901
Offset:    0.0000000000000000e+00
Command: Linear Technology Corporation LTspice
Variables:
	0	frequency	frequency
	1	V(out)	voltage
	2	V(g)	voltage
	3	V(vdd)	voltage
	4	V(m1#dbody)	voltage
	5	V(m1#sbody)	voltage
	6	Id(M1)	device_current
	7	Ig(M1)	device_current
	8	Ib(M1)	device_current
	9	Is(M1)	device_current
	10	I(Rload)	device_current
	11	I(Vg)	device_current
	12	I(Vdd)	device_current
Values:
0		1.000000000000000e+00,0.000000000000000e+00
	-2.401403469521910e-01,5.881564521191855e-10
	1.000000000000000e+00,0.000000000000000e+00
	0.000000000000000e+00,0.000000000000000e+00
	2.763236298566833e-05,5.362441718792901e-14
	2.763236478672005e-05,5.794345701049075e-14
	2.401403469521911e-05,-5.881564521191856e-14
	1.632593245132785e-05,1.775329320952673e-13
	-1.473726111065011e-05,-3.061565779374040e-14
	-2.560270603589685e-05,-8.810162908960835e-14
	-2.401403469521910e-05,5.881564521191855e-14
	-1.632593245126657e-05,-1.775329320952673e-13
	-2.401403469521910e-05,5.881564521191855e-14
1		1.023292992280754e+00,0.000000000000000e+00
	-2.401403469521910e-01,6.018563758182734e-10
	1.000000000000000e+00,0.000000000000000e+00
	0.000000000000000e+00,0.000000000000000e+00
	2.763236298566833e-05,5.487349032354738e-14
	2.763236478672005e-05,5.929313350735632e-14
	2.401403469521911e-05,-6.018563758182734e-14
	1.632593245132785e-05,1.816682053121420e-13
	-1.473726111065011e-05,-3.132878807440021e-14
	-2.560270603589685e-05,-9.015377965591446e-14
	-2.401403469521910e-05,6.018563758182734e-14
	-1.632593245126657e-05,-1.816682053121420e-13
	-2.401403469521910e-05,6.018563758182734e-14
2		1.047128548050899e+00,0.000000000000000e+00
	-2.401403469521910e-01,6.158754117343309e-10
	1.000000000000000e+00,0.000000000000000e+00
	0.000000000000000e+00,0.000000000000000e+00
	2.763236298566833e-05,5.615165811007177e-14
	2.763236478672005e-05,6.067424800844488e-14
	2.401403469521911e-05,-6.158754117343313e-14
	1.632593245132785e-05,1.858998014161362e-13
	-1.473726111065011e-05,-3.205852929318258e-14
	-2.560270603589685e-05,-9.225373094952046e-14
	-2.401403469521910e-05,6.158754117343310e-14
	-1.632593245126657e-05,-1.858998014161362e-13
	-2.401403469521910e-05,6.158754117343310e-14
3		1.071519305237606e+00,0.000000000000000e+00
	-2.401403469521910e-01,6.302209929457651e-10
	1.000000000000000e+00,0.000000000000000e+00
	0.000000000000000e+00,0.000000000000000e+00
	2.763236298566833e-05,5.745959824898122e-14
	2.763236478672005e-05,6.208753279894614e-14
	2.401403469521911e-05,-6.302209929457653e-14
	1.632593245132785e-05,1.902299640555160e-13
	-1.473726111065011e-05,-3.280526836854101e-14
	-2.560270603589685e-05,-9.440259639239842e-14
	-2.401403469521910e-05,6.302209929457652e-14
	-1.632593245126657e-05,-1.902299640555160e-13
	-2.401403469521910e-05,6.302209929457652e-14
4		1.096478196143185e+00,0.000000000000000e+00
	-2.401403469521910e-01,6.449007256696200e-10
	1.000000000000000e+00,0.000000000000000e+00
	0.000000000000000e+00,0.000000000000000e+00
	2.763236298566833e-05,5.879800422744996e-14
	2.763236478672005e-05,6.353373722116303e-14
	2.401403469521911e-05,-6.449007256696198e-14
	1.632593245132785e-05,1.946609891398292e-13
	-1.473726111065011e-05,-3.356940123141750e-14
	-2.560270603589685e-05,-9.660151534144968e-14
	-2.401403469521910e-05,6.449007256696200e-14
	-1.632593245126657e-05,-1.946609891398292e-13
	-2.401403469521910e-05,6.449007256696200e-14
5		1.122018454301963e+00,0.000000000000000e+00
	-2.401403469521910e-01,6.599223932944952e-10
	1.000000000000000e+00,0.000000000000000e+00
	0.000000000000000e+00,0.000000000000000e+00
	2.763236298566833e-05,6.016758568604371e-14
	2.763236478672005e-05,6.501362807182308e-14
	2.401403469521911e-05,-6.599223932944952e-14
	1.632593245132785e-05,1.991952260572272e-13
	-1.473726111065011e-05,-3.435133303517045e-14
	-2.560270603589685e-05,-9.885165369260724e-14
	-2.401403469521910e-05,6.599223932944952e-14
	-1.632593245126657e-05,-1.991952260572272e-13
	-2.401403469521910e-05,6.599223932944952e-14
6		1.148153621496882e+00,0.000000000000000e+00
	-2.401403469521910e-01,6.752939605074006e-10
	1.000000000000000e+00,0.000000000000000e+00
	0.000000000000000e+00,0.000000000000000e+00
	2.763236298566833e-05,6.156906879498035e-14
	2.763236478672005e-05,6.652799000864389e-14
	2.401403469521911e-05,-6.752939605074007e-14
	1.632593245132785e-05,2.038350789201413e-13
	-1.473726111065011e-05,-3.515147837039230e-14
	-2.560270603589685e-05,-1.011542044990089e-13
	-2.401403469521910e-05,6.752939605074006e-14
	-1.632593245126657e-05,-2.038350789201413e-13
	-2.401403469521910e-05,6.752939605074006e-14
7		1.174897554939529e+00,0.000000000000000e+00
	-2.401403469521910e-01,6.910235775167391e-10
	1.000000000000000e+00,0.000000000000000e+00
	0.000000000000000e+00,0.000000000000000e+00
	2.763236298566833e-05,6.300319663915505e-14
	2.763236478672005e-05,6.807762596636930e-14
	2.401403469521911e-05,-6.910235775167393e-14
	1.632593245132785e-05,2.085830078399750e-13
	-1.473726111065011e-05,-3.597026148473094e-14
	-2.560270603589685e-05,-1.035103886035701e-13
	-2.401403469521910e-05,6.910235775167390e-14
	-1.632593245126657e-05,-2.085830078399750e-13
	-2.401403469521910e-05,6.910235775167390e-14
8		1.202264434617413e+00,0.000000000000000e+00
	-2.401403469521910e-01,7.071195843736559e-10
	1.000000000000000e+00,0.000000000000000e+00
	0.000000000000000e+00,0.000000000000000e+00
	2.763236298566833e-05,6.447072961213373e-14
	2.763236478672005e-05,6.966335758249601e-14
	2.401403469521911e-05,-7.071195843736560e-14
	1.632593245132785e-05,2.134415302314881e-13
	-1.473726111065011e-05,-3.680811650783149e-14
	-2.560270603589685e-05,-1.059214552862910e-13
	-2.401403469521910e-05,7.071195843736559e-14
	-1.632593245126657e-05,-2.134415302314881e-13
	-2.401403469521910e-05,7.071195843736559e-14
9		1.230268770812381e+00,0.000000000000000e+00
	-2.401403469521910e-01,7.235905153940413e-10
	1.000000000000000e+00,0.000000000000000e+00
	0.000000000000000e+00,0.000000000000000e+00
	2.763236298566833e-05,6.597244581932373e-14
	2.763236478672005e-05,7.128602563291649e-14
	2.401403469521911e-05,-7.235905153940415e-14
	1.632593245132785e-05,2.184132221475624e-13
	-1.473726111065011e-05,-3.766548768151749e-14
	-2.560270603589685e-05,-1.083886829266408e-13
	-2.401403469521910e-05,7.235905153940414e-14
	-1.632593245126657e-05,-2.184132221475624e-13
	-2.401403469521910e-05,7.235905153940414e-14
10		1.258925411794167e+00,0.000000000000000e+00
	-2.401403469521910e-01,7.404451036835418e-10
	1.000000000000000e+00,0.000000000000000e+00
	0.000000000000000e+00,0.000000000000000e+00
	2.763236298566833e-05,6.750914149053570e-14
	2.763236478672005e-05,7.294649047770965e-14
	2.401403469521911e-05,-7.404451036835420e-14
	1.632593245132785e-05,2.235007196450602e-13
	-1.473726111065011e-05,-3.854282959533392e-14
	-2.560270603589685e-05,-1.109133796813721e-13
	-2.401403469521910e-05,7.404451036835418e-14
	-1.632593245126657e-05,-2.235007196450602e-13
	-2.401403469521910e-05,7.404451036835418e-14
11		1.288249551693134e+00,0.000000000000000e+00
	-2.401403469521910e-01,7.576922857679647e-10
	1.000000000000000e+00,0.000000000000000e+00
	0.000000000000000e+00,0.000000000000000e+00
	2.763236298566833e-05,6.908163140215510e-14
	2.763236478672005e-05,7.464563251731506e-14
	2.401403469521911e-05,-7.576922857679649e-14
	1.632593245132785e-05,2.287067201824956e-13
	-1.473726111065011e-05,-3.944060742757646e-14
	-2.560270603589685e-05,-1.134968841781227e-13
	-2.401403469521910e-05,7.576922857679647e-14
	-1.632593245126657e-05,-2.287067201824956e-13
	-2.401403469521910e-05,7.576922857679647e-14
12		1.318256738556407e+00,0.000000000000000e+00
	-2.401403469521910e-01,7.753412063315448e-10
	1.000000000000000e+00,0.000000000000000e+00
	0.000000000000000e+00,0.000000000000000e+00
	2.763236298566833e-05,7.069074930914740e-14
	2.763236478672005e-05,7.638435265933290e-14
	2.401403469521911e-05,-7.753412063315451e-14
	1.632593245132785e-05,2.340339840502631e-13
	-1.473726111065011e-05,-4.035929719193526e-14
	-2.560270603589685e-05,-1.161405662251733e-13
	-2.401403469521910e-05,7.753412063315448e-14
	-1.632593245126657e-05,-2.340339840502631e-13
	-2.401403469521910e-05,7.753412063315448e-14
13		1.348962882591653e+00,0.000000000000000e+00
	-2.401403469521910e-01,7.934012230655760e-10
	1.000000000000000e+00,0.000000000000000e+00
	0.000000000000000e+00,0.000000000000000e+00
	2.763236298566833e-05,7.233734838712609e-14
	2.763236478672005e-05,7.816357279619714e-14
	2.401403469521911e-05,-7.934012230655763e-14
	1.632593245132785e-05,2.394853358341801e-13
	-1.473726111065011e-05,-4.129938598988367e-14
	-2.560270603589685e-05,-1.188458275377388e-13
	-2.401403469521910e-05,7.934012230655760e-14
	-1.632593245126657e-05,-2.394853358341801e-13
	-2.401403469521910e-05,7.934012230655760e-14
14		1.380384264602885e+00,0.000000000000000e+00
	-2.401403469521910e-01,8.118819116299836e-10
	1.000000000000000e+00,0.000000000000000e+00
	0.000000000000000e+00,0.000000000000000e+00
	2.763236298566833e-05,7.402230168471765e-14
	2.763236478672005e-05,7.998423629397512e-14
	2.401403469521911e-05,-8.118819116299837e-14
	1.632593245132785e-05,2.450636659131194e-13
	-1.473726111065011e-05,-4.226137226894591e-14
	-2.560270603589685e-05,-1.216141024811751e-13
	-2.401403469521910e-05,8.118819116299836e-14
	-1.632593245126657e-05,-2.450636659131194e-13
	-2.401403469521910e-05,8.118819116299836e-14
15		1.412537544622754e+00,0.000000000000000e+00
	-2.401403469521910e-01,8.307930707304647e-10
	1.000000000000000e+00,0.000000000000000e+00
	0.000000000000000e+00,0.000000000000000e+00
	2.763236298566833e-05,7.574650258646345e-14
	2.763236478672005e-05,8.184730849255273e-14
	2.401403469521911e-05,-8.307930707304647e-14
	1.632593245132785e-05,2.507719319915270e-13
	-1.473726111065011e-05,-4.324576608698056e-14
	-2.560270603589685e-05,-1.244468588315000e-13
	-2.401403469521910e-05,8.307930707304648e-14
	-1.632593245126657e-05,-2.507719319915270e-13
	-2.401403469521910e-05,8.307930707304648e-14
16		1.445439770745927e+00,0.000000000000000e+00
	-2.401403469521910e-01,8.501447273138931e-10
	1.000000000000000e+00,0.000000000000000e+00
	0.000000000000000e+00,0.000000000000000e+00
	2.763236298566833e-05,7.751086528650404e-14
	2.763236478672005e-05,8.375377721747021e-14
	2.401403469521911e-05,-8.501447273138933e-14
	1.632593245132785e-05,2.566131606676354e-13
	-1.473726111065011e-05,-4.425308938261987e-14
	-2.560270603589685e-05,-1.273455985536262e-13
	-2.401403469521910e-05,8.501447273138931e-14
	-1.632593245126657e-05,-2.566131606676354e-13
	-2.401403469521910e-05,8.501447273138931e-14
17		1.479108388168207e+00,0.000000000000000e+00
	-2.401403469521910e-01,8.699471418847395e-10
	1.000000000000000e+00,0.000000000000000e+00
	0.000000000000000e+00,0.000000000000000e+00
	2.763236298566833e-05,7.931632527329712e-14
	2.763236478672005e-05,8.570465330368073e-14
	2.401403469521911e-05,-8.699471418847395e-14
	1.632593245132785e-05,2.625904490382065e-13
	-1.473726111065011e-05,-4.528387625200875e-14
	-2.560270603589685e-05,-1.303118585977238e-13
	-2.401403469521910e-05,8.699471418847395e-14
	-1.632593245126657e-05,-2.625904490382065e-13
	-2.401403469521910e-05,8.699471418847395e-14
18		1.513561248436208e+00,0.000000000000000e+00
	-2.401403469521910e-01,8.902108139453251e-10
	1.000000000000000e+00,0.000000000000000e+00
	0.000000000000000e+00,0.000000000000000e+00
	2.763236298566833e-05,8.116383982562583e-14
	2.763236478672005e-05,8.770097113150809e-14
	2.401403469521911e-05,-8.902108139453251e-14
	1.632593245132785e-05,2.687069663406532e-13
	-1.473726111065011e-05,-4.633867323198943e-14
	-2.560270603589685e-05,-1.333472117141313e-13
	-2.401403469521910e-05,8.902108139453251e-14
	-1.632593245126657e-05,-2.687069663406532e-13
	-2.401403469521910e-05,8.902108139453251e-14
19		1.548816618912481e+00,0.000000000000000e+00
	-2.401403469521910e-01,9.109464875627972e-10
	1.000000000000000e+00,0.000000000000000e+00
	0.000000000000000e+00,0.000000000000000e+00
	2.763236298566833e-05,8.305438852016048e-14
	2.763236478672005e-05,8.974378917508895e-14
	2.401403469521911e-05,-9.109464875627973e-14
	1.632593245132785e-05,2.749659556334108e-13
	-1.473726111065011e-05,-4.741803958988253e-14
	-2.560270603589685e-05,-1.364532672872486e-13
	-2.401403469521910e-05,9.109464875627973e-14
	-1.632593245126657e-05,-2.749659556334109e-13
	-2.401403469521910e-05,9.109464875627973e-14
20		1.584893192461113e+00,0.000000000000000e+00
	-2.401403469521910e-01,9.321651570657774e-10
	1.000000000000000e+00,0.000000000000000e+00
	0.000000000000000e+00,0.000000000000000e+00
	2.763236298566833e-05,8.498897375084335e-14
	2.763236478672005e-05,9.183419056358991e-14
	2.401403469521911e-05,-9.321651570657776e-14
	1.632593245132785e-05,2.813707355154501e-13
	-1.473726111065011e-05,-4.852254762001817e-14
	-2.560270603589685e-05,-1.396316721888542e-13
	-2.401403469521910e-05,9.321651570657775e-14
	-1.632593245126657e-05,-2.813707355154501e-13
	-2.401403469521910e-05,9.321651570657775e-14
21		1.621810097358929e+00,0.000000000000000e+00
	-2.401403469521910e-01,9.538780728736986e-10
	1.000000000000000e+00,0.000000000000000e+00
	0.000000000000000e+00,0.000000000000000e+00
	2.763236298566833e-05,8.696862126037095e-14
	2.763236478672005e-05,9.397328365549692e-14
	2.401403469521911e-05,-9.538780728736986e-14
	1.632593245132785e-05,2.879247018858416e-13
	-1.473726111065011e-05,-4.965278294717377e-14
	-2.560270603589685e-05,-1.428841116512980e-13
	-2.401403469521910e-05,9.538780728736986e-14
	-1.632593245126657e-05,-2.879247018858416e-13
	-2.401403469521910e-05,9.538780728736986e-14
22		1.659586907437560e+00,0.000000000000000e+00
	-2.401403469521910e-01,9.760967474619261e-10
	1.000000000000000e+00,0.000000000000000e+00
	0.000000000000000e+00,0.000000000000000e+00
	2.763236298566833e-05,8.899438068405661e-14
	2.763236478672005e-05,9.616220262628154e-14
	2.401403469521911e-05,-9.760967474619264e-14
	1.632593245132785e-05,2.946313297443070e-13
	-1.473726111065011e-05,-5.080934483708026e-14
	-2.560270603589685e-05,-1.462123101610341e-13
	-2.401403469521910e-05,9.760967474619261e-14
	-1.632593245126657e-05,-2.946313297443070e-13
	-2.401403469521910e-05,9.760967474619261e-14
23		1.698243652461743e+00,0.000000000000000e+00
	-2.401403469521910e-01,9.988329614658262e-10
	1.000000000000000e+00,0.000000000000000e+00
	0.000000000000000e+00,0.000000000000000e+00
	2.763236298566833e-05,9.106732610636083e-14
	2.763236478672005e-05,9.840210806975582e-14
	2.401403469521911e-05,-9.988329614658262e-14
	1.632593245132785e-05,3.014941750337094e-13
	-1.473726111065011e-05,-5.199284651416054e-14
	-2.560270603589685e-05,-1.496180323729663e-13
	-2.401403469521910e-05,9.988329614658262e-14
	-1.632593245126657e-05,-3.014941750337094e-13
	-2.401403469521910e-05,9.988329614658262e-14
24		1.737800828749374e+00,0.000000000000000e+00
	-2.401403469521910e-01,1.022098769927012e-09
	1.000000000000000e+00,0.000000000000000e+00
	0.000000000000000e+00,0.000000000000000e+00
	2.763236298566833e-05,9.318855663038520e-14
	2.763236478672005e-05,1.006941876134346e-13
	2.401403469521911e-05,-1.022098769927012e-13
	1.632593245132785e-05,3.085168765254619e-13
	-1.473726111065011e-05,-5.320391548666931e-14
	-2.560270603589685e-05,-1.531030840460913e-13
	-2.401403469521910e-05,1.022098769927012e-13
	-1.632593245126657e-05,-3.085168765254619e-13
	-2.401403469521910e-05,1.022098769927012e-13
25		1.778279410038922e+00,0.000000000000000e+00
	-2.401403469521910e-01,1.045906508685090e-09
	1.000000000000000e+00,0.000000000000000e+00
	0.000000000000000e+00,0.000000000000000e+00
	2.763236298566833e-05,9.535919696063141e-14
	2.763236478672005e-05,1.030396565482311e-13
	2.401403469521911e-05,-1.045906508685091e-13
	1.632593245132785e-05,3.157031577488519e-13
	-1.473726111065011e-05,-5.444319387940619e-14
	-2.560270603589685e-05,-1.566693130009366e-13
	-2.401403469521910e-05,1.045906508685091e-13
	-1.632593245126657e-05,-3.157031577488518e-13
	-2.401403469521910e-05,1.045906508685091e-13
26		1.819700858609982e+00,0.000000000000000e+00
	-2.401403469521910e-01,1.070268800918283e-09
	1.000000000000000e+00,0.000000000000000e+00
	0.000000000000000e+00,0.000000000000000e+00
	2.763236298566833e-05,9.758039799933426e-14
	2.763236478672005e-05,1.054397584728206e-13
	2.401403469521911e-05,-1.070268800918283e-13
	1.632593245132785e-05,3.230568289653056e-13
	-1.473726111065011e-05,-5.571133877417880e-14
	-2.560270603589685e-05,-1.603186100992985e-13
	-2.401403469521910e-05,1.070268800918283e-13
	-1.632593245126657e-05,-3.230568289653056e-13
	-2.401403469521910e-05,1.070268800918283e-13
27		1.862087136662866e+00,0.000000000000000e+00
	-2.401403469521910e-01,1.095198563836404e-09
	1.000000000000000e+00,0.000000000000000e+00
	0.000000000000000e+00,0.000000000000000e+00
	2.763236298566833e-05,9.985333745668569e-14
	2.763236478672005e-05,1.078957659530126e-13
	2.401403469521911e-05,-1.095198563836404e-13
	1.632593245132785e-05,3.305817891886393e-13
	-1.473726111065011e-05,-5.700902255819622e-14
	-2.560270603589685e-05,-1.640529102468027e-13
	-2.401403469521910e-05,1.095198563836404e-13
	-1.632593245126657e-05,-3.305817891886394e-13
	-2.401403469521910e-05,1.095198563836404e-13
28		1.905460717963246e+00,0.000000000000000e+00
	-2.401403469521910e-01,1.120709015529738e-09
	1.000000000000000e+00,0.000000000000000e+00
	0.000000000000000e+00,0.000000000000000e+00
	2.763236298566833e-05,1.021792204752718e-13
	2.763236478672005e-05,1.104089811964821e-13
	2.401403469521911e-05,-1.120709015529739e-13
	1.632593245132785e-05,3.382820282523682e-13
	-1.473726111065011e-05,-5.833693328057760e-14
	-2.560270603589685e-05,-1.678741934188167e-13
	-2.401403469521910e-05,1.120709015529739e-13
	-1.632593245126657e-05,-3.382820282523683e-13
	-2.401403469521910e-05,1.120709015529739e-13
29		1.949844599758044e+00,0.000000000000000e+00
	-2.401403469521910e-01,1.146813681977444e-09
	1.000000000000000e+00,0.000000000000000e+00
	0.000000000000000e+00,0.000000000000000e+00
	2.763236298566833e-05,1.045592802690558e-13
	2.763236478672005e-05,1.129807367432177e-13
	2.401403469521911e-05,-1.146813681977444e-13
	1.632593245132785e-05,3.461616289251684e-13
	-1.473726111065011e-05,-5.969577501716498e-14
	-2.560270603589685e-05,-1.717844857102590e-13
	-2.401403469521910e-05,1.146813681977445e-13
	-1.632593245126657e-05,-3.461616289251684e-13
	-2.401403469521910e-05,1.146813681977445e-13
30		1.995262314968878e+00,0.000000000000000e+00
	-2.401403469521910e-01,1.173526404219208e-09
	1.000000000000000e+00,0.000000000000000e+00
	0.000000000000000e+00,0.000000000000000e+00
	2.763236298566833e-05,1.069947787772440e-13
	2.763236478672005e-05,1.156123961720514e-13
	2.401403469521911e-05,-1.173526404219208e-13
	1.632593245132785e-05,3.542247690756156e-13
	-1.473726111065011e-05,-6.108626824383342e-14
	-2.560270603589685e-05,-1.757858604098614e-13
	-2.401403469521910e-05,1.173526404219208e-13
	-1.632593245126657e-05,-3.542247690756157e-13
	-2.401403469521910e-05,1.173526404219208e-13
31		2.041737944669527e+00,0.000000000000000e+00
	-2.401403469521910e-01,1.200861345693947e-09
	1.000000000000000e+00,0.000000000000000e+00
	0.000000000000000e+00,0.000000000000000e+00
	2.763236298566833e-05,1.094870073333834e-13
	2.763236478672005e-05,1.183053548236465e-13
	2.401403469521911e-05,-1.200861345693947e-13
	1.632593245132785e-05,3.624757238873458e-13
	-1.473726111065011e-05,-6.250915021849712e-14
	-2.560270603589685e-05,-1.798804390994540e-13
	-2.401403469521910e-05,1.200861345693947e-13
	-1.632593245126657e-05,-3.624757238873458e-13
	-2.401403469521910e-05,1.200861345693947e-13
32		2.089296130854037e+00,0.000000000000000e+00
	-2.401403469521910e-01,1.228832999749452e-09
	1.000000000000000e+00,0.000000000000000e+00
	0.000000000000000e+00,0.000000000000000e+00
	2.763236298566833e-05,1.120372873500428e-13
