LTspice 24.0.9 for Windows
Circuit: * GA CMOS Amp | W=1.190211598460775e-05 L=4.911088355020516e-07 Vbias=1.0538289290441465
Start Time: Sat Sep  6 22:08:47 2025
solver = Normal
Maximum thread count: 2
tnom = 27
temp = 27
method = modified trap
AsciiRawFile = 1
Direct Newton iteration for .op point succeeded.
Semiconductor Device Operating Points:
                        --- BSIM4 MOSFETS ---
Name:      m1
Model:      n
Id:      1.72e-04
Vgs:     1.05e+00
Vds:     7.77e-02
Vbs:     0.00e+00
Vth:     2.51e-01
Vdsat:   5.75e-01
Gm:      1.75e-05
Gds:     2.06e-03
Gmb      1.12e-04
Cbd:     5.81e-15
Cbs:     9.52e-15


.measure op idd find i(vdd)
  Error: FIND can not be evaluated over an interval.

gain_db: MAX(db(v(out)/v(g)))=(34.0756dB,147.334°) FROM 1 TO 1e+09
gain_lin: MAX(mag(v(out)/v(g)))=(-9.83623dB,0°) FROM 1 TO 1e+09

Measurement "fc" FAIL'ed

Total elapsed time: 0.709 seconds.

