Title: * GA CMOS Amp | W=3.12970075955448e-05 L=7.383393561944278e-07 Vbias=0.6605884221512063
Date: Sat Sep  6 22:35:14 2025
Plotname: AC Analysis
Flags: complex forward log
No. Variables: 13
No. Points:          901
Offset:    0.0000000000000000e+00
Command: Linear Technology Corporation LTspice
Variables:
	0	frequency	frequency
	1	V(out)	voltage
	2	V(g)	voltage
	3	V(vdd)	voltage
	4	V(m1#dbody)	voltage
	5	V(m1#sbody)	voltage
	6	Id(M1)	device_current
	7	Ig(M1)	device_current
	8	Ib(M1)	device_current
	9	Is(M1)	device_current
	10	I(Rload)	device_current
	11	I(Vg)	device_current
	12	I(Vdd)	device_current
Values:
0		1.000000000000000e+00,0.000000000000000e+00
	-5.667105231364876e-02,8.849694193988079e-10
	1.000000000000000e+00,0.000000000000000e+00
	0.000000000000000e+00,0.000000000000000e+00
	2.233939460342985e-08,-2.737606821377374e-14
	2.233984304174655e-08,1.374145918625984e-14
	5.667105231364799e-06,-8.849694193987995e-14
	1.861758906692527e-06,5.742028970097602e-12
	-1.191455306872221e-08,-4.587620284006671e-15
	-7.516949584988604e-06,-5.648944407873715e-12
	-5.667105231364876e-06,8.849694193988079e-14
	-1.861758906679389e-06,-5.742028970097602e-12
	-5.667105231364876e-06,8.849694193988079e-14
1		1.023292992280754e+00,0.000000000000000e+00
	-5.667105231364876e-02,9.055830052535677e-10
	1.000000000000000e+00,0.000000000000000e+00
	0.000000000000000e+00,0.000000000000000e+00
	2.233939460342968e-08,-2.801373875935462e-14
	2.233984304174641e-08,1.406153888901165e-14
	5.667105231364799e-06,-9.055830052535642e-14
	1.861758906692527e-06,5.875778006573951e-12
	-1.191455306872213e-08,-4.694479687869043e-15
	-7.516949584988604e-06,-5.780525226360725e-12
	-5.667105231364876e-06,9.055830052535677e-14
	-1.861758906679389e-06,-5.875778006573953e-12
	-5.667105231364876e-06,9.055830052535677e-14
2		1.047128548050899e+00,0.000000000000000e+00
	-5.667105231364876e-02,9.266767432045212e-10
	1.000000000000000e+00,0.000000000000000e+00
	0.000000000000000e+00,0.000000000000000e+00
	2.233939460342949e-08,-2.866626256003124e-14
	2.233984304174626e-08,1.438907420580901e-14
	5.667105231364799e-06,-9.266767432045186e-14
	1.861758906692527e-06,6.012642458324502e-12
	-1.191455306872205e-08,-4.803828167000785e-15
	-7.516949584988604e-06,-5.915170955837050e-12
	-5.667105231364876e-06,9.266767432045212e-14
	-1.861758906679389e-06,-6.012642458324503e-12
	-5.667105231364876e-06,9.266767432045212e-14
3		1.071519305237606e+00,0.000000000000000e+00
	-5.667105231364876e-02,9.482618174307384e-10
	1.000000000000000e+00,0.000000000000000e+00
	0.000000000000000e+00,0.000000000000000e+00
	2.233939460342930e-08,-2.933398559256018e-14
	2.233984304174610e-08,1.472423880021204e-14
	5.667105231364799e-06,-9.482618174307349e-14
	1.861758906692527e-06,6.152694892693190e-12
	-1.191455306872197e-08,-4.915723699412762e-15
	-7.516949584988604e-06,-6.052952987250704e-12
	-5.667105231364876e-06,9.482618174307384e-14
	-1.861758906679389e-06,-6.152694892693190e-12
	-5.667105231364876e-06,9.482618174307384e-14
4		1.096478196143185e+00,0.000000000000000e+00
	-5.667105231364876e-02,9.703496726242864e-10
	1.000000000000000e+00,0.000000000000000e+00
	0.000000000000000e+00,0.000000000000000e+00
	2.233939460342911e-08,-3.001726189253142e-14
	2.233984304174594e-08,1.506721038092537e-14
	5.667105231364799e-06,-9.703496726242743e-14
	1.861758906692527e-06,6.296009567334525e-12
	-1.191455306872188e-08,-5.030225613597509e-15
	-7.516949584988604e-06,-6.193944374458500e-12
	-5.667105231364876e-06,9.703496726242864e-14
	-1.861758906679389e-06,-6.296009567334525e-12
	-5.667105231364876e-06,9.703496726242864e-14
5		1.122018454301963e+00,0.000000000000000e+00
	-5.667105231364876e-02,9.929520200583562e-10
	1.000000000000000e+00,0.000000000000000e+00
	0.000000000000000e+00,0.000000000000000e+00
	2.233939460342890e-08,-3.071645374208359e-14
	2.233984304174576e-08,1.541817079602070e-14
	5.667105231364799e-06,-9.929520200583528e-14
	1.861758906692527e-06,6.442662469586003e-12
	-1.191455306872178e-08,-5.147394619985455e-15
	-7.516949584988604e-06,-6.338219872960183e-12
	-5.667105231364876e-06,9.929520200583562e-14
	-1.861758906679389e-06,-6.442662469586005e-12
	-5.667105231364876e-06,9.929520200583562e-14
6		1.148153621496882e+00,0.000000000000000e+00
	-5.667105231364876e-02,1.016080843796735e-09
	1.000000000000000e+00,0.000000000000000e+00
	0.000000000000000e+00,0.000000000000000e+00
	2.233939460342868e-08,-3.143193186198999e-14
	2.233984304174558e-08,1.577730612935587e-14
	5.667105231364799e-06,-1.016080843796721e-13
	1.861758906692527e-06,6.592731356757574e-12
	-1.191455306872168e-08,-5.267292843134827e-15
	-7.516949584988604e-06,-6.485855979534767e-12
	-5.667105231364876e-06,1.016080843796735e-13
	-1.861758906679389e-06,-6.592731356757576e-12
	-5.667105231364876e-06,1.016080843796735e-13
7		1.174897554939529e+00,0.000000000000000e+00
	-5.667105231364876e-02,1.039748407047914e-09
	1.000000000000000e+00,0.000000000000000e+00
	0.000000000000000e+00,0.000000000000000e+00
	2.233939460342845e-08,-3.216407560822052e-14
	2.233984304174539e-08,1.614480679923802e-14
	5.667105231364799e-06,-1.039748407047913e-13
	1.861758906692526e-06,6.746295797359614e-12
	-1.191455306872158e-08,-5.389983854670426e-15
	-7.516949584988604e-06,-6.636930972800153e-12
	-5.667105231364876e-06,1.039748407047914e-13
	-1.861758906679389e-06,-6.746295797359614e-12
	-5.667105231364876e-06,1.039748407047914e-13
8		1.202264434617413e+00,0.000000000000000e+00
	-5.667105231364876e-02,1.063967258667208e-09
	1.000000000000000e+00,0.000000000000000e+00
	0.000000000000000e+00,0.000000000000000e+00
	2.233939460342821e-08,-3.291327317308049e-14
	2.233984304174519e-08,1.652086765938685e-14
	5.667105231364799e-06,-1.063967258667198e-13
	1.861758906692526e-06,6.903437213291196e-12
	-1.191455306872147e-08,-5.515532706990606e-15
	-7.516949584988604e-06,-6.791524954717485e-12
	-5.667105231364876e-06,1.063967258667208e-13
	-1.861758906679389e-06,-6.903437213291198e-12
	-5.667105231364876e-06,1.063967258667208e-13
9		1.230268770812381e+00,0.000000000000000e+00
	-5.667105231364876e-02,1.088750239810318e-09
	1.000000000000000e+00,0.000000000000000e+00
	0.000000000000000e+00,0.000000000000000e+00
	2.233939460342795e-08,-3.367992179103538e-14
	2.233984304174499e-08,1.690568810224834e-14
	5.667105231364799e-06,-1.088750239810316e-13
	1.861758906692526e-06,7.064238923011059e-12
	-1.191455306872136e-08,-5.644005967758802e-15
	-7.516949584988604e-06,-6.949719893062269e-12
	-5.667105231364876e-06,1.088750239810318e-13
	-1.861758906679389e-06,-7.064238923011059e-12
	-5.667105231364876e-06,1.088750239810318e-13
10		1.258925411794167e+00,0.000000000000000e+00
	-5.667105231364876e-02,1.114110490741889e-09
	1.000000000000000e+00,0.000000000000000e+00
	0.000000000000000e+00,0.000000000000000e+00
	2.233939460342769e-08,-3.446442794933030e-14
	2.233984304174477e-08,1.729947216471491e-14
	5.667105231364799e-06,-1.114110490741890e-13
	1.861758906692526e-06,7.228786185714160e-12
	-1.191455306872124e-08,-5.775471755198371e-15
	-7.516949584988604e-06,-7.111599664884772e-12
	-5.667105231364876e-06,1.114110490741889e-13
	-1.861758906679389e-06,-7.228786185714158e-12
	-5.667105231364876e-06,1.114110490741889e-13
11		1.288249551693134e+00,0.000000000000000e+00
	-5.667105231364876e-02,1.140061457802647e-09
	1.000000000000000e+00,0.000000000000000e+00
	0.000000000000000e+00,0.000000000000000e+00
	2.233939460342742e-08,-3.526720760351473e-14
	2.233984304174455e-08,1.770242863630869e-14
	5.667105231364799e-06,-1.140061457802646e-13
	1.861758906692526e-06,7.397166246537221e-12
	-1.191455306872111e-08,-5.909999774209892e-15
	-7.516949584988604e-06,-7.277250100982746e-12
	-5.667105231364876e-06,1.140061457802647e-13
	-1.861758906679389e-06,-7.397166246537222e-12
	-5.667105231364876e-06,1.140061457802647e-13
12		1.318256738556407e+00,0.000000000000000e+00
	-5.667105231364876e-02,1.166616900538829e-09
	1.000000000000000e+00,0.000000000000000e+00
	0.000000000000000e+00,0.000000000000000e+00
	2.233939460342713e-08,-3.608868639798698e-14
	2.233984304174431e-08,1.811477116988498e-14
	5.667105231364799e-06,-1.166616900538820e-13
	1.861758906692526e-06,7.569468382817266e-12
	-1.191455306872099e-08,-6.047661353329906e-15
	-7.516949584988604e-06,-7.446759031410054e-12
	-5.667105231364876e-06,1.166616900538829e-13
	-1.861758906679389e-06,-7.569468382817266e-12
	-5.667105231364876e-06,1.166616900538829e-13
13		1.348962882591653e+00,0.000000000000000e+00
	-5.667105231364876e-02,1.193790898997677e-09
	1.000000000000000e+00,0.000000000000000e+00
	0.000000000000000e+00,0.000000000000000e+00
	2.233939460342683e-08,-3.692929989167796e-14
	2.233984304174406e-08,1.853671839491263e-14
	5.667105231364799e-06,-1.193790898997674e-13
	1.861758906692526e-06,7.745783951427644e-12
	-1.191455306872085e-08,-6.188529482549575e-15
	-7.516949584988604e-06,-7.620216332045327e-12
	-5.667105231364876e-06,1.193790898997678e-13
	-1.861758906679389e-06,-7.745783951427644e-12
	-5.667105231364876e-06,1.193790898997678e-13
14		1.380384264602885e+00,0.000000000000000e+00
	-5.667105231364876e-02,1.221597861192865e-09
	1.000000000000000e+00,0.000000000000000e+00
	0.000000000000000e+00,0.000000000000000e+00
	2.233939460342651e-08,-3.778949378898848e-14
	2.233984304174380e-08,1.896849403339584e-14
	5.667105231364799e-06,-1.221597861192872e-13
	1.861758906692526e-06,7.926206437216637e-12
	-1.191455306872070e-08,-6.332678852015822e-15
	-7.516949584988604e-06,-7.797713972245334e-12
	-5.667105231364876e-06,1.221597861192865e-13
	-1.861758906679389e-06,-7.926206437216639e-12
	-5.667105231364876e-06,1.221597861192865e-13
15		1.412537544622754e+00,0.000000000000000e+00
	-5.667105231364876e-02,1.250052530743816e-09
	1.000000000000000e+00,0.000000000000000e+00
	0.000000000000000e+00,0.000000000000000e+00
	2.233939460342618e-08,-3.866972417610904e-14
	2.233984304174352e-08,1.941032701849321e-14
	5.667105231364799e-06,-1.250052530743817e-13
	1.861758906692526e-06,8.110831502574387e-12
	-1.191455306872055e-08,-6.480185891632292e-15
	-7.516949584988604e-06,-7.979346063608373e-12
	-5.667105231364876e-06,1.250052530743816e-13
	-1.861758906679389e-06,-8.110831502574388e-12
	-5.667105231364876e-06,1.250052530743816e-13
16		1.445439770745927e+00,0.000000000000000e+00
	-5.667105231364876e-02,1.279169994692969e-09
	1.000000000000000e+00,0.000000000000000e+00
	0.000000000000000e+00,0.000000000000000e+00
	2.233939460342584e-08,-3.957045776284198e-14
	2.233984304174324e-08,1.986245161590193e-14
	5.667105231364799e-06,-1.279169994692958e-13
	1.861758906692525e-06,8.299757038154347e-12
	-1.191455306872040e-08,-6.631128811583961e-15
	-7.516949584988604e-06,-8.165208909873468e-12
	-5.667105231364876e-06,1.279169994692969e-13
	-1.861758906679389e-06,-8.299757038154349e-12
	-5.667105231364876e-06,1.279169994692969e-13
17		1.479108388168207e+00,0.000000000000000e+00
	-5.667105231364876e-02,1.308965691505125e-09
	1.000000000000000e+00,0.000000000000000e+00
	0.000000000000000e+00,0.000000000000000e+00
	2.233939460342548e-08,-4.049217213005774e-14
	2.233984304174294e-08,2.032510754806800e-14
	5.667105231364799e-06,-1.308965691505125e-13
	1.861758906692525e-06,8.493083214776214e-12
	-1.191455306872024e-08,-6.785587643804881e-15
	-7.516949584988604e-06,-8.355401057981896e-12
	-5.667105231364876e-06,1.308965691505124e-13
	-1.861758906679389e-06,-8.493083214776209e-12
	-5.667105231364876e-06,1.308965691505124e-13
18		1.513561248436208e+00,0.000000000000000e+00
	-5.667105231364876e-02,1.339455419253125e-09
	1.000000000000000e+00,0.000000000000000e+00
	0.000000000000000e+00,0.000000000000000e+00
	2.233939460342510e-08,-4.143535598291411e-14
	2.233984304174263e-08,2.079854012129069e-14
	5.667105231364799e-06,-1.339455419253126e-13
	1.861758906692525e-06,8.690912536537798e-12
	-1.191455306872006e-08,-6.943644284412434e-15
	-7.516949584988604e-06,-8.550023350328072e-12
	-5.667105231364876e-06,1.339455419253125e-13
	-1.861758906679389e-06,-8.690912536537797e-12
	-5.667105231364876e-06,1.339455419253125e-13
19		1.548816618912481e+00,0.000000000000000e+00
	-5.667105231364876e-02,1.370655343994203e-09
	1.000000000000000e+00,0.000000000000000e+00
	0.000000000000000e+00,0.000000000000000e+00
	2.233939460342470e-08,-4.240050940997442e-14
	2.233984304174230e-08,2.128300035578686e-14
	5.667105231364799e-06,-1.370655343994203e-13
	1.861758906692525e-06,8.893349895164080e-12
	-1.191455306871988e-08,-7.105382537129550e-15
	-7.516949584988604e-06,-8.749178978227530e-12
	-5.667105231364876e-06,1.370655343994203e-13
	-1.861758906679389e-06,-8.893349895164080e-12
	-5.667105231364876e-06,1.370655343994203e-13
20		1.584893192461113e+00,0.000000000000000e+00
	-5.667105231364876e-02,1.402582008341434e-09
	1.000000000000000e+00,0.000000000000000e+00
	0.000000000000000e+00,0.000000000000000e+00
	2.233939460342428e-08,-4.338814414836104e-14
	2.233984304174195e-08,2.177874511878546e-14
	5.667105231364799e-06,-1.402582008341424e-13
	1.861758906692525e-06,9.100502625622182e-12
	-1.191455306871970e-08,-7.270888157718694e-15
	-7.516949584988604e-06,-8.952973536630320e-12
	-5.667105231364876e-06,1.402582008341434e-13
	-1.861758906679389e-06,-9.100502625622183e-12
	-5.667105231364876e-06,1.402582008341434e-13
21		1.621810097358929e+00,0.000000000000000e+00
	-5.667105231364876e-02,1.435252340234855e-09
	1.000000000000000e+00,0.000000000000000e+00
	0.000000000000000e+00,0.000000000000000e+00
	2.233939460342385e-08,-4.439878385508510e-14
	2.233984304174159e-08,2.228603726072179e-14
	5.667105231364799e-06,-1.435252340234871e-13
	1.861758906692525e-06,9.312480563031783e-12
	-1.191455306871950e-08,-7.440248899450639e-15
	-7.516949584988604e-06,-9.161515080108845e-12
	-5.667105231364876e-06,1.435252340234855e-13
	-1.861758906679389e-06,-9.312480563031783e-12
	-5.667105231364876e-06,1.435252340234855e-13
22		1.659586907437560e+00,0.000000000000000e+00
	-5.667105231364876e-02,1.468683661916880e-09
	1.000000000000000e+00,0.000000000000000e+00
	0.000000000000000e+00,0.000000000000000e+00
	2.233939460342339e-08,-4.543296438469647e-14
	2.233984304174122e-08,2.280514575460441e-14
	5.667105231364799e-06,-1.468683661916889e-13
	1.861758906692524e-06,9.529396100901157e-12
	-1.191455306871929e-08,-7.613554559632442e-15
	-7.516949584988604e-06,-9.374914180149836e-12
	-5.667105231364876e-06,1.468683661916880e-13
	-1.861758906679389e-06,-9.529396100901157e-12
	-5.667105231364876e-06,1.468683661916880e-13
23		1.698243652461743e+00,0.000000000000000e+00
	-5.667105231364876e-02,1.502893699116780e-09
	1.000000000000000e+00,0.000000000000000e+00
	0.000000000000000e+00,0.000000000000000e+00
	2.233939460342291e-08,-4.649123407340096e-14
	2.233984304174082e-08,2.333634583862788e-14
	5.667105231364799e-06,-1.502893699116774e-13
	1.861758906692524e-06,9.751364250719695e-12
	-1.191455306871908e-08,-7.790897027219064e-15
	-7.516949584988604e-06,-9.593283983780798e-12
	-5.667105231364876e-06,1.502893699116780e-13
	-1.861758906679389e-06,-9.751364250719695e-12
	-5.667105231364876e-06,1.502893699116780e-13
24		1.737800828749374e+00,0.000000000000000e+00
	-5.667105231364876e-02,1.537900590449101e-09
	1.000000000000000e+00,0.000000000000000e+00
	0.000000000000000e+00,0.000000000000000e+00
	2.233939460342241e-08,-4.757415402979548e-14
	2.233984304174041e-08,2.387991916210799e-14
	5.667105231364799e-06,-1.537900590449093e-13
	1.861758906692524e-06,9.978502702938528e-12
	-1.191455306871885e-08,-7.972370331534196e-15
	-7.516949584988604e-06,-9.816740273562083e-12
	-5.667105231364876e-06,1.537900590449101e-13
	-1.861758906679389e-06,-9.978502702938529e-12
	-5.667105231364876e-06,1.537900590449101e-13
25		1.778279410038922e+00,0.000000000000000e+00
	-5.667105231364876e-02,1.573722897030999e-09
	1.000000000000000e+00,0.000000000000000e+00
	0.000000000000000e+00,0.000000000000000e+00
	2.233939460342189e-08,-4.868229843237487e-14
	2.233984304173998e-08,2.443615393481605e-14
	5.667105231364799e-06,-1.573722897031001e-13
	1.861758906692523e-06,1.021093188937156e-11
	-1.191455306871861e-08,-8.158070692125958e-15
	-7.516949584988604e-06,-1.004540152897633e-11
	-5.667105231364876e-06,1.573722897030999e-13
	-1.861758906679389e-06,-1.021093188937156e-11
	-5.667105231364876e-06,1.573722897030999e-13
26		1.819700858609982e+00,0.000000000000000e+00
	-5.667105231364876e-02,1.610379612323588e-09
	1.000000000000000e+00,0.000000000000000e+00
	0.000000000000000e+00,0.000000000000000e+00
	2.233939460342134e-08,-4.981625483396955e-14
	2.233984304173952e-08,2.500534507979102e-14
	5.667105231364799e-06,-1.610379612323573e-13
	1.861758906692523e-06,1.044877504705000e-11
	-1.191455306871837e-08,-8.348096569783487e-15
	-7.516949584988604e-06,-1.027938898924785e-11
	-5.667105231364876e-06,1.610379612323588e-13
	-1.861758906679389e-06,-1.044877504705000e-11
	-5.667105231364876e-06,1.610379612323588e-13
27		1.862087136662866e+00,0.000000000000000e+00
	-5.667105231364876e-02,1.647890172202525e-09
	1.000000000000000e+00,0.000000000000000e+00
	0.000000000000000e+00,0.000000000000000e+00
	2.233939460342076e-08,-5.097662447327323e-14
	2.233984304173905e-08,2.558779438971224e-14
	5.667105231364799e-06,-1.647890172202520e-13
	1.861758906692523e-06,1.069215828356427e-11
	-1.191455306871811e-08,-8.542548718742470e-15
	-7.516949584988604e-06,-1.051882671762527e-11
	-5.667105231364876e-06,1.647890172202525e-13
	-1.861758906679389e-06,-1.069215828356427e-11
	-5.667105231364876e-06,1.647890172202525e-13
28		1.905460717963246e+00,0.000000000000000e+00
	-5.667105231364876e-02,1.686274465263169e-09
	1.000000000000000e+00,0.000000000000000e+00
	0.000000000000000e+00,0.000000000000000e+00
	2.233939460342016e-08,-5.216402259362814e-14
	2.233984304173855e-08,2.618381068691327e-14
	5.667105231364799e-06,-1.686274465263160e-13
	1.861758906692523e-06,1.094121064392793e-11
	-1.191455306871784e-08,-8.741530240106072e-15
	-7.516949584988604e-06,-1.076384166716151e-11
	-5.667105231364876e-06,1.686274465263169e-13
	-1.861758906679389e-06,-1.094121064392793e-11
	-5.667105231364876e-06,1.686274465263169e-13
29		1.949844599758044e+00,0.000000000000000e+00
	-5.667105231364876e-02,1.725552843365777e-09
	1.000000000000000e+00,0.000000000000000e+00
	0.000000000000000e+00,0.000000000000000e+00
	2.233939460341953e-08,-5.337907876923461e-14
	2.233984304173803e-08,2.679370998712427e-14
	5.667105231364799e-06,-1.725552843365769e-13
	1.861758906692522e-06,1.119606417899905e-11
	-1.191455306871755e-08,-8.945146636510845e-15
	-7.516949584988604e-06,-1.101456374802596e-11
	-5.667105231364876e-06,1.725552843365777e-13
	-1.861758906679389e-06,-1.119606417899905e-11
	-5.667105231364876e-06,1.725552843365777e-13
30		1.995262314968878e+00,0.000000000000000e+00
	-5.667105231364876e-02,1.765746132426329e-09
	1.000000000000000e+00,0.000000000000000e+00
	0.000000000000000e+00,0.000000000000000e+00
	2.233939460341887e-08,-5.462243723896021e-14
	2.233984304173749e-08,2.741781566702707e-14
	5.667105231364799e-06,-1.765746132426314e-13
	1.861758906692522e-06,1.145685401549530e-11
	-1.191455306871725e-08,-9.153505868065280e-15
	-7.516949584988604e-06,-1.127112589638460e-11
	-5.667105231364876e-06,1.765746132426329e-13
	-1.861758906679389e-06,-1.145685401549530e-11
	-5.667105231364876e-06,1.765746132426329e-13
31		2.041737944669527e+00,0.000000000000000e+00
	-5.667105231364876e-02,1.806875643458707e-09
	1.000000000000000e+00,0.000000000000000e+00
	0.000000000000000e+00,0.000000000000000e+00
	2.233939460341818e-08,-5.589475724792317e-14
	2.233984304173692e-08,2.805645863571437e-14
	5.667105231364799e-06,-1.806875643458692e-13
	1.861758906692522e-06,1.172371842763996e-11
	-1.191455306871694e-08,-9.366718409592013e-15
	-7.516949584988604e-06,-1.153366414488450e-11
	-5.667105231364876e-06,1.806875643458707e-13
	-1.861758906679389e-06,-1.172371842763996e-11
	-5.667105231364876e-06,1.806875643458707e-13
32		2.089296130854037e+00,0.000000000000000e+00
	-5.667105231364876e-02,1.848963183874073e-09
	1.000000000000000e+00,0.000000000000000e+00
	0.000000000000000e+00,0.000000000000000e+00
