LTspice 24.0.9 for Windows
Circuit: * GA CMOS Amp | W=1e-06 L=6.775992578126337e-07 Vbias=1.1633308064005379
Start Time: Mon Sep  8 18:44:42 2025
solver = Normal
Maximum thread count: 2
tnom = 27
temp = 27
method = modified trap
AsciiRawFile = 1
Instance "m1": Length shorter than recommended for a level 3 MOSFET.
Instance "m1": Width narrower than recommended for a level 3 MOSFET.
Direct Newton iteration for .op point succeeded.
Semiconductor Device Operating Points:
                        --- MOSFET Transistors ---
Name:          m1
Model:        n_1u
Id:          5.42e-06
Vgs:         1.16e+00
Vds:         1.75e+00
Vbs:         0.00e+00
Vth:         9.66e-01
Vdsat:       1.62e-01
Gm:          3.74e-05
Gds:         1.59e-06
Gmb:         1.76e-05
Cbd:         0.00e+00
Cbs:         0.00e+00
Cgsov:       2.00e-16
Cgdov:       2.00e-16
Cgbov:       4.78e-17
Cgs:         5.50e-16
Cgd:         0.00e+00
Cgb:         0.00e+00



gain_db: MAX(db(v(out)/v(g)))=(29.137dB,107.628°) FROM 1 TO 1e+09
gain_lin: MAX(mag(v(out)/v(g)))=(-8.66636dB,0°) FROM 1 TO 1e+09

Measurement "fc" FAIL'ed

Total elapsed time: 0.446 seconds.

