Title: * GA CMOS Amp | W=2.5128277741563886e-05 L=1e-06 Vbias=0.993945080362981
Date: Sat Sep  6 22:38:47 2025
Plotname: AC Analysis
Flags: complex forward log
No. Variables: 13
No. Points:          901
Offset:    0.0000000000000000e+00
Command: Linear Technology Corporation LTspice
Variables:
	0	frequency	frequency
	1	V(out)	voltage
	2	V(g)	voltage
	3	V(vdd)	voltage
	4	V(m1#dbody)	voltage
	5	V(m1#sbody)	voltage
	6	Id(M1)	device_current
	7	Ig(M1)	device_current
	8	Ib(M1)	device_current
	9	Is(M1)	device_current
	10	I(Rload)	device_current
	11	I(Vg)	device_current
	12	I(Vdd)	device_current
Values:
0		1.000000000000000e+00,0.000000000000000e+00
	-6.977372966316009e-03,1.384981491600736e-09
	1.000000000000000e+00,0.000000000000000e+00
	0.000000000000000e+00,0.000000000000000e+00
	9.037111686278163e-06,9.999281382766634e-14
	9.037111739806064e-06,1.040256316079869e-13
	6.977372966316019e-07,-1.384981491600736e-13
	1.495585486087000e-05,6.463215516610898e-12
	-4.819792927972896e-06,-5.521490677320161e-14
	-1.083379922952871e-05,-6.269502460677622e-12
	-6.977372966316009e-07,1.384981491600736e-13
	-1.495585486088746e-05,-6.463215516610898e-12
	-6.977372966316009e-07,1.384981491600736e-13
1		1.023292992280754e+00,0.000000000000000e+00
	-6.977372966316008e-03,1.417241854793579e-09
	1.000000000000000e+00,0.000000000000000e+00
	0.000000000000000e+00,0.000000000000000e+00
	9.037111686278161e-06,1.023219456682851e-13
	9.037111739806063e-06,1.064486998420324e-13
	6.977372966315985e-07,-1.417241854793576e-13
	1.495585486087000e-05,6.613763145748165e-12
	-4.819792927972895e-06,-5.650102717045235e-14
	-1.083379922952871e-05,-6.415537933098356e-12
	-6.977372966316008e-07,1.417241854793579e-13
	-1.495585486088746e-05,-6.613763145748165e-12
	-6.977372966316008e-07,1.417241854793579e-13
2		1.047128548050899e+00,0.000000000000000e+00
	-6.977372966316008e-03,1.450253658377247e-09
	1.000000000000000e+00,0.000000000000000e+00
	0.000000000000000e+00,0.000000000000000e+00
	9.037111686278159e-06,1.047053299588881e-13
	9.037111739806063e-06,1.089282085857491e-13
	6.977372966315985e-07,-1.450253658377242e-13
	1.495585486087000e-05,6.767817479648813e-12
	-4.819792927972894e-06,-5.781710516018836e-14
	-1.083379922952871e-05,-6.564975008650900e-12
	-6.977372966316008e-07,1.450253658377247e-13
	-1.495585486088746e-05,-6.767817479648811e-12
	-6.977372966316008e-07,1.450253658377247e-13
3		1.071519305237606e+00,0.000000000000000e+00
	-6.977372966316008e-03,1.484034405646964e-09
	1.000000000000000e+00,0.000000000000000e+00
	0.000000000000000e+00,0.000000000000000e+00
	9.037111686278159e-06,1.071442304013743e-13
	9.037111739806063e-06,1.114654725074933e-13
	6.977372966315985e-07,-1.484034405646957e-13
	1.495585486087000e-05,6.925460199959825e-12
	-4.819792927972894e-06,-5.916383854438018e-14
	-1.083379922952871e-05,-6.717892920850749e-12
	-6.977372966316008e-07,1.484034405646964e-13
	-1.495585486088746e-05,-6.925460199959826e-12
	-6.977372966316008e-07,1.484034405646964e-13
4		1.096478196143185e+00,0.000000000000000e+00
	-6.977372966316008e-03,1.518602007602072e-09
	1.000000000000000e+00,0.000000000000000e+00
	0.000000000000000e+00,0.000000000000000e+00
	9.037111686278159e-06,1.096399401330409e-13
	9.037111739806063e-06,1.140618368981809e-13
	6.977372966315985e-07,-1.518602007602067e-13
	1.495585486087000e-05,7.086774890938157e-12
	-4.819792927972894e-06,-6.054194137889419e-14
	-1.083379922952871e-05,-6.874372748799057e-12
	-6.977372966316008e-07,1.518602007602072e-13
	-1.495585486088746e-05,-7.086774890938159e-12
	-6.977372966316008e-07,1.518602007602072e-13
5		1.122018454301963e+00,0.000000000000000e+00
	-6.977372966316008e-03,1.553974792442685e-09
	1.000000000000000e+00,0.000000000000000e+00
	0.000000000000000e+00,0.000000000000000e+00
	9.037111686278159e-06,1.121937824122222e-13
	9.037111739806063e-06,1.167186783845789e-13
	6.977372966315985e-07,-1.553974792442674e-13
	1.495585486087000e-05,7.251847083768224e-12
	-4.819792927972894e-06,-6.195214435209467e-14
	-1.083379922952871e-05,-7.034497460171862e-12
	-6.977372966316008e-07,1.553974792442685e-13
	-1.495585486088746e-05,-7.251847083768224e-12
	-6.977372966316008e-07,1.553974792442685e-13
6		1.148153621496882e+00,0.000000000000000e+00
	-6.977372966316008e-03,1.590171515287539e-09
	1.000000000000000e+00,0.000000000000000e+00
	0.000000000000000e+00,0.000000000000000e+00
	9.037111686278159e-06,1.148071113198987e-13
	9.037111739806063e-06,1.194374056592107e-13
	6.977372966315985e-07,-1.590171515287540e-13
	1.495585486087000e-05,7.420764301911649e-12
	-4.819792927972894e-06,-6.339519517226417e-14
	-1.083379922952871e-05,-7.198351955210629e-12
	-6.977372966316008e-07,1.590171515287539e-13
	-1.495585486088746e-05,-7.420764301911646e-12
	-6.977372966316008e-07,1.590171515287539e-13
7		1.174897554939529e+00,0.000000000000000e+00
	-6.977372966316008e-03,1.627211368118207e-09
	1.000000000000000e+00,0.000000000000000e+00
	0.000000000000000e+00,0.000000000000000e+00
	9.037111686278158e-06,1.174813124776487e-13
	9.037111739806061e-06,1.222194602272641e-13
	6.977372966315985e-07,-1.627211368118203e-13
	1.495585486087000e-05,7.593616107513369e-12
	-4.819792927972893e-06,-6.487185896404862e-14
	-1.083379922952871e-05,-7.366023111737500e-12
	-6.977372966316008e-07,1.627211368118207e-13
	-1.495585486088746e-05,-7.593616107513369e-12
	-6.977372966316008e-07,1.627211368118207e-13
8		1.202264434617413e+00,0.000000000000000e+00
	-6.977372966316008e-03,1.665113989954940e-09
	1.000000000000000e+00,0.000000000000000e+00
	0.000000000000000e+00,0.000000000000000e+00
	9.037111686278158e-06,1.202178037823235e-13
	9.037111739806061e-06,1.250663171708957e-13
	6.977372966315985e-07,-1.665113989954936e-13
	1.495585486087000e-05,7.770494148888690e-12
	-4.819792927972893e-06,-6.638291867413638e-14
	-1.083379922952871e-05,-7.537599831219061e-12
	-6.977372966316008e-07,1.665113989954940e-13
	-1.495585486088746e-05,-7.770494148888690e-12
	-6.977372966316008e-07,1.665113989954940e-13
9		1.230268770812381e+00,0.000000000000000e+00
	-6.977372966316007e-03,1.703899477269535e-09
	1.000000000000000e+00,0.000000000000000e+00
	0.000000000000000e+00,0.000000000000000e+00
	9.037111686278158e-06,1.230180361578343e-13
	9.037111739806061e-06,1.279794859313397e-13
	6.977372966316019e-07,-1.703899477269529e-13
	1.495585486087000e-05,7.951492209116397e-12
	-4.819792927972893e-06,-6.792917548638697e-14
	-1.083379922952871e-05,-7.713173085903057e-12
	-6.977372966316008e-07,1.703899477269535e-13
	-1.495585486088746e-05,-7.951492209116399e-12
	-6.977372966316008e-07,1.703899477269535e-13
10		1.258925411794167e+00,0.000000000000000e+00
	-6.977372966316007e-03,1.743588394640755e-09
	1.000000000000000e+00,0.000000000000000e+00
	0.000000000000000e+00,0.000000000000000e+00
	9.037111686278158e-06,1.258834943244523e-13
	9.037111739806061e-06,1.309605111092332e-13
	6.977372966316019e-07,-1.743588394640756e-13
	1.495585486087000e-05,8.136706255763824e-12
	-4.819792927972893e-06,-6.951144924662937e-14
	-1.083379922952871e-05,-7.892835967053119e-12
	-6.977372966316008e-07,1.743588394640756e-13
	-1.495585486088746e-05,-8.136706255763823e-12
	-6.977372966316008e-07,1.743588394640756e-13
11		1.288249551693134e+00,0.000000000000000e+00
	-6.977372966316007e-03,1.784201785657935e-09
	1.000000000000000e+00,0.000000000000000e+00
	0.000000000000000e+00,0.000000000000000e+00
	9.037111686278156e-06,1.288156975860261e-13
	9.037111739806059e-06,1.340109732835843e-13
	6.977372966316019e-07,-1.784201785657935e-13
	1.495585486087000e-05,8.326234491770095e-12
	-4.819792927972892e-06,-7.113057889735516e-14
	-1.083379922952871e-05,-8.076683734306946e-12
	-6.977372966316008e-07,1.784201785657936e-13
	-1.495585486088746e-05,-8.326234491770095e-12
	-6.977372966316008e-07,1.784201785657936e-13
12		1.318256738556407e+00,0.000000000000000e+00
	-6.977372966316007e-03,1.825761184078573e-09
	1.000000000000000e+00,0.000000000000000e+00
	0.000000000000000e+00,0.000000000000000e+00
	9.037111686278156e-06,1.318162006355374e-13
	9.037111739806059e-06,1.371324898498151e-13
	6.977372966316019e-07,-1.825761184078572e-13
	1.495585486087000e-05,8.520177407514642e-12
	-4.819792927972892e-06,-7.278742292253681e-14
	-1.083379922952871e-05,-8.264813866184248e-12
	-6.977372966316008e-07,1.825761184078573e-13
	-1.495585486088746e-05,-8.520177407514644e-12
	-6.977372966316008e-07,1.825761184078573e-13
13		1.348962882591653e+00,0.000000000000000e+00
	-6.977372966316007e-03,1.868288625245816e-09
	1.000000000000000e+00,0.000000000000000e+00
	0.000000000000000e+00,0.000000000000000e+00
	9.037111686278156e-06,1.348865943794193e-13
	9.037111739806059e-06,1.403267158773275e-13
	6.977372966315985e-07,-1.868288625245796e-13
	1.495585486087000e-05,8.718637834098534e-12
	-4.819792927972892e-06,-7.448285980280746e-14
	-1.083379922952871e-05,-8.457326111771149e-12
	-6.977372966316008e-07,1.868288625245816e-13
	-1.495585486088746e-05,-8.718637834098537e-12
	-6.977372966316008e-07,1.868288625245816e-13
14		1.380384264602885e+00,0.000000000000000e+00
	-6.977372966316006e-03,1.911806657771888e-09
	1.000000000000000e+00,0.000000000000000e+00
	0.000000000000000e+00,0.000000000000000e+00
	9.037111686278156e-06,1.380285067810764e-13
	9.037111739806059e-06,1.435953449870416e-13
	6.977372966315985e-07,-1.911806657771870e-13
	1.495585486087001e-05,8.921720997866885e-12
	-4.819792927972892e-06,-7.621778848124274e-14
	-1.083379922952871e-05,-8.654322543608456e-12
	-6.977372966316007e-07,1.911806657771888e-13
	-1.495585486088746e-05,-8.921720997866887e-12
	-6.977372966316007e-07,1.911806657771888e-13
15		1.412537544622754e+00,0.000000000000000e+00
	-6.977372966316006e-03,1.956338355493663e-09
	1.000000000000000e+00,0.000000000000000e+00
	0.000000000000000e+00,0.000000000000000e+00
	9.037111686278154e-06,1.412436037240519e-13
	9.037111739806057e-06,1.469401102493770e-13
	6.977372966315985e-07,-1.956338355493654e-13
	1.495585486087000e-05,9.129534576201241e-12
	-4.819792927972891e-06,-7.799312883999247e-14
	-1.083379922952871e-05,-8.855907611811884e-12
	-6.977372966316007e-07,1.956338355493663e-13
	-1.495585486088746e-05,-9.129534576201241e-12
	-6.977372966316007e-07,1.956338355493663e-13
16		1.445439770745927e+00,0.000000000000000e+00
	-6.977372966316006e-03,2.001907329706719e-09
	1.000000000000000e+00,0.000000000000000e+00
	0.000000000000000e+00,0.000000000000000e+00
	9.037111686278154e-06,1.445335898953022e-13
	9.037111739806057e-06,1.503627851031489e-13
	6.977372966315985e-07,-2.001907329706706e-13
	1.495585486087000e-05,9.342188754611574e-12
	-4.819792927972891e-06,-7.980982218801425e-14
	-1.083379922952871e-05,-9.062188199452888e-12
	-6.977372966316007e-07,2.001907329706720e-13
	-1.495585486088746e-05,-9.342188754611573e-12
	-6.977372966316007e-07,2.001907329706720e-13
17		1.479108388168207e+00,0.000000000000000e+00
	-6.977372966316006e-03,2.048537741684363e-09
	1.000000000000000e+00,0.000000000000000e+00
	0.000000000000000e+00,0.000000000000000e+00
	9.037111686278154e-06,1.479002096890431e-13
	9.037111739806057e-06,1.538651842958692e-13
	6.977372966315985e-07,-2.048537741684351e-13
	1.495585486087000e-05,9.559796285158086e-12
	-4.819792927972891e-06,-8.166883176016801e-14
	-1.083379922952871e-05,-9.273273679229484e-12
	-6.977372966316007e-07,2.048537741684363e-13
	-1.495585486088746e-05,-9.559796285158088e-12
	-6.977372966316007e-07,2.048537741684363e-13
18		1.513561248436208e+00,0.000000000000000e+00
	-6.977372966316005e-03,2.096254315488251e-09
	1.000000000000000e+00,0.000000000000000e+00
	0.000000000000000e+00,0.000000000000000e+00
	9.037111686278153e-06,1.513452481316520e-13
	9.037111739806056e-06,1.574491648459497e-13
	6.977372966316019e-07,-2.096254315488256e-13
	1.495585486087000e-05,9.782472546233859e-12
	-4.819792927972890e-06,-8.357114322793586e-14
	-1.083379922952872e-05,-9.489275971457097e-12
	-6.977372966316006e-07,2.096254315488251e-13
	-1.495585486088746e-05,-9.782472546233858e-12
	-6.977372966316006e-07,2.096254315488251e-13
19		1.548816618912481e+00,0.000000000000000e+00
	-6.977372966316005e-03,2.145082351077416e-09
	1.000000000000000e+00,0.000000000000000e+00
	0.000000000000000e+00,0.000000000000000e+00
	9.037111686278153e-06,1.548705318281114e-13
	9.037111739806056e-06,1.611166270273176e-13
	6.977372966316019e-07,-2.145082351077422e-13
	1.495585486087001e-05,1.001033560373997e-11
	-4.819792927972890e-06,-8.551776522203797e-14
	-1.083379922952872e-05,-9.710309603410193e-12
	-6.977372966316006e-07,2.145082351077416e-13
	-1.495585486088746e-05,-1.001033560373997e-11
	-6.977372966316006e-07,2.145082351077416e-13
20		1.584893192461113e+00,0.000000000000000e+00
	-6.977372966316005e-03,2.195047737722644e-09
	1.000000000000000e+00,0.000000000000000e+00
	0.000000000000000e+00,0.000000000000000e+00
	9.037111686278151e-06,1.584779299304998e-13
	9.037111739806054e-06,1.648695153769661e-13
	6.977372966315985e-07,-2.195047737722640e-13
	1.495585486087001e-05,1.024350627368564e-11
	-4.819792927972890e-06,-8.750972986722225e-14
	-1.083379922952872e-05,-9.936491770046159e-12
	-6.977372966316006e-07,2.195047737722644e-13
	-1.495585486088746e-05,-1.024350627368565e-11
	-6.977372966316006e-07,2.195047737722644e-13
21		1.621810097358929e+00,0.000000000000000e+00
	-6.977372966316005e-03,2.246176967733304e-09
	1.000000000000000e+00,0.000000000000000e+00
	0.000000000000000e+00,0.000000000000000e+00
	9.037111686278151e-06,1.621693551290409e-13
	9.037111739806054e-06,1.687098197259734e-13
	6.977372966315985e-07,-2.246176967733302e-13
	1.495585486087001e-05,1.048210818624646e-11
	-4.819792927972890e-06,-8.954809332951032e-14
	-1.083379922952872e-05,-1.016794239614362e-11
	-6.977372966316006e-07,2.246176967733304e-13
	-1.495585486088746e-05,-1.048210818624646e-11
	-6.977372966316006e-07,2.246176967733304e-13
22		1.659586907437560e+00,0.000000000000000e+00
	-6.977372966316005e-03,2.298497150503924e-09
	1.000000000000000e+00,0.000000000000000e+00
	0.000000000000000e+00,0.000000000000000e+00
	9.037111686278151e-06,1.659467646662365e-13
	9.037111739806054e-06,1.726395762545379e-13
	6.977372966315985e-07,-2.298497150503922e-13
	1.495585486087001e-05,1.072626785131473e-11
	-4.819792927972890e-06,-9.163393637619085e-14
	-1.083379922952872e-05,-1.040478419988815e-11
	-6.977372966316005e-07,2.298497150503924e-13
	-1.495585486088746e-05,-1.072626785131473e-11
	-6.977372966316005e-07,2.298497150503924e-13
23		1.698243652461743e+00,0.000000000000000e+00
	-6.977372966316005e-03,2.352036026887947e-09
	1.000000000000000e+00,0.000000000000000e+00
	0.000000000000000e+00,0.000000000000000e+00
	9.037111686278149e-06,1.698121613746232e-13
	9.037111739806052e-06,1.766608685715876e-13
	6.977372966315985e-07,-2.352036026887951e-13
	1.495585486087001e-05,1.097611472557671e-11
	-4.819792927972889e-06,-9.376836494885658e-14
	-1.083379922952872e-05,-1.064714275793905e-11
	-6.977372966316005e-07,2.352036026887947e-13
	-1.495585486088746e-05,-1.097611472557671e-11
	-6.977372966316005e-07,2.352036026887947e-13
24		1.737800828749374e+00,0.000000000000000e+00
	-6.977372966316005e-03,2.406821983906303e-09
	1.000000000000000e+00,0.000000000000000e+00
	0.000000000000000e+00,0.000000000000000e+00
	9.037111686278149e-06,1.737675947387005e-13
	9.037111739806052e-06,1.807758288195368e-13
	6.977372966315985e-07,-2.406821983906307e-13
	1.495585486087001e-05,1.123178128115223e-11
	-4.819792927972889e-06,-9.595251074978919e-14
	-1.083379922952872e-05,-1.089514657201181e-11
	-6.977372966316005e-07,2.406821983906303e-13
	-1.495585486088746e-05,-1.123178128115223e-11
	-6.977372966316005e-07,2.406821983906303e-13
25		1.778279410038922e+00,0.000000000000000e+00
	-6.977372966316004e-03,2.462884069798582e-09
	1.000000000000000e+00,0.000000000000000e+00
	0.000000000000000e+00,0.000000000000000e+00
	9.037111686278147e-06,1.778151619815942e-13
	9.037111739806051e-06,1.849866388047772e-13
	6.977372966315985e-07,-2.462884069798587e-13
	1.495585486087001e-05,1.149340307583323e-11
	-4.819792927972887e-06,-9.818753184200302e-14
	-1.083379922952872e-05,-1.114892713701137e-11
	-6.977372966316004e-07,2.462884069798582e-13
	-1.495585486088746e-05,-1.149340307583323e-11
	-6.977372966316004e-07,2.462884069798582e-13
26		1.819700858609982e+00,0.000000000000000e+00
	-6.977372966316004e-03,2.520252009424793e-09
	1.000000000000000e+00,0.000000000000000e+00
	0.000000000000000e+00,0.000000000000000e+00
	9.037111686278146e-06,1.819570091770326e-13
	9.037111739806051e-06,1.892955311544996e-13
	6.977372966315985e-07,-2.520252009424787e-13
	1.495585486087001e-05,1.176111882495821e-11
	-4.819792927972887e-06,-1.004746132632651e-13
	-1.083379922952872e-05,-1.140861901075247e-11
	-6.977372966316004e-07,2.520252009424793e-13
	-1.495585486088746e-05,-1.176111882495821e-11
	-6.977372966316004e-07,2.520252009424793e-13
27		1.862087136662866e+00,0.000000000000000e+00
	-6.977372966316004e-03,2.578956220025880e-09
	1.000000000000000e+00,0.000000000000000e+00
	0.000000000000000e+00,0.000000000000000e+00
	9.037111686278144e-06,1.861953323872223e-13
	9.037111739806049e-06,1.937047905004626e-13
	6.977372966315985e-07,-2.578956220025869e-13
	1.495585486087001e-05,1.203507047496099e-11
	-4.819792927972886e-06,-1.028149676544181e-13
	-1.083379922952872e-05,-1.167435988530399e-11
	-6.977372966316004e-07,2.578956220025880e-13
	-1.495585486088746e-05,-1.203507047496100e-11
	-6.977372966316004e-07,2.578956220025880e-13
28		1.905460717963246e+00,0.000000000000000e+00
	-6.977372966316003e-03,2.639027827351345e-09
	1.000000000000000e+00,0.000000000000000e+00
	0.000000000000000e+00,0.000000000000000e+00
	9.037111686278144e-06,1.905323788272303e-13
	9.037111739806049e-06,1.982167546903349e-13
	6.977372966316019e-07,-2.639027827351332e-13
	1.495585486087001e-05,1.231540327863259e-11
	-4.819792927972886e-06,-1.052098359023384e-13
	-1.083379922952872e-05,-1.194629065999512e-11
	-6.977372966316003e-07,2.639027827351345e-13
	-1.495585486088746e-05,-1.231540327863259e-11
	-6.977372966316003e-07,2.639027827351345e-13
29		1.949844599758044e+00,0.000000000000000e+00
	-6.977372966316003e-03,2.700498682162535e-09
	1.000000000000000e+00,0.000000000000000e+00
	0.000000000000000e+00,0.000000000000000e+00
	9.037111686278142e-06,1.949704480564867e-13
	9.037111739806047e-06,2.028338160272530e-13
	6.977372966316019e-07,-2.700498682162538e-13
	1.495585486087001e-05,1.260226587213616e-11
	-4.819792927972886e-06,-1.076604877978710e-13
	-1.083379922952872e-05,-1.222455551612203e-11
	-6.977372966316003e-07,2.700498682162535e-13
	-1.495585486088746e-05,-1.260226587213615e-11
	-6.977372966316003e-07,2.700498682162535e-13
30		1.995262314968878e+00,0.000000000000000e+00
	-6.977372966316002e-03,2.763401377120333e-09
	1.000000000000000e+00,0.000000000000000e+00
	0.000000000000000e+00,0.000000000000000e+00
	9.037111686278141e-06,1.995118931980416e-13
	9.037111739806046e-06,2.075584225382518e-13
	6.977372966315985e-07,-2.763401377120350e-13
	1.495585486087001e-05,1.289581035381583e-11
	-4.819792927972885e-06,-1.101682227090891e-13
	-1.083379922952873e-05,-1.250930199339471e-11
	-6.977372966316003e-07,2.763401377120333e-13
	-1.495585486088746e-05,-1.289581035381583e-11
	-6.977372966316003e-07,2.763401377120333e-13
31		2.041737944669527e+00,0.000000000000000e+00
	-6.977372966316002e-03,2.827769264066222e-09
	1.000000000000000e+00,0.000000000000000e+00
	0.000000000000000e+00,0.000000000000000e+00
	9.037111686278141e-06,2.041591221862221e-13
	9.037111739806046e-06,2.123930792722407e-13
	6.977372966315985e-07,-2.827769264066222e-13
	1.495585486087001e-05,1.319619236484133e-11
	-4.819792927972885e-06,-1.127343702702362e-13
	-1.083379922952873e-05,-1.280068106816447e-11
	-6.977372966316003e-07,2.827769264066222e-13
	-1.495585486088746e-05,-1.319619236484133e-11
	-6.977372966316003e-07,2.827769264066222e-13
32		2.089296130854037e+00,0.000000000000000e+00
	-6.977372966316001e-03,2.893636471705871e-09
	1.000000000000000e+00,0.000000000000000e+00
	0.000000000000000e+00,0.000000000000000e+00
	9.037111686278139e-06,2.089145990433515e-13
