LTspice 24.0.9 for Windows
Circuit: * GA CMOS Amp | W=3.847839474991112e-05 L=6.578364391046811e-07 Vbias=0.8859065498281243
Start Time: Mon Sep  8 18:43:29 2025
solver = Normal
Maximum thread count: 2
tnom = 27
temp = 27
method = modified trap
AsciiRawFile = 1
Instance "m1": Length shorter than recommended for a level 3 MOSFET.
Direct Newton iteration for .op point succeeded.
Semiconductor Device Operating Points:
                        --- MOSFET Transistors ---
Name:          m1
Model:        n_1u
Id:          1.21e-04
Vgs:         8.86e-01
Vds:         5.90e-01
Vbs:         0.00e+00
Vth:         7.65e-01
Vdsat:       1.40e-01
Gm:          1.23e-03
Gds:         3.96e-05
Gmb:         2.30e-04
Cbd:         0.00e+00
Cbs:         0.00e+00
Cgsov:       7.70e-15
Cgdov:       7.70e-15
Cgbov:       4.58e-17
Cgs:         2.03e-14
Cgd:         0.00e+00
Cgb:         0.00e+00



gain_db: MAX(db(v(out)/v(g)))=(30.4215dB,55.2892°) FROM 1 TO 1e+09
gain_lin: MAX(mag(v(out)/v(g)))=(18.9024dB,0°) FROM 1 TO 1e+09

Measurement "fc" FAIL'ed

Total elapsed time: 0.452 seconds.

