Title: * GA CMOS Amp | W=3.845557133266482e-06 L=5.180731156497205e-07 Vbias=1.5
Date: Sat Sep  6 22:08:55 2025
Plotname: AC Analysis
Flags: complex forward log
No. Variables: 13
No. Points:          901
Offset:    0.0000000000000000e+00
Command: Linear Technology Corporation LTspice
Variables:
	0	frequency	frequency
	1	V(out)	voltage
	2	V(g)	voltage
	3	V(vdd)	voltage
	4	V(m1#dbody)	voltage
	5	V(m1#sbody)	voltage
	6	Id(M1)	device_current
	7	Ig(M1)	device_current
	8	Ib(M1)	device_current
	9	Is(M1)	device_current
	10	I(Rload)	device_current
	11	I(Vg)	device_current
	12	I(Vdd)	device_current
Values:
0		1.000000000000000e+00,0.000000000000000e+00
	1.578016452672731e-02,4.166453360131607e-10
	1.000000000000000e+00,0.000000000000000e+00
	0.000000000000000e+00,0.000000000000000e+00
	6.701813307210588e-05,3.465550802820688e-14
	6.701813295374453e-05,3.332692815666350e-14
	-1.578016452672730e-06,-4.166453360131611e-14
	4.123514237280810e-05,5.178108287150970e-13
	-3.574300427689944e-05,-1.786682005662744e-14
	-3.914121643235937e-06,-4.582794750571534e-13
	1.578016452672731e-06,4.166453360131607e-14
	-4.123514237286408e-05,-5.178108287150971e-13
	1.578016452672731e-06,4.166453360131607e-14
1		1.023292992280754e+00,0.000000000000000e+00
	1.578016452672731e-02,4.263502526087276e-10
	1.000000000000000e+00,0.000000000000000e+00
	0.000000000000000e+00,0.000000000000000e+00
	6.701813307210588e-05,3.546273850919351e-14
	6.701813295374453e-05,3.410321203695791e-14
	-1.578016452672730e-06,-4.263502526087273e-14
	4.123514237280810e-05,5.298721923512485e-13
	-3.574300427689944e-05,-1.828299175828808e-14
	-3.914121643235937e-06,-4.689541753320877e-13
	1.578016452672731e-06,4.263502526087276e-14
	-4.123514237286408e-05,-5.298721923512486e-13
	1.578016452672731e-06,4.263502526087276e-14
2		1.047128548050899e+00,0.000000000000000e+00
	1.578016452672731e-02,4.362812257516403e-10
	1.000000000000000e+00,0.000000000000000e+00
	0.000000000000000e+00,0.000000000000000e+00
	6.701813307210588e-05,3.628877180354256e-14
	6.701813295374453e-05,3.489757789168369e-14
	-1.578016452672730e-06,-4.362812257516397e-14
	4.123514237280810e-05,5.422145012374724e-13
	-3.574300427689944e-05,-1.870885734418298e-14
	-3.914121643235937e-06,-4.798775213181254e-13
	1.578016452672731e-06,4.362812257516403e-14
	-4.123514237286408e-05,-5.422145012374724e-13
	1.578016452672731e-06,4.362812257516403e-14
3		1.071519305237606e+00,0.000000000000000e+00
	1.578016452672731e-02,4.464435209753111e-10
	1.000000000000000e+00,0.000000000000000e+00
	0.000000000000000e+00,0.000000000000000e+00
	6.701813307210588e-05,3.713404588504052e-14
	6.701813295374453e-05,3.571044690413169e-14
	-1.578016452672730e-06,-4.464435209753102e-14
	4.123514237280810e-05,5.548442994293096e-13
	-3.574300427689944e-05,-1.914464261388276e-14
	-3.914121643235937e-06,-4.910553047178959e-13
	1.578016452672731e-06,4.464435209753111e-14
	-4.123514237286408e-05,-5.548442994293097e-13
	1.578016452672731e-06,4.464435209753111e-14
4		1.096478196143185e+00,0.000000000000000e+00
	1.578016452672731e-02,4.568425264631816e-10
	1.000000000000000e+00,0.000000000000000e+00
	0.000000000000000e+00,0.000000000000000e+00
	6.701813307210588e-05,3.799900892919393e-14
	6.701813295374453e-05,3.654225006821191e-14
	-1.578016452672730e-06,-4.568425264631819e-14
	4.123514237280810e-05,5.677682834129371e-13
	-3.574300427689944e-05,-1.959057862650572e-14
	-3.914121643235937e-06,-5.024934521401131e-13
	1.578016452672731e-06,4.568425264631816e-14
	-4.123514237286408e-05,-5.677682834129371e-13
	1.578016452672731e-06,4.568425264631816e-14
5		1.122018454301963e+00,0.000000000000000e+00
	1.578016452672731e-02,4.674837559056089e-10
	1.000000000000000e+00,0.000000000000000e+00
	0.000000000000000e+00,0.000000000000000e+00
	6.701813307210588e-05,3.888411955085796e-14
	6.701813295374453e-05,3.739342841697216e-14
	-1.578016452672730e-06,-4.674837559056086e-14
	4.123514237280810e-05,5.809933056557317e-13
	-3.574300427689944e-05,-2.004690182322843e-14
	-3.914121643235937e-06,-5.141980282419424e-13
	1.578016452672731e-06,4.674837559056089e-14
	-4.123514237286408e-05,-5.809933056557317e-13
	1.578016452672731e-06,4.674837559056089e-14
6		1.148153621496882e+00,0.000000000000000e+00
	1.578016452672731e-02,4.783728514232960e-10
	1.000000000000000e+00,0.000000000000000e+00
	0.000000000000000e+00,0.000000000000000e+00
	6.701813307210588e-05,3.978984704740001e-14
	6.701813295374453e-05,3.826443325643962e-14
	-1.578016452672730e-06,-4.783728514232954e-14
	4.123514237280810e-05,5.945263782395403e-13
	-3.574300427689944e-05,-2.051385415264992e-14
	-3.914121643235937e-06,-5.261752389445608e-13
	1.578016452672731e-06,4.783728514232961e-14
	-4.123514237286408e-05,-5.945263782395404e-13
	1.578016452672731e-06,4.783728514232961e-14
7		1.174897554939529e+00,0.000000000000000e+00
	1.578016452672731e-02,4.895155865588212e-10
	1.000000000000000e+00,0.000000000000000e+00
	0.000000000000000e+00,0.000000000000000e+00
	6.701813307210588e-05,4.071667164752750e-14
	6.701813295374453e-05,3.915572640490931e-14
	-1.578016452672730e-06,-4.895155865588207e-14
	4.123514237280810e-05,6.083746765785785e-13
	-3.574300427689944e-05,-2.099168319907612e-14
	-3.914121643235937e-06,-5.384314347236204e-13
	1.578016452672731e-06,4.895155865588212e-14
	-4.123514237286408e-05,-6.083746765785789e-13
	1.578016452672731e-06,4.895155865588212e-14
8		1.202264434617413e+00,0.000000000000000e+00
	1.578016452672731e-02,5.009178693378446e-10
	1.000000000000000e+00,0.000000000000000e+00
	0.000000000000000e+00,0.000000000000000e+00
	6.701813307210588e-05,4.166508476591135e-14
	6.701813295374453e-05,4.006778043780619e-14
	-1.578016452672730e-06,-5.009178693378453e-14
	4.123514237280810e-05,6.225455432239298e-13
	-3.574300427689944e-05,-2.148064231379224e-14
	-3.914121643235937e-06,-5.509731139763530e-13
	1.578016452672731e-06,5.009178693378446e-14
	-4.123514237286408e-05,-6.225455432239300e-13
	1.578016452672731e-06,5.009178693378446e-14
9		1.230268770812381e+00,0.000000000000000e+00
	1.578016452672731e-02,5.125857454016229e-10
	1.000000000000000e+00,0.000000000000000e+00
	0.000000000000000e+00,0.000000000000000e+00
	6.701813307210588e-05,4.263558926374068e-14
	6.701813295374453e-05,4.100107893825094e-14
	-1.578016452672730e-06,-5.125857454016216e-14
	4.123514237280810e-05,6.370464917566627e-13
	-3.574300427689944e-05,-2.198099074939303e-14
	-3.914121643235937e-06,-5.638069264671074e-13
	1.578016452672731e-06,5.125857454016229e-14
	-4.123514237286408e-05,-6.370464917566629e-13
	1.578016452672731e-06,5.125857454016229e-14
10		1.258925411794167e+00,0.000000000000000e+00
	1.578016452672731e-02,5.245254012124876e-10
	1.000000000000000e+00,0.000000000000000e+00
	0.000000000000000e+00,0.000000000000000e+00
	6.701813307210588e-05,4.362869971534640e-14
	6.701813295374453e-05,4.195611675346221e-14
	-1.578016452672730e-06,-5.245254012124862e-14
	4.123514237280810e-05,6.518852107716321e-13
	-3.574300427689944e-05,-2.249299379724197e-14
	-3.914121643235937e-06,-5.769396768531415e-13
	1.578016452672731e-06,5.245254012124876e-14
	-4.123514237286408e-05,-6.518852107716321e-13
	1.578016452672731e-06,5.245254012124876e-14
11		1.288249551693134e+00,0.000000000000000e+00
	1.578016452672731e-02,5.367431673339896e-10
	1.000000000000000e+00,0.000000000000000e+00
	0.000000000000000e+00,0.000000000000000e+00
	6.701813307210588e-05,4.464494268103531e-14
	6.701813295374453e-05,4.293340025713103e-14
	-1.578016452672730e-06,-5.367431673339893e-14
	4.123514237280810e-05,6.670695679540736e-13
	-3.574300427689944e-05,-2.301692292813218e-14
	-3.914121643235937e-06,-5.903783282925425e-13
	1.578016452672731e-06,5.367431673339896e-14
	-4.123514237286408e-05,-6.670695679540738e-13
	1.578016452672731e-06,5.367431673339896e-14
12		1.318256738556407e+00,0.000000000000000e+00
	1.578016452672731e-02,5.492455217874476e-10
	1.000000000000000e+00,0.000000000000000e+00
	0.000000000000000e+00,0.000000000000000e+00
	6.701813307210588e-05,4.568485698627938e-14
	6.701813295374453e-05,4.393344761790692e-14
	-1.578016452672730e-06,-5.492455217874474e-14
	4.123514237280810e-05,6.826076142511538e-13
	-3.574300427689944e-05,-2.355305593622388e-14
	-3.914121643235937e-06,-6.041300061361851e-13
	1.578016452672731e-06,5.492455217874476e-14
	-4.123514237286408e-05,-6.826076142511538e-13
	1.578016452672731e-06,5.492455217874476e-14
13		1.348962882591653e+00,0.000000000000000e+00
	1.578016452672731e-02,5.620390934866815e-10
	1.000000000000000e+00,0.000000000000000e+00
	0.000000000000000e+00,0.000000000000000e+00
	6.701813307210588e-05,4.674899400740812e-14
	6.701813295374453e-05,4.495678907413773e-14
	-1.578016452672730e-06,-5.620390934866809e-14
	4.123514237280810e-05,6.985075881406899e-13
	-3.574300427689944e-05,-2.410167708633451e-14
	-3.914121643235937e-06,-6.182020017056873e-13
	1.578016452672731e-06,5.620390934866815e-14
	-4.123514237286408e-05,-6.985075881406900e-13
	1.578016452672731e-06,5.620390934866815e-14
14		1.380384264602885e+00,0.000000000000000e+00
	1.578016452672731e-02,5.751306657527489e-10
	1.000000000000000e+00,0.000000000000000e+00
	0.000000000000000e+00,0.000000000000000e+00
	6.701813307210588e-05,4.783791796395572e-14
	6.701813295374453e-05,4.600396721500912e-14
	-1.578016452672730e-06,-5.751306657527475e-14
	4.123514237280810e-05,7.147779199992991e-13
	-3.574300427689944e-05,-2.466307726465973e-14
	-3.914121643235937e-06,-6.326017761593647e-13
	1.578016452672731e-06,5.751306657527489e-14
	-4.123514237286408e-05,-7.147779199992993e-13
	1.578016452672731e-06,5.751306657527489e-14
15		1.412537544622754e+00,0.000000000000000e+00
	1.578016452672731e-02,5.885271799105525e-10
	1.000000000000000e+00,0.000000000000000e+00
	0.000000000000000e+00,0.000000000000000e+00
	6.701813307210588e-05,4.895220621781748e-14
	6.701813295374453e-05,4.707553726823239e-14
	-1.578016452672730e-06,-5.885271799105518e-14
	4.123514237280810e-05,7.314272365722964e-13
	-3.574300427689944e-05,-2.523755413300509e-14
	-3.914121643235937e-06,-6.473369644482361e-13
	1.578016452672731e-06,5.885271799105525e-14
	-4.123514237286408e-05,-7.314272365722965e-13
	1.578016452672731e-06,5.885271799105525e-14
16		1.445439770745927e+00,0.000000000000000e+00
	1.578016452672731e-02,6.022357389692230e-10
	1.000000000000000e+00,0.000000000000000e+00
	0.000000000000000e+00,0.000000000000000e+00
	6.701813307210588e-05,5.009244957937498e-14
	6.701813295374453e-05,4.817206739443368e-14
	-1.578016452672730e-06,-6.022357389692220e-14
	4.123514237280810e-05,7.484643655477081e-13
	-3.574300427689944e-05,-2.582541228661029e-14
	-3.914121643235937e-06,-6.624153793641756e-13
	1.578016452672731e-06,6.022357389692230e-14
	-4.123514237286408e-05,-7.484643655477082e-13
	1.578016452672731e-06,6.022357389692230e-14
17		1.479108388168207e+00,0.000000000000000e+00
	1.578016452672731e-02,6.162636113882273e-10
	1.000000000000000e+00,0.000000000000000e+00
	0.000000000000000e+00,0.000000000000000e+00
	6.701813307210588e-05,5.125925262075143e-14
	6.701813295374453e-05,4.929413898840018e-14
	-1.578016452672730e-06,-6.162636113882263e-14
	4.123514237280810e-05,7.658983402368303e-13
	-3.574300427689944e-05,-2.642696341564960e-14
	-3.914121643235937e-06,-6.778450156823580e-13
	1.578016452672731e-06,6.162636113882274e-14
	-4.123514237286408e-05,-7.658983402368304e-13
	1.578016452672731e-06,6.162636113882274e-14
18		1.513561248436208e+00,0.000000000000000e+00
	1.578016452672731e-02,6.306182349312029e-10
	1.000000000000000e+00,0.000000000000000e+00
	0.000000000000000e+00,0.000000000000000e+00
	6.701813307210588e-05,5.245323399636383e-14
	6.701813295374453e-05,5.044234698734342e-14
	-1.578016452672730e-06,-6.306182349312020e-14
	4.123514237280810e-05,7.837384043638091e-13
	-3.574300427689944e-05,-2.704252647049410e-14
	-3.914121643235937e-06,-6.936340544001949e-13
	1.578016452672731e-06,6.306182349312029e-14
	-4.123514237286408e-05,-7.837384043638093e-13
	1.578016452672731e-06,6.306182349312029e-14
19		1.548816618912481e+00,0.000000000000000e+00
	1.578016452672731e-02,6.453072206095582e-10
	1.000000000000000e+00,0.000000000000000e+00
	0.000000000000000e+00,0.000000000000000e+00
	6.701813307210588e-05,5.367502677094171e-14
	6.701813295374453e-05,5.161730018634272e-14
	-1.578016452672730e-06,-6.453072206095574e-14
	4.123514237280810e-05,8.019940169667860e-13
	-3.574300427689944e-05,-2.767242783082340e-14
	-3.914121643235937e-06,-7.097908670750069e-13
	1.578016452672731e-06,6.453072206095582e-14
	-4.123514237286408e-05,-8.019940169667860e-13
	1.578016452672731e-06,6.453072206095582e-14
20		1.584893192461113e+00,0.000000000000000e+00
	1.578016452672731e-02,6.603383567179315e-10
	1.000000000000000e+00,0.000000000000000e+00
	0.000000000000000e+00,0.000000000000000e+00
	6.701813307210588e-05,5.492527875518653e-14
	6.701813295374453e-05,5.281962156113657e-14
	-1.578016452672730e-06,-6.603383567179308e-14
	4.123514237280810e-05,8.206748574132044e-13
	-3.574300427689944e-05,-2.831700147867650e-14
	-3.914121643235937e-06,-7.263240202627348e-13
	1.578016452672731e-06,6.603383567179316e-14
	-4.123514237286408e-05,-8.206748574132044e-13
	1.578016452672731e-06,6.603383567179316e-14
21		1.621810097358929e+00,0.000000000000000e+00
	1.578016452672731e-02,6.757196129636481e-10
	1.000000000000000e+00,0.000000000000000e+00
	0.000000000000000e+00,0.000000000000000e+00
	6.701813307210588e-05,5.620465284924935e-14
	6.701813295374453e-05,5.404994859843247e-14
	-1.578016452672730e-06,-6.757196129636477e-14
	4.123514237280810e-05,8.397908305319390e-13
	-3.574300427689944e-05,-2.897658917553341e-14
	-3.914121643235937e-06,-7.432422800600409e-13
	1.578016452672731e-06,6.757196129636481e-14
	-4.123514237286408e-05,-8.397908305319392e-13
	1.578016452672731e-06,6.757196129636481e-14
22		1.659586907437560e+00,0.000000000000000e+00
	1.578016452672731e-02,6.914591446923646e-10
	1.000000000000000e+00,0.000000000000000e+00
	0.000000000000000e+00,0.000000000000000e+00
	6.701813307210588e-05,5.751382739420939e-14
	6.701813295374453e-05,5.530893363391092e-14
	-1.578016452672730e-06,-6.914591446923631e-14
	4.123514237280810e-05,8.593520718649675e-13
	-3.574300427689944e-05,-2.965154064352169e-14
	-3.914121643235937e-06,-7.605546167522095e-13
	1.578016452672731e-06,6.914591446923647e-14
	-4.123514237286408e-05,-8.593520718649679e-13
	1.578016452672731e-06,6.914591446923647e-14
23		1.698243652461743e+00,0.000000000000000e+00
	1.578016452672731e-02,7.075652972121407e-10
	1.000000000000000e+00,0.000000000000000e+00
	0.000000000000000e+00,0.000000000000000e+00
	6.701813307210588e-05,5.885349653173933e-14
	6.701813295374453e-05,5.659724419810235e-14
	-1.578016452672730e-06,-7.075652972121398e-14
	4.123514237280810e-05,8.793689530413682e-13
	-3.574300427689944e-05,-3.034221375084372e-14
	-3.914121643235937e-06,-7.782702095693106e-13
	1.578016452672731e-06,7.075652972121407e-14
	-4.123514237286408e-05,-8.793689530413685e-13
	1.578016452672731e-06,7.075652972121407e-14
24		1.737800828749374e+00,0.000000000000000e+00
	1.578016452672731e-02,7.240466102182326e-10
	1.000000000000000e+00,0.000000000000000e+00
	0.000000000000000e+00,0.000000000000000e+00
	6.701813307210588e-05,6.022437057214852e-14
	6.701813295374453e-05,5.791556337032070e-14
	-1.578016452672730e-06,-7.240466102182314e-14
	4.123514237280810e-05,8.998520872764956e-13
	-3.574300427689944e-05,-3.104897470152310e-14
	-3.914121643235937e-06,-7.963984515531494e-13
	1.578016452672731e-06,7.240466102182326e-14
	-4.123514237286408e-05,-8.998520872764958e-13
	1.578016452672731e-06,7.240466102182326e-14
25		1.778279410038922e+00,0.000000000000000e+00
	1.578016452672731e-02,7.409118223209520e-10
	1.000000000000000e+00,0.000000000000000e+00
	0.000000000000000e+00,0.000000000000000e+00
	6.701813307210588e-05,6.162717637099885e-14
	6.701813295374453e-05,5.926459014084110e-14
	-1.578016452672730e-06,-7.409118223209509e-14
	4.123514237280810e-05,9.208123349992475e-13
	-3.574300427689944e-05,-3.177219822957101e-14
	-3.914121643235937e-06,-8.149489545375815e-13
	1.578016452672731e-06,7.409118223209520e-14
	-4.123514237286408e-05,-9.208123349992477e-13
	1.578016452672731e-06,7.409118223209520e-14
26		1.819700858609982e+00,0.000000000000000e+00
	1.578016452672731e-02,7.581698756789934e-10
	1.000000000000000e+00,0.000000000000000e+00
	0.000000000000000e+00,0.000000000000000e+00
	6.701813307210588e-05,6.306265771449319e-14
	6.701813295374453e-05,6.064503978151377e-14
	-1.578016452672730e-06,-7.581698756789919e-14
	4.123514237280810e-05,9.422608096104080e-13
	-3.574300427689944e-05,-3.251226779767500e-14
	-3.914121643235937e-06,-8.339315542448340e-13
	1.578016452672731e-06,7.581698756789934e-14
	-4.123514237286408e-05,-9.422608096104084e-13
	1.578016452672731e-06,7.581698756789934e-14
27		1.862087136662866e+00,0.000000000000000e+00
	1.578016452672731e-02,7.758299207406844e-10
	1.000000000000000e+00,0.000000000000000e+00
	0.000000000000000e+00,0.000000000000000e+00
	6.701813307210588e-05,6.453157571384070e-14
	6.701813295374453e-05,6.205764422501059e-14
	-1.578016452672730e-06,-7.758299207406828e-14
	4.123514237280810e-05,9.642088833751204e-13
	-3.574300427689944e-05,-3.326957580051604e-14
	-3.914121643235937e-06,-8.533563155005361e-13
	1.578016452672731e-06,7.758299207406844e-14
	-4.123514237286408e-05,-9.642088833751208e-13
	1.578016452672731e-06,7.758299207406844e-14
28		1.905460717963246e+00,0.000000000000000e+00
	1.578016452672731e-02,7.939013210956751e-10
	1.000000000000000e+00,0.000000000000000e+00
	0.000000000000000e+00,0.000000000000000e+00
	6.701813307210588e-05,6.603470920880810e-14
	6.701813295374453e-05,6.350315245290554e-14
	-1.578016452672730e-06,-7.939013210956753e-14
	4.123514237280810e-05,9.866681934526119e-13
	-3.574300427689944e-05,-3.404452377282143e-14
	-3.914121643235937e-06,-8.732335375702228e-13
	1.578016452672731e-06,7.939013210956751e-14
	-4.123514237286408e-05,-9.866681934526121e-13
	1.578016452672731e-06,7.939013210956751e-14
29		1.949844599758044e+00,0.000000000000000e+00
	1.578016452672731e-02,8.123936584396376e-10
	1.000000000000000e+00,0.000000000000000e+00
	0.000000000000000e+00,0.000000000000000e+00
	6.701813307210588e-05,6.757285518067071e-14
	6.701813295374453e-05,6.498233089279464e-14
	-1.578016452672730e-06,-8.123936584396340e-14
	4.123514237280810e-05,1.009650648066369e-12
	-3.574300427689944e-05,-3.483752260226371e-14
	-3.914121643235937e-06,-8.935737596201419e-13
	1.578016452672731e-06,8.123936584396377e-14
	-4.123514237286408e-05,-1.009650648066369e-12
	1.578016452672731e-06,8.123936584396377e-14
30		1.995262314968878e+00,0.000000000000000e+00
	1.578016452672731e-02,8.313167376546053e-10
	1.000000000000000e+00,0.000000000000000e+00
	0.000000000000000e+00,0.000000000000000e+00
	6.701813307210588e-05,6.914682917478261e-14
	6.701813295374453e-05,6.649596382466591e-14
	-1.578016452672730e-06,-8.313167376546043e-14
	4.123514237280810e-05,1.033168432818037e-12
	-3.574300427689944e-05,-3.564899274731884e-14
	-3.914121643235937e-06,-9.143877663052580e-13
	1.578016452672731e-06,8.313167376546053e-14
	-4.123514237286408e-05,-1.033168432818037e-12
	1.578016452672731e-06,8.313167376546053e-14
31		2.041737944669527e+00,0.000000000000000e+00
	1.578016452672731e-02,8.506805920076557e-10
	1.000000000000000e+00,0.000000000000000e+00
	0.000000000000000e+00,0.000000000000000e+00
	6.701813307210588e-05,7.075746573298940e-14
	6.701813295374453e-05,6.804485379673513e-14
	-1.578016452672730e-06,-8.506805920076544e-14
	4.123514237280810e-05,1.057234017148386e-12
	-3.574300427689944e-05,-3.647936446019878e-14
	-3.914121643235937e-06,-9.356865934874221e-13
	1.578016452672731e-06,8.506805920076557e-14
	-4.123514237286408e-05,-1.057234017148387e-12
	1.578016452672731e-06,8.506805920076557e-14
32		2.089296130854037e+00,0.000000000000000e+00
	1.578016452672731e-02,8.704954884706773e-10
	1.000000000000000e+00,0.000000000000000e+00
	0.000000000000000e+00,0.000000000000000e+00
	6.701813307210588e-05,7.240561883611368e-14
	6.701813295374453e-05,6.962982205096755e-14
	-1.578016452672730e-06,-8.704954884706771e-14
