Title: * GA CMOS Amp | W=4.097711103473026e-05 L=1.2679583432991237e-07 Vbias=1.2581991252261115
Date: Sat Sep  6 22:08:21 2025
Plotname: AC Analysis
Flags: complex forward log
No. Variables: 13
No. Points:          901
Offset:    0.0000000000000000e+00
Command: Linear Technology Corporation LTspice
Variables:
	0	frequency	frequency
	1	V(out)	voltage
	2	V(g)	voltage
	3	V(vdd)	voltage
	4	V(m1#dbody)	voltage
	5	V(m1#sbody)	voltage
	6	Id(M1)	device_current
	7	Ig(M1)	device_current
	8	Ib(M1)	device_current
	9	Is(M1)	device_current
	10	I(Rload)	device_current
	11	I(Vg)	device_current
	12	I(Vdd)	device_current
Values:
0		1.000000000000000e+00,0.000000000000000e+00
	-2.156781091883550e-04,2.844710240919216e-11
	1.000000000000000e+00,0.000000000000000e+00
	0.000000000000000e+00,0.000000000000000e+00
	1.113808676278126e-05,5.908319276499650e-15
	1.113808676489608e-05,6.109637167719472e-15
	2.156781091883577e-08,-2.844710240919371e-15
	1.115643816762006e-05,1.578383392123744e-12
	-5.940312945631395e-06,-3.251934417684412e-15
	-5.237693032907498e-06,-1.572286747465140e-12
	-2.156781091883550e-08,2.844710240919217e-15
	-1.115643816762199e-05,-1.578383392123743e-12
	-2.156781091883550e-08,2.844710240919217e-15
1		1.023292992280754e+00,0.000000000000000e+00
	-2.156781091883550e-04,2.910972054601930e-11
	1.000000000000000e+00,0.000000000000000e+00
	0.000000000000000e+00,0.000000000000000e+00
	1.113808676278126e-05,6.045941711799389e-15
	1.113808676489608e-05,6.251948899105372e-15
	2.156781091883577e-08,-2.910972054602086e-15
	1.115643816762006e-05,1.615148664292553e-12
	-5.940312945631395e-06,-3.327681700973055e-15
	-5.237693032907498e-06,-1.608910010536977e-12
	-2.156781091883550e-08,2.910972054601930e-15
	-1.115643816762199e-05,-1.615148664292553e-12
	-2.156781091883550e-08,2.910972054601930e-15
2		1.047128548050899e+00,0.000000000000000e+00
	-2.156781091883550e-04,2.978777304199264e-11
	1.000000000000000e+00,0.000000000000000e+00
	0.000000000000000e+00,0.000000000000000e+00
	1.113808676278126e-05,6.186769785422221e-15
	1.113808676489608e-05,6.397575496551903e-15
	2.156781091883577e-08,-2.978777304199295e-15
	1.115643816762006e-05,1.652770309662190e-12
	-5.940312945631395e-06,-3.405193365146627e-15
	-5.237693032907498e-06,-1.646386338992843e-12
	-2.156781091883550e-08,2.978777304199264e-15
	-1.115643816762199e-05,-1.652770309662189e-12
	-2.156781091883550e-08,2.978777304199264e-15
3		1.071519305237606e+00,0.000000000000000e+00
	-2.156781091883550e-04,3.048161940952063e-11
	1.000000000000000e+00,0.000000000000000e+00
	0.000000000000000e+00,0.000000000000000e+00
	1.113808676278126e-05,6.330878166276862e-15
	1.113808676489608e-05,6.546594173208626e-15
	2.156781091883577e-08,-3.048161940952045e-15
	1.115643816762006e-05,1.691268275727010e-12
	-5.940312945631395e-06,-3.484510507915461e-15
	-5.237693032907498e-06,-1.684735603278142e-12
	-2.156781091883550e-08,3.048161940952063e-15
	-1.115643816762199e-05,-1.691268275727010e-12
	-2.156781091883550e-08,3.048161940952063e-15
4		1.096478196143185e+00,0.000000000000000e+00
	-2.156781091883550e-04,3.119162753513147e-11
	1.000000000000000e+00,0.000000000000000e+00
	0.000000000000000e+00,0.000000000000000e+00
	1.113808676278126e-05,6.478343262534345e-15
	1.113808676489608e-05,6.699083940750406e-15
	2.156781091883577e-08,-3.119162753513199e-15
	1.115643816762006e-05,1.730662974618203e-12
	-5.940312945631395e-06,-3.565675184278543e-15
	-5.237693032907498e-06,-1.723978136680412e-12
	-2.156781091883550e-08,3.119162753513147e-15
	-1.115643816762199e-05,-1.730662974618203e-12
	-2.156781091883550e-08,3.119162753513147e-15
5		1.122018454301963e+00,0.000000000000000e+00
	-2.156781091883550e-04,3.191817387453145e-11
	1.000000000000000e+00,0.000000000000000e+00
	0.000000000000000e+00,0.000000000000000e+00
	1.113808676278126e-05,6.629243262140635e-15
	1.113808676489608e-05,6.855125651270431e-15
	2.156781091883577e-08,-3.191817387453342e-15
	1.115643816762006e-05,1.770975293926572e-12
	-5.940312945631395e-06,-3.648730428821621e-15
	-5.237693032907498e-06,-1.764134746110297e-12
	-2.156781091883550e-08,3.191817387453145e-15
	-1.115643816762199e-05,-1.770975293926572e-12
	-2.156781091883550e-08,3.191817387453145e-15
6		1.148153621496882e+00,0.000000000000000e+00
	-2.156781091883550e-04,3.266164365220668e-11
	1.000000000000000e+00,0.000000000000000e+00
	0.000000000000000e+00,0.000000000000000e+00
	1.113808676278126e-05,6.783658174272915e-15
	1.113808676489608e-05,7.014802040149069e-15
	2.156781091883577e-08,-3.266164365220742e-15
	1.115643816762006e-05,1.812226607777411e-12
	-5.940312945631395e-06,-3.733720278534714e-15
	-5.237693032907498e-06,-1.805226723133655e-12
	-2.156781091883550e-08,3.266164365220668e-15
	-1.115643816762199e-05,-1.812226607777410e-12
	-2.156781091883550e-08,3.266164365220668e-15
7		1.174897554939529e+00,0.000000000000000e+00
	-2.156781091883550e-04,3.342243106567426e-11
	1.000000000000000e+00,0.000000000000000e+00
	0.000000000000000e+00,0.000000000000000e+00
	1.113808676278126e-05,6.941669871761528e-15
	1.113808676489608e-05,7.178197769921280e-15
	2.156781091883577e-08,-3.342243106567530e-15
	1.115643816762006e-05,1.854438788163347e-12
	-5.940312945631395e-06,-3.820689796161118e-15
	-5.237693032907498e-06,-1.847275855260618e-12
	-2.156781091883550e-08,3.342243106567427e-15
	-1.115643816762199e-05,-1.854438788163346e-12
	-2.156781091883550e-08,3.342243106567427e-15
8		1.202264434617413e+00,0.000000000000000e+00
	-2.156781091883550e-04,3.420093949449105e-11
	1.000000000000000e+00,0.000000000000000e+00
	0.000000000000000e+00,0.000000000000000e+00
	1.113808676278126e-05,7.103362134500012e-15
	1.113808676489608e-05,7.345399475165781e-15
	2.156781091883577e-08,-3.420093949449334e-15
	1.115643816762006e-05,1.897634216541167e-12
	-5.940312945631395e-06,-3.909685094090255e-15
	-5.237693032907498e-06,-1.890304437497627e-12
	-2.156781091883550e-08,3.420093949449105e-15
	-1.115643816762199e-05,-1.897634216541167e-12
	-2.156781091883550e-08,3.420093949449105e-15
9		1.230268770812381e+00,0.000000000000000e+00
	-2.156781091883550e-04,3.499758171413078e-11
	1.000000000000000e+00,0.000000000000000e+00
	0.000000000000000e+00,0.000000000000000e+00
	1.113808676278126e-05,7.268820693866325e-15
	1.113808676489608e-05,7.516495808439875e-15
	2.156781091883577e-08,-3.499758171413129e-15
	1.115643816762006e-05,1.941835795698755e-12
	-5.940312945631395e-06,-4.000753358807080e-15
	-5.237693032907498e-06,-1.934335284168535e-12
	-2.156781091883550e-08,3.499758171413078e-15
	-1.115643816762199e-05,-1.941835795698755e-12
	-2.156781091883550e-08,3.499758171413078e-15
10		1.258925411794167e+00,0.000000000000000e+00
	-2.156781091883550e-04,3.581278011484309e-11
	1.000000000000000e+00,0.000000000000000e+00
	0.000000000000000e+00,0.000000000000000e+00
	1.113808676278126e-05,7.438133278178737e-15
	1.113808676489608e-05,7.691577487284185e-15
	2.156781091883577e-08,-3.581278011484508e-15
	1.115643816762006e-05,1.987066961898458e-12
	-5.940312945631395e-06,-4.093942875910973e-15
	-5.237693032907498e-06,-1.979391741011063e-12
	-2.156781091883550e-08,3.581278011484309e-15
	-1.115643816762199e-05,-1.987066961898458e-12
	-2.156781091883550e-08,3.581278011484309e-15
11		1.288249551693134e+00,0.000000000000000e+00
	-2.156781091883550e-04,3.664696692561047e-11
	1.000000000000000e+00,0.000000000000000e+00
	0.000000000000000e+00,0.000000000000000e+00
	1.113808676278126e-05,7.611389659210577e-15
	1.113808676489608e-05,7.870737342322320e-15
	2.156781091883577e-08,-3.664696692561228e-15
	1.115643816762006e-05,2.033351697303300e-12
	-5.940312945631395e-06,-4.189303055717418e-15
	-5.237693032907498e-06,-2.025497697555021e-12
	-2.156781091883550e-08,3.664696692561047e-15
	-1.115643816762199e-05,-2.033351697303301e-12
	-2.156781091883550e-08,3.664696692561047e-15
12		1.318256738556407e+00,0.000000000000000e+00
	-2.156781091883550e-04,3.750058444332177e-11
	1.000000000000000e+00,0.000000000000000e+00
	0.000000000000000e+00,0.000000000000000e+00
	1.113808676278126e-05,7.788681699788380e-15
	1.113808676489608e-05,8.054070366480876e-15
	2.156781091883577e-08,-3.750058444332341e-15
	1.115643816762006e-05,2.080714542692645e-12
	-5.940312945631395e-06,-4.286884459455983e-15
	-5.237693032907498e-06,-2.072677599788856e-12
	-2.156781091883550e-08,3.750058444332177e-15
	-1.115643816762199e-05,-2.080714542692645e-12
	-2.156781091883550e-08,3.750058444332177e-15
13		1.348962882591653e+00,0.000000000000000e+00
	-2.156781091883550e-04,3.837408526728383e-11
	1.000000000000000e+00,0.000000000000000e+00
	0.000000000000000e+00,0.000000000000000e+00
	1.113808676278126e-05,7.970103402498804e-15
	1.113808676489608e-05,8.241673765355968e-15
	2.156781091883577e-08,-3.837408526728635e-15
	1.115643816762006e-05,2.129180610474038e-12
	-5.940312945631395e-06,-4.386738826078577e-15
	-5.237693032907498e-06,-2.120956463121230e-12
	-2.156781091883550e-08,3.837408526728384e-15
	-1.115643816762199e-05,-2.129180610474038e-12
	-2.156781091883550e-08,3.837408526728384e-15
14		1.380384264602885e+00,0.000000000000000e+00
	-2.156781091883550e-04,3.926793253919568e-11
	1.000000000000000e+00,0.000000000000000e+00
	0.000000000000000e+00,0.000000000000000e+00
	1.113808676278126e-05,8.155750959530019e-15
	1.113808676489608e-05,8.433647008752896e-15
	2.156781091883577e-08,-3.926793253919563e-15
	1.115643816762006e-05,2.178775597998141e-12
	-5.940312945631395e-06,-4.488919099692108e-15
	-5.237693032907498e-06,-2.170359885644529e-12
	-2.156781091883550e-08,3.926793253919568e-15
	-1.115643816762199e-05,-2.178775597998141e-12
	-2.156781091883550e-08,3.926793253919568e-15
15		1.412537544622754e+00,0.000000000000000e+00
	-2.156781091883550e-04,4.018260018871233e-11
	1.000000000000000e+00,0.000000000000000e+00
	0.000000000000000e+00,0.000000000000000e+00
	1.113808676278126e-05,8.345722803674104e-15
	1.113808676489608e-05,8.630091883426382e-15
	2.156781091883577e-08,-4.018260018871373e-15
	1.115643816762006e-05,2.229525801183807e-12
	-5.940312945631395e-06,-4.593479457630166e-15
	-5.237693032907498e-06,-2.220914061707305e-12
	-2.156781091883550e-08,4.018260018871233e-15
	-1.115643816762199e-05,-2.229525801183807e-12
	-2.156781091883550e-08,4.018260018871233e-15
16		1.445439770745927e+00,0.000000000000000e+00
	-2.156781091883550e-04,4.111857318472864e-11
	1.000000000000000e+00,0.000000000000000e+00
	0.000000000000000e+00,0.000000000000000e+00
	1.113808676278126e-05,8.540119660517396e-15
	1.113808676489608e-05,8.831112547049231e-15
	2.156781091883577e-08,-4.111857318472722e-15
	1.115643816762006e-05,2.281458128460523e-12
	-5.940312945631395e-06,-4.700475339178548e-15
	-5.237693032907498e-06,-2.272645795802871e-12
	-2.156781091883550e-08,4.111857318472864e-15
	-1.115643816762199e-05,-2.281458128460523e-12
	-2.156781091883550e-08,4.111857318472864e-15
17		1.479108388168207e+00,0.000000000000000e+00
	-2.156781091883550e-04,4.207634779251613e-11
	1.000000000000000e+00,0.000000000000000e+00
	0.000000000000000e+00,0.000000000000000e+00
	1.113808676278126e-05,8.739044601846544e-15
	1.113808676489608e-05,9.036815583438119e-15
	2.156781091883577e-08,-4.207634779251795e-15
	1.115643816762006e-05,2.334600115035617e-12
	-5.940312945631395e-06,-4.809963474969907e-15
	-5.237693032907498e-06,-2.325582516781395e-12
	-2.156781091883550e-08,4.207634779251613e-15
	-1.115643816762199e-05,-2.334600115035617e-12
	-2.156781091883550e-08,4.207634779251613e-15
18		1.513561248436208e+00,0.000000000000000e+00
	-2.156781091883550e-04,4.305643183684955e-11
	1.000000000000000e+00,0.000000000000000e+00
	0.000000000000000e+00,0.000000000000000e+00
	1.113808676278126e-05,8.942603100298522e-15
	1.113808676489608e-05,9.247310059065741e-15
	2.156781091883577e-08,-4.305643183684928e-15
	1.115643816762006e-05,2.388979937493789e-12
	-5.940312945631395e-06,-4.922001917063091e-15
	-5.237693032907498e-06,-2.379752292393041e-12
	-2.156781091883550e-08,4.305643183684954e-15
	-1.115643816762199e-05,-2.388979937493790e-12
	-2.156781091883550e-08,4.305643183684954e-15
19		1.548816618912481e+00,0.000000000000000e+00
	-2.156781091883550e-04,4.405934497126210e-11
	1.000000000000000e+00,0.000000000000000e+00
	0.000000000000000e+00,0.000000000000000e+00
	1.113808676278126e-05,9.150903085283625e-15
	1.113808676489608e-05,9.462707580889299e-15
	2.156781091883577e-08,-4.405934497126224e-15
	1.115643816762006e-05,2.444626428736709e-12
	-5.940312945631395e-06,-5.036650069723099e-15
	-5.237693032907498e-06,-2.435183844169860e-12
	-2.156781091883550e-08,4.405934497126211e-15
	-1.115643816762199e-05,-2.444626428736709e-12
	-2.156781091883550e-08,4.405934497126211e-15
20		1.584893192461113e+00,0.000000000000000e+00
	-2.156781091883550e-04,4.508561895357280e-11
	1.000000000000000e+00,0.000000000000000e+00
	0.000000000000000e+00,0.000000000000000e+00
	1.113808676278126e-05,9.364055000211066e-15
	1.113808676489608e-05,9.683122355525989e-15
	2.156781091883577e-08,-4.508561895356949e-15
	1.115643816762006e-05,2.501569093270601e-12
	-5.940312945631395e-06,-5.153968720918019e-15
	-5.237693032907498e-06,-2.491906562654326e-12
	-2.156781091883550e-08,4.508561895357280e-15
	-1.115643816762199e-05,-2.501569093270601e-12
	-2.156781091883550e-08,4.508561895357280e-15
21		1.621810097358929e+00,0.000000000000000e+00
	-2.156781091883550e-04,4.613579792783137e-11
	1.000000000000000e+00,0.000000000000000e+00
	0.000000000000000e+00,0.000000000000000e+00
	1.113808676278126e-05,9.582171861047537e-15
	1.113808676489608e-05,9.908671249806852e-15
	2.156781091883577e-08,-4.613579792783587e-15
	1.115643816762006e-05,2.559838122849926e-12
	-5.940312945631395e-06,-5.274020074549611e-15
	-5.237693032907498e-06,-2.549950522982592e-12
	-2.156781091883550e-08,4.613579792783138e-15
	-1.115643816762199e-05,-2.559838122849926e-12
	-2.156781091883550e-08,4.613579792783138e-15
22		1.659586907437560e+00,0.000000000000000e+00
	-2.156781091883550e-04,4.721043871283078e-11
	1.000000000000000e+00,0.000000000000000e+00
	0.000000000000000e+00,0.000000000000000e+00
	1.113808676278126e-05,9.805369316239778e-15
	1.113808676489608e-05,1.013947385274114e-14
	2.156781091883577e-08,-4.721043871282935e-15
	1.115643816762006e-05,2.619464412485449e-12
	-5.940312945631395e-06,-5.396867783434637e-15
	-5.237693032907498e-06,-2.609346500830731e-12
	-2.156781091883550e-08,4.721043871283078e-15
	-1.115643816762199e-05,-2.619464412485449e-12
	-2.156781091883550e-08,4.721043871283078e-15
23		1.698243652461743e+00,0.000000000000000e+00
	-2.156781091883550e-04,4.831011109733977e-11
	1.000000000000000e+00,0.000000000000000e+00
	0.000000000000000e+00,0.000000000000000e+00
	1.113808676278126e-05,1.003376570803289e-14
	1.113808676489608e-05,1.037565253892394e-14
	2.156781091883577e-08,-4.831011109734431e-15
	1.115643816762006e-05,2.680479576825183e-12
	-5.940312945631395e-06,-5.522576983054431e-15
	-5.237693032907498e-06,-2.670125988732394e-12
	-2.156781091883550e-08,4.831011109733977e-15
	-1.115643816762199e-05,-2.680479576825183e-12
	-2.156781091883550e-08,4.831011109733977e-15
24		1.737800828749374e+00,0.000000000000000e+00
	-2.156781091883550e-04,4.943539814221247e-11
	1.000000000000000e+00,0.000000000000000e+00
	0.000000000000000e+00,0.000000000000000e+00
	1.113808676278126e-05,1.026748213521700e-14
	1.113808676489608e-05,1.061733253342088e-14
	2.156781091883577e-08,-4.943539814221536e-15
	1.115643816762006e-05,2.742915966916891e-12
	-5.940312945631395e-06,-5.651214326090587e-15
	-5.237693032907498e-06,-2.732321212776579e-12
	-2.156781091883550e-08,4.943539814221247e-15
	-1.115643816762199e-05,-2.742915966916891e-12
	-2.156781091883550e-08,4.943539814221247e-15
25		1.778279410038922e+00,0.000000000000000e+00
	-2.156781091883550e-04,5.058689648953505e-11
	1.000000000000000e+00,0.000000000000000e+00
	0.000000000000000e+00,0.000000000000000e+00
	1.113808676278126e-05,1.050664251733539e-14
	1.113808676489608e-05,1.086464197816406e-14
	2.156781091883577e-08,-5.058689648953466e-15
	1.115643816762006e-05,2.806806687361043e-12
	-5.940312945631395e-06,-5.782848017765103e-15
	-5.237693032907498e-06,-2.795965149694324e-12
	-2.156781091883550e-08,5.058689648953504e-15
	-1.115643816762199e-05,-2.806806687361044e-12
	-2.156781091883550e-08,5.058689648953504e-15
26		1.819700858609982e+00,0.000000000000000e+00
	-2.156781091883550e-04,5.176521667897308e-11
	1.000000000000000e+00,0.000000000000000e+00
	0.000000000000000e+00,0.000000000000000e+00
	1.113808676278126e-05,1.075137366038833e-14
	1.113808676489608e-05,1.111771199989459e-14
	2.156781091883577e-08,-5.176521667897376e-15
	1.115643816762006e-05,2.872185613863312e-12
	-5.940312945631395e-06,-5.917547852003678e-15
	-5.237693032907498e-06,-2.861091544343411e-12
	-2.156781091883550e-08,5.176521667897308e-15
	-1.115643816762199e-05,-2.872185613863313e-12
	-2.156781091883550e-08,5.176521667897308e-15
27		1.862087136662866e+00,0.000000000000000e+00
	-2.156781091883550e-04,5.297098347148796e-11
	1.000000000000000e+00,0.000000000000000e+00
	0.000000000000000e+00,0.000000000000000e+00
	1.113808676278126e-05,1.100180532406726e-14
	1.113808676489608e-05,1.137667677968778e-14
	2.156781091883577e-08,-5.297098347148874e-15
	1.115643816762006e-05,2.939087411195924e-12
	-5.940312945631395e-06,-6.055385248441394e-15
	-5.237693032907498e-06,-2.927734927600334e-12
	-2.156781091883550e-08,5.297098347148797e-15
	-1.115643816762199e-05,-2.939087411195924e-12
	-2.156781091883550e-08,5.297098347148797e-15
28		1.905460717963246e+00,0.000000000000000e+00
	-2.156781091883550e-04,5.420483618059329e-11
	1.000000000000000e+00,0.000000000000000e+00
	0.000000000000000e+00,0.000000000000000e+00
	1.113808676278126e-05,1.125807029055511e-14
	1.113808676489608e-05,1.164167362409768e-14
	2.156781091883577e-08,-5.420483618059227e-15
	1.115643816762006e-05,3.007547551577372e-12
	-5.940312945631395e-06,-6.196433290290331e-15
	-5.237693032907498e-06,-2.995930634669022e-12
	-2.156781091883550e-08,5.420483618059329e-15
	-1.115643816762199e-05,-3.007547551577373e-12
	-2.156781091883550e-08,5.420483618059329e-15
29		1.949844599758044e+00,0.000000000000000e+00
	-2.156781091883550e-04,5.546742901132738e-11
	1.000000000000000e+00,0.000000000000000e+00
	0.000000000000000e+00,0.000000000000000e+00
	1.113808676278126e-05,1.152030443492920e-14
	1.113808676489608e-05,1.191284303795885e-14
	2.156781091883577e-08,-5.546742901133008e-15
	1.115643816762006e-05,3.077602333480265e-12
	-5.940312945631395e-06,-6.340766763089271e-15
	-5.237693032907498e-06,-3.065714823816043e-12
	-2.156781091883550e-08,5.546742901132739e-15
	-1.115643816762199e-05,-3.077602333480265e-12
	-2.156781091883550e-08,5.546742901132739e-15
30		1.995262314968878e+00,0.000000000000000e+00
	-2.156781091883550e-04,5.675943140712151e-11
	1.000000000000000e+00,0.000000000000000e+00
	0.000000000000000e+00,0.000000000000000e+00
	1.113808676278126e-05,1.178864679720394e-14
	1.113808676489608e-05,1.219032879888386e-14
	2.156781091883577e-08,-5.675943140712123e-15
	1.115643816762006e-05,3.149288900877250e-12
	-5.940312945631395e-06,-6.488462194355972e-15
	-5.237693032907498e-06,-3.137124495542182e-12
	-2.156781091883550e-08,5.675943140712151e-15
	-1.115643816762199e-05,-3.149288900877251e-12
	-2.156781091883550e-08,5.675943140712151e-15
31		2.041737944669527e+00,0.000000000000000e+00
	-2.156781091883550e-04,5.808152840474757e-11
	1.000000000000000e+00,0.000000000000000e+00
	0.000000000000000e+00,0.000000000000000e+00
	1.113808676278126e-05,1.206323965605175e-14
	1.113808676489608e-05,1.247427803349611e-14
	2.156781091883577e-08,-5.808152840475109e-15
	1.115643816762006e-05,3.222645262935250e-12
	-5.940312945631395e-06,-6.639597894163069e-15
	-5.237693032907498e-06,-3.210197512200611e-12
	-2.156781091883550e-08,5.808152840474757e-15
	-1.115643816762199e-05,-3.222645262935249e-12
	-2.156781091883550e-08,5.808152840474757e-15
32		2.089296130854037e+00,0.000000000000000e+00
	-2.156781091883550e-04,5.943442099753377e-11
	1.000000000000000e+00,0.000000000000000e+00
	0.000000000000000e+00,0.000000000000000e+00
	1.113808676278126e-05,1.234422860424105e-14
