Title: * GA CMOS Amp | W=2.1929003491202042e-06 L=9.755811584233575e-07 Vbias=1.5
Date: Sat Sep  6 22:15:08 2025
Plotname: AC Analysis
Flags: complex forward log
No. Variables: 13
No. Points:          901
Offset:    0.0000000000000000e+00
Command: Linear Technology Corporation LTspice
Variables:
	0	frequency	frequency
	1	V(out)	voltage
	2	V(g)	voltage
	3	V(vdd)	voltage
	4	V(m1#dbody)	voltage
	5	V(m1#sbody)	voltage
	6	Id(M1)	device_current
	7	Ig(M1)	device_current
	8	Ib(M1)	device_current
	9	Is(M1)	device_current
	10	I(Rload)	device_current
	11	I(Vg)	device_current
	12	I(Vdd)	device_current
Values:
0		1.000000000000000e+00,0.000000000000000e+00
	-3.288881464709829e-01,1.445139362370022e-09
	1.000000000000000e+00,0.000000000000000e+00
	0.000000000000000e+00,0.000000000000000e+00
	8.060788599061240e-05,1.310162155059178e-13
	8.060788845726786e-05,1.448589282929741e-13
	3.288881464709828e-05,-1.445139362370022e-13
	4.777949010484515e-05,4.731054011689473e-13
	-4.299087371191973e-05,-7.633791319098022e-14
	-3.767743104002371e-05,-2.522535517409649e-13
	-3.288881464709829e-05,1.445139362370022e-13
	-4.777949010481564e-05,-4.731054011689473e-13
	-3.288881464709829e-05,1.445139362370022e-13
1		1.023292992280754e+00,0.000000000000000e+00
	-3.288881464709829e-01,1.478800982382321e-09
	1.000000000000000e+00,0.000000000000000e+00
	0.000000000000000e+00,0.000000000000000e+00
	8.060788599061240e-05,1.340679752023508e-13
	8.060788845726786e-05,1.482331261915007e-13
	3.288881464709828e-05,-1.478800982382321e-13
	4.777949010484515e-05,4.841254416263587e-13
	-4.299087371191973e-05,-7.811605161366660e-14
	-3.767743104002371e-05,-2.581292917744600e-13
	-3.288881464709829e-05,1.478800982382321e-13
	-4.777949010481564e-05,-4.841254416263587e-13
	-3.288881464709829e-05,1.478800982382321e-13
2		1.047128548050899e+00,0.000000000000000e+00
	-3.288881464709829e-01,1.513246682249724e-09
	1.000000000000000e+00,0.000000000000000e+00
	0.000000000000000e+00,0.000000000000000e+00
	8.060788599061240e-05,1.371908195138355e-13
	8.060788845726786e-05,1.516859192556314e-13
	3.288881464709828e-05,-1.513246682249724e-13
	4.777949010484515e-05,4.954021718010781e-13
	-4.299087371191973e-05,-7.993560820090674e-14
	-3.767743104002371e-05,-2.641418953751990e-13
	-3.288881464709829e-05,1.513246682249724e-13
	-4.777949010481564e-05,-4.954021718010780e-13
	-3.288881464709829e-05,1.513246682249724e-13
3		1.071519305237606e+00,0.000000000000000e+00
	-3.288881464709829e-01,1.548494725538244e-09
	1.000000000000000e+00,0.000000000000000e+00
	0.000000000000000e+00,0.000000000000000e+00
	8.060788599061240e-05,1.403864042137615e-13
	8.060788845726786e-05,1.552191382019518e-13
	3.288881464709828e-05,-1.548494725538244e-13
	4.777949010484515e-05,5.069415707647094e-13
	-4.299087371191973e-05,-8.179754770568781e-14
	-3.767743104002371e-05,-2.702945505051972e-13
	-3.288881464709829e-05,1.548494725538244e-13
	-4.777949010481564e-05,-5.069415707647096e-13
	-3.288881464709829e-05,1.548494725538244e-13
4		1.096478196143185e+00,0.000000000000000e+00
	-3.288881464709829e-01,1.584563801226994e-09
	1.000000000000000e+00,0.000000000000000e+00
	0.000000000000000e+00,0.000000000000000e+00
	8.060788599061240e-05,1.436564236434355e-13
	8.060788845726786e-05,1.588346563899152e-13
	3.288881464709828e-05,-1.584563801226994e-13
	4.777949010484515e-05,5.187497568593250e-13
	-4.299087371191973e-05,-8.370285735298101e-14
	-3.767743104002371e-05,-2.765905193836446e-13
	-3.288881464709829e-05,1.584563801226994e-13
	-4.777949010481564e-05,-5.187497568593250e-13
	-3.288881464709829e-05,1.584563801226994e-13
5		1.122018454301963e+00,0.000000000000000e+00
	-3.288881464709829e-01,1.621473033617337e-09
	1.000000000000000e+00,0.000000000000000e+00
	0.000000000000000e+00,0.000000000000000e+00
	8.060788599061240e-05,1.470026116104429e-13
	8.060788845726786e-05,1.625343908151218e-13
	3.288881464709828e-05,-1.621473033617337e-13
	4.777949010484515e-05,5.308329909414925e-13
	-4.299087371191973e-05,-8.565254736318108e-14
	-3.767743104002371e-05,-2.830331402165777e-13
	-3.288881464709829e-05,1.621473033617337e-13
	-4.777949010481564e-05,-5.308329909414926e-13
	-3.288881464709829e-05,1.621473033617337e-13
6		1.148153621496882e+00,0.000000000000000e+00
	-3.288881464709829e-01,1.659241992472837e-09
	1.000000000000000e+00,0.000000000000000e+00
	0.000000000000000e+00,0.000000000000000e+00
	8.060788599061240e-05,1.504267423079356e-13
	8.060788845726786e-05,1.663203031257355e-13
	3.288881464709828e-05,-1.659241992472837e-13
	4.777949010484515e-05,5.431976797018623e-13
	-4.299087371191973e-05,-8.764765148773857e-14
	-3.767743104002371e-05,-2.896258289668401e-13
	-3.288881464709829e-05,1.659241992472837e-13
	-4.777949010481564e-05,-5.431976797018623e-13
	-3.288881464709829e-05,1.659241992472837e-13
7		1.174897554939529e+00,0.000000000000000e+00
	-3.288881464709829e-01,1.697890703395410e-09
	1.000000000000000e+00,0.000000000000000e+00
	0.000000000000000e+00,0.000000000000000e+00
	8.060788599061240e-05,1.539306312553332e-13
	8.060788845726786e-05,1.701944006625759e-13
	3.288881464709828e-05,-1.697890703395410e-13
	4.777949010484515e-05,5.558503790620813e-13
	-4.299087371191973e-05,-8.968922755726869e-14
	-3.767743104002371e-05,-2.963720811652717e-13
	-3.288881464709829e-05,1.697890703395410e-13
	-4.777949010481564e-05,-5.558503790620812e-13
	-3.288881464709829e-05,1.697890703395410e-13
8		1.202264434617413e+00,0.000000000000000e+00
	-3.288881464709829e-01,1.737439658443163e-09
	1.000000000000000e+00,0.000000000000000e+00
	0.000000000000000e+00,0.000000000000000e+00
	8.060788599061240e-05,1.575161362609354e-13
	8.060788845726786e-05,1.741587375234369e-13
	3.288881464709828e-05,-1.737439658443163e-13
	4.777949010484515e-05,5.687977976508287e-13
	-4.299087371191973e-05,-9.177835804242697e-14
	-3.767743104002371e-05,-3.032754737640853e-13
	-3.288881464709829e-05,1.737439658443163e-13
	-4.777949010481564e-05,-5.687977976508287e-13
	-3.288881464709829e-05,1.737439658443163e-13
9		1.230268770812381e+00,0.000000000000000e+00
	-3.288881464709829e-01,1.777909826995556e-09
	1.000000000000000e+00,0.000000000000000e+00
	0.000000000000000e+00,0.000000000000000e+00
	8.060788599061240e-05,1.611851584069556e-13
	8.060788845726786e-05,1.782154156521961e-13
	3.288881464709828e-05,-1.777909826995556e-13
	4.777949010484515e-05,5.820468003608194e-13
	-4.299087371191973e-05,-9.391615062784950e-14
	-3.767743104002371e-05,-3.103396670334143e-13
	-3.288881464709829e-05,1.777909826995556e-13
	-4.777949010481564e-05,-5.820468003608194e-13
	-3.288881464709829e-05,1.777909826995556e-13
10		1.258925411794167e+00,0.000000000000000e+00
	-3.288881464709829e-01,1.819322666871640e-09
	1.000000000000000e+00,0.000000000000000e+00
	0.000000000000000e+00,0.000000000000000e+00
	8.060788599061240e-05,1.649396430575009e-13
	8.060788845726786e-05,1.823665859532942e-13
	3.288881464709828e-05,-1.819322666871640e-13
	4.777949010484515e-05,5.956044119886616e-13
	-4.299087371191973e-05,-9.610373879946216e-14
	-3.767743104002371e-05,-3.175684065020354e-13
	-3.288881464709829e-05,1.819322666871640e-13
	-4.777949010481564e-05,-5.956044119886618e-13
	-3.288881464709829e-05,1.819322666871640e-13
11		1.288249551693134e+00,0.000000000000000e+00
	-3.288881464709829e-01,1.861700135707283e-09
	1.000000000000000e+00,0.000000000000000e+00
	0.000000000000000e+00,0.000000000000000e+00
	8.060788599061240e-05,1.687815808900297e-13
	8.060788845726786e-05,1.866144494321718e-13
	3.288881464709828e-05,-1.861700135707283e-13
	4.777949010484515e-05,6.094778209594967e-13
	-4.299087371191973e-05,-9.834228244546966e-14
	-3.767743104002371e-05,-3.249655249432988e-13
	-3.288881464709829e-05,1.861700135707283e-13
	-4.777949010481564e-05,-6.094778209594966e-13
	-3.288881464709829e-05,1.861700135707283e-13
12		1.318256738556407e+00,0.000000000000000e+00
	-3.288881464709829e-01,1.905064702597391e-09
	1.000000000000000e+00,0.000000000000000e+00
	0.000000000000000e+00,0.000000000000000e+00
	8.060788599061240e-05,1.727130089508346e-13
	8.060788845726786e-05,1.909612583622725e-13
	3.288881464709828e-05,-1.905064702597391e-13
	4.777949010484515e-05,6.236743831383969e-13
	-4.299087371191973e-05,-1.006329684713437e-13
	-3.767743104002371e-05,-3.325349444073141e-13
	-3.288881464709829e-05,1.905064702597391e-13
	-4.777949010481564e-05,-6.236743831383971e-13
	-3.288881464709829e-05,1.905064702597391e-13
13		1.348962882591653e+00,0.000000000000000e+00
	-3.288881464709829e-01,1.949439360009329e-09
	1.000000000000000e+00,0.000000000000000e+00
	0.000000000000000e+00,0.000000000000000e+00
	8.060788599061240e-05,1.767360117351122e-13
	8.060788845726786e-05,1.954093174792280e-13
	3.288881464709828e-05,-1.949439360009329e-13
	4.777949010484515e-05,6.382016257305437e-13
	-4.299087371191973e-05,-1.029770114291361e-13
	-3.767743104002371e-05,-3.402806783004747e-13
	-3.288881464709829e-05,1.949439360009329e-13
	-4.777949010481564e-05,-6.382016257305438e-13
	-3.288881464709829e-05,1.949439360009329e-13
14		1.380384264602885e+00,0.000000000000000e+00
	-3.288881464709829e-01,1.994847635973825e-09
	1.000000000000000e+00,0.000000000000000e+00
	0.000000000000000e+00,0.000000000000000e+00
	8.060788599061240e-05,1.808527222921895e-13
	8.060788845726786e-05,1.999609852028591e-13
	3.288881464709828e-05,-1.994847635973825e-13
	4.777949010484515e-05,6.530672512722502e-13
	-4.299087371191973e-05,-1.053756541614501e-13
	-3.767743104002371e-05,-3.482068335134176e-13
	-3.288881464709829e-05,1.994847635973825e-13
	-4.777949010481564e-05,-6.530672512722503e-13
	-3.288881464709829e-05,1.994847635973825e-13
15		1.412537544622754e+00,0.000000000000000e+00
	-3.288881464709829e-01,2.041313606559844e-09
	1.000000000000000e+00,0.000000000000000e+00
	0.000000000000000e+00,0.000000000000000e+00
	8.060788599061240e-05,1.850653233564948e-13
	8.060788845726786e-05,2.046186748876413e-13
	3.288881464709828e-05,-2.041313606559844e-13
	4.777949010484515e-05,6.682791417149480e-13
	-4.299087371191973e-05,-1.078301684604122e-13
	-3.767743104002371e-05,-3.563176125985514e-13
	-3.288881464709829e-05,2.041313606559844e-13
	-4.777949010481564e-05,-6.682791417149480e-13
	-3.288881464709829e-05,2.041313606559844e-13
16		1.445439770745927e+00,0.000000000000000e+00
	-3.288881464709829e-01,2.088861908640040e-09
	1.000000000000000e+00,0.000000000000000e+00
	0.000000000000000e+00,0.000000000000000e+00
	8.060788599061240e-05,1.893760485048729e-13
	8.060788845726786e-05,2.093848561022973e-13
	3.288881464709828e-05,-2.088861908640041e-13
	4.777949010484515e-05,6.838453626043031e-13
	-4.299087371191973e-05,-1.103418557419930e-13
	-3.767743104002371e-05,-3.646173159983061e-13
	-3.288881464709829e-05,2.088861908640041e-13
	-4.777949010481564e-05,-6.838453626043032e-13
	-3.288881464709829e-05,2.088861908640041e-13
17		1.479108388168207e+00,0.000000000000000e+00
	-3.288881464709829e-01,2.137517752953554e-09
	1.000000000000000e+00,0.000000000000000e+00
	0.000000000000000e+00,0.000000000000000e+00
	8.060788599061240e-05,1.937871833408565e-13
	8.060788845726786e-05,2.142620559391948e-13
	3.288881464709828e-05,-2.137517752953554e-13
	4.777949010484515e-05,6.997741673566746e-13
	-4.299087371191973e-05,-1.129120477360352e-13
	-3.767743104002371e-05,-3.731103443252839e-13
	-3.288881464709829e-05,2.137517752953554e-13
	-4.777949010481564e-05,-6.997741673566745e-13
	-3.288881464709829e-05,2.137517752953554e-13
18		1.513561248436208e+00,0.000000000000000e+00
	-3.288881464709829e-01,2.187306937473076e-09
	1.000000000000000e+00,0.000000000000000e+00
	0.000000000000000e+00,0.000000000000000e+00
	8.060788599061240e-05,1.983010667065242e-13
	8.060788845726786e-05,2.192528603542450e-13
	3.288881464709828e-05,-2.187306937473077e-13
	4.777949010484515e-05,7.160740016351848e-13
	-4.299087371191973e-05,-1.155421071923548e-13
	-3.767743104002371e-05,-3.818012006955223e-13
	-3.288881464709829e-05,2.187306937473076e-13
	-4.777949010481564e-05,-7.160740016351847e-13
	-3.288881464709829e-05,2.187306937473076e-13
19		1.548816618912481e+00,0.000000000000000e+00
	-3.288881464709829e-01,2.238255861083276e-09
	1.000000000000000e+00,0.000000000000000e+00
	0.000000000000000e+00,0.000000000000000e+00
	8.060788599061240e-05,2.029200919225846e-13
	8.060788845726786e-05,2.243599155380097e-13
	3.288881464709828e-05,-2.238255861083276e-13
	4.777949010484515e-05,7.327535078277218e-13
	-4.299087371191973e-05,-1.182334286032884e-13
	-3.767743104002371e-05,-3.906944931161057e-13
	-3.288881464709829e-05,2.238255861083276e-13
	-4.777949010481564e-05,-7.327535078277219e-13
	-3.288881464709829e-05,2.238255861083276e-13
20		1.584893192461113e+00,0.000000000000000e+00
	-3.288881464709829e-01,2.290391537577842e-09
	1.000000000000000e+00,0.000000000000000e+00
	0.000000000000000e+00,0.000000000000000e+00
	8.060788599061240e-05,2.076467080573473e-13
	8.060788845726786e-05,2.295859293187472e-13
	3.288881464709828e-05,-2.290391537577842e-13
	4.777949010484515e-05,7.498215296292484e-13
	-4.299087371191973e-05,-1.209874389430719e-13
	-3.767743104002371e-05,-3.997949369283923e-13
	-3.288881464709829e-05,2.290391537577842e-13
	-4.777949010481564e-05,-7.498215296292485e-13
	-3.288881464709829e-05,2.290391537577842e-13
21		1.621810097358929e+00,0.000000000000000e+00
	-3.288881464709829e-01,2.343741609982547e-09
	1.000000000000000e+00,0.000000000000000e+00
	0.000000000000000e+00,0.000000000000000e+00
	8.060788599061240e-05,2.124834212252511e-13
	8.060788845726786e-05,2.349336725981386e-13
	3.288881464709828e-05,-2.343741609982547e-13
	4.777949010484515e-05,7.672871167308457e-13
	-4.299087371191973e-05,-1.238055984244411e-13
	-3.767743104002371e-05,-4.091073573081499e-13
	-3.288881464709829e-05,2.343741609982547e-13
	-4.777949010481564e-05,-7.672871167308457e-13
	-3.288881464709829e-05,2.343741609982547e-13
22		1.659586907437560e+00,0.000000000000000e+00
	-3.288881464709829e-01,2.398334365211953e-09
	1.000000000000000e+00,0.000000000000000e+00
	0.000000000000000e+00,0.000000000000000e+00
	8.060788599061240e-05,2.174327959156390e-13
	8.060788845726786e-05,2.404059808204562e-13
	3.288881464709828e-05,-2.398334365211953e-13
	4.777949010484515e-05,7.851595296179795e-13
	-4.299087371191973e-05,-1.266894012728558e-13
	-3.767743104002371e-05,-4.186366918239284e-13
	-3.288881464709829e-05,2.398334365211953e-13
	-4.777949010481564e-05,-7.851595296179795e-13
	-3.288881464709829e-05,2.398334365211953e-13
23		1.698243652461743e+00,0.000000000000000e+00
	-3.288881464709829e-01,2.454198749067502e-09
	1.000000000000000e+00,0.000000000000000e+00
	0.000000000000000e+00,0.000000000000000e+00
	8.060788599061240e-05,2.224974563524848e-13
	8.060788845726786e-05,2.460057554759542e-13
	3.288881464709828e-05,-2.454198749067502e-13
	4.777949010484515e-05,8.034482444805317e-13
	-4.299087371191973e-05,-1.296403765187578e-13
	-3.767743104002371e-05,-4.283879930550236e-13
	-3.288881464709829e-05,2.454198749067502e-13
	-4.777949010481564e-05,-8.034482444805316e-13
	-3.288881464709829e-05,2.454198749067502e-13
24		1.737800828749374e+00,0.000000000000000e+00
	-3.288881464709829e-01,2.511364381584968e-09
	1.000000000000000e+00,0.000000000000000e+00
	0.000000000000000e+00,0.000000000000000e+00
	8.060788599061240e-05,2.276800878857907e-13
	8.060788845726786e-05,2.517359656392766e-13
	3.288881464709828e-05,-2.511364381584967e-13
	4.777949010484515e-05,8.221629582372020e-13
	-4.299087371191973e-05,-1.326600888082832e-13
	-3.767743104002371e-05,-4.383664312704219e-13
	-3.288881464709829e-05,2.511364381584968e-13
	-4.777949010481564e-05,-8.221629582372020e-13
	-3.288881464709829e-05,2.511364381584968e-13
25		1.778279410038922e+00,0.000000000000000e+00
	-3.288881464709829e-01,2.569861572739387e-09
	1.000000000000000e+00,0.000000000000000e+00
	0.000000000000000e+00,0.000000000000000e+00
	8.060788599061240e-05,2.329834384153958e-13
	8.060788845726786e-05,2.575996495437005e-13
	3.288881464709828e-05,-2.569861572739387e-13
	4.777949010484515e-05,8.413135936769430e-13
	-4.299087371191973e-05,-1.357501392328587e-13
	-3.767743104002371e-05,-4.485772971701456e-13
	-3.288881464709829e-05,2.569861572739387e-13
	-4.777949010481564e-05,-8.413135936769432e-13
	-3.288881464709829e-05,2.569861572739387e-13
26		1.819700858609982e+00,0.000000000000000e+00
	-3.288881464709829e-01,2.629721338515812e-09
	1.000000000000000e+00,0.000000000000000e+00
	0.000000000000000e+00,0.000000000000000e+00
	8.060788599061240e-05,2.384103198479493e-13
	8.060788845726786e-05,2.635999161920469e-13
	3.288881464709828e-05,-2.629721338515812e-13
	4.777949010484515e-05,8.609103047201537e-13
	-4.299087371191973e-05,-1.389121661781210e-13
	-3.767743104002371e-05,-4.590260046904514e-13
	-3.288881464709829e-05,2.629721338515812e-13
	-4.777949010481564e-05,-8.609103047201535e-13
	-3.288881464709829e-05,2.629721338515812e-13
27		1.862087136662866e+00,0.000000000000000e+00
	-3.288881464709829e-01,2.690975417354395e-09
	1.000000000000000e+00,0.000000000000000e+00
	0.000000000000000e+00,0.000000000000000e+00
	8.060788599061240e-05,2.439636095878196e-13
	8.060788845726786e-05,2.697399470051157e-13
	3.288881464709828e-05,-2.690975417354395e-13
	4.777949010484515e-05,8.809634818024218e-13
	-4.299087371191973e-05,-1.421478461926108e-13
	-3.767743104002371e-05,-4.697180938743715e-13
	-3.288881464709829e-05,2.690975417354395e-13
	-4.777949010481564e-05,-8.809634818024220e-13
	-3.288881464709829e-05,2.690975417354395e-13
28		1.905460717963246e+00,0.000000000000000e+00
	-3.288881464709829e-01,2.753656286978530e-09
	1.000000000000000e+00,0.000000000000000e+00
	0.000000000000000e+00,0.000000000000000e+00
	8.060788599061240e-05,2.496462520627335e-13
	8.060788845726786e-05,2.760229975085168e-13
	3.288881464709828e-05,-2.753656286978530e-13
	4.777949010484515e-05,9.014837573836718e-13
	-4.299087371191973e-05,-1.454588948767011e-13
	-3.767743104002371e-05,-4.806592338091177e-13
	-3.288881464709829e-05,2.753656286978530e-13
	-4.777949010481564e-05,-9.014837573836720e-13
	-3.288881464709829e-05,2.753656286978530e-13
29		1.949844599758044e+00,0.000000000000000e+00
	-3.288881464709829e-01,2.817797181614971e-09
	1.000000000000000e+00,0.000000000000000e+00
	0.000000000000000e+00,0.000000000000000e+00
	8.060788599061240e-05,2.554612602849500e-13
	8.060788845726786e-05,2.824523990587934e-13
	3.288881464709828e-05,-2.817797181614971e-13
	4.777949010484515e-05,9.224820115856351e-13
	-4.299087371191973e-05,-1.488470677922311e-13
	-3.767743104002371e-05,-4.918552256319068e-13
	-3.288881464709829e-05,2.817797181614971e-13
	-4.777949010481564e-05,-9.224820115856349e-13
	-3.288881464709829e-05,2.817797181614971e-13
30		1.995262314968878e+00,0.000000000000000e+00
	-3.288881464709829e-01,2.883432109615059e-09
	1.000000000000000e+00,0.000000000000000e+00
	0.000000000000000e+00,0.000000000000000e+00
	8.060788599061240e-05,2.614117174487991e-13
	8.060788845726786e-05,2.890315606097503e-13
	3.288881464709828e-05,-2.883432109615059e-13
	4.777949010484515e-05,9.439693779606336e-13
	-4.299087371191973e-05,-1.523141613933285e-13
	-3.767743104002371e-05,-5.033120056057992e-13
	-3.288881464709829e-05,2.883432109615060e-13
	-4.777949010481564e-05,-9.439693779606336e-13
	-3.288881464709829e-05,2.883432109615060e-13
31		2.041737944669527e+00,0.000000000000000e+00
	-3.288881464709829e-01,2.950595871486401e-09
	1.000000000000000e+00,0.000000000000000e+00
	0.000000000000000e+00,0.000000000000000e+00
	8.060788599061240e-05,2.675007785654324e-13
	8.060788845726786e-05,2.957639705199274e-13
	3.288881464709828e-05,-2.950595871486401e-13
	4.777949010484515e-05,9.659572493947387e-13
	-4.299087371191973e-05,-1.558620139789127e-13
	-3.767743104002371e-05,-5.150356482671859e-13
	-3.288881464709829e-05,2.950595871486401e-13
	-4.777949010481564e-05,-9.659572493947389e-13
	-3.288881464709829e-05,2.950595871486401e-13
32		2.089296130854037e+00,0.000000000000000e+00
	-3.288881464709829e-01,3.019324078344559e-09
	1.000000000000000e+00,0.000000000000000e+00
	0.000000000000000e+00,0.000000000000000e+00
	8.060788599061240e-05,2.737316721356529e-13
