LTspice 24.0.9 for Windows
Circuit: * GA CMOS Amp | W=1.6469645327031044e-05 L=1e-06 Vbias=0.7182818739416265
Start Time: Mon Sep  8 18:46:27 2025
solver = Normal
Maximum thread count: 2
tnom = 27
temp = 27
method = modified trap
AsciiRawFile = 1
Direct Newton iteration for .op point succeeded.
Semiconductor Device Operating Points:
                        --- MOSFET Transistors ---
Name:          m1
Model:        n_1u
Id:          6.45e-07
Vgs:         7.18e-01
Vds:         1.79e+00
Vbs:         0.00e+00
Vth:         8.14e-01
Vdsat:       4.85e-02
Gm:          1.17e-05
Gds:         3.40e-08
Gmb:         2.96e-06
Cbd:         0.00e+00
Cbs:         0.00e+00
Cgsov:       3.29e-15
Cgdov:       3.29e-15
Cgbov:       8.00e-17
Cgs:         1.10e-14
Cgd:         0.00e+00
Cgb:         3.11e-15



gain_db: MAX(db(v(out)/v(g)))=(30.3842dB,124.354°) FROM 1 TO 1e+09
gain_lin: MAX(mag(v(out)/v(g)))=(-12.6657dB,0°) FROM 1 TO 1e+09

Measurement "fc" FAIL'ed

Total elapsed time: 0.443 seconds.

