Title: * GA CMOS Amp | W=4.863851816777536e-05 L=6.823028992150013e-07 Vbias=1.1479876446970303
Date: Sat Sep  6 22:06:27 2025
Plotname: AC Analysis
Flags: complex forward log
No. Variables: 13
No. Points:          901
Offset:    0.0000000000000000e+00
Command: Linear Technology Corporation LTspice
Variables:
	0	frequency	frequency
	1	V(out)	voltage
	2	V(g)	voltage
	3	V(vdd)	voltage
	4	V(m1#dbody)	voltage
	5	V(m1#sbody)	voltage
	6	Id(M1)	device_current
	7	Ig(M1)	device_current
	8	Ib(M1)	device_current
	9	Is(M1)	device_current
	10	I(Rload)	device_current
	11	I(Vg)	device_current
	12	I(Vdd)	device_current
Values:
0		1.000000000000000e+00,0.000000000000000e+00
	3.154583648598637e-03,6.254729826942324e-10
	1.000000000000000e+00,0.000000000000000e+00
	0.000000000000000e+00,0.000000000000000e+00
	6.780381504112045e-05,9.446077508612618e-14
	6.780381501406431e-05,9.082863278997630e-14
	-3.154583648598646e-07,-6.254729826942227e-14
	6.227249309653697e-05,8.726946771043645e-12
	-3.616203470333841e-05,-4.873381125332242e-14
	-2.579500002833869e-05,-8.615665661520901e-12
	3.154583648598637e-07,6.254729826942324e-14
	-6.227249309655181e-05,-8.726946771043648e-12
	3.154583648598637e-07,6.254729826942324e-14
1		1.023292992280754e+00,0.000000000000000e+00
	3.154583648598637e-03,6.400421200519493e-10
	1.000000000000000e+00,0.000000000000000e+00
	0.000000000000000e+00,0.000000000000000e+00
	6.780381504112045e-05,9.666104919104137e-14
	6.780381501406431e-05,9.294430343242466e-14
	-3.154583648598646e-07,-6.400421200519588e-14
	6.227249309653697e-05,8.930223474816119e-12
	-3.616203470333841e-05,-4.986896754265778e-14
	-2.579500002833869e-05,-8.816350295268265e-12
	3.154583648598637e-07,6.400421200519494e-14
	-6.227249309655181e-05,-8.930223474816119e-12
	3.154583648598637e-07,6.400421200519494e-14
2		1.047128548050899e+00,0.000000000000000e+00
	3.154583648598637e-03,6.549506162136768e-10
	1.000000000000000e+00,0.000000000000000e+00
	0.000000000000000e+00,0.000000000000000e+00
	6.780381504112045e-05,9.891257426369789e-14
	6.780381501406431e-05,9.510925437481621e-14
	-3.154583648598646e-07,-6.549506162136824e-14
	6.227249309653697e-05,9.138235101280418e-12
	-3.616203470333841e-05,-5.103056501867809e-14
	-2.579500002833869e-05,-9.021709474640371e-12
	3.154583648598637e-07,6.549506162136768e-14
	-6.227249309655181e-05,-9.138235101280418e-12
	3.154583648598637e-07,6.549506162136768e-14
3		1.071519305237606e+00,0.000000000000000e+00
	3.154583648598637e-03,6.702063758614171e-10
	1.000000000000000e+00,0.000000000000000e+00
	0.000000000000000e+00,0.000000000000000e+00
	6.780381504112045e-05,1.012165440924917e-13
	6.780381501406431e-05,9.732463350279707e-14
	-3.154583648598646e-07,-6.702063758614211e-14
	6.227249309653697e-05,9.351091940954257e-12
	-3.616203470333841e-05,-5.221921957574068e-14
	-2.579500002833870e-05,-9.231852083792375e-12
	3.154583648598637e-07,6.702063758614171e-14
	-6.227249309655181e-05,-9.351091940954260e-12
	3.154583648598637e-07,6.702063758614171e-14
4		1.096478196143185e+00,0.000000000000000e+00
	3.154583648598637e-03,6.858174878008690e-10
	1.000000000000000e+00,0.000000000000000e+00
	0.000000000000000e+00,0.000000000000000e+00
	6.780381504112045e-05,1.035741802727227e-13
	6.780381501406431e-05,9.959161543970494e-14
	-3.154583648598646e-07,-6.858174878008863e-14
	6.227249309653697e-05,9.568906853351529e-12
	-3.616203470333841e-05,-5.343556145422540e-14
	-2.579500002833870e-05,-9.446889543117214e-12
	3.154583648598637e-07,6.858174878008690e-14
	-6.227249309655181e-05,-9.568906853351529e-12
	3.154583648598637e-07,6.858174878008690e-14
5		1.122018454301963e+00,0.000000000000000e+00
	3.154583648598637e-03,7.017922292502213e-10
	1.000000000000000e+00,0.000000000000000e+00
	0.000000000000000e+00,0.000000000000000e+00
	6.780381504112045e-05,1.059867328543007e-13
	6.780381501406431e-05,1.019114021693698e-13
	-3.154583648598646e-07,-7.017922292502023e-14
	6.227249309653697e-05,9.791795326821900e-12
	-3.616203470333841e-05,-5.468023557469644e-14
	-2.579500002833870e-05,-9.666935868322184e-12
	3.154583648598637e-07,7.017922292502213e-14
	-6.227249309655181e-05,-9.791795326821902e-12
	3.154583648598637e-07,7.017922292502213e-14
6		1.148153621496882e+00,0.000000000000000e+00
	3.154583648598637e-03,7.181390702288398e-10
	1.000000000000000e+00,0.000000000000000e+00
	0.000000000000000e+00,0.000000000000000e+00
	6.780381504112045e-05,1.084554810045383e-13
	6.780381501406431e-05,1.042852236734218e-13
	-3.154583648598646e-07,-7.181390702288346e-14
	6.227249309653697e-05,1.001987553978429e-11
	-3.616203470333841e-05,-5.595390187984766e-14
	-2.579500002833870e-05,-9.892107730881557e-12
	3.154583648598637e-07,7.181390702288398e-14
	-6.227249309655181e-05,-1.001987553978429e-11
	3.154583648598637e-07,7.181390702288398e-14
7		1.174897554939529e+00,0.000000000000000e+00
	3.154583648598638e-03,7.348666780481880e-10
	1.000000000000000e+00,0.000000000000000e+00
	0.000000000000000e+00,0.000000000000000e+00
	6.780381504112045e-05,1.109817336863824e-13
	6.780381501406431e-05,1.067143385834435e-13
	-3.154583648598612e-07,-7.348666780481874e-14
	6.227249309653697e-05,1.025326842338660e-11
	-3.616203470333841e-05,-5.725723568441301e-14
	-2.579500002833870e-05,-1.012252451989737e-11
	3.154583648598638e-07,7.348666780481880e-14
	-6.227249309655181e-05,-1.025326842338660e-11
	3.154583648598638e-07,7.348666780481880e-14
8		1.202264434617413e+00,0.000000000000000e+00
	3.154583648598638e-03,7.519839219073479e-10
	1.000000000000000e+00,0.000000000000000e+00
	0.000000000000000e+00,0.000000000000000e+00
	6.780381504112045e-05,1.135668303524441e-13
	6.780381501406431e-05,1.092000348483135e-13
	-3.154583648598612e-07,-7.519839219073507e-14
	6.227249309653697e-05,1.049209772562504e-11
	-3.616203470333841e-05,-5.859092803322739e-14
	-2.579500002833870e-05,-1.035830840540108e-11
	3.154583648598638e-07,7.519839219073480e-14
	-6.227249309655181e-05,-1.049209772562504e-11
	3.154583648598638e-07,7.519839219073480e-14
9		1.230268770812381e+00,0.000000000000000e+00
	3.154583648598638e-03,7.694998775955868e-10
	1.000000000000000e+00,0.000000000000000e+00
	0.000000000000000e+00,0.000000000000000e+00
	6.780381504112045e-05,1.162121416551932e-13
	6.780381501406431e-05,1.117436304170933e-13
	-3.154583648598646e-07,-7.694998775955981e-14
	6.227249309653698e-05,1.073649007695695e-11
	-3.616203470333841e-05,-5.995568606762755e-14
	-2.579500002833870e-05,-1.059958440312976e-11
	3.154583648598638e-07,7.694998775955868e-14
	-6.227249309655181e-05,-1.073649007695695e-11
	3.154583648598638e-07,7.694998775955868e-14
10		1.258925411794167e+00,0.000000000000000e+00
	3.154583648598638e-03,7.874238323044622e-10
	1.000000000000000e+00,0.000000000000000e+00
	0.000000000000000e+00,0.000000000000000e+00
	6.780381504112045e-05,1.189190701736976e-13
	6.780381501406431e-05,1.143464739378221e-13
	-3.154583648598646e-07,-7.874238323044617e-14
	6.227249309653698e-05,1.098657505744190e-11
	-3.616203470333841e-05,-6.135223340038813e-14
	-2.579500002833870e-05,-1.084648044081106e-11
	3.154583648598638e-07,7.874238323044622e-14
	-6.227249309655181e-05,-1.098657505744190e-11
	3.154583648598638e-07,7.874238323044622e-14
11		1.288249551693134e+00,0.000000000000000e+00
	3.154583648598638e-03,8.057652895520119e-10
	1.000000000000000e+00,0.000000000000000e+00
	0.000000000000000e+00,0.000000000000000e+00
	6.780381504112044e-05,1.216890511572880e-13
	6.780381501406429e-05,1.170099454725872e-13
	-3.154583648598646e-07,-8.057652895520091e-14
	6.227249309653697e-05,1.124248526544682e-11
	-3.616203470333840e-05,-6.278131049939039e-14
	-2.579500002833870e-05,-1.109912742599223e-11
	3.154583648598638e-07,8.057652895520119e-14
	-6.227249309655181e-05,-1.124248526544682e-11
	3.154583648598638e-07,8.057652895520119e-14
12		1.318256738556407e+00,0.000000000000000e+00
	3.154583648598638e-03,8.245339742216464e-10
	1.000000000000000e+00,0.000000000000000e+00
	0.000000000000000e+00,0.000000000000000e+00
	6.780381504112044e-05,1.245235532865470e-13
	6.780381501406429e-05,1.197354572292517e-13
	-3.154583648598646e-07,-8.245339742216580e-14
	6.227249309653697e-05,1.150435638795136e-11
	-3.616203470333840e-05,-6.424367508022833e-14
	-2.579500002833870e-05,-1.135765931544897e-11
	3.154583648598638e-07,8.245339742216464e-14
	-6.227249309655181e-05,-1.150435638795136e-11
	3.154583648598638e-07,8.245339742216464e-14
13		1.348962882591653e+00,0.000000000000000e+00
	3.154583648598638e-03,8.437398377184108e-10
	1.000000000000000e+00,0.000000000000000e+00
	0.000000000000000e+00,0.000000000000000e+00
	6.780381504112044e-05,1.274240794520226e-13
	6.780381501406429e-05,1.225244543102252e-13
	-3.154583648598646e-07,-8.437398377184109e-14
	6.227249309653697e-05,1.177232727249096e-11
	-3.616203470333840e-05,-6.574010250795936e-14
	-2.579500002833870e-05,-1.162221318621116e-11
	3.154583648598638e-07,8.437398377184108e-14
	-6.227249309655181e-05,-1.177232727249096e-11
	3.154583648598638e-07,8.437398377184108e-14
14		1.380384264602885e+00,0.000000000000000e+00
	3.154583648598638e-03,8.633930632453505e-10
	1.000000000000000e+00,0.000000000000000e+00
	0.000000000000000e+00,0.000000000000000e+00
	6.780381504112044e-05,1.303921675510808e-13
	6.780381501406429e-05,1.253784154786769e-13
	-3.154583648598646e-07,-8.633930632453553e-14
	6.227249309653697e-05,1.204654000077560e-11
	-3.616203470333840e-05,-6.727138620821325e-14
	-2.579500002833870e-05,-1.189292930824285e-11
	3.154583648598638e-07,8.633930632453505e-14
	-6.227249309655181e-05,-1.204654000077561e-11
	3.154583648598638e-07,8.633930632453505e-14
15		1.412537544622754e+00,0.000000000000000e+00
	3.154583648598638e-03,8.835040712027812e-10
	1.000000000000000e+00,0.000000000000000e+00
	0.000000000000000e+00,0.000000000000000e+00
	6.780381504112044e-05,1.334293913033189e-13
	6.780381501406429e-05,1.282988539425949e-13
	-3.154583648598646e-07,-8.835040712027857e-14
	6.227249309653697e-05,1.232713996402346e-11
	-3.616203470333840e-05,-6.883833808787680e-14
	-2.579500002833870e-05,-1.216995121881531e-11
	3.154583648598638e-07,8.835040712027813e-14
	-6.227249309655181e-05,-1.232713996402346e-11
	3.154583648598638e-07,8.835040712027813e-14
16		1.445439770745927e+00,0.000000000000000e+00
	3.154583648598638e-03,9.040835247133223e-10
	1.000000000000000e+00,0.000000000000000e+00
	0.000000000000000e+00,0.000000000000000e+00
	6.780381504112044e-05,1.365373610849728e-13
	6.780381501406429e-05,1.312873181571093e-13
	-3.154583648598646e-07,-9.040835247133261e-14
	6.227249309653697e-05,1.261427594004924e-11
	-3.616203470333840e-05,-7.044178896557763e-14
	-2.579500002833870e-05,-1.245342579861233e-11
	3.154583648598638e-07,9.040835247133223e-14
	-6.227249309655181e-05,-1.261427594004924e-11
	3.154583648598638e-07,9.040835247133223e-14
17		1.479108388168207e+00,0.000000000000000e+00
	3.154583648598638e-03,9.251423352756266e-10
	1.000000000000000e+00,0.000000000000000e+00
	0.000000000000000e+00,0.000000000000000e+00
	6.780381504112044e-05,1.397177247827596e-13
	6.780381501406429e-05,1.343453926455038e-13
	-3.154583648598646e-07,-9.251423352756204e-14
	6.227249309653697e-05,1.290810017214810e-11
	-3.616203470333840e-05,-7.208258901219532e-14
	-2.579500002833870e-05,-1.274350334960835e-11
	3.154583648598638e-07,9.251423352756267e-14
	-6.227249309655181e-05,-1.290810017214811e-11
	3.154583648598638e-07,9.251423352756267e-14
18		1.513561248436208e+00,0.000000000000000e+00
	3.154583648598638e-03,9.466916685498006e-10
	1.000000000000000e+00,0.000000000000000e+00
	0.000000000000000e+00,0.000000000000000e+00
	6.780381504112044e-05,1.429721686676090e-13
	6.780381501406429e-05,1.374746988393504e-13
	-3.154583648598612e-07,-9.466916685498149e-14
	6.227249309653697e-05,1.320876844981715e-11
	-3.616203470333840e-05,-7.376160820163319e-14
	-2.579500002833870e-05,-1.304033767476054e-11
	3.154583648598638e-07,9.466916685498006e-14
	-6.227249309655181e-05,-1.320876844981715e-11
	3.154583648598638e-07,9.466916685498006e-14
19		1.548816618912481e+00,0.000000000000000e+00
	3.154583648598638e-03,9.687429502775853e-10
	1.000000000000000e+00,0.000000000000000e+00
	0.000000000000000e+00,0.000000000000000e+00
	6.780381504112044e-05,1.463024182887462e-13
	6.780381501406429e-05,1.406768959382144e-13
	-3.154583648598612e-07,-9.687429502775941e-14
	6.227249309653697e-05,1.351644019135701e-11
	-3.616203470333840e-05,-7.547973677208982e-14
	-2.579500002833870e-05,-1.334408615955716e-11
	3.154583648598638e-07,9.687429502775854e-14
	-6.227249309655181e-05,-1.351644019135701e-11
	3.154583648598638e-07,9.687429502775854e-14
20		1.584893192461113e+00,0.000000000000000e+00
	3.154583648598638e-03,9.913078723404360e-10
	1.000000000000000e+00,0.000000000000000e+00
	0.000000000000000e+00,0.000000000000000e+00
	6.780381504112044e-05,1.497102393886017e-13
	6.780381501406429e-05,1.439536817893837e-13
	-3.154583648598612e-07,-9.913078723404553e-14
	6.227249309653697e-05,1.383127852839756e-11
	-3.616203470333840e-05,-7.723788569807546e-14
	-2.579500002833870e-05,-1.365490985546544e-11
	3.154583648598638e-07,9.913078723404360e-14
	-6.227249309655181e-05,-1.383127852839756e-11
	3.154583648598638e-07,9.913078723404360e-14
21		1.621810097358929e+00,0.000000000000000e+00
	3.154583648598638e-03,1.014398398958713e-09
	1.000000000000000e+00,0.000000000000000e+00
	0.000000000000000e+00,0.000000000000000e+00
	6.780381504112044e-05,1.531974388390302e-13
	6.780381501406429e-05,1.473067937880899e-13
	-3.154583648598646e-07,-1.014398398958700e-13
	6.227249309653697e-05,1.415345039239249e-11
	-3.616203470333840e-05,-7.903698717342252e-14
	-2.579500002833870e-05,-1.397297356532319e-11
	3.154583648598638e-07,1.014398398958713e-13
	-6.227249309655181e-05,-1.415345039239249e-11
	3.154583648598638e-07,1.014398398958713e-13
22		1.659586907437560e+00,0.000000000000000e+00
	3.154583648598638e-03,1.038026773035267e-09
	1.000000000000000e+00,0.000000000000000e+00
	0.000000000000000e+00,0.000000000000000e+00
	6.780381504112044e-05,1.567658655993391e-13
	6.780381501406429e-05,1.507380097986986e-13
	-3.154583648598646e-07,-1.038026773035287e-13
	6.227249309653697e-05,1.448312660312852e-11
	-3.616203470333840e-05,-8.087799510554713e-14
	-2.579500002833870e-05,-1.429844593071945e-11
	3.154583648598638e-07,1.038026773035267e-13
	-6.227249309655181e-05,-1.448312660312852e-11
	3.154583648598638e-07,1.038026773035267e-13
23		1.698243652461743e+00,0.000000000000000e+00
	3.154583648598638e-03,1.062205522646794e-09
	1.000000000000000e+00,0.000000000000000e+00
	0.000000000000000e+00,0.000000000000000e+00
	6.780381504112044e-05,1.604174116966302e-13
	6.780381501406429e-05,1.542491490973559e-13
	-3.154583648598646e-07,-1.062205522646794e-13
	6.227249309653697e-05,1.482048195929638e-11
	-3.616203470333840e-05,-8.276188562122350e-14
	-2.579500002833870e-05,-1.463149952141048e-11
	3.154583648598638e-07,1.062205522646794e-13
	-6.227249309655181e-05,-1.482048195929638e-11
	3.154583648598638e-07,1.062205522646794e-13
24		1.737800828749374e+00,0.000000000000000e+00
	3.154583648598638e-03,1.086947467686380e-09
	1.000000000000000e+00,0.000000000000000e+00
	0.000000000000000e+00,0.000000000000000e+00
	6.780381504112044e-05,1.641540132289784e-13
	6.780381501406429e-05,1.578420733365935e-13
	-3.154583648598646e-07,-1.086947467686378e-13
	6.227249309653697e-05,1.516569533117132e-11
	-3.616203470333840e-05,-8.468965758413929e-14
	-2.579500002833870e-05,-1.497231092681855e-11
	3.154583648598638e-07,1.086947467686380e-13
	-6.227249309655181e-05,-1.516569533117133e-11
	3.154583648598638e-07,1.086947467686380e-13
25		1.778279410038922e+00,0.000000000000000e+00
	3.154583648598639e-03,1.112265726660784e-09
	1.000000000000000e+00,0.000000000000000e+00
	0.000000000000000e+00,0.000000000000000e+00
	6.780381504112044e-05,1.679776513919758e-13
	6.780381501406429e-05,1.615186875324010e-13
	-3.154583648598612e-07,-1.112265726660822e-13
	6.227249309653697e-05,1.551894975545257e-11
	-3.616203470333840e-05,-8.666233312450638e-14
	-2.579500002833871e-05,-1.532106084966198e-11
	3.154583648598639e-07,1.112265726660784e-13
	-6.227249309655181e-05,-1.551894975545257e-11
	3.154583648598639e-07,1.112265726660784e-13
26		1.819700858609982e+00,0.000000000000000e+00
	3.154583648598639e-03,1.138173723646041e-09
	1.000000000000000e+00,0.000000000000000e+00
	0.000000000000000e+00,0.000000000000000e+00
	6.780381504112044e-05,1.718903535291883e-13
	6.780381501406429e-05,1.652809410742907e-13
	-3.154583648598612e-07,-1.138173723646051e-13
	6.227249309653697e-05,1.588043253231173e-11
	-3.616203470333840e-05,-8.868095818100763e-14
	-2.579500002833871e-05,-1.567793420176612e-11
	3.154583648598639e-07,1.138173723646041e-13
	-6.227249309655181e-05,-1.588043253231174e-11
	3.154583648598639e-07,1.138173723646041e-13
27		1.862087136662866e+00,0.000000000000000e+00
	3.154583648598639e-03,1.164685195405085e-09
	1.000000000000000e+00,0.000000000000000e+00
	0.000000000000000e+00,0.000000000000000e+00
	6.780381504112044e-05,1.758941942070797e-13
	6.780381501406429e-05,1.691308287588899e-13
	-3.154583648598612e-07,-1.164685195405108e-13
	6.227249309653697e-05,1.625033532470191e-11
	-3.616203470333840e-05,-9.074660305536773e-14
	-2.579500002833871e-05,-1.604312020210603e-11
	3.154583648598639e-07,1.164685195405085e-13
	-6.227249309655181e-05,-1.625033532470191e-11
	3.154583648598639e-07,1.164685195405085e-13
28		1.905460717963246e+00,0.000000000000000e+00
	3.154583648598639e-03,1.191814198671164e-09
	1.000000000000000e+00,0.000000000000000e+00
	0.000000000000000e+00,0.000000000000000e+00
	6.780381504112044e-05,1.799912963149747e-13
	6.780381501406429e-05,1.730703918476083e-13
	-3.154583648598646e-07,-1.191814198671152e-13
	6.227249309653698e-05,1.662885425997985e-11
	-3.616203470333840e-05,-9.286036297984107e-14
	-2.579500002833871e-05,-1.641681247713290e-11
	3.154583648598639e-07,1.191814198671164e-13
	-6.227249309655181e-05,-1.662885425997986e-11
	3.154583648598639e-07,1.191814198671164e-13
29		1.949844599758044e+00,0.000000000000000e+00
	3.154583648598639e-03,1.219575117600905e-09
	1.000000000000000e+00,0.000000000000000e+00
	0.000000000000000e+00,0.000000000000000e+00
	6.780381504112044e-05,1.841838321906424e-13
	6.780381501406429e-05,1.771017191489417e-13
	-3.154583648598646e-07,-1.219575117600908e-13
	6.227249309653698e-05,1.701619003389535e-11
	-3.616203470333840e-05,-9.502335869791853e-14
	-2.579500002833871e-05,-1.679920916343734e-11
	3.154583648598639e-07,1.219575117600905e-13
	-6.227249309655181e-05,-1.701619003389535e-11
	3.154583648598639e-07,1.219575117600905e-13
30		1.995262314968878e+00,0.000000000000000e+00
	3.154583648598639e-03,1.247982671400983e-09
	1.000000000000000e+00,0.000000000000000e+00
	0.000000000000000e+00,0.000000000000000e+00
	6.780381504112044e-05,1.884740247720987e-13
	6.780381501406429e-05,1.812269481259863e-13
	-3.154583648598646e-07,-1.247982671400961e-13
	6.227249309653698e-05,1.741254801700272e-11
	-3.616203470333840e-05,-9.723673705856046e-14
	-2.579500002833871e-05,-1.719051301280406e-11
	3.154583648598639e-07,1.247982671400983e-13
	-6.227249309655181e-05,-1.741254801700272e-11
	3.154583648598639e-07,1.247982671400983e-13
31		2.041737944669527e+00,0.000000000000000e+00
	3.154583648598639e-03,1.277051922132441e-09
	1.000000000000000e+00,0.000000000000000e+00
	0.000000000000000e+00,0.000000000000000e+00
	6.780381504112044e-05,1.928641487762378e-13
	6.780381501406429e-05,1.854482660297495e-13
	-3.154583648598612e-07,-1.277051922132421e-13
	6.227249309653698e-05,1.781813836355102e-11
	-3.616203470333840e-05,-9.950167162427121e-14
	-2.579500002833871e-05,-1.759093149971351e-11
	3.154583648598639e-07,1.277051922132441e-13
	-6.227249309655181e-05,-1.781813836355103e-11
	3.154583648598639e-07,1.277051922132441e-13
32		2.089296130854037e+00,0.000000000000000e+00
	3.154583648598639e-03,1.306798282696794e-09
	1.000000000000000e+00,0.000000000000000e+00
	0.000000000000000e+00,0.000000000000000e+00
	6.780381504112044e-05,1.973565319049169e-13
	6.780381501406429e-05,1.897679110588597e-13
