Title: * GA CMOS Amp | W=9.740068251657264e-06 L=7.820252579126873e-07 Vbias=1.0032976472966348
Date: Mon Sep  8 18:44:03 2025
Plotname: AC Analysis
Flags: complex forward log
No. Variables: 11
No. Points:          901
Offset:    0.0000000000000000e+00
Command: Linear Technology Corporation LTspice
Variables:
	0	frequency	frequency
	1	V(out)	voltage
	2	V(g)	voltage
	3	V(vdd)	voltage
	4	Id(M1)	device_current
	5	Ig(M1)	device_current
	6	Ib(M1)	device_current
	7	Is(M1)	device_current
	8	I(Rload)	device_current
	9	I(Vg)	device_current
	10	I(Vdd)	device_current
Values:
0		1.000000000000000e+00,0.000000000000000e+00
	-3.072427997037194e+00,4.433539870422175e-10
	1.000000000000000e+00,0.000000000000000e+00
	0.000000000000000e+00,0.000000000000000e+00
	3.072427997037194e-04,-4.433539870422175e-14
	5.426533426539196e-24,1.050608370139933e-13
	3.072427999951249e-12,-1.976321487583517e-15
	-3.072428027761474e-04,-5.874911682218805e-14
	-3.072427997037195e-04,4.433539870422175e-14
	-5.426533426539196e-24,-1.050608370139933e-13
	-3.072427997037195e-04,4.433539870422175e-14
1		1.023292992280754e+00,0.000000000000000e+00
	-3.072427997037194e+00,4.536810280400335e-10
	1.000000000000000e+00,0.000000000000000e+00
	0.000000000000000e+00,0.000000000000000e+00
	3.072427997037194e-04,-4.536810280400335e-14
	5.682278067881661e-24,1.075080182795698e-13
	3.072427999951249e-12,-2.022355928738085e-15
	-3.072428027761474e-04,-6.011755954682840e-14
	-3.072427997037195e-04,4.536810280400335e-14
	-5.682278067881661e-24,-1.075080182795698e-13
	-3.072427997037195e-04,4.536810280400335e-14
2		1.047128548050899e+00,0.000000000000000e+00
	-3.072427997037194e+00,4.642486167240945e-10
	1.000000000000000e+00,0.000000000000000e+00
	0.000000000000000e+00,0.000000000000000e+00
	3.072427997037194e-04,-4.642486167240945e-14
	5.950075582842394e-24,1.100122017194750e-13
	3.072427999951249e-12,-2.069462649775110e-15
	-3.072428027761474e-04,-6.151787739729046e-14
	-3.072427997037195e-04,4.642486167240946e-14
	-5.950075582842394e-24,-1.100122017194750e-13
	-3.072427997037195e-04,4.642486167240946e-14
3		1.071519305237606e+00,0.000000000000000e+00
	-3.072427997037194e+00,4.750623561697995e-10
	1.000000000000000e+00,0.000000000000000e+00
	0.000000000000000e+00,0.000000000000000e+00
	3.072427997037194e-04,-4.750623561697996e-14
	6.230494005854863e-24,1.125747150849155e-13
	3.072427999951249e-12,-2.117666627301635e-15
	-3.072428027761474e-04,-6.295081284063390e-14
	-3.072427997037195e-04,4.750623561697995e-14
	-6.230494005854863e-24,-1.125747150849155e-13
	-3.072427997037195e-04,4.750623561697995e-14
4		1.096478196143185e+00,0.000000000000000e+00
	-3.072427997037194e+00,4.861279799649396e-10
	1.000000000000000e+00,0.000000000000000e+00
	0.000000000000000e+00,0.000000000000000e+00
	3.072427997037194e-04,-4.861279799649395e-14
	6.524128141990636e-24,1.151969170543965e-13
	3.072427999951249e-12,-2.166993419704588e-15
	-3.072428027761474e-04,-6.441712563819798e-14
	-3.072427997037195e-04,4.861279799649396e-14
	-6.524128141990636e-24,-1.151969170543965e-13
	-3.072427997037195e-04,4.861279799649396e-14
5		1.122018454301963e+00,0.000000000000000e+00
	-3.072427997037194e+00,4.974513552497216e-10
	1.000000000000000e+00,0.000000000000000e+00
	0.000000000000000e+00,0.000000000000000e+00
	3.072427997037194e-04,-4.974513552497215e-14
	6.831600828620670e-24,1.178801979541113e-13
	3.072427999951249e-12,-2.217469180702206e-15
	-3.072428027761474e-04,-6.591759324843691e-14
	-3.072427997037195e-04,4.974513552497216e-14
	-6.831600828620670e-24,-1.178801979541113e-13
	-3.072427997037195e-04,4.974513552497216e-14
6		1.148153621496882e+00,0.000000000000000e+00
	-3.072427997037194e+00,5.090384858276040e-10
	1.000000000000000e+00,0.000000000000000e+00
	0.000000000000000e+00,0.000000000000000e+00
	3.072427997037194e-04,-5.090384858276039e-14
	7.153564256536883e-24,1.206259804951102e-13
	3.072427999951249e-12,-2.269120673211145e-15
	-3.072428027761474e-04,-6.745301123913863e-14
	-3.072427997037195e-04,5.090384858276041e-14
	-7.153564256536883e-24,-1.206259804951102e-13
	-3.072427997037195e-04,5.090384858276041e-14
7		1.174897554939529e+00,0.000000000000000e+00
	-3.072427997037194e+00,5.208955153485930e-10
	1.000000000000000e+00,0.000000000000000e+00
	0.000000000000000e+00,0.000000000000000e+00
	3.072427997037194e-04,-5.208955153485931e-14
	7.490701353336276e-24,1.234357205276411e-13
	3.072427999951249e-12,-2.321975283536319e-15
	-3.072428027761474e-04,-6.902419370924550e-14
	-3.072427997037195e-04,5.208955153485931e-14
	-7.490701353336276e-24,-1.234357205276411e-13
	-3.072427997037195e-04,5.208955153485931e-14
8		1.202264434617413e+00,0.000000000000000e+00
	-3.072427997037194e+00,5.330287305666873e-10
	1.000000000000000e+00,0.000000000000000e+00
	0.000000000000000e+00,0.000000000000000e+00
	3.072427997037194e-04,-5.330287305666873e-14
	7.843727232001925e-24,1.263109078130608e-13
	3.072427999951249e-12,-2.376061035891853e-15
	-3.072428027761474e-04,-7.063197372050024e-14
	-3.072427997037195e-04,5.330287305666873e-14
	-7.843727232001925e-24,-1.263109078130608e-13
	-3.072427997037195e-04,5.330287305666873e-14
9		1.230268770812381e+00,0.000000000000000e+00
	-3.072427997037194e+00,5.454445646731973e-10
	1.000000000000000e+00,0.000000000000000e+00
	0.000000000000000e+00,0.000000000000000e+00
	3.072427997037194e-04,-5.454445646731973e-14
	8.213390707753475e-24,1.292530668137255e-13
	3.072427999951249e-12,-2.431406607259465e-15
	-3.072428027761474e-04,-7.227720373914627e-14
	-3.072427997037195e-04,5.454445646731973e-14
	-8.213390707753475e-24,-1.292530668137255e-13
	-3.072427997037195e-04,5.454445646731973e-14
10		1.258925411794167e+00,0.000000000000000e+00
	-3.072427997037194e+00,5.581496007077094e-10
	1.000000000000000e+00,0.000000000000000e+00
	0.000000000000000e+00,0.000000000000000e+00
	3.072427997037194e-04,-5.581496007077093e-14
	8.600475886384647e-24,1.322637575012814e-13
	3.072427999951249e-12,-2.488041342593756e-15
	-3.072428027761474e-04,-7.396075608791672e-14
	-3.072427997037195e-04,5.581496007077095e-14
	-8.600475886384647e-24,-1.322637575012814e-13
	-3.072427997037195e-04,5.581496007077095e-14
11		1.288249551693134e+00,0.000000000000000e+00
	-3.072427997037194e+00,5.711505750485002e-10
	1.000000000000000e+00,0.000000000000000e+00
	0.000000000000000e+00,0.000000000000000e+00
	3.072427997037194e-04,-5.711505750485002e-14
	9.005803827456733e-24,1.353445761837823e-13
	3.072427999951249e-12,-2.545995270380972e-15
	-3.072428027761474e-04,-7.568352340855130e-14
	-3.072427997037195e-04,5.711505750485003e-14
	-9.005803827456733e-24,-1.353445761837823e-13
	-3.072427997037195e-04,5.711505750485003e-14
12		1.318256738556407e+00,0.000000000000000e+00
	-3.072427997037194e+00,5.844543809842532e-10
	1.000000000000000e+00,0.000000000000000e+00
	0.000000000000000e+00,0.000000000000000e+00
	3.072427997037194e-04,-5.844543809842531e-14
	9.430234285876001e-24,1.384971563520731e-13
	3.072427999951249e-12,-2.605299118560791e-15
	-3.072428027761474e-04,-7.744641913508696e-14
	-3.072427997037195e-04,5.844543809842532e-14
	-9.430234285876001e-24,-1.384971563520731e-13
	-3.072427997037195e-04,5.844543809842532e-14
13		1.348962882591653e+00,0.000000000000000e+00
	-3.072427997037194e+00,5.980680723689722e-10
	1.000000000000000e+00,0.000000000000000e+00
	0.000000000000000e+00,0.000000000000000e+00
	3.072427997037194e-04,-5.980680723689723e-14
	9.874667535549147e-24,1.417231695458883e-13
	3.072427999951249e-12,-2.665984330818470e-15
	-3.072428027761474e-04,-7.925037797817260e-14
	-3.072427997037195e-04,5.980680723689723e-14
	-9.874667535549147e-24,-1.417231695458883e-13
	-3.072427997037195e-04,5.980680723689723e-14
14		1.380384264602885e+00,0.000000000000000e+00
	-3.072427997037194e+00,6.119988673620283e-10
	1.000000000000000e+00,0.000000000000000e+00
	0.000000000000000e+00,0.000000000000000e+00
	3.072427997037194e-04,-6.119988673620283e-14
	1.034004627898493e-23,1.450243262401247e-13
	3.072427999951249e-12,-2.728083083256862e-15
	-3.072428027761474e-04,-8.109635642066502e-14
	-3.072427997037195e-04,6.119988673620283e-14
	-1.034004627898493e-23,-1.450243262401247e-13
	-3.072427997037195e-04,6.119988673620283e-14
15		1.412537544622754e+00,0.000000000000000e+00
	-3.072427997037194e+00,6.262541522553222e-10
	1.000000000000000e+00,0.000000000000000e+00
	0.000000000000000e+00,0.000000000000000e+00
	3.072427997037194e-04,-6.262541522553222e-14
	1.082735764689260e-23,1.484023767517575e-13
	3.072427999951249e-12,-2.791628301456421e-15
	-3.072428027761474e-04,-8.298533322476885e-14
	-3.072427997037195e-04,6.262541522553222e-14
	-1.082735764689260e-23,-1.484023767517575e-13
	-3.072427997037195e-04,6.262541522553222e-14
16		1.445439770745927e+00,0.000000000000000e+00
	-3.072427997037194e+00,6.408414853895956e-10
	1.000000000000000e+00,0.000000000000000e+00
	0.000000000000000e+00,0.000000000000000e+00
	3.072427997037194e-04,-6.408414853895955e-14
	1.133763529201845e-23,1.518591121678817e-13
	3.072427999951249e-12,-2.856653677932954e-15
	-3.072428027761474e-04,-8.491830995098919e-14
	-3.072427997037195e-04,6.408414853895957e-14
	-1.133763529201845e-23,-1.518591121678817e-13
	-3.072427997037195e-04,6.408414853895957e-14
17		1.479108388168207e+00,0.000000000000000e+00
	-3.072427997037194e+00,6.557686011619624e-10
	1.000000000000000e+00,0.000000000000000e+00
	0.000000000000000e+00,0.000000000000000e+00
	3.072427997037194e-04,-6.557686011619624e-14
	1.187196158166191e-23,1.553963652953703e-13
	3.072427999951249e-12,-2.923193690001842e-15
	-3.072428027761474e-04,-8.689631148917226e-14
	-3.072427997037195e-04,6.557686011619624e-14
	-1.187196158166191e-23,-1.553963652953703e-13
	-3.072427997037195e-04,6.557686011619624e-14
18		1.513561248436208e+00,0.000000000000000e+00
	-3.072427997037194e+00,6.710434141267890e-10
	1.000000000000000e+00,0.000000000000000e+00
	0.000000000000000e+00,0.000000000000000e+00
	3.072427997037194e-04,-6.710434141267889e-14
	1.243146989352170e-23,1.590160116326526e-13
	3.072427999951249e-12,-2.991283618058191e-15
	-3.072428027761474e-04,-8.892038660191556e-14
	-3.072427997037195e-04,6.710434141267889e-14
	-1.243146989352170e-23,-1.590160116326526e-13
	-3.072427997037195e-04,6.710434141267889e-14
19		1.548816618912481e+00,0.000000000000000e+00
	-3.072427997037194e+00,6.866740231920951e-10
	1.000000000000000e+00,0.000000000000000e+00
	0.000000000000000e+00,0.000000000000000e+00
	3.072427997037194e-04,-6.866740231920951e-14
	1.301734701974185e-23,1.627199703641283e-13
	3.072427999951249e-12,-3.060959564283173e-15
	-3.072428027761474e-04,-9.099160848063564e-14
	-3.072427997037195e-04,6.866740231920952e-14
	-1.301734701974185e-23,-1.627199703641283e-13
	-3.072427997037195e-04,6.866740231920952e-14
20		1.584893192461113e+00,0.000000000000000e+00
	-3.072427997037194e+00,7.026687159137029e-10
	1.000000000000000e+00,0.000000000000000e+00
	0.000000000000000e+00,0.000000000000000e+00
	3.072427997037194e-04,-7.026687159137029e-14
	1.363083568425698e-23,1.665102053777445e-13
	3.072427999951249e-12,-3.132258471785742e-15
	-3.072428027761474e-04,-9.311107531458849e-14
	-3.072427997037195e-04,7.026687159137029e-14
	-1.363083568425698e-23,-1.665102053777445e-13
	-3.072427997037195e-04,7.026687159137029e-14
21		1.621810097358929e+00,0.000000000000000e+00
	-3.072427997037194e+00,7.190359728894082e-10
	1.000000000000000e+00,0.000000000000000e+00
	0.000000000000000e+00,0.000000000000000e+00
	3.072427997037194e-04,-7.190359728894082e-14
	1.427323717877640e-23,1.703887263062751e-13
	3.072427999951249e-12,-3.205218144190365e-15
	-3.072428027761474e-04,-9.527991087314390e-14
	-3.072427997037195e-04,7.190359728894082e-14
	-1.427323717877640e-23,-1.703887263062751e-13
	-3.072427997037195e-04,7.190359728894082e-14
22		1.659586907437560e+00,0.000000000000000e+00
	-3.072427997037194e+00,7.357844722555057e-10
	1.000000000000000e+00,0.000000000000000e+00
	0.000000000000000e+00,0.000000000000000e+00
	3.072427997037194e-04,-7.357844722555058e-14
	1.494591412299825e-23,1.743575895928547e-13
	3.072427999951249e-12,-3.279877265681123e-15
	-3.072428027761474e-04,-9.749926510162299e-14
	-3.072427997037195e-04,7.357844722555058e-14
	-1.494591412299825e-23,-1.743575895928547e-13
	-3.072427997037195e-04,7.357844722555058e-14
23		1.698243652461743e+00,0.000000000000000e+00
	-3.072427997037194e+00,7.529230942880520e-10
	1.000000000000000e+00,0.000000000000000e+00
	0.000000000000000e+00,0.000000000000000e+00
	3.072427997037194e-04,-7.529230942880519e-14
	1.565029335490859e-23,1.784188995813319e-13
	3.072427999951249e-12,-3.356275421512445e-15
	-3.072428027761474e-04,-9.977031473101430e-14
	-3.072427997037195e-04,7.529230942880521e-14
	-1.565029335490859e-23,-1.784188995813319e-13
	-3.072427997037195e-04,7.529230942880521e-14
24		1.737800828749374e+00,0.000000000000000e+00
	-3.072427997037194e+00,7.704609261113051e-10
	1.000000000000000e+00,0.000000000000000e+00
	0.000000000000000e+00,0.000000000000000e+00
	3.072427997037194e-04,-7.704609261113050e-14
	1.638786895729608e-23,1.825748096320205e-13
	3.072427999951249e-12,-3.434453118997829e-15
	-3.072428027761474e-04,-1.020942639018922e-13
	-3.072427997037195e-04,7.704609261113051e-14
	-1.638786895729608e-23,-1.825748096320205e-13
	-3.072427997037195e-04,7.704609261113051e-14
25		1.778279410038922e+00,0.000000000000000e+00
	-3.072427997037194e+00,7.884072665158383e-10
	1.000000000000000e+00,0.000000000000000e+00
	0.000000000000000e+00,0.000000000000000e+00
	3.072427997037194e-04,-7.884072665158383e-14
	1.716020542690185e-23,1.868275232634394e-13
	3.072427999951249e-12,-3.514451808987261e-15
	-3.072428027761474e-04,-1.044723448028683e-13
	-3.072427997037195e-04,7.884072665158384e-14
	-1.716020542690185e-23,-1.868275232634394e-13
	-3.072427997037195e-04,7.884072665158384e-14
26		1.819700858609982e+00,0.000000000000000e+00
	-3.072427997037194e+00,8.067716308888821e-10
	1.000000000000000e+00,0.000000000000000e+00
	0.000000000000000e+00,0.000000000000000e+00
	3.072427997037194e-04,-8.067716308888821e-14
	1.796894099292689e-23,1.911792953206470e-13
	3.072427999951249e-12,-3.596313907845092e-15
	-3.072428027761474e-04,-1.069058183239138e-13
	-3.072427997037195e-04,8.067716308888822e-14
	-1.796894099292689e-23,-1.911792953206470e-13
	-3.072427997037195e-04,8.067716308888822e-14
27		1.862087136662866e+00,0.000000000000000e+00
	-3.072427997037194e+00,8.255637562595083e-10
	1.000000000000000e+00,0.000000000000000e+00
	0.000000000000000e+00,0.000000000000000e+00
	3.072427997037194e-04,-8.255637562595082e-14
	1.881579109193583e-23,1.956324331707909e-13
	3.072427999951249e-12,-3.680082819939665e-15
	-3.072428027761474e-04,-1.093959747249004e-13
	-3.072427997037195e-04,8.255637562595084e-14
	-1.881579109193583e-23,-1.956324331707909e-13
	-3.072427997037195e-04,8.255637562595084e-14
28		1.905460717963246e+00,0.000000000000000e+00
	-3.072427997037194e+00,8.447936064613313e-10
	1.000000000000000e+00,0.000000000000000e+00
	0.000000000000000e+00,0.000000000000000e+00
	3.072427997037194e-04,-8.447936064613313e-14
	1.970255200652781e-23,2.001892979265032e-13
	3.072427999951249e-12,-3.765802960657068e-15
	-3.072428027761474e-04,-1.119441343197130e-13
	-3.072427997037195e-04,8.447936064613313e-14
	-1.970255200652781e-23,-2.001892979265032e-13
	-3.072427997037195e-04,8.447936064613313e-14
29		1.949844599758044e+00,0.000000000000000e+00
	-3.072427997037194e+00,8.644713774154657e-10
	1.000000000000000e+00,0.000000000000000e+00
	0.000000000000000e+00,0.000000000000000e+00
	3.072427997037194e-04,-8.644713774154657e-14
	2.063110467549281e-23,2.048523056977949e-13
	3.072427999951249e-12,-3.853519779950495e-15
	-3.072428027761474e-04,-1.145516481762978e-13
	-3.072427997037195e-04,8.644713774154657e-14
	-2.063110467549281e-23,-2.048523056977949e-13
	-3.072427997037195e-04,8.644713774154657e-14
30		1.995262314968878e+00,0.000000000000000e+00
	-3.072427997037194e+00,8.846075025365367e-10
	1.000000000000000e+00,0.000000000000000e+00
	0.000000000000000e+00,0.000000000000000e+00
	3.072427997037194e-04,-8.846075025365368e-14
	2.160341868353490e-23,2.096239288731083e-13
	3.072427999951249e-12,-3.943279786438613e-15
	-3.072428027761474e-04,-1.172198988330160e-13
	-3.072427997037195e-04,8.846075025365367e-14
	-2.160341868353490e-23,-2.096239288731083e-13
	-3.072427997037195e-04,8.846075025365367e-14
31		2.041737944669527e+00,0.000000000000000e+00
	-3.072427997037194e+00,9.052126582646176e-10
	1.000000000000000e+00,0.000000000000000e+00
	0.000000000000000e+00,0.000000000000000e+00
	3.072427997037194e-04,-9.052126582646173e-14
	2.262155643902557e-23,2.145066974302109e-13
	3.072427999951249e-12,-4.035130572065010e-15
	-3.072428027761474e-04,-1.199503010316842e-13
	-3.072427997037195e-04,9.052126582646176e-14
	-2.262155643902557e-23,-2.145066974302109e-13
	-3.072427997037195e-04,9.052126582646176e-14
32		2.089296130854037e+00,0.000000000000000e+00
	-3.072427997037194e+00,9.262977697260162e-10
	1.000000000000000e+00,0.000000000000000e+00
	0.000000000000000e+00,0.000000000000000e+00
	3.072427997037194e-04,-9.262977697260162e-14
	2.368767754864833e-23,2.195032002776229e-13
	3.072427999951249e-12,-4.129120837331912e-15
	-3.072428027761474e-04,-1.227443024676894e-13
	-3.072427997037195e-04,9.262977697260162e-14
	-2.368767754864833e-23,-2.195032002776229e-13
	-3.072427997037195e-04,9.262977697260162e-14
33		2.137962089502230e+00,0.000000000000000e+00
	-3.072427997037194e+00,9.478740165259240e-10
	1.000000000000000e+00,0.000000000000000e+00
	0.000000000000000e+00,0.000000000000000e+00
	3.072427997037194e-04,-9.478740165259239e-14
	2.480404339821401e-23,2.246160866272904e-13
	3.072427999951249e-12,-4.225300417122218e-15
	-3.072428027761474e-04,-1.256033845575758e-13
	-3.072427997037195e-04,9.478740165259240e-14
	-2.480404339821401e-23,-2.246160866272904e-13
	-3.072427997037195e-04,9.478740165259240e-14
34		2.187761623949550e+00,0.000000000000000e+00
	-3.072427997037194e+00,9.699528386759899e-10
	1.000000000000000e+00,0.000000000000000e+00
	0.000000000000000e+00,0.000000000000000e+00
	3.072427997037194e-04,-9.699528386759898e-14
	2.597302194936334e-23,2.298480673992331e-13
	3.072427999951249e-12,-4.323720307122092e-15
	-3.072428027761474e-04,-1.285290632245120e-13
	-3.072427997037195e-04,9.699528386759899e-14
	-2.597302194936334e-23,-2.298480673992331e-13
	-3.072427997037195e-04,9.699528386759899e-14
35		2.238721138568337e+00,0.000000000000000e+00
	-3.072427997037194e+00,9.925459426599651e-10
	1.000000000000000e+00,0.000000000000000e+00
	0.000000000000000e+00,0.000000000000000e+00
	3.072427997037194e-04,-9.925459426599651e-14
	2.719709276233097e-23,2.352019166589097e-13
	3.072427999951249e-12,-4.424432690860064e-15
	-3.072428027761474e-04,-1.315228897020531e-13
	-3.072427997037195e-04,9.925459426599651e-14
	-2.719709276233097e-23,-2.352019166589097e-13
	-3.072427997037195e-04,9.925459426599651e-14
36		2.290867652767770e+00,0.000000000000000e+00
	-3.072427997037194e+00,1.015665307640637e-09
	1.000000000000000e+00,0.000000000000000e+00
	0.000000000000000e+00,0.000000000000000e+00
	3.072427997037194e-04,-1.015665307640637e-13
	2.847885225542525e-23,2.406804730880642e-13
	3.072427999951249e-12,-4.527490967374983e-15
	-3.072428027761474e-04,-1.345864513566255e-13
	-3.072427997037195e-04,1.015665307640637e-13
	-2.847885225542525e-23,-2.406804730880642e-13
	-3.072427997037195e-04,1.015665307640637e-13
37		2.344228815319919e+00,0.000000000000000e+00
	-3.072427997037194e+00,1.039323191811340e-09
	1.000000000000000e+00,0.000000000000000e+00
	0.000000000000000e+00,0.000000000000000e+00
	3.072427997037194e-04,-1.039323191811340e-13
	2.982101921237953e-23,2.462866414898327e-13
	3.072427999951249e-12,-4.632949779529230e-15
	-3.072428027761474e-04,-1.377213725291694e-13
	-3.072427997037195e-04,1.039323191811340e-13
	-2.982101921237953e-23,-2.462866414898327e-13
	-3.072427997037195e-04,1.039323191811340e-13
38		2.398832919019488e+00,0.000000000000000e+00
	-3.072427997037194e+00,1.063532138895411e-09
	1.000000000000000e+00,0.000000000000000e+00
