Title: * GA CMOS Amp | W=2.727821667948555e-06 L=6.012544474832636e-07 Vbias=1.4895597444645392
Date: Sat Sep  6 22:13:13 2025
Plotname: AC Analysis
Flags: complex forward log
No. Variables: 13
No. Points:          901
Offset:    0.0000000000000000e+00
Command: Linear Technology Corporation LTspice
Variables:
	0	frequency	frequency
	1	V(out)	voltage
	2	V(g)	voltage
	3	V(vdd)	voltage
	4	V(m1#dbody)	voltage
	5	V(m1#sbody)	voltage
	6	Id(M1)	device_current
	7	Ig(M1)	device_current
	8	Ib(M1)	device_current
	9	Is(M1)	device_current
	10	I(Rload)	device_current
	11	I(Vg)	device_current
	12	I(Vdd)	device_current
Values:
0		1.000000000000000e+00,0.000000000000000e+00
	-2.318210042646482e-02,5.714228057934798e-10
	1.000000000000000e+00,0.000000000000000e+00
	0.000000000000000e+00,0.000000000000000e+00
	5.290511264964507e-05,5.304568089150106e-14
	5.290511282350623e-05,5.436819358742918e-14
	2.318210042646481e-06,-5.714228057934802e-14
	3.229521066628714e-05,4.078538137140968e-13
	-2.821606018226852e-05,-2.891037865652702e-14
	-6.397360526665106e-06,-3.218011544782218e-13
	-2.318210042646482e-06,5.714228057934798e-14
	-3.229521066616670e-05,-4.078538137140969e-13
	-2.318210042646482e-06,5.714228057934798e-14
1		1.023292992280754e+00,0.000000000000000e+00
	-2.318210042646482e-02,5.847329527978742e-10
	1.000000000000000e+00,0.000000000000000e+00
	0.000000000000000e+00,0.000000000000000e+00
	5.290511264964507e-05,5.428127352703415e-14
	5.290511282350623e-05,5.563459150097972e-14
	2.318210042646481e-06,-5.847329527978743e-14
	3.229521066628714e-05,4.173539494486155e-13
	-2.821606018226852e-05,-2.958378788340719e-14
	-6.397360526665106e-06,-3.292968662854208e-13
	-2.318210042646482e-06,5.847329527978743e-14
	-3.229521066616670e-05,-4.173539494486154e-13
	-2.318210042646482e-06,5.847329527978743e-14
2		1.047128548050899e+00,0.000000000000000e+00
	-2.318210042646482e-02,5.983531329536976e-10
	1.000000000000000e+00,0.000000000000000e+00
	0.000000000000000e+00,0.000000000000000e+00
	5.290511264964507e-05,5.554564681228885e-14
	5.290511282350623e-05,5.693048761135494e-14
	2.318210042646481e-06,-5.983531329536977e-14
	3.229521066628714e-05,4.270753717714643e-13
	-2.821606018226852e-05,-3.027288282621086e-14
	-6.397360526665106e-06,-3.369671756498837e-13
	-2.318210042646482e-06,5.983531329536976e-14
	-3.229521066616670e-05,-4.270753717714642e-13
	-2.318210042646482e-06,5.983531329536976e-14
3		1.071519305237606e+00,0.000000000000000e+00
	-2.318210042646482e-02,6.122905678607531e-10
	1.000000000000000e+00,0.000000000000000e+00
	0.000000000000000e+00,0.000000000000000e+00
	5.290511264964507e-05,5.683947113471698e-14
	5.290511282350623e-05,5.825656901982578e-14
	2.318210042646481e-06,-6.122905678607528e-14
	3.229521066628714e-05,4.370232351094371e-13
	-2.821606018226852e-05,-3.097802885219795e-14
	-6.397360526665106e-06,-3.448161494711638e-13
	-2.318210042646482e-06,6.122905678607531e-14
	-3.229521066616670e-05,-4.370232351094371e-13
	-2.318210042646482e-06,6.122905678607531e-14
4		1.096478196143185e+00,0.000000000000000e+00
	-2.318210042646482e-02,6.265526473315119e-10
	1.000000000000000e+00,0.000000000000000e+00
	0.000000000000000e+00,0.000000000000000e+00
	5.290511264964507e-05,5.816343249710007e-14
	5.290511282350623e-05,5.961353883230781e-14
	2.318210042646481e-06,-6.265526473315122e-14
	3.229521066628714e-05,4.472028139513513e-13
	-2.821606018226852e-05,-3.169959983912517e-14
	-6.397360526665106e-06,-3.528479493790749e-13
	-2.318210042646482e-06,6.265526473315120e-14
	-3.229521066616670e-05,-4.472028139513513e-13
	-2.318210042646482e-06,6.265526473315120e-14
5		1.122018454301963e+00,0.000000000000000e+00
	-2.318210042646482e-02,6.411469333092911e-10
	1.000000000000000e+00,0.000000000000000e+00
	0.000000000000000e+00,0.000000000000000e+00
	5.290511264964507e-05,5.951823288127721e-14
	5.290511282350623e-05,6.100211653215720e-14
	2.318210042646481e-06,-6.411469333092912e-14
	3.229521066628714e-05,4.576195056446519e-13
	-2.821606018226852e-05,-3.243797837348092e-14
	-6.397360526665106e-06,-3.610668339402418e-13
	-2.318210042646482e-06,6.411469333092912e-14
	-3.229521066616670e-05,-4.576195056446518e-13
	-2.318210042646482e-06,6.411469333092912e-14
6		1.148153621496882e+00,0.000000000000000e+00
	-2.318210042646482e-02,6.560811638776936e-10
	1.000000000000000e+00,0.000000000000000e+00
	0.000000000000000e+00,0.000000000000000e+00
	5.290511264964507e-05,6.090459062034494e-14
	5.290511282350623e-05,6.242303836165040e-14
	2.318210042646481e-06,-6.560811638776936e-14
	3.229521066628714e-05,4.682788332571552e-13
	-2.821606018226852e-05,-3.319355595333768e-14
	-6.397360526665106e-06,-3.694771609160482e-13
	-2.318210042646482e-06,6.560811638776937e-14
	-3.229521066616670e-05,-4.682788332571552e-13
	-2.318210042646482e-06,6.560811638776937e-14
7		1.174897554939529e+00,0.000000000000000e+00
	-2.318210042646482e-02,6.713632573634448e-10
	1.000000000000000e+00,0.000000000000000e+00
	0.000000000000000e+00,0.000000000000000e+00
	5.290511264964507e-05,6.232324077952711e-14
	5.290511282350623e-05,6.387705771234953e-14
	2.318210042646481e-06,-6.713632573634448e-14
	3.229521066628714e-05,4.791864485054545e-13
	-2.821606018226852e-05,-3.396673319592955e-14
	-6.397360526665106e-06,-3.780833895731805e-13
	-2.318210042646482e-06,6.713632573634448e-14
	-3.229521066616670e-05,-4.791864485054545e-13
	-2.318210042646482e-06,6.713632573634448e-14
8		1.202264434617413e+00,0.000000000000000e+00
	-2.318210042646482e-02,6.870013165347935e-10
	1.000000000000000e+00,0.000000000000000e+00
	0.000000000000000e+00,0.000000000000000e+00
	5.290511264964507e-05,6.377493554591622e-14
	5.290511282350623e-05,6.536494552456060e-14
	2.318210042646481e-06,-6.870013165347941e-14
	3.229521066628714e-05,4.903481347515341e-13
	-2.821606018226852e-05,-3.475792005006478e-14
	-6.397360526665106e-06,-3.868900830479900e-13
	-2.318210042646482e-06,6.870013165347936e-14
	-3.229521066616670e-05,-4.903481347515341e-13
	-2.318210042646482e-06,6.870013165347936e-14
9		1.230268770812381e+00,0.000000000000000e+00
	-2.318210042646482e-02,7.030036328977063e-10
	1.000000000000000e+00,0.000000000000000e+00
	0.000000000000000e+00,0.000000000000000e+00
	5.290511264964507e-05,6.526044462729283e-14
	5.290511282350623e-05,6.688749069609608e-14
	2.318210042646481e-06,-7.030036328977065e-14
	3.229521066628714e-05,5.017698100691838e-13
	-2.821606018226852e-05,-3.556753601348600e-14
	-6.397360526665106e-06,-3.959019107659272e-13
	-2.318210042646482e-06,7.030036328977064e-14
	-3.229521066616670e-05,-5.017698100691838e-13
	-2.318210042646482e-06,7.030036328977064e-14
10		1.258925411794167e+00,0.000000000000000e+00
	-2.318210042646482e-02,7.193786910921347e-10
	1.000000000000000e+00,0.000000000000000e+00
	0.000000000000000e+00,0.000000000000000e+00
	5.290511264964507e-05,6.678055566023495e-14
	5.290511282350623e-05,6.844550050055928e-14
	2.318210042646481e-06,-7.193786910921348e-14
	3.229521066628714e-05,5.134575303818407e-13
	-2.821606018226852e-05,-3.639601035529358e-14
	-6.397360526665106e-06,-4.051236509173337e-13
	-2.318210042646482e-06,7.193786910921348e-14
	-3.229521066616670e-05,-5.134575303818408e-13
	-2.318210042646482e-06,7.193786910921348e-14
11		1.288249551693134e+00,0.000000000000000e+00
	-2.318210042646482e-02,7.361351733906831e-10
	1.000000000000000e+00,0.000000000000000e+00
	0.000000000000000e+00,0.000000000000000e+00
	5.290511264964507e-05,6.833607462773328e-14
	5.290511282350623e-05,7.003980101537115e-14
	2.318210042646481e-06,-7.361351733906829e-14
	3.229521066628714e-05,5.254174926735201e-13
	-2.821606018226852e-05,-3.724378234354968e-14
	-6.397360526665106e-06,-4.145601929909022e-13
	-2.318210042646482e-06,7.361351733906831e-14
	-3.229521066616670e-05,-5.254174926735202e-13
	-2.318210042646482e-06,7.361351733906831e-14
12		1.318256738556407e+00,0.000000000000000e+00
	-2.318210042646482e-02,7.532819643020637e-10
	1.000000000000000e+00,0.000000000000000e+00
	0.000000000000000e+00,0.000000000000000e+00
	5.290511264964507e-05,6.992782628653411e-14
	5.290511282350623e-05,7.167123755976776e-14
	2.318210042646481e-06,-7.532819643020638e-14
	3.229521066628714e-05,5.376560382745376e-13
	-2.821606018226852e-05,-3.811130147818407e-14
	-6.397360526665106e-06,-4.242165403661472e-13
	-2.318210042646482e-06,7.532819643020638e-14
	-3.229521066616670e-05,-5.376560382745376e-13
	-2.318210042646482e-06,7.532819643020638e-14
13		1.348962882591653e+00,0.000000000000000e+00
	-2.318210042646482e-02,7.708281552817829e-10
	1.000000000000000e+00,0.000000000000000e+00
	0.000000000000000e+00,0.000000000000000e+00
	5.290511264964507e-05,7.155665460443625e-14
	5.290511282350623e-05,7.334067514299951e-14
	2.318210042646481e-06,-7.708281552817834e-14
	3.229521066628714e-05,5.501796562237672e-13
	-2.821606018226852e-05,-3.899902772932490e-14
	-6.397360526665106e-06,-4.340978129662640e-13
	-2.318210042646482e-06,7.708281552817829e-14
	-3.229521066616670e-05,-5.501796562237672e-13
	-2.318210042646482e-06,7.708281552817829e-14
14		1.380384264602885e+00,0.000000000000000e+00
	-2.318210042646482e-02,7.887830495525497e-10
	1.000000000000000e+00,0.000000000000000e+00
	0.000000000000000e+00,0.000000000000000e+00
	5.290511264964507e-05,7.322342320777400e-14
	5.290511282350623e-05,7.504899892297071e-14
	2.318210042646481e-06,-7.887830495525496e-14
	3.229521066628714e-05,5.629949867092155e-13
	-2.821606018226852e-05,-3.990743178118099e-14
	-6.397360526665106e-06,-4.442092499727795e-13
	-2.318210042646482e-06,7.887830495525497e-14
	-3.229521066616670e-05,-5.629949867092154e-13
	-2.318210042646482e-06,7.887830495525497e-14
15		1.412537544622754e+00,0.000000000000000e+00
	-2.318210042646482e-02,8.071561670369667e-10
	1.000000000000000e+00,0.000000000000000e+00
	0.000000000000000e+00,0.000000000000000e+00
	5.290511264964507e-05,7.492901583932305e-14
	5.290511282350623e-05,7.679711467556177e-14
	2.318210042646481e-06,-8.071561670369673e-14
	3.229521066628714e-05,5.761088245887364e-13
	-2.821606018226852e-05,-4.083699528160476e-14
	-6.397360526665106e-06,-4.545562126034350e-13
	-2.318210042646482e-06,8.071561670369667e-14
	-3.229521066616670e-05,-5.761088245887365e-13
	-2.318210042646482e-06,8.071561670369667e-14
16		1.445439770745927e+00,0.000000000000000e+00
	-2.318210042646482e-02,8.259572494051216e-10
	1.000000000000000e+00,0.000000000000000e+00
	0.000000000000000e+00,0.000000000000000e+00
	5.290511264964507e-05,7.667433682687291e-14
	5.290511282350623e-05,7.858594927488382e-14
	2.318210042646481e-06,-8.259572494051219e-14
	3.229521066628714e-05,5.895281229927562e-13
	-2.821606018226852e-05,-4.178821109746836e-14
	-6.397360526665106e-06,-4.651441869547757e-13
	-2.318210042646482e-06,8.259572494051217e-14
	-3.229521066616670e-05,-5.895281229927562e-13
	-2.318210042646482e-06,8.259572494051217e-14
17		1.479108388168207e+00,0.000000000000000e+00
	-2.318210042646482e-02,8.451962652397481e-10
	1.000000000000000e+00,0.000000000000000e+00
	0.000000000000000e+00,0.000000000000000e+00
	5.290511264964507e-05,7.846031156271319e-14
	5.290511282350623e-05,8.041645118471942e-14
	2.318210042646481e-06,-8.451962652397477e-14
	3.229521066628714e-05,6.032599970109137e-13
	-2.821606018226852e-05,-4.276158357598821e-14
	-6.397360526665106e-06,-4.759787869109507e-13
	-2.318210042646482e-06,8.451962652397481e-14
	-3.229521066616670e-05,-6.032599970109138e-13
	-2.318210042646482e-06,8.451962652397481e-14
18		1.513561248436208e+00,0.000000000000000e+00
	-2.318210042646482e-02,8.648834153216999e-10
	1.000000000000000e+00,0.000000000000000e+00
	0.000000000000000e+00,0.000000000000000e+00
	5.290511264964507e-05,8.028788699428904e-14
	5.290511282350623e-05,8.228959096141073e-14
	2.318210042646481e-06,-8.648834153216999e-14
	3.229521066628714e-05,6.173117274645769e-13
	-2.821606018226852e-05,-4.375762881213652e-14
	-6.397360526665106e-06,-4.870657571202704e-13
	-2.318210042646482e-06,8.648834153216999e-14
	-3.229521066616670e-05,-6.173117274645768e-13
	-2.318210042646482e-06,8.648834153216999e-14
19		1.548816618912481e+00,0.000000000000000e+00
	-2.318210042646482e-02,8.850291380385403e-10
	1.000000000000000e+00,0.000000000000000e+00
	0.000000000000000e+00,0.000000000000000e+00
	5.290511264964507e-05,8.215803212628507e-14
	5.290511282350623e-05,8.420636176846128e-14
	2.318210042646481e-06,-8.850291380385411e-14
	3.229521066628714e-05,6.316907647672283e-13
	-2.821606018226852e-05,-4.477687492228173e-14
	-6.397360526665106e-06,-4.984109760410925e-13
	-2.318210042646482e-06,8.850291380385403e-14
	-3.229521066616670e-05,-6.316907647672283e-13
	-2.318210042646482e-06,8.850291380385403e-14
20		1.584893192461113e+00,0.000000000000000e+00
	-2.318210042646482e-02,9.056441149191147e-10
	1.000000000000000e+00,0.000000000000000e+00
	0.000000000000000e+00,0.000000000000000e+00
	5.290511264964507e-05,8.407173853440459e-14
	5.290511282350623e-05,8.616777990312446e-14
	2.318210042646481e-06,-9.056441149191151e-14
	3.229521066628714e-05,6.464047328747749e-13
	-2.821606018226852e-05,-4.581986232420274e-14
	-6.397360526665106e-06,-5.100204590586607e-13
	-2.318210042646482e-06,9.056441149191147e-14
	-3.229521066616670e-05,-6.464047328747749e-13
	-2.318210042646482e-06,9.056441149191147e-14
21		1.621810097358929e+00,0.000000000000000e+00
	-2.318210042646482e-02,9.267392762970360e-10
	1.000000000000000e+00,0.000000000000000e+00
	0.000000000000000e+00,0.000000000000000e+00
	5.290511264964507e-05,8.603002089111602e-14
	5.290511282350623e-05,8.817488533525763e-14
	2.318210042646481e-06,-9.267392762970359e-14
	3.229521066628714e-05,6.614614333278700e-13
	-2.821606018226852e-05,-4.688714402362560e-14
	-6.397360526665106e-06,-5.219003616745408e-13
	-2.318210042646482e-06,9.267392762970360e-14
	-3.229521066616670e-05,-6.614614333278698e-13
	-2.318210042646482e-06,9.267392762970360e-14
22		1.659586907437560e+00,0.000000000000000e+00
	-2.318210042646482e-02,9.483258071060947e-10
	1.000000000000000e+00,0.000000000000000e+00
	0.000000000000000e+00,0.000000000000000e+00
	5.290511264964507e-05,8.803391750364592e-14
	5.290511282350623e-05,9.022874225872817e-14
	2.318210042646481e-06,-9.483258071060941e-14
	3.229521066628714e-05,6.768688493883925e-13
	-2.821606018226852e-05,-4.797928590743452e-14
	-6.397360526665106e-06,-5.340569827703486e-13
	-2.318210042646482e-06,9.483258071060948e-14
	-3.229521066616670e-05,-6.768688493883926e-13
	-2.318210042646482e-06,9.483258071060948e-14
23		1.698243652461743e+00,0.000000000000000e+00
	-2.318210042646482e-02,9.704151528106567e-10
	1.000000000000000e+00,0.000000000000000e+00
	0.000000000000000e+00,0.000000000000000e+00
	5.290511264964507e-05,9.008449086450290e-14
	5.290511282350623e-05,9.233043965566290e-14
	2.318210042646481e-06,-9.704151528106563e-14
	3.229521066628714e-05,6.926351502722793e-13
	-2.821606018226852e-05,-4.909686704371250e-14
	-6.397360526665106e-06,-5.464967679475012e-13
	-2.318210042646482e-06,9.704151528106567e-14
	-3.229521066616670e-05,-6.926351502722795e-13
	-2.318210042646482e-06,9.704151528106567e-14
24		1.737800828749374e+00,0.000000000000000e+00
	-2.318210042646482e-02,9.930190254742020e-10
	1.000000000000000e+00,0.000000000000000e+00
	0.000000000000000e+00,0.000000000000000e+00
	5.290511264964507e-05,9.218282821482540e-14
	5.290511282350623e-05,9.448109187384086e-14
	2.318210042646481e-06,-9.930190254742018e-14
	3.229521066628714e-05,7.087686954809504e-13
	-2.821606018226852e-05,-5.024047998877088e-14
	-6.397360526665106e-06,-5.592263129447593e-13
	-2.318210042646482e-06,9.930190254742021e-14
	-3.229521066616670e-05,-7.087686954809504e-13
	-2.318210042646482e-06,9.930190254742021e-14
25		1.778279410038922e+00,0.000000000000000e+00
	-2.318210042646482e-02,1.016149409969215e-09
	1.000000000000000e+00,0.000000000000000e+00
	0.000000000000000e+00,0.000000000000000e+00
	5.290511264964507e-05,9.433004212085141e-14
	5.290511282350623e-05,9.668183921753545e-14
	2.318210042646481e-06,-1.016149409969215e-13
	3.229521066628714e-05,7.252780392336286e-13
	-2.821606018226852e-05,-5.141073110133070e-14
	-6.397360526665106e-06,-5.722523671353763e-13
	-2.318210042646482e-06,1.016149409969215e-13
	-3.229521066616670e-05,-7.252780392336285e-13
	-2.318210042646482e-06,1.016149409969215e-13
26		1.819700858609982e+00,0.000000000000000e+00
	-2.318210042646482e-02,1.039818570331720e-09
	1.000000000000000e+00,0.000000000000000e+00
	0.000000000000000e+00,0.000000000000000e+00
	5.290511264964507e-05,9.652727106381562e-14
	5.290511282350623e-05,9.893384855211860e-14
	2.318210042646481e-06,-1.039818570331720e-13
	3.229521066628714e-05,7.421719350028977e-13
	-2.821606018226852e-05,-5.260824086402192e-14
	-6.397360526665106e-06,-5.855818371057038e-13
	-2.318210042646482e-06,1.039818570331720e-13
	-3.229521066616670e-05,-7.421719350028977e-13
	-2.318210042646482e-06,1.039818570331720e-13
27		1.862087136662866e+00,0.000000000000000e+00
	-2.318210042646482e-02,1.064039056263842e-09
	1.000000000000000e+00,0.000000000000000e+00
	0.000000000000000e+00,0.000000000000000e+00
	5.290511264964507e-05,9.877568004358733e-14
	5.290511282350623e-05,1.012383139227484e-13
	2.318210042646481e-06,-1.064039056263842e-13
	3.229521066628714e-05,7.594593401559126e-13
	-2.821606018226852e-05,-5.383364421237165e-14
	-6.397360526665106e-06,-5.992217903171568e-13
	-2.318210042646482e-06,1.064039056263842e-13
	-3.229521066616670e-05,-7.594593401559125e-13
	-2.318210042646482e-06,1.064039056263842e-13
28		1.905460717963246e+00,0.000000000000000e+00
	-2.318210042646482e-02,1.088823709787816e-09
	1.000000000000000e+00,0.000000000000000e+00
	0.000000000000000e+00,0.000000000000000e+00
	5.290511264964507e-05,1.010764611963689e-13
	5.290511282350623e-05,1.035964571874676e-13
	2.318210042646481e-06,-1.088823709787817e-13
	3.229521066628714e-05,7.771494207037109e-13
	-2.821606018226852e-05,-5.508759087145528e-14
	-6.397360526665106e-06,-6.131794588534739e-13
	-2.318210042646482e-06,1.088823709787816e-13
	-3.229521066616670e-05,-7.771494207037108e-13
	-2.318210042646482e-06,1.088823709787816e-13
29		1.949844599758044e+00,0.000000000000000e+00
	-2.318210042646482e-02,1.114185672055006e-09
	1.000000000000000e+00,0.000000000000000e+00
	0.000000000000000e+00,0.000000000000000e+00
	5.290511264964507e-05,1.034308344267818e-13
	5.290511282350623e-05,1.060095286650487e-13
	2.318210042646481e-06,-1.114185672055007e-13
	3.229521066628714e-05,7.952515561611550e-13
	-2.821606018226852e-05,-5.637074570038943e-14
	-6.397360526665106e-06,-6.274622432552648e-13
	-2.318210042646482e-06,1.114185672055006e-13
	-3.229521066616670e-05,-7.952515561611549e-13
	-2.318210042646482e-06,1.114185672055006e-13
30		1.995262314968878e+00,0.000000000000000e+00
	-2.318210042646482e-02,1.140138390313510e-09
	1.000000000000000e+00,0.000000000000000e+00
	0.000000000000000e+00,0.000000000000000e+00
	5.290511264964507e-05,1.058400480546768e-13
	5.290511282350623e-05,1.084788077979301e-13
	2.318210042646481e-06,-1.140138390313510e-13
	3.229521066628714e-05,8.137753445200745e-13
	-2.821606018226852e-05,-5.768378904484896e-14
	-6.397360526665106e-06,-6.420777164438745e-13
	-2.318210042646482e-06,1.140138390313510e-13
	-3.229521066616670e-05,-8.137753445200744e-13
	-2.318210042646482e-06,1.140138390313510e-13
31		2.041737944669527e+00,0.000000000000000e+00
	-2.318210042646482e-02,1.166695625038074e-09
	1.000000000000000e+00,0.000000000000000e+00
	0.000000000000000e+00,0.000000000000000e+00
	5.290511264964507e-05,1.083053794770090e-13
	5.290511282350623e-05,1.110056038305927e-13
	2.318210042646481e-06,-1.166695625038074e-13
	3.229521066628714e-05,8.327306073382485e-13
	-2.821606018226852e-05,-5.902741709779527e-14
	-6.397360526665106e-06,-6.570336277366457e-13
	-2.318210042646482e-06,1.166695625038074e-13
	-3.229521066616670e-05,-8.327306073382484e-13
	-2.318210042646482e-06,1.166695625038074e-13
32		2.089296130854037e+00,0.000000000000000e+00
	-2.318210042646482e-02,1.193871457226075e-09
	1.000000000000000e+00,0.000000000000000e+00
	0.000000000000000e+00,0.000000000000000e+00
	5.290511264964507e-05,1.108281358451311e-13
