Title: * GA CMOS Amp | W=1.6500393905016513e-05 L=1e-06 Vbias=0.6384329863975982
Date: Mon Sep  8 18:47:40 2025
Plotname: AC Analysis
Flags: complex forward log
No. Variables: 11
No. Points:          901
Offset:    0.0000000000000000e+00
Command: Linear Technology Corporation LTspice
Variables:
	0	frequency	frequency
	1	V(out)	voltage
	2	V(g)	voltage
	3	V(vdd)	voltage
	4	Id(M1)	device_current
	5	Ig(M1)	device_current
	6	Ib(M1)	device_current
	7	Is(M1)	device_current
	8	I(Rload)	device_current
	9	I(Vg)	device_current
	10	I(Vdd)	device_current
Values:
0		1.000000000000000e+00,0.000000000000000e+00
	-2.871361647315512e-02,2.132860224199878e-10
	1.000000000000000e+00,0.000000000000000e+00
	0.000000000000000e+00,0.000000000000000e+00
	2.871361647315512e-06,-2.132860224199878e-14
	4.422487063228632e-24,1.417863643955834e-13
	2.871361646578563e-14,-4.253029013398955e-15
	-2.871361676029129e-06,-1.162047331401857e-13
	-2.871361647315512e-06,2.132860224199878e-14
	-4.422487063228632e-24,-1.417863643955834e-13
	-2.871361647315512e-06,2.132860224199878e-14
1		1.023292992280754e+00,0.000000000000000e+00
	-2.871361647315512e-02,2.182540920938093e-10
	1.000000000000000e+00,0.000000000000000e+00
	0.000000000000000e+00,0.000000000000000e+00
	2.871361647315512e-06,-2.182540920938094e-14
	4.630912457292485e-24,1.450889930869659e-13
	2.871361646578563e-14,-4.352094785377886e-15
	-2.871361676029129e-06,-1.189114890922071e-13
	-2.871361647315512e-06,2.182540920938094e-14
	-4.630912457292485e-24,-1.450889930869659e-13
	-2.871361647315512e-06,2.182540920938094e-14
2		1.047128548050899e+00,0.000000000000000e+00
	-2.871361647315512e-02,2.233378829761934e-10
	1.000000000000000e+00,0.000000000000000e+00
	0.000000000000000e+00,0.000000000000000e+00
	2.871361647315512e-06,-2.233378829761935e-14
	4.849160637555501e-24,1.484685498829630e-13
	2.871361646578563e-14,-4.453468095618796e-15
	-2.871361676029129e-06,-1.216812934897248e-13
	-2.871361647315512e-06,2.233378829761934e-14
	-4.849160637555501e-24,-1.484685498829630e-13
	-2.871361647315512e-06,2.233378829761934e-14
3		1.071519305237606e+00,0.000000000000000e+00
	-2.871361647315512e-02,2.285400905603578e-10
	1.000000000000000e+00,0.000000000000000e+00
	0.000000000000000e+00,0.000000000000000e+00
	2.871361647315512e-06,-2.285400905603579e-14
	5.077694537669066e-24,1.519268266693216e-13
	2.871361646578563e-14,-4.557202693592623e-15
	-2.871361676029129e-06,-1.245156149196931e-13
	-2.871361647315512e-06,2.285400905603579e-14
	-5.077694537669066e-24,-1.519268266693216e-13
	-2.871361647315512e-06,2.285400905603579e-14
4		1.096478196143185e+00,0.000000000000000e+00
	-2.871361647315512e-02,2.338634731256231e-10
	1.000000000000000e+00,0.000000000000000e+00
	0.000000000000000e+00,0.000000000000000e+00
	2.871361647315512e-06,-2.338634731256231e-14
	5.316998908675391e-24,1.554656570701695e-13
	2.871361646578563e-14,-4.663353580756345e-15
	-2.871361676029129e-06,-1.274159561768509e-13
	-2.871361647315512e-06,2.338634731256231e-14
	-5.316998908675391e-24,-1.554656570701695e-13
	-2.871361647315512e-06,2.338634731256231e-14
5		1.122018454301963e+00,0.000000000000000e+00
	-2.871361647315512e-02,2.393108531998886e-10
	1.000000000000000e+00,0.000000000000000e+00
	0.000000000000000e+00,0.000000000000000e+00
	2.871361647315512e-06,-2.393108531998886e-14
	5.567581347229480e-24,1.590869174202274e-13
	2.871361646578563e-14,-4.771977039715286e-15
	-2.871361676029129e-06,-1.303838550605232e-13
	-2.871361647315512e-06,2.393108531998886e-14
	-5.567581347229480e-24,-1.590869174202274e-13
	-2.871361647315512e-06,2.393108531998886e-14
6		1.148153621496882e+00,0.000000000000000e+00
	-2.871361647315512e-02,2.448851190561743e-10
	1.000000000000000e+00,0.000000000000000e+00
	0.000000000000000e+00,0.000000000000000e+00
	2.871361647315512e-06,-2.448851190561743e-14
	5.829973372279678e-24,1.627925277596657e-13
	2.871361646578563e-14,-4.883130664065349e-15
	-2.871361676029129e-06,-1.334208851899829e-13
	-2.871361647315512e-06,2.448851190561743e-14
	-5.829973372279678e-24,-1.627925277596657e-13
	-2.871361647315512e-06,2.448851190561743e-14
7		1.174897554939529e+00,0.000000000000000e+00
	-2.871361647315512e-02,2.505892262440213e-10
	1.000000000000000e+00,0.000000000000000e+00
	0.000000000000000e+00,0.000000000000000e+00
	2.871361647315512e-06,-2.505892262440213e-14
	6.104731552490624e-24,1.665844528521360e-13
	2.871361646578563e-14,-4.996873388929343e-15
	-2.871361676029129e-06,-1.365286568388046e-13
	-2.871361647315512e-06,2.505892262440213e-14
	-6.104731552490624e-24,-1.665844528521360e-13
	-2.871361647315512e-06,2.505892262440213e-14
8		1.202264434617413e+00,0.000000000000000e+00
	-2.871361647315512e-02,2.564261991565634e-10
	1.000000000000000e+00,0.000000000000000e+00
	0.000000000000000e+00,0.000000000000000e+00
	2.871361647315512e-06,-2.564261991565635e-14
	6.392438686800021e-24,1.704647032265145e-13
	2.871361646578563e-14,-5.113265522205572e-15
	-2.871361676029129e-06,-1.397088177886526e-13
	-2.871361647315512e-06,2.564261991565634e-14
	-6.392438686800021e-24,-1.704647032265145e-13
	-2.871361647315512e-06,2.564261991565634e-14
9		1.230268770812381e+00,0.000000000000000e+00
	-2.871361647315512e-02,2.623991326341004e-10
	1.000000000000000e+00,0.000000000000000e+00
	0.000000000000000e+00,0.000000000000000e+00
	2.871361647315512e-06,-2.623991326341004e-14
	6.693705040613304e-24,1.744353362429107e-13
	2.871361646578563e-14,-5.232368776543703e-15
	-2.871361676029129e-06,-1.429630542029570e-13
	-2.871361647315512e-06,2.623991326341004e-14
	-6.693705040613304e-24,-1.744353362429107e-13
	-2.871361647315512e-06,2.623991326341004e-14
10		1.258925411794167e+00,0.000000000000000e+00
	-2.871361647315512e-02,2.685111936050231e-10
	1.000000000000000e+00,0.000000000000000e+00
	0.000000000000000e+00,0.000000000000000e+00
	2.871361647315512e-06,-2.685111936050231e-14
	7.009169640258398e-24,1.784984571835076e-13
	2.871361646578563e-14,-5.354246302065843e-15
	-2.871361676029129e-06,-1.462930915209395e-13
	-2.871361647315512e-06,2.685111936050231e-14
	-7.009169640258398e-24,-1.784984571835076e-13
	-2.871361647315512e-06,2.685111936050231e-14
11		1.288249551693134e+00,0.000000000000000e+00
	-2.871361647315512e-02,2.747656227649610e-10
	1.000000000000000e+00,0.000000000000000e+00
	0.000000000000000e+00,0.000000000000000e+00
	2.871361647315512e-06,-2.747656227649610e-14
	7.339501628446224e-24,1.826562203688096e-13
	2.871361646578563e-14,-5.478962719849094e-15
	-2.871361676029129e-06,-1.497006953724644e-13
	-2.871361647315512e-06,2.747656227649610e-14
	-7.339501628446224e-24,-1.826562203688096e-13
	-2.871361647315512e-06,2.747656227649610e-14
12		1.318256738556407e+00,0.000000000000000e+00
	-2.871361647315512e-02,2.811657362950418e-10
	1.000000000000000e+00,0.000000000000000e+00
	0.000000000000000e+00,0.000000000000000e+00
	2.871361647315512e-06,-2.811657362950418e-14
	7.685401683612105e-24,1.869108302998920e-13
	2.871361646578563e-14,-5.606584156189099e-15
	-2.871361676029129e-06,-1.531876725141987e-13
	-2.871361647315512e-06,2.811657362950418e-14
	-7.685401683612105e-24,-1.869108302998920e-13
	-2.871361647315512e-06,2.811657362950418e-14
13		1.348962882591653e+00,0.000000000000000e+00
	-2.871361647315512e-02,2.877149276201748e-10
	1.000000000000000e+00,0.000000000000000e+00
	0.000000000000000e+00,0.000000000000000e+00
	2.871361647315512e-06,-2.877149276201748e-14
	8.047603506148683e-24,1.912645428272567e-13
	2.871361646578563e-14,-5.737178277660598e-15
	-2.871361676029129e-06,-1.567558717875787e-13
	-2.871361647315512e-06,2.877149276201748e-14
	-8.047603506148683e-24,-1.912645428272567e-13
	-2.871361647315512e-06,2.877149276201748e-14
14		1.380384264602885e+00,0.000000000000000e+00
	-2.871361647315512e-02,2.944166692082893e-10
	1.000000000000000e+00,0.000000000000000e+00
	0.000000000000000e+00,0.000000000000000e+00
	2.871361647315512e-06,-2.944166692082893e-14
	8.426875374682802e-24,1.957196663469140e-13
	2.871361646578563e-14,-5.870814326995476e-15
	-2.871361676029129e-06,-1.604071850990896e-13
	-2.871361647315512e-06,2.944166692082893e-14
	-8.426875374682802e-24,-1.957196663469140e-13
	-2.871361647315512e-06,2.944166692082893e-14
15		1.412537544622754e+00,0.000000000000000e+00
	-2.871361647315512e-02,3.012745144114833e-10
	1.000000000000000e+00,0.000000000000000e+00
	0.000000000000000e+00,0.000000000000000e+00
	2.871361647315512e-06,-3.012745144114833e-14
	8.824021775697480e-24,2.002785630243244e-13
	2.871361646578563e-14,-6.007563159795901e-15
	-2.871361676029129e-06,-1.641435484233802e-13
	-2.871361647315512e-06,3.012745144114833e-14
	-8.824021775697480e-24,-2.002785630243244e-13
	-2.871361647315512e-06,3.012745144114833e-14
16		1.445439770745927e+00,0.000000000000000e+00
	-2.871361647315512e-02,3.082920993500578e-10
	1.000000000000000e+00,0.000000000000000e+00
	0.000000000000000e+00,0.000000000000000e+00
	2.871361647315512e-06,-3.082920993500578e-14
	9.239885109955617e-24,2.049436500468505e-13
	2.871361646578563e-14,-6.147497282103154e-15
	-2.871361676029129e-06,-1.679669428297416e-13
	-2.871361647315512e-06,3.082920993500578e-14
	-9.239885109955617e-24,-2.049436500468505e-13
	-2.871361647315512e-06,3.082920993500578e-14
17		1.479108388168207e+00,0.000000000000000e+00
	-2.871361647315512e-02,3.154731448404361e-10
	1.000000000000000e+00,0.000000000000000e+00
	0.000000000000000e+00,0.000000000000000e+00
	2.871361647315512e-06,-3.154731448404362e-14
	9.675347479344949e-24,2.097174009053814e-13
	2.871361646578563e-14,-6.290690888841180e-15
	-2.871361676029129e-06,-1.718793955324966e-13
	-2.871361647315512e-06,3.154731448404361e-14
	-9.675347479344949e-24,-2.097174009053814e-13
	-2.871361647315512e-06,3.154731448404361e-14
18		1.513561248436208e+00,0.000000000000000e+00
	-2.871361647315512e-02,3.228214583679897e-10
	1.000000000000000e+00,0.000000000000000e+00
	0.000000000000000e+00,0.000000000000000e+00
	2.871361647315512e-06,-3.228214583679897e-14
	1.013133255793441e-23,2.146023467058102e-13
	2.871361646578563e-14,-6.437219903155552e-15
	-2.871361676029129e-06,-1.758829809658557e-13
	-2.871361647315512e-06,3.228214583679897e-14
	-1.013133255793441e-23,-2.146023467058102e-13
	-2.871361647315512e-06,3.228214583679897e-14
19		1.548816618912481e+00,0.000000000000000e+00
	-2.871361647315512e-02,3.303409361058170e-10
	1.000000000000000e+00,0.000000000000000e+00
	0.000000000000000e+00,0.000000000000000e+00
	2.871361647315512e-06,-3.303409361058171e-14
	1.060880755121066e-23,2.196010775110604e-13
	2.871361646578563e-14,-6.587162016669256e-15
	-2.871361676029129e-06,-1.799798218838094e-13
	-2.871361647315512e-06,3.303409361058170e-14
	-1.060880755121066e-23,-2.196010775110604e-13
	-2.871361647315512e-06,3.303409361058170e-14
20		1.584893192461113e+00,0.000000000000000e+00
	-2.871361647315512e-02,3.380355649805469e-10
	1.000000000000000e+00,0.000000000000000e+00
	0.000000000000000e+00,0.000000000000000e+00
	2.871361647315512e-06,-3.380355649805470e-14
	1.110878524765064e-23,2.247162437143708e-13
	2.871361646578563e-14,-6.740596730675634e-15
	-2.871361676029129e-06,-1.841720904856405e-13
	-2.871361647315512e-06,3.380355649805469e-14
	-1.110878524765064e-23,-2.247162437143708e-13
	-2.871361647315512e-06,3.380355649805469e-14
21		1.621810097358929e+00,0.000000000000000e+00
	-2.871361647315512e-02,3.459094247862591e-10
	1.000000000000000e+00,0.000000000000000e+00
	0.000000000000000e+00,0.000000000000000e+00
	2.871361647315512e-06,-3.459094247862592e-14
	1.163232616698167e-23,2.299505574445697e-13
	2.871361646578563e-14,-6.897605398290970e-15
	-2.871361676029129e-06,-1.884620095676528e-13
	-2.871361647315512e-06,3.459094247862591e-14
	-1.163232616698167e-23,-2.299505574445697e-13
	-2.871361647315512e-06,3.459094247862591e-14
22		1.659586907437560e+00,0.000000000000000e+00
	-2.871361647315512e-02,3.539666903476456e-10
	1.000000000000000e+00,0.000000000000000e+00
	0.000000000000000e+00,0.000000000000000e+00
	2.871361647315512e-06,-3.539666903476457e-14
	1.218054080968600e-23,2.353067940040812e-13
	2.871361646578563e-14,-7.058271267589034e-15
	-2.871361676029129e-06,-1.928518537017276e-13
	-2.871361647315512e-06,3.539666903476456e-14
	-1.218054080968600e-23,-2.353067940040812e-13
	-2.871361647315512e-06,3.539666903476456e-14
23		1.698243652461743e+00,0.000000000000000e+00
	-2.871361647315512e-02,3.622116337335574e-10
	1.000000000000000e+00,0.000000000000000e+00
	0.000000000000000e+00,0.000000000000000e+00
	2.871361647315512e-06,-3.622116337335574e-14
	1.275459201252123e-23,2.407877933404273e-13
	2.871361646578563e-14,-7.222679525740449e-15
	-2.871361676029129e-06,-1.973439504413311e-13
	-2.871361647315512e-06,3.622116337335574e-14
	-1.275459201252123e-23,-2.407877933404273e-13
	-2.871361647315512e-06,3.622116337335574e-14
24		1.737800828749374e+00,0.000000000000000e+00
	-2.871361647315512e-02,3.706486265221125e-10
	1.000000000000000e+00,0.000000000000000e+00
	0.000000000000000e+00,0.000000000000000e+00
	2.871361647315512e-06,-3.706486265221125e-14
	1.335569741505295e-23,2.463964615520056e-13
	2.871361646578563e-14,-7.390917344179823e-15
	-2.871361676029129e-06,-2.019406815556145e-13
	-2.871361647315512e-06,3.706486265221125e-14
	-1.335569741505295e-23,-2.463964615520056e-13
	-2.871361647315512e-06,3.706486265221125e-14
25		1.778279410038922e+00,0.000000000000000e+00
	-2.871361647315512e-02,3.792821421185642e-10
	1.000000000000000e+00,0.000000000000000e+00
	0.000000000000000e+00,0.000000000000000e+00
	2.871361647315512e-06,-3.792821421185642e-14
	1.398513204243155e-23,2.521357724289416e-13
	2.871361646578563e-14,-7.563073924825491e-15
	-2.871361676029129e-06,-2.066444842922597e-13
	-2.871361647315512e-06,3.792821421185642e-14
	-1.398513204243155e-23,-2.521357724289416e-13
	-2.871361647315512e-06,3.792821421185642e-14
26		1.819700858609982e+00,0.000000000000000e+00
	-2.871361647315512e-02,3.881167581271597e-10
	1.000000000000000e+00,0.000000000000000e+00
	0.000000000000000e+00,0.000000000000000e+00
	2.871361647315512e-06,-3.881167581271598e-14
	1.464423100989146e-23,2.580087690298309e-13
	2.871361646578563e-14,-7.739240547375245e-15
	-2.871361676029129e-06,-2.114578526697396e-13
	-2.871361647315512e-06,3.881167581271597e-14
	-1.464423100989146e-23,-2.580087690298309e-13
	-2.871361647315512e-06,3.881167581271597e-14
27		1.862087136662866e+00,0.000000000000000e+00
	-2.871361647315512e-02,3.971571587782470e-10
	1.000000000000000e+00,0.000000000000000e+00
	0.000000000000000e+00,0.000000000000000e+00
	2.871361647315512e-06,-3.971571587782470e-14
	1.533439235470960e-23,2.640185652952096e-13
	2.871361646578563e-14,-7.919510617704196e-15
	-2.871361676029129e-06,-2.163833387996807e-13
	-2.871361647315512e-06,3.971571587782470e-14
	-1.533439235470960e-23,-2.640185652952096e-13
	-2.871361647315512e-06,3.971571587782470e-14
28		1.905460717963246e+00,0.000000000000000e+00
	-2.871361647315512e-02,4.064081374119149e-10
	1.000000000000000e+00,0.000000000000000e+00
	0.000000000000000e+00,0.000000000000000e+00
	2.871361647315512e-06,-4.064081374119150e-14
	1.605708000162987e-23,2.701683476986067e-13
	2.871361646578563e-14,-8.103979717389698e-15
	-2.871361676029129e-06,-2.214235542400255e-13
	-2.871361647315512e-06,4.064081374119149e-14
	-1.605708000162987e-23,-2.701683476986067e-13
	-2.871361647315512e-06,4.064081374119149e-14
29		1.949844599758044e+00,0.000000000000000e+00
	-2.871361647315512e-02,4.158745990194864e-10
	1.000000000000000e+00,0.000000000000000e+00
	0.000000000000000e+00,0.000000000000000e+00
	2.871361647315512e-06,-4.158745990194864e-14
	1.681382686804383e-23,2.764613769360545e-13
	2.871361646578563e-14,-8.292745654390268e-15
	-2.871361676029129e-06,-2.265811713797156e-13
	-2.871361647315512e-06,4.158745990194864e-14
	-1.681382686804383e-23,-2.764613769360545e-13
	-2.871361647315512e-06,4.158745990194864e-14
30		1.995262314968878e+00,0.000000000000000e+00
	-2.871361647315512e-02,4.255615628442088e-10
	1.000000000000000e+00,0.000000000000000e+00
	0.000000000000000e+00,0.000000000000000e+00
	2.871361647315512e-06,-4.255615628442090e-14
	1.760623811551393e-23,2.829009896549526e-13
	2.871361646578563e-14,-8.485908514904251e-15
	-2.871361676029129e-06,-2.318589248556275e-13
	-2.871361647315512e-06,4.255615628442089e-14
	-1.760623811551393e-23,-2.829009896549526e-13
	-2.871361647315512e-06,4.255615628442089e-14
31		2.041737944669527e+00,0.000000000000000e+00
	-2.871361647315512e-02,4.354741650425246e-10
	1.000000000000000e+00,0.000000000000000e+00
	0.000000000000000e+00,0.000000000000000e+00
	2.871361647315512e-06,-4.354741650425247e-14
	1.843599455453650e-23,2.894906002232031e-13
	2.871361646578563e-14,-8.683570716437089e-15
	-2.871361676029129e-06,-2.372596130025135e-13
	-2.871361647315512e-06,4.354741650425246e-14
	-1.843599455453650e-23,-2.894906002232031e-13
	-2.871361647315512e-06,4.354741650425246e-14
32		2.089296130854037e+00,0.000000000000000e+00
	-2.871361647315512e-02,4.456176614073281e-10
	1.000000000000000e+00,0.000000000000000e+00
	0.000000000000000e+00,0.000000000000000e+00
	2.871361647315512e-06,-4.456176614073281e-14
	1.930485620976610e-23,2.962337025395531e-13
	2.871361646578563e-14,-8.885837062104431e-15
	-2.871361676029129e-06,-2.427860993367158e-13
	-2.871361647315512e-06,4.456176614073281e-14
	-1.930485620976610e-23,-2.962337025395531e-13
	-2.871361647315512e-06,4.456176614073281e-14
33		2.137962089502230e+00,0.000000000000000e+00
	-2.871361647315512e-02,4.559974301546566e-10
	1.000000000000000e+00,0.000000000000000e+00
	0.000000000000000e+00,0.000000000000000e+00
	2.871361647315512e-06,-4.559974301546567e-14
	2.021466605326377e-23,3.031338718861061e-13
	2.871361646578563e-14,-9.092814796200089e-15
	-2.871361676029129e-06,-2.484413140744403e-13
	-2.871361647315512e-06,4.559974301546567e-14
	-2.021466605326377e-23,-3.031338718861061e-13
	-2.871361647315512e-06,4.559974301546567e-14
34		2.187761623949550e+00,0.000000000000000e+00
	-2.871361647315512e-02,4.666189747752927e-10
	1.000000000000000e+00,0.000000000000000e+00
	0.000000000000000e+00,0.000000000000000e+00
	2.871361647315512e-06,-4.666189747752928e-14
	2.116735391368790e-23,3.101947668239842e-13
	2.871361646578563e-14,-9.304613661058223e-15
	-2.871361676029129e-06,-2.542282556853967e-13
	-2.871361647315512e-06,4.666189747752927e-14
	-2.116735391368790e-23,-3.101947668239842e-13
	-2.871361647315512e-06,4.666189747752927e-14
35		2.238721138568337e+00,0.000000000000000e+00
	-2.871361647315512e-02,4.774879269527870e-10
	1.000000000000000e+00,0.000000000000000e+00
	0.000000000000000e+00,0.000000000000000e+00
	2.871361647315512e-06,-4.774879269527871e-14
	2.216494056971953e-23,3.174201311331456e-13
	2.871361646578563e-14,-9.521345955240711e-15
	-2.871361676029129e-06,-2.601499924826262e-13
	-2.871361647315512e-06,4.774879269527870e-14
	-2.216494056971953e-23,-3.174201311331456e-13
	-2.871361647315512e-06,4.774879269527870e-14
36		2.290867652767770e+00,0.000000000000000e+00
	-2.871361647315512e-02,4.886100495494515e-10
	1.000000000000000e+00,0.000000000000000e+00
	0.000000000000000e+00,0.000000000000000e+00
	2.871361647315512e-06,-4.886100495494516e-14
	2.320954203640489e-23,3.248137957973859e-13
	2.871361646578563e-14,-9.743126593078550e-15
	-2.871361676029129e-06,-2.662096642493622e-13
	-2.871361647315512e-06,4.886100495494515e-14
	-2.320954203640489e-23,-3.248137957973859e-13
	-2.871361647315512e-06,4.886100495494515e-14
37		2.344228815319919e+00,0.000000000000000e+00
	-2.871361647315512e-02,4.999912396619058e-10
	1.000000000000000e+00,0.000000000000000e+00
	0.000000000000000e+00,0.000000000000000e+00
	2.871361647315512e-06,-4.999912396619058e-14
	2.430337405350697e-23,3.323796810355769e-13
	2.871361646578563e-14,-9.970073165601525e-15
	-2.871361676029129e-06,-2.724104839037848e-13
	-2.871361647315512e-06,4.999912396619058e-14
	-2.430337405350697e-23,-3.323796810355769e-13
	-2.871361647315512e-06,4.999912396619058e-14
38		2.398832919019488e+00,0.000000000000000e+00
	-2.871361647315512e-02,5.116375317477953e-10
	1.000000000000000e+00,0.000000000000000e+00
	0.000000000000000e+00,0.000000000000000e+00
