LTspice 24.0.9 for Windows
Circuit: * GA CMOS Amp | W=1e-06 L=5.551115570601029e-07 Vbias=0.9543624366307063
Start Time: Mon Sep  8 18:43:55 2025
solver = Normal
Maximum thread count: 2
tnom = 27
temp = 27
method = modified trap
AsciiRawFile = 1
Instance "m1": Length shorter than recommended for a level 3 MOSFET.
Instance "m1": Width narrower than recommended for a level 3 MOSFET.
Direct Newton iteration for .op point succeeded.
Semiconductor Device Operating Points:
                        --- MOSFET Transistors ---
Name:          m1
Model:        n_1u
Id:          8.33e-07
Vgs:         9.54e-01
Vds:         1.79e+00
Vbs:         0.00e+00
Vth:         9.33e-01
Vdsat:       5.47e-02
Gm:          2.03e-05
Gds:         1.98e-07
Gmb:         8.77e-06
Cbd:         0.00e+00
Cbs:         0.00e+00
Cgsov:       2.00e-16
Cgdov:       2.00e-16
Cgbov:       3.55e-17
Cgs:         4.09e-16
Cgd:         0.00e+00
Cgb:         0.00e+00



gain_db: MAX(db(v(out)/v(g)))=(29.7196dB,116.973°) FROM 1 TO 1e+09
gain_lin: MAX(mag(v(out)/v(g)))=(-13.8715dB,0°) FROM 1 TO 1e+09

Measurement "fc" FAIL'ed

Total elapsed time: 0.459 seconds.

