Title: * GA CMOS Amp | W=5e-05 L=4.73321232025375e-07 Vbias=1.29079163493584
Date: Mon Sep  8 18:45:04 2025
Plotname: AC Analysis
Flags: complex forward log
No. Variables: 11
No. Points:          901
Offset:    0.0000000000000000e+00
Command: Linear Technology Corporation LTspice
Variables:
	0	frequency	frequency
	1	V(out)	voltage
	2	V(g)	voltage
	3	V(vdd)	voltage
	4	Id(M1)	device_current
	5	Ig(M1)	device_current
	6	Ib(M1)	device_current
	7	Is(M1)	device_current
	8	I(Rload)	device_current
	9	I(Vg)	device_current
	10	I(Vdd)	device_current
Values:
0		1.000000000000000e+00,0.000000000000000e+00
	-2.128436045454491e-02,1.140361368371497e-11
	1.000000000000000e+00,0.000000000000000e+00
	0.000000000000000e+00,0.000000000000000e+00
	2.128436045454468e-06,-1.140361368371474e-15
	1.558712791325841e-24,2.769978346639727e-13
	2.608070009957331e-14,-3.781577021474634e-17
	-2.128436071535168e-06,-2.758196575253865e-13
	-2.128436045454491e-06,1.140361368371497e-15
	-1.558712791325841e-24,-2.769978346639727e-13
	-2.128436045454491e-06,1.140361368371497e-15
1		1.023292992280754e+00,0.000000000000000e+00
	-2.128436045454491e-02,1.166923796922244e-11
	1.000000000000000e+00,0.000000000000000e+00
	0.000000000000000e+00,0.000000000000000e+00
	2.128436045454468e-06,-1.166923796922245e-15
	1.632172662009392e-24,2.834499430885862e-13
	2.608070009957331e-14,-3.869661265843466e-17
	-2.128436071535168e-06,-2.822443226790056e-13
	-2.128436045454491e-06,1.166923796922244e-15
	-1.632172662009392e-24,-2.834499430885862e-13
	-2.128436045454491e-06,1.166923796922244e-15
2		1.047128548050899e+00,0.000000000000000e+00
	-2.128436045454491e-02,1.194104943916182e-11
	1.000000000000000e+00,0.000000000000000e+00
	0.000000000000000e+00,0.000000000000000e+00
	2.128436045454468e-06,-1.194104943916185e-15
	1.709094589738266e-24,2.900523404249288e-13
	2.608070009957331e-14,-3.959797255837104e-17
	-2.128436071535168e-06,-2.888186375084543e-13
	-2.128436045454491e-06,1.194104943916182e-15
	-1.709094589738266e-24,-2.900523404249288e-13
	-2.128436045454491e-06,1.194104943916182e-15
3		1.071519305237606e+00,0.000000000000000e+00
	-2.128436045454491e-02,1.221919221157232e-11
	1.000000000000000e+00,0.000000000000000e+00
	0.000000000000000e+00,0.000000000000000e+00
	2.128436045454468e-06,-1.221919221157226e-15
	1.789641736234278e-24,2.968085273514613e-13
	2.608070009957331e-14,-4.052032782744399e-17
	-2.128436071535168e-06,-2.955460878024766e-13
	-2.128436045454491e-06,1.221919221157232e-15
	-1.789641736234278e-24,-2.968085273514613e-13
	-2.128436045454491e-06,1.221919221157232e-15
4		1.096478196143185e+00,0.000000000000000e+00
	-2.128436045454491e-02,1.250381376143352e-11
	1.000000000000000e+00,0.000000000000000e+00
	0.000000000000000e+00,0.000000000000000e+00
	2.128436045454468e-06,-1.250381376143340e-15
	1.873984952794290e-24,3.037220860879208e-13
	2.608070009957331e-14,-4.146416751077044e-17
	-2.128436071535168e-06,-3.024302405442667e-13
	-2.128436045454491e-06,1.250381376143352e-15
	-1.873984952794290e-24,-3.037220860879208e-13
	-2.128436045454491e-06,1.250381376143352e-15
5		1.122018454301963e+00,0.000000000000000e+00
	-2.128436045454491e-02,1.279506499885859e-11
	1.000000000000000e+00,0.000000000000000e+00
	0.000000000000000e+00,0.000000000000000e+00
	2.128436045454468e-06,-1.279506499885854e-15
	1.962303142688719e-24,3.107966822946614e-13
	2.608070009957331e-14,-4.242999204451781e-17
	-2.128436071535168e-06,-3.094747458027310e-13
	-2.128436045454491e-06,1.279506499885859e-15
	-1.962303142688719e-24,-3.107966822946614e-13
	-2.128436045454491e-06,1.279506499885859e-15
6		1.148153621496882e+00,0.000000000000000e+00
	-2.128436045454491e-02,1.309310034910875e-11
	1.000000000000000e+00,0.000000000000000e+00
	0.000000000000000e+00,0.000000000000000e+00
	2.128436045454468e-06,-1.309310034910876e-15
	2.054783640639355e-24,3.180360670162349e-13
	2.608070009957331e-14,-4.341831352164284e-17
	-2.128436071535168e-06,-3.166833386678023e-13
	-2.128436045454491e-06,1.309310034910875e-15
	-2.054783640639355e-24,-3.180360670162349e-13
	-2.128436045454491e-06,1.309310034910875e-15
7		1.174897554939529e+00,0.000000000000000e+00
	-2.128436045454491e-02,1.339807783447167e-11
	1.000000000000000e+00,0.000000000000000e+00
	0.000000000000000e+00,0.000000000000000e+00
	2.128436045454468e-06,-1.339807783447187e-15
	2.151622610181429e-24,3.254440786702454e-13
	2.608070009957331e-14,-4.442965596336076e-17
	-2.128436071535168e-06,-3.240598412308349e-13
	-2.128436045454491e-06,1.339807783447167e-15
	-2.151622610181429e-24,-3.254440786702454e-13
	-2.128436045454491e-06,1.339807783447167e-15
8		1.202264434617413e+00,0.000000000000000e+00
	-2.128436045454491e-02,1.371015915804696e-11
	1.000000000000000e+00,0.000000000000000e+00
	0.000000000000000e+00,0.000000000000000e+00
	2.128436045454468e-06,-1.371015915804678e-15
	2.253025459752766e-24,3.330246450825286e-13
	2.608070009957331e-14,-4.546455559682428e-17
	-2.128436071535168e-06,-3.316081646111271e-13
	-2.128436045454491e-06,1.371015915804697e-15
	-2.253025459752766e-24,-3.330246450825286e-13
	-2.128436045454491e-06,1.371015915804697e-15
9		1.230268770812381e+00,0.000000000000000e+00
	-2.128436045454491e-02,1.402950978948326e-11
	1.000000000000000e+00,0.000000000000000e+00
	0.000000000000000e+00,0.000000000000000e+00
	2.128436045454468e-06,-1.402950978948323e-15
	2.359207278392624e-24,3.407817855697368e-13
	2.608070009957331e-14,-4.652356113936597e-17
	-2.128436071535168e-06,-3.393323110296492e-13
	-2.128436045454491e-06,1.402950978948326e-15
	-2.359207278392624e-24,-3.407817855697368e-13
	-2.128436045454491e-06,1.402950978948326e-15
10		1.258925411794167e+00,0.000000000000000e+00
	-2.128436045454491e-02,1.435629905271246e-11
	1.000000000000000e+00,0.000000000000000e+00
	0.000000000000000e+00,0.000000000000000e+00
	2.128436045454468e-06,-1.435629905271244e-15
	2.470393291974384e-24,3.487196130704344e-13
	2.608070009957331e-14,-4.760723408988457e-17
	-2.128436071535168e-06,-3.472363759310732e-13
	-2.128436045454491e-06,1.435629905271246e-15
	-2.470393291974384e-24,-3.487196130704344e-13
	-2.128436045454491e-06,1.435629905271246e-15
11		1.288249551693134e+00,0.000000000000000e+00
	-2.128436045454491e-02,1.469070021572749e-11
	1.000000000000000e+00,0.000000000000000e+00
	0.000000000000000e+00,0.000000000000000e+00
	2.128436045454468e-06,-1.469070021572754e-15
	2.586819340939818e-24,3.568423363258316e-13
	2.608070009957331e-14,-4.871614902598677e-17
	-2.128436071535168e-06,-3.553245501552328e-13
	-2.128436045454491e-06,1.469070021572749e-15
	-2.586819340939818e-24,-3.568423363258316e-13
	-2.128436045454491e-06,1.469070021572749e-15
12		1.318256738556407e+00,0.000000000000000e+00
	-2.128436045454491e-02,1.503289058245131e-11
	1.000000000000000e+00,0.000000000000000e+00
	0.000000000000000e+00,0.000000000000000e+00
	2.128436045454468e-06,-1.503289058245098e-15
	2.708732380548297e-24,3.651542621113154e-13
	2.608070009957331e-14,-4.985089390923221e-17
	-2.128436071535168e-06,-3.636011221591611e-13
	-2.128436045454491e-06,1.503289058245131e-15
	-2.708732380548297e-24,-3.651542621113154e-13
	-2.128436045454491e-06,1.503289058245131e-15
13		1.348962882591653e+00,0.000000000000000e+00
	-2.128436045454491e-02,1.538305158674577e-11
	1.000000000000000e+00,0.000000000000000e+00
	0.000000000000000e+00,0.000000000000000e+00
	2.128436045454468e-06,-1.538305158674570e-15
	2.836391004701995e-24,3.736597975199588e-13
	2.608070009957331e-14,-5.101207039626025e-17
	-2.128436071535168e-06,-3.720704802908879e-13
	-2.128436045454491e-06,1.538305158674577e-15
	-2.836391004701995e-24,-3.736597975199588e-13
	-2.128436045454491e-06,1.538305158674577e-15
14		1.380384264602885e+00,0.000000000000000e+00
	-2.128436045454491e-02,1.574136888861028e-11
	1.000000000000000e+00,0.000000000000000e+00
	0.000000000000000e+00,0.000000000000000e+00
	2.128436045454468e-06,-1.574136888861003e-15
	2.970065994458233e-24,3.823634522992194e-13
	2.608070009957331e-14,-5.220029415824704e-17
	-2.128436071535168e-06,-3.807371151162001e-13
	-2.128436045454491e-06,1.574136888861028e-15
	-2.970065994458233e-24,-3.823634522992194e-13
	-2.128436045454491e-06,1.574136888861028e-15
15		1.412537544622754e+00,0.000000000000000e+00
	-2.128436045454491e-02,1.610803247262118e-11
	1.000000000000000e+00,0.000000000000000e+00
	0.000000000000000e+00,0.000000000000000e+00
	2.128436045454468e-06,-1.610803247262146e-15
	3.110040892392400e-24,3.912698412420676e-13
	2.608070009957331e-14,-5.341619520710269e-17
	-2.128436071535168e-06,-3.896056217995983e-13
	-2.128436045454491e-06,1.610803247262118e-15
	-3.110040892392400e-24,-3.912698412420676e-13
	-2.128436045454491e-06,1.610803247262118e-15
16		1.445439770745927e+00,0.000000000000000e+00
	-2.128436045454491e-02,1.648323674866408e-11
	1.000000000000000e+00,0.000000000000000e+00
	0.000000000000000e+00,0.000000000000000e+00
	2.128436045454468e-06,-1.648323674866444e-15
	3.256612604029776e-24,4.003836866338108e-13
	2.608070009957331e-14,-5.466041822969585e-17
	-2.128436071535168e-06,-3.986807025407147e-13
	-2.128436045454491e-06,1.648323674866408e-15
	-3.256612604029776e-24,-4.003836866338108e-13
	-2.128436045454491e-06,1.648323674866408e-15
17		1.479108388168207e+00,0.000000000000000e+00
	-2.128436045454491e-02,1.686718065501255e-11
	1.000000000000000e+00,0.000000000000000e+00
	0.000000000000000e+00,0.000000000000000e+00
	2.128436045454468e-06,-1.686718065501217e-15
	3.410092027621958e-24,4.097098207559121e-13
	2.608070009957331e-14,-5.593362292957563e-17
	-2.128436071535168e-06,-4.079671690674813e-13
	-2.128436045454491e-06,1.686718065501256e-15
	-3.410092027621958e-24,-4.097098207559121e-13
	-2.128436045454491e-06,1.686718065501256e-15
18		1.513561248436208e+00,0.000000000000000e+00
	-2.128436045454491e-02,1.726006776380785e-11
	1.000000000000000e+00,0.000000000000000e+00
	0.000000000000000e+00,0.000000000000000e+00
	2.128436045454468e-06,-1.726006776380781e-15
	3.570804713603729e-24,4.192531884481287e-13
	2.608070009957331e-14,-5.723648437674620e-17
	-2.128436071535168e-06,-4.174699451873712e-13
	-2.128436045454491e-06,1.726006776380785e-15
	-3.570804713603729e-24,-4.192531884481287e-13
	-2.128436045454491e-06,1.726006776380785e-15
19		1.548816618912481e+00,0.000000000000000e+00
	-2.128436045454491e-02,1.766210638899551e-11
	1.000000000000000e+00,0.000000000000000e+00
	0.000000000000000e+00,0.000000000000000e+00
	2.128436045454468e-06,-1.766210638899548e-15
	3.739091555129181e-24,4.290188497303325e-13
	2.608070009957331e-14,-5.856969336554463e-17
	-2.128436071535168e-06,-4.271940693980674e-13
	-2.128436045454491e-06,1.766210638899552e-15
	-3.739091555129181e-24,-4.290188497303325e-13
	-2.128436045454491e-06,1.766210638899552e-15
20		1.584893192461113e+00,0.000000000000000e+00
	-2.128436045454491e-02,1.807350969677624e-11
	1.000000000000000e+00,0.000000000000000e+00
	0.000000000000000e+00,0.000000000000000e+00
	2.128436045454468e-06,-1.807350969677649e-15
	3.915309511151798e-24,4.390119824853991e-13
	2.608070009957331e-14,-5.993395678097522e-17
	-2.128436071535168e-06,-4.371446975589405e-13
	-2.128436045454491e-06,1.807350969677624e-15
	-3.915309511151798e-24,-4.390119824853991e-13
	-2.128436045454491e-06,1.807350969677624e-15
21		1.621810097358929e+00,0.000000000000000e+00
	-2.128436045454491e-02,1.849449581862939e-11
	1.000000000000000e+00,0.000000000000000e+00
	0.000000000000000e+00,0.000000000000000e+00
	2.128436045454468e-06,-1.849449581862975e-15
	4.099832363582259e-24,4.492378852045901e-13
	2.608070009957331e-14,-6.132999797362672e-17
	-2.128436071535168e-06,-4.473271056247535e-13
	-2.128436045454491e-06,1.849449581862939e-15
	-4.099832363582259e-24,-4.492378852045901e-13
	-2.128436045454491e-06,1.849449581862939e-15
22		1.659586907437560e+00,0.000000000000000e+00
	-2.128436045454491e-02,1.892528796696916e-11
	1.000000000000000e+00,0.000000000000000e+00
	0.000000000000000e+00,0.000000000000000e+00
	2.128436045454468e-06,-1.892528796696911e-15
	4.293051510129980e-24,4.597019797968829e-13
	2.608070009957331e-14,-6.275855714297035e-17
	-2.128436071535168e-06,-4.577466924430430e-13
	-2.128436045454491e-06,1.892528796696917e-15
	-4.293051510129980e-24,-4.597019797968829e-13
	-2.128436045454491e-06,1.892528796696917e-15
23		1.698243652461743e+00,0.000000000000000e+00
	-2.128436045454491e-02,1.936611455349482e-11
	1.000000000000000e+00,0.000000000000000e+00
	0.000000000000000e+00,0.000000000000000e+00
	2.128436045454468e-06,-1.936611455349498e-15
	4.495376794510127e-24,4.704098144637391e-13
	2.608070009957331e-14,-6.422039173007374e-17
	-2.128436071535168e-06,-4.684089826166595e-13
	-2.128436045454491e-06,1.936611455349483e-15
	-4.495376794510127e-24,-4.704098144637391e-13
	-2.128436045454491e-06,1.936611455349483e-15
24		1.737800828749374e+00,0.000000000000000e+00
	-2.128436045454491e-02,1.981720931029758e-11
	1.000000000000000e+00,0.000000000000000e+00
	0.000000000000000e+00,0.000000000000000e+00
	2.128436045454468e-06,-1.981720931029747e-15
	4.707237375777095e-24,4.813670666408339e-13
	2.608070009957331e-14,-6.571627681879661e-17
	-2.128436071535168e-06,-4.793196294329853e-13
	-2.128436045454491e-06,1.981720931029758e-15
	-4.707237375777095e-24,-4.813670666408339e-13
	-2.128436045454491e-06,1.981720931029758e-15
25		1.778279410038922e+00,0.000000000000000e+00
	-2.128436045454491e-02,2.027881141378843e-11
	1.000000000000000e+00,0.000000000000000e+00
	0.000000000000000e+00,0.000000000000000e+00
	2.128436045454468e-06,-2.027881141378807e-15
	4.929082638628397e-24,4.925795460083081e-13
	2.608070009957331e-14,-6.724700554761403e-17
	-2.128436071535168e-06,-4.904844178613817e-13
	-2.128436045454491e-06,2.027881141378843e-15
	-4.929082638628397e-24,-4.925795460083081e-13
	-2.128436045454491e-06,2.027881141378843e-15
26		1.819700858609982e+00,0.000000000000000e+00
	-2.128436045454491e-02,2.075116561151267e-11
	1.000000000000000e+00,0.000000000000000e+00
	0.000000000000000e+00,0.000000000000000e+00
	2.128436045454468e-06,-2.075116561151243e-15
	5.161383146609848e-24,5.040531975711369e-13
	2.608070009957331e-14,-6.881338952863412e-17
	-2.128436071535168e-06,-5.019092676204570e-13
	-2.128436045454491e-06,2.075116561151267e-15
	-5.161383146609848e-24,-5.040531975711369e-13
	-2.128436045454491e-06,2.075116561151267e-15
27		1.862087136662866e+00,0.000000000000000e+00
	-2.128436045454491e-02,2.123452235191828e-11
	1.000000000000000e+00,0.000000000000000e+00
	0.000000000000000e+00,0.000000000000000e+00
	2.128436045454468e-06,-2.123452235191828e-15
	5.404631640243953e-24,5.157941048112509e-13
	2.608070009957331e-14,-7.041625927986855e-17
	-2.128436071535168e-06,-5.136002363167792e-13
	-2.128436045454491e-06,2.123452235191828e-15
	-5.404631640243953e-24,-5.157941048112509e-13
	-2.128436045454491e-06,2.123452235191828e-15
28		1.905460717963246e+00,0.000000000000000e+00
	-2.128436045454491e-02,2.172913791714701e-11
	1.000000000000000e+00,0.000000000000000e+00
	0.000000000000000e+00,0.000000000000000e+00
	2.128436045454468e-06,-2.172913791714718e-15
	5.659344082198601e-24,5.278084929130778e-13
	2.608070009957331e-14,-7.205646466361204e-17
	-2.128436071535168e-06,-5.255635226566995e-13
	-2.128436045454491e-06,2.172913791714701e-15
	-5.659344082198601e-24,-5.278084929130778e-13
	-2.128436045454491e-06,2.172913791714701e-15
29		1.949844599758044e+00,0.000000000000000e+00
	-2.128436045454491e-02,2.223527455891856e-11
	1.000000000000000e+00,0.000000000000000e+00
	0.000000000000000e+00,0.000000000000000e+00
	2.128436045454468e-06,-2.223527455891898e-15
	5.926060751713073e-24,5.401027320642186e-13
	2.608070009957331e-14,-7.373487533875623e-17
	-2.128436071535168e-06,-5.378054697329880e-13
	-2.128436045454491e-06,2.223527455891856e-15
	-5.926060751713073e-24,-5.401027320642186e-13
	-2.128436045454491e-06,2.223527455891856e-15
30		1.995262314968878e+00,0.000000000000000e+00
	-2.128436045454491e-02,2.275320063757990e-11
	1.000000000000000e+00,0.000000000000000e+00
	0.000000000000000e+00,0.000000000000000e+00
	2.128436045454468e-06,-2.275320063757935e-15
	6.205347390602732e-24,5.526833408330046e-13
	2.608070009957331e-14,-7.545238122092913e-17
	-2.128436071535168e-06,-5.503325683880257e-13
	-2.128436045454491e-06,2.275320063757990e-15
	-6.205347390602732e-24,-5.526833408330046e-13
	-2.128436045454491e-06,2.275320063757990e-15
31		2.041737944669527e+00,0.000000000000000e+00
	-2.128436045454491e-02,2.328319076439350e-11
	1.000000000000000e+00,0.000000000000000e+00
	0.000000000000000e+00,0.000000000000000e+00
	2.128436045454468e-06,-2.328319076439316e-15
	6.497796403273275e-24,5.655569896247291e-13
	2.608070009957331e-14,-7.720989295419608e-17
	-2.128436071535168e-06,-5.631514606553356e-13
	-2.128436045454491e-06,2.328319076439350e-15
	-6.497796403273275e-24,-5.655569896247291e-13
	-2.128436045454491e-06,2.328319076439350e-15
32		2.089296130854037e+00,0.000000000000000e+00
	-2.128436045454491e-02,2.382552594713984e-11
	1.000000000000000e+00,0.000000000000000e+00
	0.000000000000000e+00,0.000000000000000e+00
	2.128436045454468e-06,-2.382552594713963e-15
	6.804028113289902e-24,5.787305042183844e-13
	2.608070009957331e-14,-7.900834239477658e-17
	-2.128436071535168e-06,-5.762689432812757e-13
	-2.128436045454491e-06,2.382552594713984e-15
	-6.804028113289902e-24,-5.787305042183844e-13
	-2.128436045454491e-06,2.382552594713984e-15
33		2.137962089502230e+00,0.000000000000000e+00
	-2.128436045454491e-02,2.438049373911147e-11
	1.000000000000000e+00,0.000000000000000e+00
	0.000000000000000e+00,0.000000000000000e+00
	2.128436045454468e-06,-2.438049373911137e-15
	7.124692079166756e-24,5.922108693857802e-13
	2.608070009957331e-14,-8.084868310445477e-17
	-2.128436071535168e-06,-5.896919713287647e-13
	-2.128436045454491e-06,2.438049373911147e-15
	-7.124692079166756e-24,-5.922108693857802e-13
	-2.128436045454491e-06,2.438049373911147e-15
34		2.187761623949550e+00,0.000000000000000e+00
	-2.128436045454491e-02,2.494838839157757e-11
	1.000000000000000e+00,0.000000000000000e+00
	0.000000000000000e+00,0.000000000000000e+00
	2.128436045454468e-06,-2.494838839157790e-15
	7.460468472167628e-24,6.060052325949619e-13
	2.608070009957331e-14,-8.273189085580376e-17
	-2.128436071535168e-06,-6.034276618649483e-13
	-2.128436045454491e-06,2.494838839157757e-15
	-7.460468472167628e-24,-6.060052325949619e-13
	-2.128436045454491e-06,2.494838839157757e-15
35		2.238721138568337e+00,0.000000000000000e+00
	-2.128436045454491e-02,2.552951100979984e-11
	1.000000000000000e+00,0.000000000000000e+00
	0.000000000000000e+00,0.000000000000000e+00
	2.128436045454468e-06,-2.552951100979981e-15
	7.812069519040401e-24,6.201209077998929e-13
	2.608070009957331e-14,-8.465896415089011e-17
	-2.128436071535168e-06,-6.174832977347621e-13
	-2.128436045454491e-06,2.552951100979984e-15
	-7.812069519040401e-24,-6.201209077998929e-13
	-2.128436045454491e-06,2.552951100979984e-15
36		2.290867652767770e+00,0.000000000000000e+00
	-2.128436045454491e-02,2.612416971268254e-11
	1.000000000000000e+00,0.000000000000000e+00
	0.000000000000000e+00,0.000000000000000e+00
	2.128436045454468e-06,-2.612416971268261e-15
	8.180241012745463e-24,6.345653793184101e-13
	2.608070009957331e-14,-8.663092474931837e-17
	-2.128436071535168e-06,-6.318663314223926e-13
	-2.128436045454491e-06,2.612416971268254e-15
	-8.180241012745463e-24,-6.345653793184101e-13
	-2.128436045454491e-06,2.612416971268254e-15
37		2.344228815319919e+00,0.000000000000000e+00
	-2.128436045454491e-02,2.673267979614116e-11
	1.000000000000000e+00,0.000000000000000e+00
	0.000000000000000e+00,0.000000000000000e+00
	2.128436045454468e-06,-2.673267979614138e-15
	8.565763894382576e-24,6.493463058005076e-13
	2.608070009957331e-14,-8.864881821081592e-17
	-2.128436071535168e-06,-6.465843890026826e-13
	-2.128436045454491e-06,2.673267979614116e-15
	-8.565763894382576e-24,-6.493463058005076e-13
	-2.128436045454491e-06,2.673267979614116e-15
38		2.398832919019488e+00,0.000000000000000e+00
	-2.128436045454491e-02,2.735536390027655e-11
	1.000000000000000e+00,0.000000000000000e+00
	0.000000000000000e+00,0.000000000000000e+00
