Title: * GA CMOS Amp | W=1.2782819878859388e-05 L=1e-06 Vbias=1.3693413840594089
Date: Sat Sep  6 22:04:23 2025
Plotname: AC Analysis
Flags: complex forward log
No. Variables: 13
No. Points:          901
Offset:    0.0000000000000000e+00
Command: Linear Technology Corporation LTspice
Variables:
	0	frequency	frequency
	1	V(out)	voltage
	2	V(g)	voltage
	3	V(vdd)	voltage
	4	V(m1#dbody)	voltage
	5	V(m1#sbody)	voltage
	6	Id(M1)	device_current
	7	Ig(M1)	device_current
	8	Ib(M1)	device_current
	9	Is(M1)	device_current
	10	I(Rload)	device_current
	11	I(Vg)	device_current
	12	I(Vdd)	device_current
Values:
0		1.000000000000000e+00,0.000000000000000e+00
	2.285662126358998e-02,1.419621231037608e-09
	1.000000000000000e+00,0.000000000000000e+00
	0.000000000000000e+00,0.000000000000000e+00
	1.849439375052223e-04,1.313118030842286e-13
	1.849439373335056e-04,1.246979615697916e-13
	-2.285662126359003e-06,-1.419621231037609e-13
	1.221678779798845e-04,3.284925743435366e-12
	-9.863676666388004e-05,-6.698215243971927e-14
	-2.124544918964542e-05,-3.075981467891886e-12
	2.285662126358998e-06,1.419621231037608e-13
	-1.221678779798063e-04,-3.284925743435366e-12
	2.285662126358998e-06,1.419621231037608e-13
1		1.023292992280754e+00,0.000000000000000e+00
	2.285662126358998e-02,1.452688457413762e-09
	1.000000000000000e+00,0.000000000000000e+00
	0.000000000000000e+00,0.000000000000000e+00
	1.849439375052223e-04,1.343704478998414e-13
	1.849439373335056e-04,1.276025502260625e-13
	-2.285662126359003e-06,-1.452688457413759e-13
	1.221678779798845e-04,3.361441493420056e-12
	-9.863676666388004e-05,-6.854236719944595e-14
	-2.124544918964542e-05,-3.147630280479234e-12
	2.285662126358998e-06,1.452688457413762e-13
	-1.221678779798063e-04,-3.361441493420056e-12
	2.285662126358998e-06,1.452688457413762e-13
2		1.047128548050899e+00,0.000000000000000e+00
	2.285662126358998e-02,1.486525918438640e-09
	1.000000000000000e+00,0.000000000000000e+00
	0.000000000000000e+00,0.000000000000000e+00
	1.849439375052223e-04,1.375003377055339e-13
	1.849439373335056e-04,1.305747954434827e-13
	-2.285662126359003e-06,-1.486525918438647e-13
	1.221678779798845e-04,3.439739524178496e-12
	-9.863676666388004e-05,-7.013892402952725e-14
	-2.124544918964542e-05,-3.220948008305104e-12
	2.285662126358998e-06,1.486525918438640e-13
	-1.221678779798063e-04,-3.439739524178496e-12
	2.285662126358998e-06,1.486525918438640e-13
3		1.071519305237606e+00,0.000000000000000e+00
	2.285662126358998e-02,1.521151555181973e-09
	1.000000000000000e+00,0.000000000000000e+00
	0.000000000000000e+00,0.000000000000000e+00
	1.849439375052223e-04,1.407031320103100e-13
	1.849439373335056e-04,1.336162731458088e-13
	-2.285662126359003e-06,-1.521151555181974e-13
	1.221678779798845e-04,3.519861350362990e-12
	-9.863676666388004e-05,-7.177266944552743e-14
	-2.124544918964542e-05,-3.295973525399265e-12
	2.285662126358998e-06,1.521151555181973e-13
	-1.221678779798063e-04,-3.519861350362991e-12
	2.285662126358998e-06,1.521151555181973e-13
4		1.096478196143185e+00,0.000000000000000e+00
	2.285662126358998e-02,1.556583726614683e-09
	1.000000000000000e+00,0.000000000000000e+00
	0.000000000000000e+00,0.000000000000000e+00
	1.849439375052223e-04,1.439805289781041e-13
	1.849439373335056e-04,1.367285959647773e-13
	-2.285662126359003e-06,-1.556583726614688e-13
	1.221678779798845e-04,3.601849453626320e-12
	-9.863676666388004e-05,-7.344446968089120e-14
	-2.124544918964542e-05,-3.372746611283960e-12
	2.285662126358998e-06,1.556583726614683e-13
	-1.221678779798063e-04,-3.601849453626319e-12
	2.285662126358998e-06,1.556583726614683e-13
5		1.122018454301963e+00,0.000000000000000e+00
	2.285662126358998e-02,1.592841219343067e-09
	1.000000000000000e+00,0.000000000000000e+00
	0.000000000000000e+00,0.000000000000000e+00
	1.849439375052223e-04,1.473342663281699e-13
	1.849439373335056e-04,1.399134140951432e-13
	-2.285662126359003e-06,-1.592841219343067e-13
	1.221678779798845e-04,3.685747305146077e-12
	-9.863676666388004e-05,-7.515521114623230e-14
	-2.124544918964542e-05,-3.451307972065538e-12
	2.285662126358998e-06,1.592841219343067e-13
	-1.221678779798063e-04,-3.685747305146076e-12
	2.285662126358998e-06,1.592841219343067e-13
6		1.148153621496882e+00,0.000000000000000e+00
	2.285662126358998e-02,1.629943257569692e-09
	1.000000000000000e+00,0.000000000000000e+00
	0.000000000000000e+00,0.000000000000000e+00
	1.849439375052223e-04,1.507661222564426e-13
	1.849439373335056e-04,1.431724161696353e-13
	-2.285662126359003e-06,-1.629943257569694e-13
	1.221678779798845e-04,3.771599388673654e-12
	-9.863676666388004e-05,-7.690580089931992e-14
	-2.124544918964542e-05,-3.531699262017365e-12
	2.285662126358998e-06,1.629943257569692e-13
	-1.221678779798063e-04,-3.771599388673654e-12
	2.285662126358998e-06,1.629943257569692e-13
7		1.174897554939529e+00,0.000000000000000e+00
	2.285662126358998e-02,1.667909513286330e-09
	1.000000000000000e+00,0.000000000000000e+00
	0.000000000000000e+00,0.000000000000000e+00
	1.849439375052223e-04,1.542779163783611e-13
	1.849439373335056e-04,1.465073301542915e-13
	-2.285662126359003e-06,-1.667909513286335e-13
	1.221678779798845e-04,3.859451224120127e-12
	-9.863676666388004e-05,-7.869716712601298e-14
	-2.124544918964542e-05,-3.613963105665480e-12
	2.285662126358998e-06,1.667909513286330e-13
	-1.221678779798063e-04,-3.859451224120125e-12
	2.285662126358998e-06,1.667909513286330e-13
8		1.202264434617413e+00,0.000000000000000e+00
	2.285662126358998e-02,1.706760116704305e-09
	1.000000000000000e+00,0.000000000000000e+00
	0.000000000000000e+00,0.000000000000000e+00
	1.849439375052223e-04,1.578715106936531e-13
	1.849439373335056e-04,1.499199242646494e-13
	-2.285662126359003e-06,-1.706760116704307e-13
	1.221678779798845e-04,3.949349391691504e-12
	-9.863676666388004e-05,-8.053025963239644e-14
	-2.124544918964542e-05,-3.698143120388677e-12
	2.285662126358998e-06,1.706760116704305e-13
	-1.221678779798063e-04,-3.949349391691504e-12
	2.285662126358998e-06,1.706760116704305e-13
9		1.230268770812381e+00,0.000000000000000e+00
	2.285662126358998e-02,1.746515666927797e-09
	1.000000000000000e+00,0.000000000000000e+00
	0.000000000000000e+00,0.000000000000000e+00
	1.849439375052223e-04,1.615488105735914e-13
	1.849439373335056e-04,1.534120079032771e-13
	-2.285662126359003e-06,-1.746515666927794e-13
	1.221678779798845e-04,4.041341556586176e-12
	-9.863676666388004e-05,-8.240605034838097e-14
	-2.124544918964542e-05,-3.784283939545015e-12
	2.285662126358998e-06,1.746515666927797e-13
	-1.221678779798063e-04,-4.041341556586176e-12
	2.285662126358998e-06,1.746515666927797e-13
10		1.258925411794167e+00,0.000000000000000e+00
	2.285662126358998e-02,1.787197242875762e-09
	1.000000000000000e+00,0.000000000000000e+00
	0.000000000000000e+00,0.000000000000000e+00
	1.849439375052223e-04,1.653117657712470e-13
	1.849439373335056e-04,1.569854326191431e-13
	-2.285662126359003e-06,-1.787197242875771e-13
	1.221678779798845e-04,4.135476494267627e-12
	-9.863676666388004e-05,-8.432553384303324e-14
	-2.124544918964542e-05,-3.872431236137017e-12
	2.285662126358998e-06,1.787197242875762e-13
	-1.221678779798063e-04,-4.135476494267627e-12
	2.285662126358998e-06,1.787197242875762e-13
11		1.288249551693134e+00,0.000000000000000e+00
	2.285662126358998e-02,1.828826414458252e-09
	1.000000000000000e+00,0.000000000000000e+00
	0.000000000000000e+00,0.000000000000000e+00
	1.849439375052223e-04,1.691623714552746e-13
	1.849439373335056e-04,1.606420930893316e-13
	-2.285662126359003e-06,-1.828826414458256e-13
	1.221678779798845e-04,4.231804116325845e-12
	-9.863676666388004e-05,-8.628972785190950e-14
	-2.124544918964542e-05,-3.962631747028109e-12
	2.285662126358998e-06,1.828826414458253e-13
	-1.221678779798063e-04,-4.231804116325845e-12
	2.285662126358998e-06,1.828826414458253e-13
12		1.318256738556407e+00,0.000000000000000e+00
	2.285662126358998e-02,1.871425254013068e-09
	1.000000000000000e+00,0.000000000000000e+00
	0.000000000000000e+00,0.000000000000000e+00
	1.849439375052223e-04,1.731026692677763e-13
	1.849439373335056e-04,1.643839281236256e-13
	-2.285662126359003e-06,-1.871425254013076e-13
	1.221678779798845e-04,4.330375496941086e-12
	-9.863676666388004e-05,-8.829967381667239e-14
	-2.124544918964542e-05,-4.054933297723106e-12
	2.285662126358998e-06,1.871425254013068e-13
	-1.221678779798063e-04,-4.330375496941087e-12
	2.285662126358998e-06,1.871425254013068e-13
13		1.348962882591653e+00,0.000000000000000e+00
	2.285662126358998e-02,1.915016348008803e-09
	1.000000000000000e+00,0.000000000000000e+00
	0.000000000000000e+00,0.000000000000000e+00
	1.849439375052223e-04,1.771347484068086e-13
	1.849439373335056e-04,1.682129216924893e-13
	-2.285662126359003e-06,-1.915016348008809e-13
	1.221678779798845e-04,4.431242899964101e-12
	-9.863676666388004e-05,-9.035643743727723e-14
	-2.124544918964542e-05,-4.149384827725943e-12
	2.285662126358998e-06,1.915016348008803e-13
	-1.221678779798063e-04,-4.431242899964101e-12
	2.285662126358998e-06,1.915016348008803e-13
14		1.380384264602885e+00,0.000000000000000e+00
	2.285662126358998e-02,1.959622809020490e-09
	1.000000000000000e+00,0.000000000000000e+00
	0.000000000000000e+00,0.000000000000000e+00
	1.849439375052223e-04,1.812607467341017e-13
	1.849439373335056e-04,1.721311039789955e-13
	-2.285662126359003e-06,-1.959622809020492e-13
	1.221678779798845e-04,4.534459806627114e-12
	-9.863676666388004e-05,-9.246110923702020e-14
	-2.124544918964542e-05,-4.246036416488044e-12
	2.285662126358998e-06,1.959622809020490e-13
	-1.221678779798063e-04,-4.534459806627111e-12
	2.285662126358998e-06,1.959622809020490e-13
15		1.412537544622754e+00,0.000000000000000e+00
	2.285662126358998e-02,2.005268287984194e-09
	1.000000000000000e+00,0.000000000000000e+00
	0.000000000000000e+00,0.000000000000000e+00
	1.849439375052223e-04,1.854828519085828e-13
	1.849439373335056e-04,1.761405524552560e-13
	-2.285662126359006e-06,-2.005268287984202e-13
	1.221678779798845e-04,4.640080943900267e-12
	-9.863676666388004e-05,-9.461480514074806e-14
	-2.124544918964542e-05,-4.344939309961099e-12
	2.285662126358998e-06,2.005268287984194e-13
	-1.221678779798063e-04,-4.640080943900265e-12
	2.285662126358998e-06,2.005268287984194e-13
16		1.445439770745927e+00,0.000000000000000e+00
	2.285662126358998e-02,2.051976986737050e-09
	1.000000000000000e+00,0.000000000000000e+00
	0.000000000000000e+00,0.000000000000000e+00
	1.849439375052223e-04,1.898033025463017e-13
	1.849439373335056e-04,1.802433929839240e-13
	-2.285662126359006e-06,-2.051976986737054e-13
	1.221678779798845e-04,4.748162313508608e-12
	-9.863676666388004e-05,-9.681866706653657e-14
	-2.124544918964542e-05,-4.446145947768367e-12
	2.285662126358998e-06,2.051976986737050e-13
	-1.221678779798063e-04,-4.748162313508609e-12
	2.285662126358998e-06,2.051976986737050e-13
17		1.479108388168207e+00,0.000000000000000e+00
	2.285662126358999e-02,2.099773670849402e-09
	1.000000000000000e+00,0.000000000000000e+00
	0.000000000000000e+00,0.000000000000000e+00
	1.849439375052223e-04,1.942243894073743e-13
	1.849439373335056e-04,1.844418009453555e-13
	-2.285662126359003e-06,-2.099773670849405e-13
	1.221678779798845e-04,4.858761221624933e-12
	-9.863676666388004e-05,-9.907386353115029e-14
	-2.124544918964543e-05,-4.549709991008842e-12
	2.285662126358999e-06,2.099773670849402e-13
	-1.221678779798063e-04,-4.858761221624932e-12
	2.285662126358999e-06,2.099773670849402e-13
18		1.513561248436208e+00,0.000000000000000e+00
	2.285662126358999e-02,2.148683682755827e-09
	1.000000000000000e+00,0.000000000000000e+00
	0.000000000000000e+00,0.000000000000000e+00
	1.849439375052223e-04,1.987484566105745e-13
	1.849439373335056e-04,1.887380023910240e-13
	-2.285662126359003e-06,-2.148683682755832e-13
	1.221678779798845e-04,4.971936309254270e-12
	-9.863676666388004e-05,-1.013815902696059e-13
	-2.124544918964543e-05,-4.655686350709081e-12
	2.285662126358999e-06,2.148683682755827e-13
	-1.221678779798063e-04,-4.971936309254270e-12
	2.285662126358999e-06,2.148683682755827e-13
19		1.548816618912481e+00,0.000000000000000e+00
	2.285662126358999e-02,2.198732955192042e-09
	1.000000000000000e+00,0.000000000000000e+00
	0.000000000000000e+00,0.000000000000000e+00
	1.849439375052223e-04,2.033779028762164e-13
	1.849439373335056e-04,1.931342752238031e-13
	-2.285662126359003e-06,-2.198732955192041e-13
	1.221678779798845e-04,5.087747583326130e-12
	-9.863676666388004e-05,-1.037430708691664e-13
	-2.124544918964543e-05,-4.764131216937759e-12
	2.285662126358999e-06,2.198732955192042e-13
	-1.221678779798063e-04,-5.087747583326129e-12
	2.285662126358999e-06,2.198732955192042e-13
20		1.584893192461113e+00,0.000000000000000e+00
	2.285662126358999e-02,2.249948024944769e-09
	1.000000000000000e+00,0.000000000000000e+00
	0.000000000000000e+00,0.000000000000000e+00
	1.849439375052223e-04,2.081151827979881e-13
	1.849439373335056e-04,1.976329504057402e-13
	-2.285662126359003e-06,-2.249948024944768e-13
	1.221678779798845e-04,5.206256448510970e-12
	-9.863676666388004e-05,-1.061595574181036e-13
	-2.124544918964543e-05,-4.875102088598390e-12
	2.285662126358999e-06,2.249948024944769e-13
	-1.221678779798063e-04,-5.206256448510971e-12
	2.285662126358999e-06,2.249948024944769e-13
21		1.621810097358929e+00,0.000000000000000e+00
	2.285662126358999e-02,2.302356046921905e-09
	1.000000000000000e+00,0.000000000000000e+00
	0.000000000000000e+00,0.000000000000000e+00
	1.849439375052223e-04,2.129628081444094e-13
	1.849439373335056e-04,2.022364131939638e-13
	-2.285662126359003e-06,-2.302356046921912e-13
	1.221678779798845e-04,5.327525739777763e-12
	-9.863676666388004e-05,-1.086323311695718e-13
	-2.124544918964543e-05,-4.988657803916000e-12
	2.285662126358999e-06,2.302356046921905e-13
	-1.221678779798063e-04,-5.327525739777763e-12
	2.285662126358999e-06,2.302356046921905e-13
22		1.659586907437560e+00,0.000000000000000e+00
	2.285662126358999e-02,2.355984808550405e-09
	1.000000000000000e+00,0.000000000000000e+00
	0.000000000000000e+00,0.000000000000000e+00
	1.849439375052223e-04,2.179233491906048e-13
	1.849439373335056e-04,2.069471044053782e-13
	-2.285662126359003e-06,-2.355984808550403e-13
	1.221678779798845e-04,5.451619755709927e-12
	-9.863676666388004e-05,-1.111627032209449e-13
	-2.124544918964543e-05,-5.104858571633941e-12
	2.285662126358999e-06,2.355984808550406e-13
	-1.221678779798063e-04,-5.451619755709925e-12
	2.285662126358999e-06,2.355984808550406e-13
23		1.698243652461743e+00,0.000000000000000e+00
	2.285662126358999e-02,2.410862744509543e-09
	1.000000000000000e+00,0.000000000000000e+00
	0.000000000000000e+00,0.000000000000000e+00
	1.849439375052223e-04,2.229994360810977e-13
	1.849439373335056e-04,2.117675217108171e-13
	-2.285662126359003e-06,-2.410862744509544e-13
	1.221678779798845e-04,5.578604292597283e-12
	-9.863676666388004e-05,-1.137520152089782e-13
	-2.124544918964543e-05,-5.223766002937351e-12
	2.285662126358999e-06,2.410862744509543e-13
	-1.221678779798063e-04,-5.578604292597283e-12
	2.285662126358999e-06,2.410862744509543e-13
24		1.737800828749374e+00,0.000000000000000e+00
	2.285662126358999e-02,2.467018951807362e-09
	1.000000000000000e+00,0.000000000000000e+00
	0.000000000000000e+00,0.000000000000000e+00
	1.849439375052223e-04,2.281937602243471e-13
	1.849439373335056e-04,2.167002209593415e-13
	-2.285662126359003e-06,-2.467018951807363e-13
	1.221678779798845e-04,5.708546679322133e-12
	-9.863676666388004e-05,-1.164016400211611e-13
	-2.124544918964543e-05,-5.345443144120236e-12
	2.285662126358999e-06,2.467018951807362e-13
	-1.221678779798063e-04,-5.708546679322133e-12
	2.285662126358999e-06,2.467018951807362e-13
25		1.778279410038922e+00,0.000000000000000e+00
	2.285662126358999e-02,2.524483205208285e-09
	1.000000000000000e+00,0.000000000000000e+00
	0.000000000000000e+00,0.000000000000000e+00
	1.849439375052223e-04,2.335090757197691e-13
	1.849439373335056e-04,2.217478175333852e-13
	-2.285662126359003e-06,-2.524483205208291e-13
	1.221678779798845e-04,5.841515813057908e-12
	-9.863676666388004e-05,-1.191129825236411e-13
	-2.124544918964543e-05,-5.469954510013438e-12
	2.285662126358999e-06,2.524483205208285e-13
	-1.221678779798063e-04,-5.841515813057909e-12
	2.285662126358999e-06,2.524483205208285e-13
26		1.819700858609982e+00,0.000000000000000e+00
	2.285662126358999e-02,2.583285973020094e-09
	1.000000000000000e+00,0.000000000000000e+00
	0.000000000000000e+00,0.000000000000000e+00
	1.849439375052223e-04,2.389482008179957e-13
	1.849439373335056e-04,2.269129877354644e-13
	-2.285662126359006e-06,-2.583285973020100e-13
	1.221678779798845e-04,5.977582195799370e-12
	-9.863676666388004e-05,-1.218874803061019e-13
	-2.124544918964543e-05,-5.597366118191258e-12
	2.285662126358999e-06,2.583285973020094e-13
	-1.221678779798063e-04,-5.977582195799370e-12
	2.285662126358999e-06,2.583285973020094e-13
27		1.862087136662866e+00,0.000000000000000e+00
	2.285662126358999e-02,2.643458433248632e-09
	1.000000000000000e+00,0.000000000000000e+00
	0.000000000000000e+00,0.000000000000000e+00
	1.849439375052223e-04,2.445140194151494e-13
	1.849439373335056e-04,2.321984702071894e-13
	-2.285662126359006e-06,-2.643458433248631e-13
	1.221678779798845e-04,6.116817971743697e-12
	-9.863676666388004e-05,-1.247266044439925e-13
	-2.124544918964543e-05,-5.727745523974841e-12
	2.285662126358999e-06,2.643458433248632e-13
	-1.221678779798063e-04,-6.116817971743698e-12
	2.285662126358999e-06,2.643458433248632e-13
28		1.905460717963246e+00,0.000000000000000e+00
	2.285662126358999e-02,2.705032490128786e-09
	1.000000000000000e+00,0.000000000000000e+00
	0.000000000000000e+00,0.000000000000000e+00
	1.849439375052223e-04,2.502094825819226e-13
	1.849439373335056e-04,2.376070673813283e-13
	-2.285662126359006e-06,-2.705032490128795e-13
	1.221678779798845e-04,6.259296965542300e-12
	-9.863676666388004e-05,-1.276318602785110e-13
	-2.124544918964543e-05,-5.861161856250910e-12
	2.285662126358999e-06,2.705032490128787e-13
	-1.221678779798063e-04,-6.259296965542300e-12
	2.285662126358999e-06,2.705032490128787e-13
29		1.949844599758044e+00,0.000000000000000e+00
	2.285662126358999e-02,2.768040791040546e-09
	1.000000000000000e+00,0.000000000000000e+00
	0.000000000000000e+00,0.000000000000000e+00
	1.849439375052223e-04,2.560376101282749e-13
	1.849439373335056e-04,2.431416469676944e-13
	-2.285662126359003e-06,-2.768040791040551e-13
	1.221678779798845e-04,6.405094721443627e-12
	-9.863676666388004e-05,-1.306047882147568e-13
	-2.124544918964543e-05,-5.997685854124814e-12
	2.285662126358999e-06,2.768040791040546e-13
	-1.221678779798063e-04,-6.405094721443625e-12
	2.285662126358999e-06,2.768040791040546e-13
30		1.995262314968878e+00,0.000000000000000e+00
	2.285662126358999e-02,2.832516743819065e-09
	1.000000000000000e+00,0.000000000000000e+00
	0.000000000000000e+00,0.000000000000000e+00
	1.849439375052223e-04,2.620014922045754e-13
	1.849439373335056e-04,2.488051434736426e-13
	-2.285662126359003e-06,-2.832516743819072e-13
	1.221678779798845e-04,6.554288543347711e-12
	-9.863676666388004e-05,-1.336469645384726e-13
	-2.124544918964543e-05,-6.137389904427331e-12
	2.285662126358999e-06,2.832516743819065e-13
	-1.221678779798063e-04,-6.554288543347709e-12
	2.285662126358999e-06,2.832516743819065e-13
31		2.041737944669527e+00,0.000000000000000e+00
	2.285662126358999e-02,2.898494534467949e-09
	1.000000000000000e+00,0.000000000000000e+00
	0.000000000000000e+00,0.000000000000000e+00
	1.849439375052223e-04,2.681042909400426e-13
	1.849439373335056e-04,2.546005597599860e-13
	-2.285662126359003e-06,-2.898494534467955e-13
	1.221678779798845e-04,6.706957535793743e-12
	-9.863676666388004e-05,-1.367600022518134e-13
	-2.124544918964543e-05,-6.280348080095133e-12
	2.285662126358999e-06,2.898494534467949e-13
	-1.221678779798063e-04,-6.706957535793742e-12
	2.285662126358999e-06,2.898494534467949e-13
32		2.089296130854037e+00,0.000000000000000e+00
	2.285662126358999e-02,2.966009145285119e-09
	1.000000000000000e+00,0.000000000000000e+00
	0.000000000000000e+00,0.000000000000000e+00
	1.849439375052223e-04,2.743492421193462e-13
	1.849439373335056e-04,2.605309686331511e-13
	-2.285662126359003e-06,-2.966009145285125e-13
