Title: * GA CMOS Amp | W=1.0045510731045425e-05 L=5.825982678478871e-07 Vbias=0.9988204944950657
Date: Sat Sep  6 22:35:22 2025
Plotname: AC Analysis
Flags: complex forward log
No. Variables: 13
No. Points:          901
Offset:    0.0000000000000000e+00
Command: Linear Technology Corporation LTspice
Variables:
	0	frequency	frequency
	1	V(out)	voltage
	2	V(g)	voltage
	3	V(vdd)	voltage
	4	V(m1#dbody)	voltage
	5	V(m1#sbody)	voltage
	6	Id(M1)	device_current
	7	Ig(M1)	device_current
	8	Ib(M1)	device_current
	9	Is(M1)	device_current
	10	I(Rload)	device_current
	11	I(Vg)	device_current
	12	I(Vdd)	device_current
Values:
0		1.000000000000000e+00,0.000000000000000e+00
	-2.225135889521160e-02,5.160879270260008e-10
	1.000000000000000e+00,0.000000000000000e+00
	0.000000000000000e+00,0.000000000000000e+00
	1.919659584351068e-06,2.869973035566546e-14
	1.919659752140632e-06,3.378731391975864e-14
	2.225135889521166e-06,-5.160879270260005e-14
	3.314604953578625e-06,1.526652613994644e-12
	-1.023818524062902e-06,-1.768101932802738e-14
	-4.515922319036890e-06,-1.457362801964017e-12
	-2.225135889521160e-06,5.160879270260009e-14
	-3.314604953563727e-06,-1.526652613994644e-12
	-2.225135889521160e-06,5.160879270260009e-14
1		1.023292992280754e+00,0.000000000000000e+00
	-2.225135889521160e-02,5.281091591264080e-10
	1.000000000000000e+00,0.000000000000000e+00
	0.000000000000000e+00,0.000000000000000e+00
	1.919659584351068e-06,2.936823295329970e-14
	1.919659752140632e-06,3.457432156207900e-14
	2.225135889521166e-06,-5.281091591264073e-14
	3.314604953578625e-06,1.562212921547815e-12
	-1.023818524062902e-06,-1.809286317475099e-14
	-4.515922319036890e-06,-1.491309142460423e-12
	-2.225135889521160e-06,5.281091591264080e-14
	-3.314604953563727e-06,-1.562212921547815e-12
	-2.225135889521160e-06,5.281091591264080e-14
2		1.047128548050899e+00,0.000000000000000e+00
	-2.225135889521160e-02,5.404104016933348e-10
	1.000000000000000e+00,0.000000000000000e+00
	0.000000000000000e+00,0.000000000000000e+00
	1.919659584351068e-06,3.005230697678029e-14
	1.919659752140632e-06,3.537966096733681e-14
	2.225135889521166e-06,-5.404104016933368e-14
	3.314604953578625e-06,1.598601535070322e-12
	-1.023818524062902e-06,-1.851430009701720e-14
	-4.515922319036890e-06,-1.526046194803971e-12
	-2.225135889521160e-06,5.404104016933348e-14
	-3.314604953563727e-06,-1.598601535070322e-12
	-2.225135889521160e-06,5.404104016933348e-14
3		1.071519305237606e+00,0.000000000000000e+00
	-2.225135889521160e-02,5.529981770084170e-10
	1.000000000000000e+00,0.000000000000000e+00
	0.000000000000000e+00,0.000000000000000e+00
	1.919659584351068e-06,3.075231513120930e-14
	1.919659752140632e-06,3.620375913714470e-14
	2.225135889521166e-06,-5.529981770084163e-14
	3.314604953578625e-06,1.635837748286716e-12
	-1.023818524062902e-06,-1.894555354626059e-14
	-4.515922319036890e-06,-1.561592377039614e-12
	-2.225135889521160e-06,5.529981770084170e-14
	-3.314604953563727e-06,-1.635837748286716e-12
	-2.225135889521160e-06,5.529981770084170e-14
4		1.096478196143185e+00,0.000000000000000e+00
	-2.225135889521160e-02,5.658791592767450e-10
	1.000000000000000e+00,0.000000000000000e+00
	0.000000000000000e+00,0.000000000000000e+00
	1.919659584351068e-06,3.146862857017586e-14
	1.919659752140632e-06,3.704705301926047e-14
	2.225135889521166e-06,-5.658791592767416e-14
	3.314604953578625e-06,1.673941304330125e-12
	-1.023818524062902e-06,-1.938685217876824e-14
	-4.515922319036890e-06,-1.597966536223682e-12
	-2.225135889521160e-06,5.658791592767450e-14
	-3.314604953563727e-06,-1.673941304330125e-12
	-2.225135889521160e-06,5.658791592767450e-14
5		1.122018454301963e+00,0.000000000000000e+00
	-2.225135889521160e-02,5.790601781656179e-10
	1.000000000000000e+00,0.000000000000000e+00
	0.000000000000000e+00,0.000000000000000e+00
	1.919659584351068e-06,3.220162709254690e-14
	1.919659752140631e-06,3.790998973926280e-14
	2.225135889521166e-06,-5.790601781656164e-14
	3.314604953578625e-06,1.712932406210322e-12
	-1.023818524062901e-06,-1.983842997691642e-14
	-4.515922319036890e-06,-1.635187958416844e-12
	-2.225135889521160e-06,5.790601781656179e-14
	-3.314604953563727e-06,-1.712932406210322e-12
	-2.225135889521160e-06,5.790601781656179e-14
6		1.148153621496882e+00,0.000000000000000e+00
	-2.225135889521160e-02,5.925482224257218e-10
	1.000000000000000e+00,0.000000000000000e+00
	0.000000000000000e+00,0.000000000000000e+00
	1.919659584351068e-06,3.295169934384132e-14
	1.919659752140631e-06,3.879302683762292e-14
	2.225135889521166e-06,-5.925482224257195e-14
	3.314604953578625e-06,1.752831727525633e-12
	-1.023818524062901e-06,-2.030052637323101e-14
	-4.515922319036890e-06,-1.673276378909830e-12
	-2.225135889521160e-06,5.925482224257218e-14
	-3.314604953563727e-06,-1.752831727525632e-12
	-2.225135889521160e-06,5.925482224257218e-14
7		1.174897554939529e+00,0.000000000000000e+00
	-2.225135889521160e-02,6.063504435966585e-10
	1.000000000000000e+00,0.000000000000000e+00
	0.000000000000000e+00,0.000000000000000e+00
	1.919659584351068e-06,3.371924302229514e-14
	1.919659752140631e-06,3.969663251229875e-14
	2.225135889521166e-06,-6.063504435966594e-14
	3.314604953578625e-06,1.793660423424348e-12
	-1.023818524062901e-06,-2.077338637733793e-14
	-4.515922319036890e-06,-1.712251992687344e-12
	-2.225135889521160e-06,6.063504435966586e-14
	-3.314604953563727e-06,-1.793660423424348e-12
	-2.225135889521160e-06,6.063504435966586e-14
8		1.202264434617413e+00,0.000000000000000e+00
	-2.225135889521160e-02,6.204741597987875e-10
	1.000000000000000e+00,0.000000000000000e+00
	0.000000000000000e+00,0.000000000000000e+00
	1.919659584351068e-06,3.450466508972634e-14
	1.919659752140631e-06,4.062128586697967e-14
	2.225135889521166e-06,-6.204741597987860e-14
	3.314604953578625e-06,1.835440141821466e-12
	-1.023818524062901e-06,-2.125726070587039e-14
	-4.515922319036890e-06,-1.752135465135717e-12
	-2.225135889521160e-06,6.204741597987875e-14
	-3.314604953563727e-06,-1.835440141821466e-12
	-2.225135889521160e-06,6.204741597987875e-14
9		1.230268770812381e+00,0.000000000000000e+00
	-2.225135889521160e-02,6.349268596133881e-10
	1.000000000000000e+00,0.000000000000000e+00
	0.000000000000000e+00,0.000000000000000e+00
	1.919659584351068e-06,3.530838198731133e-14
	1.919659752140631e-06,4.156747716511353e-14
	2.225135889521166e-06,-6.349268596133885e-14
	3.314604953578625e-06,1.878193034876700e-12
	-1.023818524062901e-06,-2.175240591540220e-14
	-4.515922319036890e-06,-1.792947942999959e-12
	-2.225135889521160e-06,6.349268596133881e-14
	-3.314604953563727e-06,-1.878193034876699e-12
	-2.225135889521160e-06,6.349268596133881e-14
10		1.258925411794167e+00,0.000000000000000e+00
	-2.225135889521160e-02,6.497162060532061e-10
	1.000000000000000e+00,0.000000000000000e+00
	0.000000000000000e+00,0.000000000000000e+00
	1.919659584351068e-06,3.613081985638771e-14
	1.919659752140631e-06,4.253570808985095e-14
	2.225135889521166e-06,-6.497162060532057e-14
	3.314604953578625e-06,1.921941770739849e-12
	-1.023818524062901e-06,-2.225908453847749e-14
	-4.515922319036890e-06,-1.834711065596050e-12
	-2.225135889521160e-06,6.497162060532061e-14
	-3.314604953563727e-06,-1.921941770739849e-12
	-2.225135889521160e-06,6.497162060532061e-14
11		1.288249551693134e+00,0.000000000000000e+00
	-2.225135889521160e-02,6.648500406254844e-10
	1.000000000000000e+00,0.000000000000000e+00
	0.000000000000000e+00,0.000000000000000e+00
	1.919659584351068e-06,3.697241476439986e-14
	1.919659752140631e-06,4.352649201004426e-14
	2.225135889521166e-06,-6.648500406254843e-14
	3.314604953578625e-06,1.966709545569751e-12
	-1.023818524062901e-06,-2.277756522280891e-14
	-4.515922319036890e-06,-1.877446976284394e-12
	-2.225135889521160e-06,6.648500406254845e-14
	-3.314604953563727e-06,-1.966709545569751e-12
	-2.225135889521160e-06,6.648500406254845e-14
12		1.318256738556407e+00,0.000000000000000e+00
	-2.225135889521160e-02,6.803363874896329e-10
	1.000000000000000e+00,0.000000000000000e+00
	0.000000000000000e+00,0.000000000000000e+00
	1.919659584351068e-06,3.783361293610787e-14
	1.919659752140631e-06,4.454035425244252e-14
	2.225135889521166e-06,-6.803363874896320e-14
	3.314604953578625e-06,2.012520095833193e-12
	-1.023818524062901e-06,-2.330812287371817e-14
	-4.515922319036890e-06,-1.921178334210511e-12
	-2.225135889521160e-06,6.803363874896329e-14
	-3.314604953563727e-06,-2.012520095833192e-12
	-2.225135889521160e-06,6.803363874896329e-14
13		1.348962882591653e+00,0.000000000000000e+00
	-2.225135889521160e-02,6.961834577117450e-10
	1.000000000000000e+00,0.000000000000000e+00
	0.000000000000000e+00,0.000000000000000e+00
	1.919659584351068e-06,3.871487099018166e-14
	1.919659752140631e-06,4.557783238022671e-14
	2.225135889521166e-06,-6.961834577117434e-14
	3.314604953578625e-06,2.059397710890298e-12
	-1.023818524062901e-06,-2.385103879989455e-14
	-4.515922319036890e-06,-1.965928326319229e-12
	-2.225135889521160e-06,6.961834577117450e-14
	-3.314604953563727e-06,-2.059397710890297e-12
	-2.225135889521160e-06,6.961834577117450e-14
14		1.380384264602885e+00,0.000000000000000e+00
	-2.225135889521160e-02,7.123996536182134e-10
	1.000000000000000e+00,0.000000000000000e+00
	0.000000000000000e+00,0.000000000000000e+00
	1.919659584351068e-06,3.961665618130635e-14
	1.919659752140631e-06,4.663947647803284e-14
	2.225135889521166e-06,-7.123996536182155e-14
	3.314604953578625e-06,2.107367245873069e-12
	-1.023818524062901e-06,-2.440660086254846e-14
	-4.515922319036890e-06,-2.011720679648699e-12
	-2.225135889521160e-06,7.123996536182134e-14
	-3.314604953563727e-06,-2.107367245873069e-12
	-2.225135889521160e-06,7.123996536182134e-14
15		1.412537544622754e+00,0.000000000000000e+00
	-2.225135889521160e-02,7.289935732507543e-10
	1.000000000000000e+00,0.000000000000000e+00
	0.000000000000000e+00,0.000000000000000e+00
	1.919659584351068e-06,4.053944664792682e-14
	1.919659752140631e-06,4.772584944361409e-14
	2.225135889521166e-06,-7.289935732507555e-14
	3.314604953578625e-06,2.156454134863904e-12
	-1.023818524062901e-06,-2.497510362803926e-14
	-4.515922319036890e-06,-2.058579673910789e-12
	-2.225135889521160e-06,7.289935732507544e-14
	-3.314604953563727e-06,-2.156454134863904e-12
	-2.225135889521160e-06,7.289935732507544e-14
16		1.445439770745927e+00,0.000000000000000e+00
	-2.225135889521160e-02,7.459740149252034e-10
	1.000000000000000e+00,0.000000000000000e+00
	0.000000000000000e+00,0.000000000000000e+00
	1.919659584351067e-06,4.148373166576302e-14
	1.919659752140631e-06,4.883752728629662e-14
	2.225135889521166e-06,-7.459740149252041e-14
	3.314604953578624e-06,2.206684404381088e-12
	-1.023818524062901e-06,-2.555684852405821e-14
	-4.515922319036890e-06,-2.106530154364510e-12
	-2.225135889521160e-06,7.459740149252035e-14
	-3.314604953563727e-06,-2.206684404381088e-12
	-2.225135889521160e-06,7.459740149252035e-14
17		1.479108388168207e+00,0.000000000000000e+00
	-2.225135889521160e-02,7.633499818964993e-10
	1.000000000000000e+00,0.000000000000000e+00
	0.000000000000000e+00,0.000000000000000e+00
	1.919659584351067e-06,4.245001190723049e-14
	1.919659752140631e-06,4.997509943238741e-14
	2.225135889521166e-06,-7.633499818964980e-14
	3.314604953578624e-06,2.258084687178397e-12
	-1.023818524062901e-06,-2.615214399944949e-14
	-4.515922319036890e-06,-2.155597544989298e-12
	-2.225135889521160e-06,7.633499818964993e-14
	-3.314604953563727e-06,-2.258084687178398e-12
	-2.225135889521160e-06,7.633499818964993e-14
18		1.513561248436208e+00,0.000000000000000e+00
	-2.225135889521160e-02,7.811306871323283e-10
	1.000000000000000e+00,0.000000000000000e+00
	0.000000000000000e+00,0.000000000000000e+00
	1.919659584351067e-06,4.343879970690355e-14
	1.919659752140631e-06,5.113916903769595e-14
	2.225135889521166e-06,-7.811306871323278e-14
	3.314604953578624e-06,2.310682236366133e-12
	-1.023818524062901e-06,-2.676130568775384e-14
	-4.515922319036890e-06,-2.205807861965147e-12
	-2.225135889521160e-06,7.811306871323283e-14
	-3.314604953563727e-06,-2.310682236366133e-12
	-2.225135889521160e-06,7.811306871323283e-14
19		1.548816618912481e+00,0.000000000000000e+00
	-2.225135889521160e-02,7.993255581979616e-10
	1.000000000000000e+00,0.000000000000000e+00
	0.000000000000000e+00,0.000000000000000e+00
	1.919659584351067e-06,4.445061933316168e-14
	1.919659752140631e-06,5.233035330733518e-14
	2.225135889521166e-06,-7.993255581979631e-14
	3.314604953578624e-06,2.364504939861086e-12
	-1.023818524062901e-06,-2.738465657456159e-14
	-4.515922319036890e-06,-2.257187727466728e-12
	-2.225135889521160e-06,7.993255581979616e-14
	-3.314604953563727e-06,-2.364504939861085e-12
	-2.225135889521160e-06,7.993255581979616e-14
20		1.584893192461113e+00,0.000000000000000e+00
	-2.225135889521160e-02,8.179442422548764e-10
	1.000000000000000e+00,0.000000000000000e+00
	0.000000000000000e+00,0.000000000000000e+00
	1.919659584351067e-06,4.548600726616374e-14
	1.919659752140631e-06,5.354928382297207e-14
	2.225135889521166e-06,-8.179442422548766e-14
	3.314604953578624e-06,2.419581335173074e-12
	-1.023818524062901e-06,-2.802252716876395e-14
	-4.515922319036890e-06,-2.309764383778823e-12
	-2.225135889521160e-06,8.179442422548764e-14
	-3.314604953563727e-06,-2.419581335173074e-12
	-2.225135889521160e-06,8.179442422548764e-14
21		1.621810097358929e+00,0.000000000000000e+00
	-2.225135889521160e-02,8.369966111758065e-10
	1.000000000000000e+00,0.000000000000000e+00
	0.000000000000000e+00,0.000000000000000e+00
	1.919659584351067e-06,4.654551248229683e-14
	1.919659752140631e-06,5.479660687770048e-14
	2.225135889521166e-06,-8.369966111758060e-14
	3.314604953578624e-06,2.475940624535918e-12
	-1.023818524062901e-06,-2.867525567779320e-14
	-4.515922319036890e-06,-2.363565707740544e-12
	-2.225135889521160e-06,8.369966111758066e-14
	-3.314604953563727e-06,-2.475940624535918e-12
	-2.225135889521160e-06,8.369966111758066e-14
22		1.659586907437560e+00,0.000000000000000e+00
	-2.225135889521160e-02,8.564927667789417e-10
	1.000000000000000e+00,0.000000000000000e+00
	0.000000000000000e+00,0.000000000000000e+00
	1.919659584351067e-06,4.762969674525070e-14
	1.919659752140631e-06,5.607298381871426e-14
	2.225135889521166e-06,-8.564927667789420e-14
	3.314604953578624e-06,2.533612690390838e-12
	-1.023818524062901e-06,-2.934318818694468e-14
	-4.515922319036890e-06,-2.418620225525999e-12
	-2.225135889521160e-06,8.564927667789417e-14
	-3.314604953563727e-06,-2.533612690390838e-12
	-2.225135889521160e-06,8.564927667789417e-14
23		1.698243652461743e+00,0.000000000000000e+00
	-2.225135889521160e-02,8.764430461840456e-10
	1.000000000000000e+00,0.000000000000000e+00
	0.000000000000000e+00,0.000000000000000e+00
	1.919659584351067e-06,4.873913490387250e-14
	1.919659752140630e-06,5.737909139796243e-14
	2.225135889521166e-06,-8.764430461840450e-14
	3.314604953578624e-06,2.592628111230534e-12
	-1.023818524062901e-06,-3.002667884287591e-14
	-4.515922319036890e-06,-2.474957127769253e-12
	-2.225135889521160e-06,8.764430461840456e-14
	-3.314604953563727e-06,-2.592628111230533e-12
	-2.225135889521160e-06,8.764430461840456e-14
24		1.737800828749374e+00,0.000000000000000e+00
	-2.225135889521160e-02,8.968580272933309e-10
	1.000000000000000e+00,0.000000000000000e+00
	0.000000000000000e+00,0.000000000000000e+00
	1.919659584351067e-06,4.987441519695904e-14
	1.919659752140630e-06,5.871562213097186e-14
	2.225135889521166e-06,-8.968580272933332e-14
	3.314604953578624e-06,2.653018177812292e-12
	-1.023818524062901e-06,-3.072609004137969e-14
	-4.515922319036890e-06,-2.532606285041579e-12
	-2.225135889521160e-06,8.968580272933309e-14
	-3.314604953563727e-06,-2.653018177812291e-12
	-2.225135889521160e-06,8.968580272933309e-14
25		1.778279410038922e+00,0.000000000000000e+00
	-2.225135889521160e-02,9.177485344000069e-10
	1.000000000000000e+00,0.000000000000000e+00
	0.000000000000000e+00,0.000000000000000e+00
	1.919659584351067e-06,5.103613956514891e-14
	1.919659752140630e-06,6.008328466402825e-14
	2.225135889521166e-06,-9.177485344000112e-14
	3.314604953578624e-06,2.714814909748774e-12
	-1.023818524062901e-06,-3.144179261953130e-14
	-4.515922319036890e-06,-2.591598263689242e-12
	-2.225135889521160e-06,9.177485344000069e-14
	-3.314604953563727e-06,-2.714814909748773e-12
	-2.225135889521160e-06,9.177485344000069e-14
26		1.819700858609982e+00,0.000000000000000e+00
	-2.225135889521160e-02,9.391256439274594e-10
	1.000000000000000e+00,0.000000000000000e+00
	0.000000000000000e+00,0.000000000000000e+00
	1.919659584351067e-06,5.222492397007942e-14
	1.919659752140630e-06,6.148280414990982e-14
	2.225135889521166e-06,-9.391256439274637e-14
	3.314604953578624e-06,2.778051072485228e-12
	-1.023818524062901e-06,-3.217416605231111e-14
	-4.515922319036890e-06,-2.651964342040170e-12
	-2.225135889521160e-06,9.391256439274594e-14
	-3.314604953563727e-06,-2.778051072485227e-12
	-2.225135889521160e-06,9.391256439274594e-14
27		1.862087136662866e+00,0.000000000000000e+00
	-2.225135889521160e-02,9.610006903021199e-10
	1.000000000000000e+00,0.000000000000000e+00
	0.000000000000000e+00,0.000000000000000e+00
	1.919659584351067e-06,5.344139872097745e-14
	1.919659752140630e-06,6.291492263237278e-14
	2.225135889521166e-06,-9.610006903021228e-14
	3.314604953578624e-06,2.842760194672167e-12
	-1.023818524062901e-06,-3.292359865380730e-14
	-4.515922319036890e-06,-2.713736526988147e-12
	-2.225135889521160e-06,9.610006903021199e-14
	-3.314604953563727e-06,-2.842760194672166e-12
	-2.225135889521160e-06,9.610006903021199e-14
28		1.905460717963246e+00,0.000000000000000e+00
	-2.225135889521160e-02,9.833852719631265e-10
	1.000000000000000e+00,0.000000000000000e+00
	0.000000000000000e+00,0.000000000000000e+00
	1.919659584351067e-06,5.468620880885788e-14
	1.919659752140630e-06,6.438039943959288e-14
	2.225135889521166e-06,-9.833852719631268e-14
	3.314604953578624e-06,2.908976585942700e-12
	-1.023818524062901e-06,-3.369048778310508e-14
	-4.515922319036890e-06,-2.776947570963282e-12
	-2.225135889521160e-06,9.833852719631266e-14
	-3.314604953563727e-06,-2.908976585942700e-12
	-2.225135889521160e-06,9.833852719631266e-14
29		1.949844599758044e+00,0.000000000000000e+00
	-2.225135889521160e-02,1.006291257511971e-09
	1.000000000000000e+00,0.000000000000000e+00
	0.000000000000000e+00,0.000000000000000e+00
	1.919659584351066e-06,5.596001424850634e-14
	1.919659752140630e-06,6.588001158677121e-14
	2.225135889521166e-06,-1.006291257511972e-13
	3.314604953578624e-06,2.976735355103958e-12
	-1.023818524062901e-06,-3.447524005497180e-14
	-4.515922319036890e-06,-2.841630989297789e-12
	-2.225135889521160e-06,1.006291257511971e-13
	-3.314604953563727e-06,-2.976735355103959e-12
	-2.225135889521160e-06,1.006291257511971e-13
30		1.995262314968878e+00,0.000000000000000e+00
	-2.225135889521160e-02,1.029730792005388e-09
	1.000000000000000e+00,0.000000000000000e+00
	0.000000000000000e+00,0.000000000000000e+00
	1.919659584351066e-06,5.726349042842766e-14
	1.919659752140630e-06,6.741455418811782e-14
	2.225135889521163e-06,-1.029730792005389e-13
	3.314604953578628e-06,3.046072428752243e-12
	-1.023818524062901e-06,-3.527827155544939e-14
	-4.515922319036890e-06,-2.907821077996254e-12
	-2.225135889521160e-06,1.029730792005388e-13
	-3.314604953563727e-06,-3.046072428752243e-12
	-2.225135889521160e-06,1.029730792005388e-13
31		2.041737944669527e+00,0.000000000000000e+00
	-2.225135889521160e-02,1.053716303394824e-09
	1.000000000000000e+00,0.000000000000000e+00
	0.000000000000000e+00,0.000000000000000e+00
	1.919659584351066e-06,5.859732846894605e-14
	1.919659752140630e-06,6.898484087843212e-14
	2.225135889521163e-06,-1.053716303394823e-13
	3.314604953578628e-06,3.117024570321786e-12
	-1.023818524062901e-06,-3.610000806246881e-14
	-4.515922319036890e-06,-2.975552931919835e-12
	-2.225135889521160e-06,1.053716303394824e-13
	-3.314604953563727e-06,-3.117024570321786e-12
	-2.225135889521160e-06,1.053716303394824e-13
32		2.089296130854037e+00,0.000000000000000e+00
	-2.225135889521160e-02,1.078260509115904e-09
	1.000000000000000e+00,0.000000000000000e+00
	0.000000000000000e+00,0.000000000000000e+00
	1.919659584351066e-06,5.996223558864603e-14
