Title: * GA CMOS Amp | W=2.0114087154692952e-05 L=6.887153677428333e-07 Vbias=1.170412468192156
Date: Mon Sep  8 18:44:59 2025
Plotname: AC Analysis
Flags: complex forward log
No. Variables: 11
No. Points:          901
Offset:    0.0000000000000000e+00
Command: Linear Technology Corporation LTspice
Variables:
	0	frequency	frequency
	1	V(out)	voltage
	2	V(g)	voltage
	3	V(vdd)	voltage
	4	Id(M1)	device_current
	5	Ig(M1)	device_current
	6	Ib(M1)	device_current
	7	Is(M1)	device_current
	8	I(Rload)	device_current
	9	I(Vg)	device_current
	10	I(Vdd)	device_current
Values:
0		1.000000000000000e+00,0.000000000000000e+00
	-3.221370592365599e-01,8.747409330605473e-11
	1.000000000000000e+00,0.000000000000000e+00
	0.000000000000000e+00,0.000000000000000e+00
	3.221370592365602e-05,-8.747409330605465e-15
	6.726498959686719e-24,1.821993857920532e-13
	3.243951331513562e-13,1.104753112397974e-15
	-3.221370624805116e-05,-1.745567295738457e-13
	-3.221370592365599e-05,8.747409330605474e-15
	-6.726498959686719e-24,-1.821993857920532e-13
	-3.221370592365599e-05,8.747409330605474e-15
1		1.023292992280754e+00,0.000000000000000e+00
	-3.221370592365599e-01,8.951162668619863e-11
	1.000000000000000e+00,0.000000000000000e+00
	0.000000000000000e+00,0.000000000000000e+00
	3.221370592365602e-05,-8.951162668619869e-15
	7.043509089122641e-24,1.864433546788656e-13
	3.243951331513562e-13,1.130486118117170e-15
	-3.221370624805116e-05,-1.786226781283629e-13
	-3.221370592365599e-05,8.951162668619864e-15
	-7.043509089122641e-24,-1.864433546788656e-13
	-3.221370592365599e-05,8.951162668619864e-15
2		1.047128548050899e+00,0.000000000000000e+00
	-3.221370592365599e-01,9.159662031563799e-11
	1.000000000000000e+00,0.000000000000000e+00
	0.000000000000000e+00,0.000000000000000e+00
	3.221370592365602e-05,-9.159662031563795e-15
	7.375459445676303e-24,1.907861783001983e-13
	3.243951331513562e-13,1.156818522539984e-15
	-3.221370624805116e-05,-1.827833347911745e-13
	-3.221370592365599e-05,9.159662031563800e-15
	-7.375459445676303e-24,-1.907861783001983e-13
	-3.221370592365599e-05,9.159662031563800e-15
3		1.071519305237606e+00,0.000000000000000e+00
	-3.221370592365599e-01,9.373017968559330e-11
	1.000000000000000e+00,0.000000000000000e+00
	0.000000000000000e+00,0.000000000000000e+00
	3.221370592365602e-05,-9.373017968559338e-15
	7.723054140559317e-24,1.952301592786194e-13
	3.243951331513562e-13,1.183764287455756e-15
	-3.221370624805116e-05,-1.870409055975158e-13
	-3.221370592365599e-05,9.373017968559330e-15
	-7.723054140559317e-24,-1.952301592786194e-13
	-3.221370592365599e-05,9.373017968559330e-15
4		1.096478196143185e+00,0.000000000000000e+00
	-3.221370592365599e-01,9.591343603748351e-11
	1.000000000000000e+00,0.000000000000000e+00
	0.000000000000000e+00,0.000000000000000e+00
	3.221370592365602e-05,-9.591343603748375e-15
	8.087030468722363e-24,1.997776538716666e-13
	3.243951331513562e-13,1.211337699865715e-15
	-3.221370624805116e-05,-1.913976479677840e-13
	-3.221370592365599e-05,9.591343603748351e-15
	-8.087030468722363e-24,-1.997776538716666e-13
	-3.221370592365599e-05,9.591343603748351e-15
5		1.122018454301963e+00,0.000000000000000e+00
	-3.221370592365599e-01,9.814754696272523e-11
	1.000000000000000e+00,0.000000000000000e+00
	0.000000000000000e+00,0.000000000000000e+00
	3.221370592365602e-05,-9.814754696272516e-15
	8.468160472756635e-24,2.044310732211666e-13
	3.243951331513562e-13,1.239553379557990e-15
	-3.221370624805116e-05,-1.958558719044521e-13
	-3.221370592365599e-05,9.814754696272524e-15
	-8.468160472756635e-24,-2.044310732211666e-13
	-3.221370592365599e-05,9.814754696272524e-15
6		1.148153621496882e+00,0.000000000000000e+00
	-3.221370592365599e-01,1.004336970165029e-10
	1.000000000000000e+00,0.000000000000000e+00
	0.000000000000000e+00,0.000000000000000e+00
	3.221370592365602e-05,-1.004336970165029e-14
	8.867252580499674e-24,2.091928846316535e-13
	3.243951331513562e-13,1.268426286859660e-15
	-3.221370624805116e-05,-2.004179412168628e-13
	-3.221370592365599e-05,1.004336970165030e-14
	-8.867252580499674e-24,-2.091928846316535e-13
	-3.221370592365599e-05,1.004336970165030e-14
7		1.174897554939529e+00,0.000000000000000e+00
	-3.221370592365599e-01,1.027730983458359e-10
	1.000000000000000e+00,0.000000000000000e+00
	0.000000000000000e+00,0.000000000000000e+00
	3.221370592365602e-05,-1.027730983458359e-14
	9.285153319819214e-24,2.140656128785672e-13
	3.243951331513562e-13,1.297971730568197e-15
	-3.221370624805116e-05,-2.050862747745518e-13
	-3.221370592365599e-05,1.027730983458359e-14
	-9.285153319819214e-24,-2.140656128785672e-13
	-3.221370592365599e-05,1.027730983458359e-14
8		1.202264434617413e+00,0.000000000000000e+00
	-3.221370592365599e-01,1.051669913322747e-10
	1.000000000000000e+00,0.000000000000000e+00
	0.000000000000000e+00,0.000000000000000e+00
	3.221370592365602e-05,-1.051669913322746e-14
	9.722749114212286e-24,2.190518415469226e-13
	3.243951331513562e-13,1.328205376068946e-15
	-3.221370624805116e-05,-2.098633477897641e-13
	-3.221370592365599e-05,1.051669913322747e-14
	-9.722749114212286e-24,-2.190518415469226e-13
	-3.221370592365599e-05,1.051669913322747e-14
9		1.230268770812381e+00,0.000000000000000e+00
	-3.221370592365599e-01,1.076166452495675e-10
	1.000000000000000e+00,0.000000000000000e+00
	0.000000000000000e+00,0.000000000000000e+00
	3.221370592365602e-05,-1.076166452495674e-14
	1.018096816302828e-23,2.241542144011600e-13
	3.243951331513562e-13,1.359143253640960e-15
	-3.221370624805116e-05,-2.147516931298443e-13
	-3.221370592365599e-05,1.076166452495675e-14
	-1.018096816302828e-23,-2.241542144011600e-13
	-3.221370592365599e-05,1.076166452495675e-14
10		1.258925411794167e+00,0.000000000000000e+00
	-3.221370592365599e-01,1.101233589366463e-10
	1.000000000000000e+00,0.000000000000000e+00
	0.000000000000000e+00,0.000000000000000e+00
	3.221370592365602e-05,-1.101233589366463e-14
	1.066078241030424e-23,2.293754367869048e-13
	3.243951331513562e-13,1.390801766956480e-15
	-3.221370624805116e-05,-2.197539026601966e-13
	-3.221370592365599e-05,1.101233589366463e-14
	-1.066078241030424e-23,-2.293754367869048e-13
	-3.221370592365599e-05,1.101233589366463e-14
11		1.288249551693134e+00,0.000000000000000e+00
	-3.221370592365599e-01,1.126884614862884e-10
	1.000000000000000e+00,0.000000000000000e+00
	0.000000000000000e+00,0.000000000000000e+00
	3.221370592365602e-05,-1.126884614862882e-14
	1.116320960638845e-23,2.347182770653768e-13
	3.243951331513562e-13,1.423197701778266e-15
	-3.221370624805116e-05,-2.248726286185262e-13
	-3.221370592365599e-05,1.126884614862884e-14
	-1.116320960638845e-23,-2.347182770653768e-13
	-3.221370592365599e-05,1.126884614862884e-14
12		1.318256738556407e+00,0.000000000000000e+00
	-3.221370592365599e-01,1.153133129498185e-10
	1.000000000000000e+00,0.000000000000000e+00
	0.000000000000000e+00,0.000000000000000e+00
	3.221370592365602e-05,-1.153133129498185e-14
	1.168931546672539e-23,2.401855680812125e-13
	3.243951331513562e-13,1.456348234859721e-15
	-3.221370624805116e-05,-2.301105850210904e-13
	-3.221370592365599e-05,1.153133129498185e-14
	-1.168931546672539e-23,-2.401855680812125e-13
	-3.221370592365599e-05,1.153133129498185e-14
13		1.348962882591653e+00,0.000000000000000e+00
	-3.221370592365599e-01,1.179993050582268e-10
	1.000000000000000e+00,0.000000000000000e+00
	0.000000000000000e+00,0.000000000000000e+00
	3.221370592365602e-05,-1.179993050582270e-14
	1.224021593238108e-23,2.457802086644768e-13
	3.243951331513562e-13,1.490270943052457e-15
	-3.221370624805116e-05,-2.354705491017065e-13
	-3.221370592365599e-05,1.179993050582268e-14
	-1.224021593238108e-23,-2.457802086644768e-13
	-3.221370592365599e-05,1.179993050582268e-14
14		1.380384264602885e+00,0.000000000000000e+00
	-3.221370592365599e-01,1.207478619600825e-10
	1.000000000000000e+00,0.000000000000000e+00
	0.000000000000000e+00,0.000000000000000e+00
	3.221370592365602e-05,-1.207478619600823e-14
	1.281707953710369e-23,2.515051651676606e-13
	3.243951331513562e-13,1.524983812625152e-15
	-3.221370624805116e-05,-2.409553627842775e-13
	-3.221370592365599e-05,1.207478619600825e-14
	-1.281707953710369e-23,-2.515051651676606e-13
	-3.221370592365599e-05,1.207478619600825e-14
15		1.412537544622754e+00,0.000000000000000e+00
	-3.221370592365599e-01,1.235604409766362e-10
	1.000000000000000e+00,0.000000000000000e+00
	0.000000000000000e+00,0.000000000000000e+00
	3.221370592365602e-05,-1.235604409766362e-14
	1.342112988594028e-23,2.573634730384807e-13
	3.243951331513562e-13,1.560505248800923e-15
	-3.221370624805116e-05,-2.465679341896180e-13
	-3.221370592365599e-05,1.235604409766362e-14
	-1.342112988594028e-23,-2.573634730384807e-13
	-3.221370592365599e-05,1.235604409766362e-14
16		1.445439770745927e+00,0.000000000000000e+00
	-3.221370592365599e-01,1.264385333745116e-10
	1.000000000000000e+00,0.000000000000000e+00
	0.000000000000000e+00,0.000000000000000e+00
	3.221370592365602e-05,-1.264385333745116e-14
	1.405364825066717e-23,2.633582384293140e-13
	3.243951331513562e-13,1.596854085515336e-15
	-3.221370624805116e-05,-2.523112391773782e-13
	-3.221370592365599e-05,1.264385333745116e-14
	-1.405364825066717e-23,-2.633582384293140e-13
	-3.221370592365599e-05,1.264385333745116e-14
17		1.479108388168207e+00,0.000000000000000e+00
	-3.221370592365599e-01,1.293836651563939e-10
	1.000000000000000e+00,0.000000000000000e+00
	0.000000000000000e+00,0.000000000000000e+00
	3.221370592365602e-05,-1.293836651563939e-14
	1.471597628753918e-23,2.694926398441210e-13
	3.243951331513562e-13,1.634049595402763e-15
	-3.221370624805116e-05,-2.581883229238844e-13
	-3.221370592365599e-05,1.293836651563939e-14
	-1.471597628753918e-23,-2.694926398441210e-13
	-3.221370592365599e-05,1.293836651563939e-14
18		1.513561248436208e+00,0.000000000000000e+00
	-3.221370592365599e-01,1.323973978701375e-10
	1.000000000000000e+00,0.000000000000000e+00
	0.000000000000000e+00,0.000000000000000e+00
	3.221370592365602e-05,-1.323973978701376e-14
	1.540951888312237e-23,2.757699298237302e-13
	3.243951331513562e-13,1.672111500014839e-15
	-3.221370624805116e-05,-2.642023015367313e-13
	-3.221370592365599e-05,1.323973978701375e-14
	-1.540951888312237e-23,-2.757699298237302e-13
	-3.221370592365599e-05,1.323973978701375e-14
19		1.548816618912481e+00,0.000000000000000e+00
	-3.221370592365599e-01,1.354813294367186e-10
	1.000000000000000e+00,0.000000000000000e+00
	0.000000000000000e+00,0.000000000000000e+00
	3.221370592365602e-05,-1.354813294367185e-14
	1.613574713424684e-23,2.821934366703784e-13
	3.243951331513562e-13,1.711059980277251e-15
	-3.221370624805116e-05,-2.703563637069838e-13
	-3.221370592365599e-05,1.354813294367186e-14
	-1.613574713424684e-23,-2.821934366703784e-13
	-3.221370592365599e-05,1.354813294367186e-14
20		1.584893192461113e+00,0.000000000000000e+00
	-3.221370592365599e-01,1.386370949974743e-10
	1.000000000000000e+00,0.000000000000000e+00
	0.000000000000000e+00,0.000000000000000e+00
	3.221370592365602e-05,-1.386370949974743e-14
	1.689620146840036e-23,2.887665662124210e-13
	3.243951331513562e-13,1.750915687189746e-15
	-3.221370624805116e-05,-2.766537723998634e-13
	-3.221370592365599e-05,1.386370949974744e-14
	-1.689620146840036e-23,-2.887665662124210e-13
	-3.221370592365599e-05,1.386370949974744e-14
21		1.621810097358929e+00,0.000000000000000e+00
	-3.221370592365599e-01,1.418663677810767e-10
	1.000000000000000e+00,0.000000000000000e+00
	0.000000000000000e+00,0.000000000000000e+00
	3.221370592365602e-05,-1.418663677810770e-14
	1.769249491118154e-23,2.954928036101468e-13
	3.243951331513562e-13,1.791699752775745e-15
	-3.221370624805116e-05,-2.830978665848149e-13
	-3.221370592365599e-05,1.418663677810767e-14
	-1.769249491118154e-23,-2.954928036101468e-13
	-3.221370592365599e-05,1.418663677810767e-14
22		1.659586907437560e+00,0.000000000000000e+00
	-3.221370592365599e-01,1.451708599906999e-10
	1.000000000000000e+00,0.000000000000000e+00
	0.000000000000000e+00,0.000000000000000e+00
	3.221370592365602e-05,-1.451708599906998e-14
	1.852631650774346e-23,3.023757152036564e-13
	3.243951331513562e-13,1.833433801286547e-15
	-3.221370624805116e-05,-2.896920630058730e-13
	-3.221370592365599e-05,1.451708599906999e-14
	-1.852631650774346e-23,-3.023757152036564e-13
	-3.221370592365599e-05,1.451708599906999e-14
23		1.698243652461743e+00,0.000000000000000e+00
	-3.221370592365599e-01,1.485523237118537e-10
	1.000000000000000e+00,0.000000000000000e+00
	0.000000000000000e+00,0.000000000000000e+00
	3.221370592365602e-05,-1.485523237118538e-14
	1.939943490548482e-23,3.094189504037827e-13
	3.243951331513562e-13,1.876139960667169e-15
	-3.221370624805116e-05,-2.964398579932645e-13
	-3.221370592365599e-05,1.485523237118537e-14
	-1.939943490548482e-23,-3.094189504037827e-13
	-3.221370592365599e-05,1.485523237118537e-14
24		1.737800828749374e+00,0.000000000000000e+00
	-3.221370592365599e-01,1.520125518413620e-10
	1.000000000000000e+00,0.000000000000000e+00
	0.000000000000000e+00,0.000000000000000e+00
	3.221370592365602e-05,-1.520125518413620e-14
	2.031370210558825e-23,3.166262436270570e-13
	3.243951331513562e-13,1.919840874288568e-15
	-3.221370624805116e-05,-3.033448293172094e-13
	-3.221370592365599e-05,1.520125518413620e-14
	-2.031370210558825e-23,-3.166262436270570e-13
	-3.221370592365599e-05,1.520125518413620e-14
25		1.778279410038922e+00,0.000000000000000e+00
	-3.221370592365599e-01,1.555533790379806e-10
	1.000000000000000e+00,0.000000000000000e+00
	0.000000000000000e+00,0.000000000000000e+00
	3.221370592365602e-05,-1.555533790379805e-14
	2.127105739136313e-23,3.240014162757462e-13
	3.243951331513562e-13,1.964559712953646e-15
	-3.221370624805116e-05,-3.104106380849018e-13
	-3.221370592365599e-05,1.555533790379806e-14
	-2.127105739136313e-23,-3.240014162757462e-13
	-3.221370592365599e-05,1.555533790379806e-14
26		1.819700858609982e+00,0.000000000000000e+00
	-3.221370592365599e-01,1.591766826951575e-10
	1.000000000000000e+00,0.000000000000000e+00
	0.000000000000000e+00,0.000000000000000e+00
	3.221370592365602e-05,-1.591766826951577e-14
	2.227353144172542e-23,3.315483787640105e-13
	3.243951331513562e-13,2.010320187182634e-15
	-3.221370624805116e-05,-3.176410306816774e-13
	-3.221370592365599e-05,1.591766826951575e-14
	-2.227353144172542e-23,-3.315483787640105e-13
	-3.221370592365599e-05,1.591766826951575e-14
27		1.862087136662866e+00,0.000000000000000e+00
	-3.221370592365599e-01,1.628843839364519e-10
	1.000000000000000e+00,0.000000000000000e+00
	0.000000000000000e+00,0.000000000000000e+00
	3.221370592365602e-05,-1.628843839364514e-14
	2.332325063854000e-23,3.392711325912571e-13
	3.243951331513562e-13,2.057146559784473e-15
	-3.221370624805116e-05,-3.250398407573965e-13
	-3.221370592365599e-05,1.628843839364519e-14
	-2.332325063854000e-23,-3.392711325912571e-13
	-3.221370592365599e-05,1.628843839364519e-14
28		1.905460717963246e+00,0.000000000000000e+00
	-3.221370592365599e-01,1.666784486341390e-10
	1.000000000000000e+00,0.000000000000000e+00
	0.000000000000000e+00,0.000000000000000e+00
	3.221370592365602e-05,-1.666784486341389e-14
	2.442244157696160e-23,3.471737724637880e-13
	3.243951331513562e-13,2.105063658721943e-15
	-3.221370624805116e-05,-3.326109912590960e-13
	-3.221370592365599e-05,1.666784486341390e-14
	-2.442244157696160e-23,-3.471737724637880e-13
	-3.221370592365599e-05,1.666784486341390e-14
29		1.949844599758044e+00,0.000000000000000e+00
	-3.221370592365599e-01,1.705608884515421e-10
	1.000000000000000e+00,0.000000000000000e+00
	0.000000000000000e+00,0.000000000000000e+00
	3.221370592365602e-05,-1.705608884515420e-14
	2.557343578834173e-23,3.552604884658673e-13
	3.243951331513562e-13,2.154096890275011e-15
	-3.221370624805116e-05,-3.403584965109881e-13
	-3.221370592365599e-05,1.705608884515421e-14
	-2.557343578834173e-23,-3.552604884658673e-13
	-3.221370592365599e-05,1.705608884515421e-14
30		1.995262314968878e+00,0.000000000000000e+00
	-3.221370592365599e-01,1.745337619096424e-10
	1.000000000000000e+00,0.000000000000000e+00
	0.000000000000000e+00,0.000000000000000e+00
	3.221370592365602e-05,-1.745337619096426e-14
	2.677867468571918e-23,3.635355682813597e-13
	3.243951331513562e-13,2.204272252512249e-15
	-3.221370624805116e-05,-3.482864643429077e-13
	-3.221370592365599e-05,1.745337619096424e-14
	-2.677867468571918e-23,-3.635355682813597e-13
	-3.221370592365599e-05,1.745337619096424e-14
31		2.041737944669527e+00,0.000000000000000e+00
	-3.221370592365599e-01,1.785991754785346e-10
	1.000000000000000e+00,0.000000000000000e+00
	0.000000000000000e+00,0.000000000000000e+00
	3.221370592365602e-05,-1.785991754785349e-14
	2.804071474238449e-23,3.720033994671169e-13
	3.243951331513562e-13,2.255616349074650e-15
	-3.221370624805116e-05,-3.563990982683381e-13
	-3.221370592365599e-05,1.785991754785347e-14
	-2.804071474238449e-23,-3.720033994671169e-13
	-3.221370592365599e-05,1.785991754785347e-14
32		2.089296130854037e+00,0.000000000000000e+00
	-3.221370592365599e-01,1.827592846943052e-10
	1.000000000000000e+00,0.000000000000000e+00
	0.000000000000000e+00,0.000000000000000e+00
	3.221370592365602e-05,-1.827592846943050e-14
	2.936223291450254e-23,3.806684717793188e-13
	3.243951331513562e-13,2.308156403281948e-15
	-3.221370624805116e-05,-3.647006997131702e-13
	-3.221370592365599e-05,1.827592846943052e-14
	-2.936223291450254e-23,-3.806684717793188e-13
	-3.221370592365599e-05,1.827592846943052e-14
33		2.137962089502230e+00,0.000000000000000e+00
	-3.221370592365599e-01,1.870162953019258e-10
	1.000000000000000e+00,0.000000000000000e+00
	0.000000000000000e+00,0.000000000000000e+00
	3.221370592365602e-05,-1.870162953019257e-14
	3.074603231929537e-23,3.895353795540009e-13
	3.243951331513562e-13,2.361920272566447e-15
	-3.221370624805116e-05,-3.731956702963748e-13
	-3.221370592365599e-05,1.870162953019258e-14
	-3.074603231929537e-23,-3.895353795540009e-13
	-3.221370592365599e-05,1.870162953019258e-14
34		2.187761623949550e+00,0.000000000000000e+00
	-3.221370592365599e-01,1.913724644247688e-10
	1.000000000000000e+00,0.000000000000000e+00
	0.000000000000000e+00,0.000000000000000e+00
	3.221370592365602e-05,-1.913724644247686e-14
	3.219504818082979e-23,3.986088241430328e-13
	3.243951331513562e-13,2.416936463243055e-15
	-3.221370624805116e-05,-3.818885141637990e-13
	-3.221370592365599e-05,1.913724644247688e-14
	-3.219504818082979e-23,-3.986088241430328e-13
	-3.221370592365599e-05,1.913724644247688e-14
35		2.238721138568337e+00,0.000000000000000e+00
	-3.221370592365599e-01,1.958301017613638e-10
	1.000000000000000e+00,0.000000000000000e+00
	0.000000000000000e+00,0.000000000000000e+00
	3.221370592365602e-05,-1.958301017613636e-14
	3.371235405602105e-23,4.078936164068370e-13
	3.243951331513562e-13,2.473234145624429e-15
	-3.221370624805116e-05,-3.907838403763251e-13
	-3.221370592365599e-05,1.958301017613638e-14
	-3.371235405602105e-23,-4.078936164068370e-13
	-3.221370592365599e-05,1.958301017613638e-14
36		2.290867652767770e+00,0.000000000000000e+00
	-3.221370592365599e-01,2.003915708100306e-10
	1.000000000000000e+00,0.000000000000000e+00
	0.000000000000000e+00,0.000000000000000e+00
	3.221370592365602e-05,-2.003915708100304e-14
	3.530116835405917e-23,4.173946792651703e-13
	3.243951331513562e-13,2.530843169487002e-15
	-3.221370624805116e-05,-3.998863653536543e-13
	-3.221370592365599e-05,2.003915708100305e-14
	-3.530116835405917e-23,-4.173946792651703e-13
	-3.221370592365599e-05,2.003915708100305e-14
37		2.344228815319919e+00,0.000000000000000e+00
	-3.221370592365599e-01,2.050592901220368e-10
	1.000000000000000e+00,0.000000000000000e+00
	0.000000000000000e+00,0.000000000000000e+00
	3.221370592365602e-05,-2.050592901220367e-14
	3.696486116308634e-23,4.271170503073217e-13
	3.243951331513562e-13,2.589794079897666e-15
	-3.221370624805116e-05,-4.092009153750157e-13
	-3.221370592365599e-05,2.050592901220368e-14
	-3.696486116308634e-23,-4.271170503073217e-13
	-3.221370592365599e-05,2.050592901220368e-14
38		2.398832919019488e+00,0.000000000000000e+00
	-3.221370592365599e-01,2.098357345839463e-10
	1.000000000000000e+00,0.000000000000000e+00
	0.000000000000000e+00,0.000000000000000e+00
