Title: * GA CMOS Amp | W=3.2021154686681714e-05 L=6.323374652460422e-07 Vbias=1.5
Date: Sat Sep  6 22:38:55 2025
Plotname: AC Analysis
Flags: complex forward log
No. Variables: 13
No. Points:          901
Offset:    0.0000000000000000e+00
Command: Linear Technology Corporation LTspice
Variables:
	0	frequency	frequency
	1	V(out)	voltage
	2	V(g)	voltage
	3	V(vdd)	voltage
	4	V(m1#dbody)	voltage
	5	V(m1#sbody)	voltage
	6	Id(M1)	device_current
	7	Ig(M1)	device_current
	8	Ib(M1)	device_current
	9	Is(M1)	device_current
	10	I(Rload)	device_current
	11	I(Vg)	device_current
	12	I(Vdd)	device_current
Values:
0		1.000000000000000e+00,0.000000000000000e+00
	1.316722738902506e-02,5.616648779574213e-10
	1.000000000000000e+00,0.000000000000000e+00
	0.000000000000000e+00,0.000000000000000e+00
	7.089817700847110e-04,7.672464754808509e-14
	7.089817699772707e-04,6.658754058336201e-14
	-1.316722738902497e-06,-5.616648779574064e-14
	4.416449232405910e-04,5.328229915521707e-12
	-3.781236109477174e-04,-3.653151677913934e-14
	-6.220458955397114e-05,-5.235531910946828e-12
	1.316722738902506e-06,5.616648779574214e-14
	-4.416449232406139e-04,-5.328229915521709e-12
	1.316722738902506e-06,5.616648779574214e-14
1		1.023292992280754e+00,0.000000000000000e+00
	1.316722738902506e-02,5.747477336240542e-10
	1.000000000000000e+00,0.000000000000000e+00
	0.000000000000000e+00,0.000000000000000e+00
	7.089817700847110e-04,7.851179417116618e-14
	7.089817699772707e-04,6.813856365216464e-14
	-1.316722738902497e-06,-5.747477336240502e-14
	4.416449232405910e-04,5.452340333814039e-12
	-3.781236109477174e-04,-3.738244511748007e-14
	-6.220458955397114e-05,-5.357483115334154e-12
	1.316722738902506e-06,5.747477336240543e-14
	-4.416449232406139e-04,-5.452340333814040e-12
	1.316722738902506e-06,5.747477336240543e-14
2		1.047128548050899e+00,0.000000000000000e+00
	1.316722738902506e-02,5.881353281467402e-10
	1.000000000000000e+00,0.000000000000000e+00
	0.000000000000000e+00,0.000000000000000e+00
	7.089817700847110e-04,8.034056878674331e-14
	7.089817699772707e-04,6.972571468933617e-14
	-1.316722738902497e-06,-5.881353281467357e-14
	4.416449232405910e-04,5.579341655121614e-12
	-3.781236109477174e-04,-3.825319412303723e-14
	-6.220458955397114e-05,-5.482274928183903e-12
	1.316722738902506e-06,5.881353281467402e-14
	-4.416449232406139e-04,-5.579341655121613e-12
	1.316722738902506e-06,5.881353281467402e-14
3		1.071519305237606e+00,0.000000000000000e+00
	1.316722738902506e-02,6.018347598053008e-10
	1.000000000000000e+00,0.000000000000000e+00
	0.000000000000000e+00,0.000000000000000e+00
	7.089817700847110e-04,8.221194103532432e-14
	7.089817699772707e-04,7.134983522336493e-14
	-1.316722738902497e-06,-6.018347598052915e-14
	4.416449232405910e-04,5.709301217226049e-12
	-3.781236109477174e-04,-3.914422547845932e-14
	-6.220458955397114e-05,-5.609973515767061e-12
	1.316722738902506e-06,6.018347598053009e-14
	-4.416449232406139e-04,-5.709301217226050e-12
	1.316722738902506e-06,6.018347598053009e-14
4		1.096478196143185e+00,0.000000000000000e+00
	1.316722738902506e-02,6.158532922197352e-10
	1.000000000000000e+00,0.000000000000000e+00
	0.000000000000000e+00,0.000000000000000e+00
	7.089817700847110e-04,8.412690314324591e-14
	7.089817699772707e-04,7.301178638445583e-14
	-1.316722738902497e-06,-6.158532922197273e-14
	4.416449232405910e-04,5.842287926407395e-12
	-3.781236109477174e-04,-4.005601162036516e-14
	-6.220458955397114e-05,-5.740646585565058e-12
	1.316722738902506e-06,6.158532922197353e-14
	-4.416449232406139e-04,-5.842287926407396e-12
	1.316722738902506e-06,6.158532922197353e-14
5		1.122018454301963e+00,0.000000000000000e+00
	1.316722738902506e-02,6.301983582014865e-10
	1.000000000000000e+00,0.000000000000000e+00
	0.000000000000000e+00,0.000000000000000e+00
	7.089817700847110e-04,8.608647044876532e-14
	7.089817699772707e-04,7.471244936111306e-14
	-1.316722738902497e-06,-6.301983582014822e-14
	4.416449232405910e-04,5.978372293979147e-12
	-3.781236109477174e-04,-4.098903598983614e-14
	-6.220458955397114e-05,-5.874363422169163e-12
	1.316722738902506e-06,6.301983582014866e-14
	-4.416449232406139e-04,-5.978372293979148e-12
	1.316722738902506e-06,6.301983582014866e-14
6		1.148153621496882e+00,0.000000000000000e+00
	1.316722738902506e-02,6.448775636944176e-10
	1.000000000000000e+00,0.000000000000000e+00
	0.000000000000000e+00,0.000000000000000e+00
	7.089817700847110e-04,8.809168194040578e-14
	7.089817699772707e-04,7.645272586735772e-14
	-1.316722738902497e-06,-6.448775636944155e-14
	4.416449232405910e-04,6.117626473674276e-12
	-3.781236109477174e-04,-4.194379328874296e-14
	-6.220458955397114e-05,-6.011194924016092e-12
	1.316722738902506e-06,6.448775636944176e-14
	-4.416449232406139e-04,-6.117626473674278e-12
	1.316722738902506e-06,6.448775636944176e-14
7		1.174897554939529e+00,0.000000000000000e+00
	1.316722738902506e-02,6.598986918075830e-10
	1.000000000000000e+00,0.000000000000000e+00
	0.000000000000000e+00,0.000000000000000e+00
	7.089817700847110e-04,9.014360080784229e-14
	7.089817699772707e-04,7.823353862082867e-14
	-1.316722738902497e-06,-6.598986918075868e-14
	4.416449232405910e-04,6.260124299902110e-12
	-3.781236109477174e-04,-4.292078974204318e-14
	-6.220458955397114e-05,-6.151213640979308e-12
	1.316722738902506e-06,6.598986918075831e-14
	-4.416449232406139e-04,-6.260124299902109e-12
	1.316722738902506e-06,6.598986918075831e-14
8		1.202264434617413e+00,0.000000000000000e+00
	1.316722738902506e-02,6.752697069419370e-10
	1.000000000000000e+00,0.000000000000000e+00
	0.000000000000000e+00,0.000000000000000e+00
	7.089817700847110e-04,9.224331500561874e-14
	7.089817699772707e-04,8.005583183201973e-14
	-1.316722738902497e-06,-6.752697069419300e-14
	4.416449232405910e-04,6.405941326896291e-12
	-3.781236109477174e-04,-4.392054336618847e-14
	-6.220458955397114e-05,-6.294493812835910e-12
	1.316722738902506e-06,6.752697069419370e-14
	-4.416449232406139e-04,-6.405941326896291e-12
	1.316722738902506e-06,6.752697069419370e-14
9		1.230268770812381e+00,0.000000000000000e+00
	1.316722738902506e-02,6.909987590131626e-10
	1.000000000000000e+00,0.000000000000000e+00
	0.000000000000000e+00,0.000000000000000e+00
	7.089817700847110e-04,9.439193782999580e-14
	7.089817699772707e-04,8.192057170491231e-14
	-1.316722738902497e-06,-6.909987590131557e-14
	4.416449232405910e-04,6.555154868774651e-12
	-3.781236109477174e-04,-4.494358424378362e-14
	-6.220458955397114e-05,-6.441111408629551e-12
	1.316722738902506e-06,6.909987590131627e-14
	-4.416449232406139e-04,-6.555154868774649e-12
	1.316722738902506e-06,6.909987590131627e-14
10		1.258925411794167e+00,0.000000000000000e+00
	1.316722738902506e-02,7.070941877728669e-10
	1.000000000000000e+00,0.000000000000000e+00
	0.000000000000000e+00,0.000000000000000e+00
	7.089817700847110e-04,9.659060850923531e-14
	7.089817699772707e-04,8.382874694926979e-14
	-1.316722738902497e-06,-7.070941877728654e-14
	4.416449232405910e-04,6.707844040532166e-12
	-3.781236109477174e-04,-4.599045480464350e-14
	-6.220458955397114e-05,-6.591144166950236e-12
	1.316722738902506e-06,7.070941877728670e-14
	-4.416449232406139e-04,-6.707844040532166e-12
	1.316722738902506e-06,7.070941877728670e-14
11		1.288249551693134e+00,0.000000000000000e+00
	1.316722738902506e-02,7.235645272304264e-10
	1.000000000000000e+00,0.000000000000000e+00
	0.000000000000000e+00,0.000000000000000e+00
	7.089817700847110e-04,9.884049280763427e-14
	7.089817699772707e-04,8.578136930486442e-14
	-1.316722738902497e-06,-7.235645272304251e-14
	4.416449232405910e-04,6.864089799988785e-12
	-3.781236109477174e-04,-4.706171011339643e-14
	-6.220458955397114e-05,-6.744671637152347e-12
	1.316722738902506e-06,7.235645272304264e-14
	-4.416449232406139e-04,-6.864089799988785e-12
	1.316722738902506e-06,7.235645272304264e-14
12		1.318256738556407e+00,0.000000000000000e+00
	1.316722738902506e-02,7.404185101778323e-10
	1.000000000000000e+00,0.000000000000000e+00
	0.000000000000000e+00,0.000000000000000e+00
	7.089817700847110e-04,1.011427836436284e-13
	7.089817699772707e-04,8.777947407791515e-14
	-1.316722738902497e-06,-7.404185101778295e-14
	4.416449232405910e-04,7.023974990714327e-12
	-3.781236109477174e-04,-4.815791816378686e-14
	-6.220458955397114e-05,-6.901775221532757e-12
	1.316722738902506e-06,7.404185101778324e-14
	-4.416449232406139e-04,-7.023974990714327e-12
	1.316722738902506e-06,7.404185101778324e-14
13		1.348962882591653e+00,0.000000000000000e+00
	1.316722738902506e-02,7.576650728199322e-10
	1.000000000000000e+00,0.000000000000000e+00
	0.000000000000000e+00,0.000000000000000e+00
	7.089817700847110e-04,1.034987017222935e-13
	7.089817699772707e-04,8.982412069002068e-14
	-1.316722738902504e-06,-7.576650728199182e-14
	4.416449232405910e-04,7.187584385953245e-12
	-3.781236109477174e-04,-4.927966017983314e-14
	-6.220458955397114e-05,-7.062538218491420e-12
	1.316722738902506e-06,7.576650728199323e-14
	-4.416449232406139e-04,-7.187584385953246e-12
	1.316722738902506e-06,7.576650728199323e-14
14		1.380384264602885e+00,0.000000000000000e+00
	1.316722738902506e-02,7.753133595125238e-10
	1.000000000000000e+00,0.000000000000000e+00
	0.000000000000000e+00,0.000000000000000e+00
	7.089817700847110e-04,1.059094961825789e-13
	7.089817699772707e-04,9.191639323987891e-14
	-1.316722738902504e-06,-7.753133595125126e-14
	4.416449232405910e-04,7.355004733572525e-12
	-3.781236109477174e-04,-5.042753092400020e-14
	-6.220458955397114e-05,-7.227045866697273e-12
	1.316722738902506e-06,7.753133595125238e-14
	-4.416449232406139e-04,-7.355004733572524e-12
	1.316722738902506e-06,7.753133595125238e-14
15		1.412537544622754e+00,0.000000000000000e+00
	1.316722738902506e-02,7.933727276108147e-10
	1.000000000000000e+00,0.000000000000000e+00
	0.000000000000000e+00,0.000000000000000e+00
	7.089817700847110e-04,1.083764452596183e-13
	7.089817699772707e-04,9.405740107809014e-14
	-1.316722738902504e-06,-7.933727276108056e-14
	4.416449232405910e-04,7.526324802056538e-12
	-3.781236109477174e-04,-5.160213901255042e-14
	-6.220458955397114e-05,-7.395385390282908e-12
	1.316722738902506e-06,7.933727276108147e-14
	-4.416449232406139e-04,-7.526324802056539e-12
	1.316722738902506e-06,7.933727276108147e-14
16		1.445439770745927e+00,0.000000000000000e+00
	1.316722738902506e-02,8.118527524308140e-10
	1.000000000000000e+00,0.000000000000000e+00
	0.000000000000000e+00,0.000000000000000e+00
	7.089817700847110e-04,1.109008569624662e-13
	7.089817699772707e-04,9.624827939534991e-14
	-1.316722738902497e-06,-8.118527524308092e-14
	4.416449232405911e-04,7.701635427573289e-12
	-3.781236109477174e-04,-5.280410723824016e-14
	-6.220458955397116e-05,-7.567646045091968e-12
	1.316722738902506e-06,8.118527524308141e-14
	-4.416449232406139e-04,-7.701635427573289e-12
	1.316722738902506e-06,8.118527524308141e-14
17		1.479108388168207e+00,0.000000000000000e+00
	1.316722738902506e-02,8.307632323262938e-10
	1.000000000000000e+00,0.000000000000000e+00
	0.000000000000000e+00,0.000000000000000e+00
	7.089817700847110e-04,1.134840697676219e-13
	7.089817699772707e-04,9.849018982434164e-14
	-1.316722738902497e-06,-8.307632323262925e-14
	4.416449232405911e-04,7.881029562136934e-12
	-3.781236109477174e-04,-5.403407290053259e-14
	-6.220458955397116e-05,-7.743919166003773e-12
	1.316722738902506e-06,8.307632323262939e-14
	-4.416449232406139e-04,-7.881029562136934e-12
	1.316722738902506e-06,8.307632323262939e-14
18		1.513561248436208e+00,0.000000000000000e+00
	1.316722738902506e-02,8.501141938840046e-10
	1.000000000000000e+00,0.000000000000000e+00
	0.000000000000000e+00,0.000000000000000e+00
	7.089817700847110e-04,1.161274533287077e-13
	7.089817699772707e-04,1.007843210556500e-13
	-1.316722738902497e-06,-8.501141938840094e-14
	4.416449232405911e-04,8.064602322892186e-12
	-3.781236109477174e-04,-5.529268814350239e-14
	-6.220458955397116e-05,-7.924298215360282e-12
	1.316722738902506e-06,8.501141938840046e-14
	-4.416449232406139e-04,-8.064602322892188e-12
	1.316722738902506e-06,8.501141938840046e-14
19		1.548816618912481e+00,0.000000000000000e+00
	1.316722738902506e-02,8.699158972399040e-10
	1.000000000000000e+00,0.000000000000000e+00
	0.000000000000000e+00,0.000000000000000e+00
	7.089817700847110e-04,1.188324092026769e-13
	7.089817699772707e-04,1.031318894680203e-13
	-1.316722738902497e-06,-8.699158972399092e-14
	4.416449232405911e-04,8.252451042546665e-12
	-3.781236109477174e-04,-5.658062030161115e-14
	-6.220458955397116e-05,-8.108878832521062e-12
	1.316722738902506e-06,8.699158972399040e-14
	-4.416449232406139e-04,-8.252451042546667e-12
	1.316722738902506e-06,8.699158972399040e-14
20		1.584893192461113e+00,0.000000000000000e+00
	1.316722738902506e-02,8.901788415192185e-10
	1.000000000000000e+00,0.000000000000000e+00
	0.000000000000000e+00,0.000000000000000e+00
	7.089817700847110e-04,1.216003715929382e-13
	7.089817699772707e-04,1.055341397732985e-13
	-1.316722738902497e-06,-8.901788415192139e-14
	4.416449232405911e-04,8.444675320978006e-12
	-3.781236109477174e-04,-5.789855225353685e-14
	-6.220458955397116e-05,-8.297758884572549e-12
	1.316722738902506e-06,8.901788415192186e-14
	-4.416449232406139e-04,-8.444675320978004e-12
	1.316722738902506e-06,8.901788415192186e-14
21		1.621810097358929e+00,0.000000000000000e+00
	1.316722738902506e-02,9.109137704032163e-10
	1.000000000000000e+00,0.000000000000000e+00
	0.000000000000000e+00,0.000000000000000e+00
	7.089817700847110e-04,1.244328081097894e-13
	7.089817699772707e-04,1.079923456763940e-13
	-1.316722738902497e-06,-9.109137704032070e-14
	4.416449232405911e-04,8.641377078043021e-12
	-3.781236109477174e-04,-5.924718278424531e-14
	-6.220458955397116e-05,-8.491038518218456e-12
	1.316722738902506e-06,9.109137704032163e-14
	-4.416449232406139e-04,-8.641377078043021e-12
	1.316722738902506e-06,9.109137704032163e-14
22		1.659586907437560e+00,0.000000000000000e+00
	1.316722738902506e-02,9.321316778256511e-10
	1.000000000000000e+00,0.000000000000000e+00
	0.000000000000000e+00,0.000000000000000e+00
	7.089817700847110e-04,1.273312205485633e-13
	7.089817699772707e-04,1.105078105506148e-13
	-1.316722738902497e-06,-9.321316778256398e-14
	4.416449232405911e-04,8.842660607616963e-12
	-3.781236109477174e-04,-6.062722695549518e-14
	-6.220458955397116e-05,-8.688820212878903e-12
	1.316722738902506e-06,9.321316778256512e-14
	-4.416449232406139e-04,-8.842660607616962e-12
	1.316722738902506e-06,9.321316778256512e-14
23		1.698243652461743e+00,0.000000000000000e+00
	1.316722738902506e-02,9.538438138018901e-10
	1.000000000000000e+00,0.000000000000000e+00
	0.000000000000000e+00,0.000000000000000e+00
	7.089817700847110e-04,1.302971456859000e-13
	7.089817699772707e-04,1.130818681287333e-13
	-1.316722738902497e-06,-9.538438138018992e-14
	4.416449232405911e-04,9.048632632891513e-12
	-3.781236109477174e-04,-6.203941648497307e-14
	-6.220458955397116e-05,-8.891208835026350e-12
	1.316722738902506e-06,9.538438138018902e-14
	-4.416449232406139e-04,-9.048632632891515e-12
	1.316722738902506e-06,9.538438138018902e-14
24		1.737800828749374e+00,0.000000000000000e+00
	1.316722738902506e-02,9.760616903938227e-10
	1.000000000000000e+00,0.000000000000000e+00
	0.000000000000000e+00,0.000000000000000e+00
	7.089817700847110e-04,1.333321560945659e-13
	7.089817699772707e-04,1.157158832101491e-13
	-1.316722738902497e-06,-9.760616903938198e-14
	4.416449232405911e-04,9.259402362960834e-12
	-3.781236109477174e-04,-6.348450013426001e-14
	-6.220458955397116e-05,-9.098311693787193e-12
	1.316722738902506e-06,9.760616903938227e-14
	-4.416449232406139e-04,-9.259402362960834e-12
	1.316722738902506e-06,9.760616903938227e-14
25		1.778279410038922e+00,0.000000000000000e+00
	1.316722738902506e-02,9.987970878137058e-10
	1.000000000000000e+00,0.000000000000000e+00
	0.000000000000000e+00,0.000000000000000e+00
	7.089817700847110e-04,1.364378609772529e-13
	7.089817699772707e-04,1.184112523845237e-13
	-1.316722738902497e-06,-9.987970878137039e-14
	4.416449232405911e-04,9.475081550725677e-12
	-3.781236109477174e-04,-6.496324410583486e-14
	-6.220458955397116e-05,-9.310238597838472e-12
	1.316722738902506e-06,9.987970878137058e-14
	-4.416449232406139e-04,-9.475081550725675e-12
	1.316722738902506e-06,9.987970878137058e-14
26		1.819700858609982e+00,0.000000000000000e+00
	1.316722738902506e-02,1.022062060670190e-09
	1.000000000000000e+00,0.000000000000000e+00
	0.000000000000000e+00,0.000000000000000e+00
	7.089817700847110e-04,1.396159070197987e-13
	7.089817699772707e-04,1.211694047722709e-13
	-1.316722738902497e-06,-1.022062060670189e-13
	4.416449232405911e-04,9.695784552146248e-12
	-3.781236109477174e-04,-6.647643244932482e-14
	-6.220458955397116e-05,-9.527101913629903e-12
	1.316722738902506e-06,1.022062060670190e-13
	-4.416449232406139e-04,-9.695784552146245e-12
	1.316722738902506e-06,1.022062060670190e-13
27		1.862087136662866e+00,0.000000000000000e+00
	1.316722738902506e-02,1.045868944359833e-09
	1.000000000000000e+00,0.000000000000000e+00
	0.000000000000000e+00,0.000000000000000e+00
	7.089817700847110e-04,1.428679792642813e-13
	7.089817699772707e-04,1.239918027822949e-13
	-1.316722738902497e-06,-1.045868944359808e-13
	4.416449232405911e-04,9.921628386875243e-12
	-3.781236109477174e-04,-6.802486747721900e-14
	-6.220458955397116e-05,-9.749016624962042e-12
	1.316722738902506e-06,1.045868944359833e-13
	-4.416449232406139e-04,-9.921628386875243e-12
	1.316722738902506e-06,1.045868944359833e-13
28		1.905460717963246e+00,0.000000000000000e+00
	1.316722738902506e-02,1.070230361607487e-09
	1.000000000000000e+00,0.000000000000000e+00
	0.000000000000000e+00,0.000000000000000e+00
	7.089817700847110e-04,1.461958020024512e-13
	7.089817699772707e-04,1.268799428873797e-13
	-1.316722738902497e-06,-1.070230361607471e-13
	4.416449232405911e-04,1.015273280030324e-11
	-3.781236109477174e-04,-6.960937019026519e-14
	-6.220458955397116e-05,-9.976100393952226e-12
	1.316722738902506e-06,1.070230361607487e-13
	-4.416449232406139e-04,-1.015273280030324e-11
	1.316722738902506e-06,1.070230361607487e-13
29		1.949844599758044e+00,0.000000000000000e+00
	1.316722738902506e-02,1.095159229159039e-09
	1.000000000000000e+00,0.000000000000000e+00
	0.000000000000000e+00,0.000000000000000e+00
	7.089817700847110e-04,1.496011396899730e-13
	7.089817699772707e-04,1.298353564176380e-13
	-1.316722738902497e-06,-1.095159229159033e-13
	4.416449232405911e-04,1.038922032704926e-11
	-3.781236109477174e-04,-7.123078071277521e-14
	-6.220458955397116e-05,-1.020847362342059e-11
	1.316722738902506e-06,1.095159229159039e-13
	-4.416449232406139e-04,-1.038922032704926e-11
	1.316722738902506e-06,1.095159229159039e-13
30		1.995262314968878e+00,0.000000000000000e+00
	1.316722738902506e-02,1.120668764630036e-09
	1.000000000000000e+00,0.000000000000000e+00
	0.000000000000000e+00,0.000000000000000e+00
	7.089817700847110e-04,1.530857978819635e-13
	7.089817699772707e-04,1.328596103724430e-13
	-1.316722738902497e-06,-1.120668764630024e-13
	4.416449232405911e-04,1.063121635593027e-11
	-3.781236109477174e-04,-7.288995873806995e-14
	-6.220458955397116e-05,-1.044625952072920e-11
	1.316722738902506e-06,1.120668764630036e-13
	-4.416449232406139e-04,-1.063121635593027e-11
	1.316722738902506e-06,1.120668764630036e-13
31		2.041737944669527e+00,0.000000000000000e+00
	1.316722738902506e-02,1.146772493513846e-09
	1.000000000000000e+00,0.000000000000000e+00
	0.000000000000000e+00,0.000000000000000e+00
	7.089817700847110e-04,1.566516241903211e-13
	7.089817699772707e-04,1.359543082512723e-13
	-1.316722738902497e-06,-1.146772493513851e-13
	4.416449232405911e-04,1.087884919644398e-11
	-3.781236109477174e-04,-7.458778398430031e-14
	-6.220458955397116e-05,-1.068958416310830e-11
	1.316722738902506e-06,1.146772493513846e-13
	-4.416449232406139e-04,-1.087884919644398e-11
	1.316722738902506e-06,1.146772493513846e-13
32		2.089296130854037e+00,0.000000000000000e+00
	1.316722738902506e-02,1.173484256353045e-09
	1.000000000000000e+00,0.000000000000000e+00
	0.000000000000000e+00,0.000000000000000e+00
	7.089817700847110e-04,1.603005092633539e-13
	7.089817699772707e-04,1.391210909039044e-13
	-1.316722738902497e-06,-1.173484256353050e-13
