Title: * GA CMOS Amp | W=1e-06 L=4.773761251897884e-07 Vbias=0.5578870597870341
Date: Sat Sep  6 22:37:26 2025
Plotname: AC Analysis
Flags: complex forward log
No. Variables: 13
No. Points:          901
Offset:    0.0000000000000000e+00
Command: Linear Technology Corporation LTspice
Variables:
	0	frequency	frequency
	1	V(out)	voltage
	2	V(g)	voltage
	3	V(vdd)	voltage
	4	V(m1#dbody)	voltage
	5	V(m1#sbody)	voltage
	6	Id(M1)	device_current
	7	Ig(M1)	device_current
	8	Ib(M1)	device_current
	9	Is(M1)	device_current
	10	I(Rload)	device_current
	11	I(Vg)	device_current
	12	I(Vdd)	device_current
Values:
0		1.000000000000000e+00,0.000000000000000e+00
	-9.451977557096620e-01,3.707620614365671e-10
	1.000000000000000e+00,0.000000000000000e+00
	0.000000000000000e+00,0.000000000000000e+00
	-2.720225288032750e-08,1.474927411256543e-14
	-2.719516389716949e-08,3.110388287570391e-14
	9.451977557096622e-05,-3.707620614365671e-14
	2.893089307803673e-08,1.006196304117810e-13
	1.450456002166164e-08,-1.549842988363924e-14
	-9.456321102406592e-05,-4.804499438448506e-14
	-9.451977557096621e-05,3.707620614365671e-14
	-2.893089323663389e-08,-1.006196304117811e-13
	-9.451977557096621e-05,3.707620614365671e-14
1		1.023292992280754e+00,0.000000000000000e+00
	-9.451977557096620e-01,3.793982192716056e-10
	1.000000000000000e+00,0.000000000000000e+00
	0.000000000000000e+00,0.000000000000000e+00
	-2.720225288032750e-08,1.509282884061614e-14
	-2.719516389716949e-08,3.182838537942916e-14
	9.451977557096622e-05,-3.793982192716056e-14
	2.893089307803673e-08,1.029633626862550e-13
	1.450456002166164e-08,-1.585943469128266e-14
	-9.456321102406592e-05,-4.916410606781175e-14
	-9.451977557096621e-05,3.793982192716056e-14
	-2.893089323663389e-08,-1.029633626862550e-13
	-9.451977557096621e-05,3.793982192716056e-14
2		1.047128548050899e+00,0.000000000000000e+00
	-9.451977557096620e-01,3.882355390644309e-10
	1.000000000000000e+00,0.000000000000000e+00
	0.000000000000000e+00,0.000000000000000e+00
	-2.720225288032750e-08,1.544438598629536e-14
	-2.719516389716949e-08,3.256976371438107e-14
	9.451977557096622e-05,-3.882355390644309e-14
	2.893089307803673e-08,1.053616874985064e-13
	1.450456002166164e-08,-1.622884838112383e-14
	-9.456321102406592e-05,-5.030928521093946e-14
	-9.451977557096621e-05,3.882355390644309e-14
	-2.893089323663389e-08,-1.053616874985064e-13
	-9.451977557096621e-05,3.882355390644309e-14
3		1.071519305237606e+00,0.000000000000000e+00
	-9.451977557096620e-01,3.972787064789731e-10
	1.000000000000000e+00,0.000000000000000e+00
	0.000000000000000e+00,0.000000000000000e+00
	-2.720225288032750e-08,1.580413194985512e-14
	-2.719516389716949e-08,3.332841096916613e-14
	9.451977557096622e-05,-3.972787064789731e-14
	2.893089307803673e-08,1.078158764720963e-13
	1.450456002166164e-08,-1.660686682119088e-14
	-9.456321102406592e-05,-5.148113900300813e-14
	-9.451977557096621e-05,3.972787064789731e-14
	-2.893089323663389e-08,-1.078158764720963e-13
	-9.451977557096621e-05,3.972787064789731e-14
4		1.096478196143185e+00,0.000000000000000e+00
	-9.451977557096620e-01,4.065325163222956e-10
	1.000000000000000e+00,0.000000000000000e+00
	0.000000000000000e+00,0.000000000000000e+00
	-2.720225288032750e-08,1.617225747336712e-14
	-2.719516389716949e-08,3.410472938860072e-14
	9.451977557096622e-05,-4.065325163222957e-14
	2.893089307803673e-08,1.103272308505036e-13
	1.450456002166164e-08,-1.699369044186439e-14
	-9.456321102406592e-05,-5.268028877640963e-14
	-9.451977557096621e-05,4.065325163222957e-14
	-2.893089323663389e-08,-1.103272308505036e-13
	-9.451977557096621e-05,4.065325163222957e-14
5		1.122018454301963e+00,0.000000000000000e+00
	-9.451977557096620e-01,4.160018750868666e-10
	1.000000000000000e+00,0.000000000000000e+00
	0.000000000000000e+00,0.000000000000000e+00
	-2.720225288032750e-08,1.654895774185663e-14
	-2.719516389716949e-08,3.489913058698661e-14
	9.451977557096622e-05,-4.160018750868665e-14
	2.893089307803673e-08,1.128970821870613e-13
	1.450456002166164e-08,-1.738952434214827e-14
	-9.456321102406592e-05,-5.390737033622644e-14
	-9.451977557096621e-05,4.160018750868666e-14
	-2.893089323663389e-08,-1.128970821870614e-13
	-9.451977557096621e-05,4.160018750868666e-14
6		1.148153621496882e+00,0.000000000000000e+00
	-9.451977557096620e-01,4.256918035520442e-10
	1.000000000000000e+00,0.000000000000000e+00
	0.000000000000000e+00,0.000000000000000e+00
	-2.720225288032751e-08,1.693443248679221e-14
	-2.719516389716949e-08,3.571203576635431e-14
	9.451977557096622e-05,-4.256918035520442e-14
	2.893089307803673e-08,1.155267930509643e-13
	1.450456002166164e-08,-1.779457839841591e-14
	-9.456321102406592e-05,-5.516303429734391e-14
	-9.451977557096621e-05,4.256918035520442e-14
	-2.893089323663389e-08,-1.155267930509643e-13
	-9.451977557096621e-05,4.256918035520442e-14
7		1.174897554939529e+00,0.000000000000000e+00
	-9.451977557096620e-01,4.356074394461621e-10
	1.000000000000000e+00,0.000000000000000e+00
	0.000000000000000e+00,0.000000000000000e+00
	-2.720225288032751e-08,1.732888609198602e-14
	-2.719516389716949e-08,3.654387593979003e-14
	9.451977557096622e-05,-4.356074394461622e-14
	2.893089307803673e-08,1.182177577497206e-13
	1.450456002166164e-08,-1.820906737568948e-14
	-9.456321102406592e-05,-5.644794642941491e-14
	-9.451977557096621e-05,4.356074394461621e-14
	-2.893089323663389e-08,-1.182177577497207e-13
	-9.451977557096621e-05,4.356074394461621e-14
8		1.202264434617413e+00,0.000000000000000e+00
	-9.451977557096620e-01,4.457540401706208e-10
	1.000000000000000e+00,0.000000000000000e+00
	0.000000000000000e+00,0.000000000000000e+00
	-2.720225288032751e-08,1.773252770196073e-14
	-2.719516389716949e-08,3.739509215996439e-14
	9.451977557096622e-05,-4.457540401706208e-14
	2.893089307803673e-08,1.209714030684329e-13
	1.450456002166164e-08,-1.863321104151115e-14
	-9.456321102406592e-05,-5.776278800985970e-14
	-9.451977557096621e-05,4.457540401706208e-14
	-2.893089323663389e-08,-1.209714030684330e-13
	-9.451977557096621e-05,4.457540401706208e-14
9		1.230268770812381e+00,0.000000000000000e+00
	-9.451977557096620e-01,4.561369855874299e-10
	1.000000000000000e+00,0.000000000000000e+00
	0.000000000000000e+00,0.000000000000000e+00
	-2.720225288032751e-08,1.814557133284075e-14
	-2.719516389716949e-08,3.826613575298451e-14
	9.451977557096622e-05,-4.561369855874300e-14
	2.893089307803673e-08,1.237891890262979e-13
	1.450456002166164e-08,-1.906723428246673e-14
	-9.456321102406592e-05,-5.910825618508820e-14
	-9.451977557096621e-05,4.561369855874300e-14
	-2.893089323663389e-08,-1.237891890262980e-13
	-9.451977557096621e-05,4.561369855874300e-14
10		1.258925411794167e+00,0.000000000000000e+00
	-9.451977557096620e-01,4.667617808716844e-10
	1.000000000000000e+00,0.000000000000000e+00
	0.000000000000000e+00,0.000000000000000e+00
	-2.720225288032751e-08,1.856823598582648e-14
	-2.719516389716949e-08,3.915746855769308e-14
	9.451977557096622e-05,-4.667617808716845e-14
	2.893089307803673e-08,1.266726096507283e-13
	1.450456002166164e-08,-1.951136722342356e-14
	-9.456321102406592e-05,-6.048506434013631e-14
	-9.451977557096621e-05,4.667617808716844e-14
	-2.893089323663389e-08,-1.266726096507283e-13
	-9.451977557096621e-05,4.667617808716844e-14
11		1.288249551693134e+00,0.000000000000000e+00
	-9.451977557096620e-01,4.776340594304798e-10
	1.000000000000000e+00,0.000000000000000e+00
	0.000000000000000e+00,0.000000000000000e+00
	-2.720225288032751e-08,1.900074576331156e-14
	-2.719516389716949e-08,4.006956317054130e-14
	9.451977557096622e-05,-4.776340594304797e-14
	2.893089307803673e-08,1.296231937695057e-13
	1.450456002166164e-08,-1.996584534954573e-14
	-9.456321102406592e-05,-6.189394247691203e-14
	-9.451977557096621e-05,4.776340594304798e-14
	-2.893089323663389e-08,-1.296231937695057e-13
	-9.451977557096621e-05,4.776340594304798e-14
12		1.318256738556407e+00,0.000000000000000e+00
	-9.451977557096620e-01,4.887595858898191e-10
	1.000000000000000e+00,0.000000000000000e+00
	0.000000000000000e+00,0.000000000000000e+00
	-2.720225288032751e-08,1.944332998770494e-14
	-2.719516389716949e-08,4.100290319616591e-14
	9.451977557096622e-05,-4.887595858898191e-14
	2.893089307803673e-08,1.326425058213855e-13
	1.450456002166164e-08,-2.043090963115142e-14
	-9.456321102406592e-05,-6.333563760125217e-14
	-9.451977557096621e-05,4.887595858898191e-14
	-2.893089323663389e-08,-1.326425058213855e-13
	-9.451977557096621e-05,4.887595858898191e-14
13		1.348962882591653e+00,0.000000000000000e+00
	-9.451977557096620e-01,5.001442591510953e-10
	1.000000000000000e+00,0.000000000000000e+00
	0.000000000000000e+00,0.000000000000000e+00
	-2.720225288032751e-08,1.989622332302071e-14
	-2.719516389716949e-08,4.195798350380271e-14
	9.451977557096622e-05,-5.001442591510952e-14
	2.893089307803673e-08,1.357321466855829e-13
	1.450456002166164e-08,-2.090680665147861e-14
	-9.456321102406592e-05,-6.481091411899477e-14
	-9.451977557096621e-05,5.001442591510953e-14
	-2.893089323663389e-08,-1.357321466855830e-13
	-9.451977557096621e-05,5.001442591510953e-14
14		1.380384264602885e+00,0.000000000000000e+00
	-9.451977557096620e-01,5.117941155187652e-10
	1.000000000000000e+00,0.000000000000000e+00
	0.000000000000000e+00,0.000000000000000e+00
	-2.720225288032751e-08,2.035966589930000e-14
	-2.719516389716949e-08,4.293531048967280e-14
	9.451977557096622e-05,-5.117941155187652e-14
	2.893089307803673e-08,1.388937545305804e-13
	1.450456002166164e-08,-2.139378873742673e-14
	-9.456321102406592e-05,-6.632055424127715e-14
	-9.451977557096621e-05,5.117941155187652e-14
	-2.893089323663389e-08,-1.388937545305804e-13
	-9.451977557096621e-05,5.117941155187652e-14
15		1.412537544622754e+00,0.000000000000000e+00
	-9.451977557096620e-01,5.237153319008791e-10
	1.000000000000000e+00,0.000000000000000e+00
	0.000000000000000e+00,0.000000000000000e+00
	-2.720225288032751e-08,2.083390343993113e-14
	-2.719516389716949e-08,4.393540234548053e-14
	9.451977557096622e-05,-5.237153319008792e-14
	2.893089307803673e-08,1.421290056827061e-13
	1.450456002166164e-08,-2.189211409334369e-14
	-9.456321102406592e-05,-6.786535839927455e-14
	-9.451977557096621e-05,5.237153319008792e-14
	-2.893089323663389e-08,-1.421290056827062e-13
	-9.451977557096621e-05,5.237153319008792e-14
16		1.445439770745927e+00,0.000000000000000e+00
	-9.451977557096620e-01,5.359142290841588e-10
	1.000000000000000e+00,0.000000000000000e+00
	0.000000000000000e+00,0.000000000000000e+00
	-2.720225288032751e-08,2.131918739193540e-14
	-2.719516389716950e-08,4.495878933316562e-14
	9.451977557096622e-05,-5.359142290841588e-14
	2.893089307803672e-08,1.454396155149447e-13
	1.450456002166164e-08,-2.240204693792933e-14
	-9.456321102406592e-05,-6.944614566859945e-14
	-9.451977557096621e-05,5.359142290841588e-14
	-2.893089323663389e-08,-1.454396155149447e-13
	-9.451977557096621e-05,5.359142290841588e-14
17		1.479108388168207e+00,0.000000000000000e+00
	-9.451977557096620e-01,5.483972750853624e-10
	1.000000000000000e+00,0.000000000000000e+00
	0.000000000000000e+00,0.000000000000000e+00
	-2.720225288032751e-08,2.181577505928773e-14
	-2.719516389716950e-08,4.600601406605511e-14
	9.451977557096622e-05,-5.483972750853624e-14
	2.893089307803672e-08,1.488273393564501e-13
	1.450456002166164e-08,-2.292385764432762e-14
	-9.456321102406592e-05,-7.106375420358624e-14
	-9.451977557096621e-05,5.483972750853624e-14
	-2.893089323663389e-08,-1.488273393564501e-13
	-9.451977557096621e-05,5.483972750853624e-14
18		1.513561248436208e+00,0.000000000000000e+00
	-9.451977557096620e-01,5.611710885807124e-10
	1.000000000000000e+00,0.000000000000000e+00
	0.000000000000000e+00,0.000000000000000e+00
	-2.720225288032751e-08,2.232392973934238e-14
	-2.719516389716950e-08,4.707763179656400e-14
	9.451977557096622e-05,-5.611710885807124e-14
	2.893089307803672e-08,1.522939734232451e-13
	1.450456002166164e-08,-2.345782288348204e-14
	-9.456321102406592e-05,-7.271904168169180e-14
	-9.451977557096621e-05,5.611710885807124e-14
	-2.893089323663389e-08,-1.522939734232451e-13
	-9.451977557096621e-05,5.611710885807124e-14
19		1.548816618912481e+00,0.000000000000000e+00
	-9.451977557096620e-01,5.742424424152054e-10
	1.000000000000000e+00,0.000000000000000e+00
	0.000000000000000e+00,0.000000000000000e+00
	-2.720225288032752e-08,2.284392086243697e-14
	-2.719516389716950e-08,4.817421071059753e-14
	9.451977557096622e-05,-5.742424424152052e-14
	2.893089307803672e-08,1.558413557705981e-13
	1.450456002166164e-08,-2.400422577083029e-14
	-9.456321102406592e-05,-7.441288575824728e-14
	-9.451977557096621e-05,5.742424424152054e-14
	-2.893089323663389e-08,-1.558413557705981e-13
	-9.451977557096621e-05,5.742424424152054e-14
20		1.584893192461113e+00,0.000000000000000e+00
	-9.451977557096620e-01,5.876182671936642e-10
	1.000000000000000e+00,0.000000000000000e+00
	0.000000000000000e+00,0.000000000000000e+00
	-2.720225288032752e-08,2.337602413474789e-14
	-2.719516389716950e-08,4.929633222881092e-14
	9.451977557096622e-05,-5.876182671936641e-14
	2.893089307803672e-08,1.594713672675849e-13
	1.450456002166164e-08,-2.456335601641572e-14
	-9.456321102406592e-05,-7.614618453180278e-14
	-9.451977557096621e-05,5.876182671936642e-14
	-2.893089323663389e-08,-1.594713672675849e-13
	-9.451977557096621e-05,5.876182671936642e-14
21		1.621810097358929e+00,0.000000000000000e+00
	-9.451977557096620e-01,6.013056549554362e-10
	1.000000000000000e+00,0.000000000000000e+00
	0.000000000000000e+00,0.000000000000000e+00
	-2.720225288032752e-08,2.392052168447327e-14
	-2.719516389716950e-08,5.044459131488608e-14
	9.451977557096622e-05,-6.013056549554362e-14
	2.893089307803672e-08,1.631859325943500e-13
	1.450456002166164e-08,-2.513551007849550e-14
	-9.456321102406592e-05,-7.791985702031093e-14
	-9.451977557096621e-05,6.013056549554362e-14
	-2.893089323663389e-08,-1.631859325943501e-13
	-9.451977557096621e-05,6.013056549554362e-14
22		1.659586907437560e+00,0.000000000000000e+00
	-9.451977557096620e-01,6.153118629346870e-10
	1.000000000000000e+00,0.000000000000000e+00
	0.000000000000000e+00,0.000000000000000e+00
	-2.720225288032752e-08,2.447770221142133e-14
	-2.719516389716950e-08,5.161959679098953e-14
	9.451977557096622e-05,-6.153118629346869e-14
	2.893089307803672e-08,1.669870212625979e-13
	1.450456002166164e-08,-2.572099132072671e-14
	-9.456321102406592e-05,-7.973484364840249e-14
	-9.451977557096621e-05,6.153118629346871e-14
	-2.893089323663389e-08,-1.669870212625980e-13
	-9.451977557096621e-05,6.153118629346871e-14
23		1.698243652461743e+00,0.000000000000000e+00
	-9.451977557096620e-01,6.296443174082810e-10
	1.000000000000000e+00,0.000000000000000e+00
	0.000000000000000e+00,0.000000000000000e+00
	-2.720225288032752e-08,2.504786114008257e-14
	-2.719516389716950e-08,5.282197166057770e-14
	9.451977557096622e-05,-6.296443174082811e-14
	2.893089307803672e-08,1.708766486598537e-13
	1.450456002166164e-08,-2.632011017301376e-14
	-9.456321102406592e-05,-8.159210674601188e-14
	-9.451977557096621e-05,6.296443174082811e-14
	-2.893089323663389e-08,-1.708766486598538e-13
	-9.451977557096621e-05,6.296443174082811e-14
24		1.737800828749374e+00,0.000000000000000e+00
	-9.451977557096620e-01,6.443106176332928e-10
	1.000000000000000e+00,0.000000000000000e+00
	0.000000000000000e+00,0.000000000000000e+00
	-2.720225288032752e-08,2.563130077626790e-14
	-2.719516389716950e-08,5.405235343872172e-14
	9.451977557096622e-05,-6.443106176332928e-14
	2.893089307803672e-08,1.748568771180488e-13
	1.450456002166164e-08,-2.693318429610235e-14
	-9.456321102406592e-05,-8.349263105861718e-14
	-9.451977557096621e-05,6.443106176332929e-14
	-2.893089323663389e-08,-1.748568771180488e-13
	-9.451977557096621e-05,6.443106176332929e-14
25		1.778279410038922e+00,0.000000000000000e+00
	-9.451977557096620e-01,6.593185398762331e-10
	1.000000000000000e+00,0.000000000000000e+00
	0.000000000000000e+00,0.000000000000000e+00
	-2.720225288032752e-08,2.622833046739520e-14
	-2.719516389716950e-08,5.531139449012647e-14
	9.451977557096622e-05,-6.593185398762330e-14
	2.893089307803672e-08,1.789298170069963e-13
	1.450456002166164e-08,-2.756053875000760e-14
	-9.456321102406592e-05,-8.543742426936541e-14
	-9.451977557096621e-05,6.593185398762331e-14
	-2.893089323663389e-08,-1.789298170069964e-13
	-9.451977557096621e-05,6.593185398762331e-14
26		1.819700858609982e+00,0.000000000000000e+00
	-9.451977557096620e-01,6.746760415361282e-10
	1.000000000000000e+00,0.000000000000000e+00
	0.000000000000000e+00,0.000000000000000e+00
	-2.720225288032752e-08,2.683926676650932e-14
	-2.719516389716950e-08,5.659976237502275e-14
	9.451977557096622e-05,-6.746760415361283e-14
	2.893089307803672e-08,1.830976278533370e-13
	1.450456002166164e-08,-2.820250616636495e-14
	-9.456321102406592e-05,-8.742751753335926e-14
	-9.451977557096621e-05,6.746760415361282e-14
	-2.893089323663389e-08,-1.830976278533371e-13
	-9.451977557096621e-05,6.746760415361282e-14
27		1.862087136662866e+00,0.000000000000000e+00
	-9.451977557096620e-01,6.903912653636388e-10
	1.000000000000000e+00,0.000000000000000e+00
	0.000000000000000e+00,0.000000000000000e+00
	-2.720225288032752e-08,2.746443360012271e-14
	-2.719516389716950e-08,5.791814020311666e-14
	9.451977557096622e-05,-6.903912653636390e-14
	2.893089307803672e-08,1.873625194855492e-13
	1.450456002166164e-08,-2.885942692479601e-14
	-9.456321102406592e-05,-8.946396602438927e-14
	-9.451977557096621e-05,6.903912653636388e-14
	-2.893089323663389e-08,-1.873625194855492e-13
	-9.451977557096621e-05,6.903912653636388e-14
28		1.905460717963246e+00,0.000000000000000e+00
	-9.451977557096620e-01,7.064725437784542e-10
	1.000000000000000e+00,0.000000000000000e+00
	0.000000000000000e+00,0.000000000000000e+00
	-2.720225288032752e-08,2.810416243996567e-14
	-2.719516389716950e-08,5.926722699578349e-14
	9.451977557096622e-05,-7.064725437784542e-14
	2.893089307803672e-08,1.917267532056287e-13
	1.450456002166164e-08,-2.953164933338227e-14
	-9.456321102406592e-05,-9.154784949440102e-14
	-9.451977557096621e-05,7.064725437784542e-14
	-2.893089323663389e-08,-1.917267532056288e-13
	-9.451977557096621e-05,7.064725437784542e-14
29		1.949844599758044e+00,0.000000000000000e+00
	-9.451977557096620e-01,7.229284032872505e-10
	1.000000000000000e+00,0.000000000000000e+00
	0.000000000000000e+00,0.000000000000000e+00
	-2.720225288032752e-08,2.875879247873683e-14
	-2.719516389716950e-08,6.064773805669797e-14
	9.451977557096622e-05,-7.229284032872506e-14
	2.893089307803672e-08,1.961926429880615e-13
	1.450456002166164e-08,-3.021952981334268e-14
	-9.456321102406592e-05,-9.368027284599376e-14
	-9.451977557096621e-05,7.229284032872505e-14
	-2.893089323663389e-08,-1.961926429880615e-13
	-9.451977557096621e-05,7.229284032872505e-14
30		1.995262314968878e+00,0.000000000000000e+00
	-9.451977557096620e-01,7.397675690045582e-10
	1.000000000000000e+00,0.000000000000000e+00
	0.000000000000000e+00,0.000000000000000e+00
	-2.720225288032753e-08,2.942867080994784e-14
	-2.719516389716950e-08,6.206040535109782e-14
	9.451977557096622e-05,-7.397675690045583e-14
	2.893089307803672e-08,2.007625567067232e-13
	1.450456002166164e-08,-3.092343308801287e-14
	-9.456321102406592e-05,-9.586236671825443e-14
	-9.451977557096621e-05,7.397675690045583e-14
	-2.893089323663389e-08,-2.007625567067231e-13
	-9.451977557096621e-05,7.397675690045583e-14
31		2.041737944669527e+00,0.000000000000000e+00
	-9.451977557096620e-01,7.569989692789336e-10
	1.000000000000000e+00,0.000000000000000e+00
	0.000000000000000e+00,0.000000000000000e+00
	-2.720225288032753e-08,3.011415261195681e-14
	-2.719516389716950e-08,6.350597789388141e-14
	9.451977557096622e-05,-7.569989692789335e-14
	2.893089307803672e-08,2.054389173903572e-13
	1.450456002166164e-08,-3.164373237622637e-14
	-9.456321102406592e-05,-9.809528808623751e-14
	-9.451977557096621e-05,7.569989692789336e-14
	-2.893089323663389e-08,-2.054389173903573e-13
	-9.451977557096621e-05,7.569989692789336e-14
32		2.089296130854037e+00,0.000000000000000e+00
	-9.451977557096620e-01,7.746317404268867e-10
	1.000000000000000e+00,0.000000000000000e+00
	0.000000000000000e+00,0.000000000000000e+00
	-2.720225288032753e-08,3.081560133628858e-14
