Title: * GA CMOS Amp | W=9.9149052252928e-06 L=9.909394922402605e-07 Vbias=1.5
Date: Sat Sep  6 22:07:13 2025
Plotname: AC Analysis
Flags: complex forward log
No. Variables: 13
No. Points:          901
Offset:    0.0000000000000000e+00
Command: Linear Technology Corporation LTspice
Variables:
	0	frequency	frequency
	1	V(out)	voltage
	2	V(g)	voltage
	3	V(vdd)	voltage
	4	V(m1#dbody)	voltage
	5	V(m1#sbody)	voltage
	6	Id(M1)	device_current
	7	Ig(M1)	device_current
	8	Ib(M1)	device_current
	9	Is(M1)	device_current
	10	I(Rload)	device_current
	11	I(Vg)	device_current
	12	I(Vdd)	device_current
Values:
0		1.000000000000000e+00,0.000000000000000e+00
	3.642686792077779e-02,1.412410108193734e-09
	1.000000000000000e+00,0.000000000000000e+00
	0.000000000000000e+00,0.000000000000000e+00
	3.718430942966621e-04,1.345582820160448e-13
	3.718430940232821e-04,1.264723045008128e-13
	-3.642686792077782e-06,-1.412410108193737e-13
	2.275116041747433e-04,2.504695043223907e-12
	-1.983163169805423e-04,-6.804655730053991e-14
	-2.555260040212321e-05,-2.295407475103994e-12
	3.642686792077779e-06,1.412410108193734e-13
	-2.275116041747793e-04,-2.504695043223908e-12
	3.642686792077779e-06,1.412410108193734e-13
1		1.023292992280754e+00,0.000000000000000e+00
	3.642686792077779e-02,1.445309365941150e-09
	1.000000000000000e+00,0.000000000000000e+00
	0.000000000000000e+00,0.000000000000000e+00
	3.718430942966621e-04,1.376925470403560e-13
	3.718430940232821e-04,1.294182229132794e-13
	-3.642686792077782e-06,-1.445309365941150e-13
	2.275116041747433e-04,2.563036885531365e-12
	-1.983163169805423e-04,-6.963156523447326e-14
	-2.555260040212321e-05,-2.348874383702777e-12
	3.642686792077779e-06,1.445309365941150e-13
	-2.275116041747793e-04,-2.563036885531365e-12
	3.642686792077779e-06,1.445309365941150e-13
2		1.047128548050899e+00,0.000000000000000e+00
	3.642686792077779e-02,1.478974945845319e-09
	1.000000000000000e+00,0.000000000000000e+00
	0.000000000000000e+00,0.000000000000000e+00
	3.718430942966621e-04,1.408998184756844e-13
	3.718430940232821e-04,1.324327605805873e-13
	-3.642686792077782e-06,-1.478974945845317e-13
	2.275116041747433e-04,2.622737683921334e-12
	-1.983163169805423e-04,-7.125349274597667e-14
	-2.555260040212321e-05,-2.403586696590826e-12
	3.642686792077779e-06,1.478974945845319e-13
	-2.275116041747793e-04,-2.622737683921335e-12
	3.642686792077779e-06,1.478974945845319e-13
3		1.071519305237606e+00,0.000000000000000e+00
	3.642686792077779e-02,1.513424697842322e-09
	1.000000000000000e+00,0.000000000000000e+00
	0.000000000000000e+00,0.000000000000000e+00
	3.718430942966621e-04,1.441817968597982e-13
	3.718430940232821e-04,1.355175158505099e-13
	-3.642686792077782e-06,-1.513424697842325e-13
	2.275116041747433e-04,2.683829092547357e-12
	-1.983163169805423e-04,-7.291319980248548e-14
	-2.555260040212321e-05,-2.459573422960639e-12
	3.642686792077779e-06,1.513424697842322e-13
	-2.275116041747793e-04,-2.683829092547357e-12
	3.642686792077779e-06,1.513424697842322e-13
4		1.096478196143185e+00,0.000000000000000e+00
	3.642686792077779e-02,1.548676887646666e-09
	1.000000000000000e+00,0.000000000000000e+00
	0.000000000000000e+00,0.000000000000000e+00
	3.718430942966621e-04,1.475402223410787e-13
	3.718430940232821e-04,1.386741243011227e-13
	-3.642686792077782e-06,-1.548676887646669e-13
	2.275116041747433e-04,2.746343502882925e-12
	-1.983163169805423e-04,-7.461156640264983e-14
	-2.555260040212321e-05,-2.516864247715609e-12
	3.642686792077779e-06,1.548676887646666e-13
	-2.275116041747793e-04,-2.746343502882926e-12
	3.642686792077779e-06,1.548676887646666e-13
5		1.122018454301963e+00,0.000000000000000e+00
	3.642686792077779e-02,1.584750206436002e-09
	1.000000000000000e+00,0.000000000000000e+00
	0.000000000000000e+00,0.000000000000000e+00
	3.718430942966621e-04,1.509768756011702e-13
	3.718430940232821e-04,1.419042596080092e-13
	-3.642686792077782e-06,-1.584750206436003e-13
	2.275116041747433e-04,2.810314060895877e-12
	-1.983163169805423e-04,-7.634949304292174e-14
	-2.555260040212321e-05,-2.575489547209355e-12
	3.642686792077779e-06,1.584750206436002e-13
	-2.275116041747793e-04,-2.810314060895878e-12
	3.642686792077779e-06,1.584750206436002e-13
6		1.148153621496882e+00,0.000000000000000e+00
	3.642686792077779e-02,1.621663780761439e-09
	1.000000000000000e+00,0.000000000000000e+00
	0.000000000000000e+00,0.000000000000000e+00
	3.718430942966621e-04,1.544935787991206e-13
	3.718430940232821e-04,1.452096344316646e-13
	-3.642686792077782e-06,-1.621663780761442e-13
	2.275116041747433e-04,2.875774684622819e-12
	-1.983163169805423e-04,-7.812790119501002e-14
	-2.555260040212321e-05,-2.635480405351665e-12
	3.642686792077779e-06,1.621663780761439e-13
	-2.275116041747793e-04,-2.875774684622820e-12
	3.642686792077779e-06,1.621663780761439e-13
7		1.174897554939529e+00,0.000000000000000e+00
	3.642686792077779e-02,1.659437182688694e-09
	1.000000000000000e+00,0.000000000000000e+00
	0.000000000000000e+00,0.000000000000000e+00
	3.718430942966621e-04,1.580921965375146e-13
	3.718430940232821e-04,1.485920013255725e-13
	-3.642686792077782e-06,-1.659437182688698e-13
	2.275116041747433e-04,2.942760082152927e-12
	-1.983163169805423e-04,-7.994773379445688e-14
	-2.555260040212321e-05,-2.696868630089600e-12
	3.642686792077779e-06,1.659437182688694e-13
	-2.275116041747793e-04,-2.942760082152926e-12
	3.642686792077779e-06,1.659437182688694e-13
8		1.202264434617413e+00,0.000000000000000e+00
	3.642686792077780e-02,1.698090440175458e-09
	1.000000000000000e+00,0.000000000000000e+00
	0.000000000000000e+00,0.000000000000000e+00
	3.718430942966621e-04,1.617746368511105e-13
	3.718430940232821e-04,1.520531536654309e-13
	-3.642686792077778e-06,-1.698090440175458e-13
	2.275116041747433e-04,3.011305770030626e-12
	-1.983163169805423e-04,-8.180995574059498e-14
	-2.555260040212322e-05,-2.759686770272486e-12
	3.642686792077780e-06,1.698090440175458e-13
	-2.275116041747793e-04,-3.011305770030626e-12
	3.642686792077780e-06,1.698090440175458e-13
9		1.230268770812381e+00,0.000000000000000e+00
	3.642686792077780e-02,1.737644047690488e-09
	1.000000000000000e+00,0.000000000000000e+00
	0.000000000000000e+00,0.000000000000000e+00
	3.718430942966621e-04,1.655428522185052e-13
	3.718430940232821e-04,1.555949266000241e-13
	-3.642686792077778e-06,-1.737644047690488e-13
	2.275116041747433e-04,3.081448092086940e-12
	-1.983163169805423e-04,-8.371555440814949e-14
	-2.555260040212322e-05,-2.823968132909741e-12
	3.642686792077780e-06,1.737644047690488e-13
	-2.275116041747793e-04,-3.081448092086940e-12
	3.642686792077780e-06,1.737644047690488e-13
10		1.258925411794167e+00,0.000000000000000e+00
	3.642686792077780e-02,1.778118977080041e-09
	1.000000000000000e+00,0.000000000000000e+00
	0.000000000000000e+00,0.000000000000000e+00
	3.718430942966621e-04,1.693988405973648e-13
	3.718430940232821e-04,1.592191980242429e-13
	-3.642686792077778e-06,-1.778118977080046e-13
	2.275116041747433e-04,3.153224238709466e-12
	-1.983163169805423e-04,-8.566554017075755e-14
	-2.555260040212322e-05,-2.889746800830704e-12
	3.642686792077780e-06,1.778118977080041e-13
	-2.275116041747793e-04,-3.153224238709467e-12
	3.642686792077780e-06,1.778118977080041e-13
11		1.288249551693134e+00,0.000000000000000e+00
	3.642686792077780e-02,1.819536688687429e-09
	1.000000000000000e+00,0.000000000000000e+00
	0.000000000000000e+00,0.000000000000000e+00
	3.718430942966621e-04,1.733446464837680e-13
	3.718430940232821e-04,1.629278895747696e-13
	-3.642686792077778e-06,-1.819536688687432e-13
	2.275116041747433e-04,3.226672266561213e-12
	-1.983163169805423e-04,-8.766094693668167e-14
	-2.555260040212322e-05,-2.957057650755788e-12
	3.642686792077780e-06,1.819536688687429e-13
	-2.275116041747793e-04,-3.226672266561213e-12
	3.642686792077780e-06,1.819536688687429e-13
12		1.318256738556407e+00,0.000000000000000e+00
	3.642686792077780e-02,1.861919142731574e-09
	1.000000000000000e+00,0.000000000000000e+00
	0.000000000000000e+00,0.000000000000000e+00
	3.718430942966621e-04,1.773823619962244e-13
	3.718430940232821e-04,1.667229676489542e-13
	-3.642686792077778e-06,-1.861919142731577e-13
	2.275116041747433e-04,3.301831118758746e-12
	-1.983163169805423e-04,-8.970283269700140e-14
	-2.555260040212322e-05,-3.025936371788587e-12
	3.642686792077780e-06,1.861919142731574e-13
	-2.275116041747793e-04,-3.301831118758746e-12
	3.642686792077780e-06,1.861919142731574e-13
13		1.348962882591653e+00,0.000000000000000e+00
	3.642686792077780e-02,1.905288810950609e-09
	1.000000000000000e+00,0.000000000000000e+00
	0.000000000000000e+00,0.000000000000000e+00
	3.718430942966621e-04,1.815141279849444e-13
	3.718430940232821e-04,1.706064444474257e-13
	-3.642686792077778e-06,-1.905288810950611e-13
	2.275116041747433e-04,3.378740645520347e-12
	-1.983163169805423e-04,-9.179228008657443e-14
	-2.555260040212322e-05,-3.096419484338712e-12
	3.642686792077780e-06,1.905288810950609e-13
	-2.275116041747793e-04,-3.378740645520347e-12
	3.642686792077780e-06,1.905288810950609e-13
14		1.380384264602885e+00,0.000000000000000e+00
	3.642686792077780e-02,1.949668688516689e-09
	1.000000000000000e+00,0.000000000000000e+00
	0.000000000000000e+00,0.000000000000000e+00
	3.718430942966621e-04,1.857421351669456e-13
	3.718430940232821e-04,1.745803790409865e-13
	-3.642686792077778e-06,-1.949668688516690e-13
	2.275116041747433e-04,3.457441625295123e-12
	-1.983163169805423e-04,-9.393039695806385e-14
	-2.555260040212322e-05,-3.168544359485390e-12
	3.642686792077780e-06,1.949668688516689e-13
	-2.275116041747793e-04,-3.457441625295124e-12
	3.642686792077780e-06,1.949668688516689e-13
15		1.412537544622754e+00,0.000000000000000e+00
	3.642686792077780e-02,1.995082306228336e-09
	1.000000000000000e+00,0.000000000000000e+00
	0.000000000000000e+00,0.000000000000000e+00
	3.718430942966621e-04,1.900686252876000e-13
	3.718430940232821e-04,1.786468784623594e-13
	-3.642686792077778e-06,-1.995082306228337e-13
	2.275116041747433e-04,3.537975786384280e-12
	-1.983163169805423e-04,-9.611831696933619e-14
	-2.555260040212322e-05,-3.242349238792110e-12
	3.642686792077780e-06,1.995082306228336e-13
	-2.275116041747793e-04,-3.537975786384280e-12
	3.642686792077780e-06,1.995082306228336e-13
16		1.445439770745927e+00,0.000000000000000e+00
	3.642686792077780e-02,2.041553742986782e-09
	1.000000000000000e+00,0.000000000000000e+00
	0.000000000000000e+00,0.000000000000000e+00
	3.718430942966621e-04,1.944958923092376e-13
	3.718430940232821e-04,1.828080988233639e-13
	-3.642686792077778e-06,-2.041553742986782e-13
	2.275116041747433e-04,3.620385829066024e-12
	-1.983163169805423e-04,-9.835720018454198e-14
	-2.555260040212322e-05,-3.317873254582804e-12
	3.642686792077780e-06,2.041553742986782e-13
	-2.275116041747793e-04,-3.620385829066024e-12
	3.642686792077780e-06,2.041553742986782e-13
17		1.479108388168207e+00,0.000000000000000e+00
	3.642686792077780e-02,2.089107638562916e-09
	1.000000000000000e+00,0.000000000000000e+00
	0.000000000000000e+00,0.000000000000000e+00
	3.718430942966621e-04,1.990262836274350e-13
	3.718430940232821e-04,1.870662464581158e-13
	-3.642686792077778e-06,-2.089107638562925e-13
	2.275116041747433e-04,3.704715448235810e-12
	-1.983163169805423e-04,-1.006482336891971e-13
	-2.555260040212322e-05,-3.395156450690321e-12
	3.642686792077780e-06,2.089107638562916e-13
	-2.275116041747793e-04,-3.704715448235811e-12
	3.642686792077780e-06,2.089107638562916e-13
18		1.513561248436208e+00,0.000000000000000e+00
	3.642686792077780e-02,2.137769206661627e-09
	1.000000000000000e+00,0.000000000000000e+00
	0.000000000000000e+00,0.000000000000000e+00
	3.718430942966621e-04,2.036622013156361e-13
	3.718430940232821e-04,1.914235790928544e-13
	-3.642686792077778e-06,-2.137769206661628e-13
	2.275116041747433e-04,3.791009356573957e-12
	-1.983163169805423e-04,-1.029926322195911e-13
	-2.555260040212322e-05,-3.474239803688204e-12
	3.642686792077780e-06,2.137769206661627e-13
	-2.275116041747793e-04,-3.791009356573957e-12
	3.642686792077780e-06,2.137769206661627e-13
19		1.548816618912481e+00,0.000000000000000e+00
	3.642686792077780e-02,2.187564248290431e-09
	1.000000000000000e+00,0.000000000000000e+00
	0.000000000000000e+00,0.000000000000000e+00
	3.718430942966621e-04,2.084061033987625e-13
	3.718430940232821e-04,1.958824070430185e-13
	-3.642686792077778e-06,-2.187564248290433e-13
	2.275116041747433e-04,3.879313308252902e-12
	-1.983163169805423e-04,-1.053916388068566e-13
	-2.555260040212322e-05,-3.555165244617002e-12
	3.642686792077780e-06,2.187564248290431e-13
	-2.275116041747793e-04,-3.879313308252901e-12
	3.642686792077780e-06,2.187564248290431e-13
20		1.584893192461113e+00,0.000000000000000e+00
	3.642686792077780e-02,2.238519165439513e-09
	1.000000000000000e+00,0.000000000000000e+00
	0.000000000000000e+00,0.000000000000000e+00
	3.718430942966621e-04,2.132605051564920e-13
	3.718430940232821e-04,2.004450944382071e-13
	-3.642686792077778e-06,-2.238519165439513e-13
	2.275116041747433e-04,3.969674123196663e-12
	-1.983163169805423e-04,-1.078465254360407e-13
	-2.555260040212322e-05,-3.637975681216671e-12
	3.642686792077780e-06,2.238519165439514e-13
	-2.275116041747793e-04,-3.969674123196663e-12
	3.642686792077780e-06,2.238519165439514e-13
21		1.621810097358929e+00,0.000000000000000e+00
	3.642686792077780e-02,2.290660975080416e-09
	1.000000000000000e+00,0.000000000000000e+00
	0.000000000000000e+00,0.000000000000000e+00
	3.718430942966621e-04,2.182279804568918e-13
	3.718430940232821e-04,2.051140604756713e-13
	-3.642686792077782e-06,-2.290660975080416e-13
	2.275116041747433e-04,4.062139711905392e-12
	-1.983163169805423e-04,-1.103585937205286e-13
	-2.555260040212322e-05,-3.722715020676822e-12
	3.642686792077780e-06,2.290660975080416e-13
	-2.275116041747793e-04,-4.062139711905393e-12
	3.642686792077780e-06,2.290660975080416e-13
22		1.659586907437560e+00,0.000000000000000e+00
	3.642686792077780e-02,2.344017323490788e-09
	1.000000000000000e+00,0.000000000000000e+00
	0.000000000000000e+00,0.000000000000000e+00
	3.718430942966621e-04,2.233111631211188e-13
	3.718430940232821e-04,2.098917807030052e-13
	-3.642686792077782e-06,-2.344017323490790e-13
	2.275116041747433e-04,4.156759100858149e-12
	-1.983163169805423e-04,-1.129291755921757e-13
	-2.555260040212322e-05,-3.809428192916894e-12
	3.642686792077780e-06,2.344017323490788e-13
	-2.275116041747793e-04,-4.156759100858150e-12
	3.642686792077780e-06,2.344017323490788e-13
23		1.698243652461743e+00,0.000000000000000e+00
	3.642686792077780e-02,2.398616500912814e-09
	1.000000000000000e+00,0.000000000000000e+00
	0.000000000000000e+00,0.000000000000000e+00
	3.718430942966621e-04,2.285127483199053e-13
	3.718430940232821e-04,2.147807883307141e-13
	-3.642686792077782e-06,-2.398616500912818e-13
	2.275116041747433e-04,4.253582458507392e-12
	-1.983163169805423e-04,-1.155596340075162e-13
	-2.555260040212322e-05,-3.898161174408594e-12
	3.642686792077780e-06,2.398616500912814e-13
	-2.275116041747793e-04,-4.253582458507393e-12
	3.642686792077780e-06,2.398616500912814e-13
24		1.737800828749374e+00,0.000000000000000e+00
	3.642686792077780e-02,2.454487456553064e-09
	1.000000000000000e+00,0.000000000000000e+00
	0.000000000000000e+00,0.000000000000000e+00
	3.718430942966621e-04,2.338354940025746e-13
	3.718430940232821e-04,2.197836755753557e-13
	-3.642686792077782e-06,-2.454487456553082e-13
	2.275116041747433e-04,4.352661121878957e-12
	-1.983163169805423e-04,-1.182513636704200e-13
	-2.555260040212322e-05,-3.988961012553229e-12
	3.642686792077780e-06,2.454487456553064e-13
	-2.275116041747793e-04,-4.352661121878955e-12
	3.642686792077780e-06,2.454487456553064e-13
25		1.778279410038922e+00,0.000000000000000e+00
	3.642686792077780e-02,2.511659813931763e-09
	1.000000000000000e+00,0.000000000000000e+00
	0.000000000000000e+00,0.000000000000000e+00
	3.718430942966621e-04,2.392822223593430e-13
	3.718430940232821e-04,2.249030950339682e-13
	-3.642686792077782e-06,-2.511659813931769e-13
	2.275116041747433e-04,4.454047623791622e-12
	-1.983163169805423e-04,-1.210057917715838e-13
	-2.555260040212322e-05,-4.081875850626861e-12
	3.642686792077780e-06,2.511659813931763e-13
	-2.275116041747793e-04,-4.454047623791621e-12
	3.642686792077780e-06,2.511659813931763e-13
26		1.819700858609982e+00,0.000000000000000e+00
	3.642686792077780e-02,2.570163886589556e-09
	1.000000000000000e+00,0.000000000000000e+00
	0.000000000000000e+00,0.000000000000000e+00
	3.718430942966621e-04,2.448558213176809e-13
	3.718430940232821e-04,2.301417610905121e-13
	-3.642686792077782e-06,-2.570163886589556e-13
	2.275116041747433e-04,4.557795720710709e-12
	-1.983163169805423e-04,-1.238243787452458e-13
	-2.555260040212322e-05,-4.176954953306508e-12
	3.642686792077780e-06,2.570163886589556e-13
	-2.275116041747793e-04,-4.557795720710710e-12
	3.642686792077780e-06,2.570163886589556e-13
27		1.862087136662866e+00,0.000000000000000e+00
	3.642686792077780e-02,2.630030694160160e-09
	1.000000000000000e+00,0.000000000000000e+00
	0.000000000000000e+00,0.000000000000000e+00
	3.718430942966621e-04,2.505592460735313e-13
	3.718430940232821e-04,2.355024513550726e-13
	-3.642686792077782e-06,-2.630030694160156e-13
	2.275116041747433e-04,4.663960421250478e-12
	-1.983163169805423e-04,-1.267086190435280e-13
	-2.555260040212322e-05,-4.274248732790934e-12
	3.642686792077780e-06,2.630030694160159e-13
	-2.275116041747793e-04,-4.663960421250479e-12
	3.642686792077780e-06,2.630030694160159e-13
28		1.905460717963246e+00,0.000000000000000e+00
	3.642686792077780e-02,2.691291978817378e-09
	1.000000000000000e+00,0.000000000000000e+00
	0.000000000000000e+00,0.000000000000000e+00
	3.718430942966621e-04,2.563955206581936e-13
	3.718430940232821e-04,2.409880081365849e-13
	-3.642686792077782e-06,-2.691291978817379e-13
	2.275116041747433e-04,4.772598015340408e-12
	-1.983163169805423e-04,-1.296600419288139e-13
	-2.555260040212322e-05,-4.373808775529855e-12
	3.642686792077780e-06,2.691291978817378e-13
	-2.275116041747793e-04,-4.772598015340408e-12
	3.642686792077780e-06,2.691291978817378e-13
29		1.949844599758044e+00,0.000000000000000e+00
	3.642686792077780e-02,2.753980222105227e-09
	1.000000000000000e+00,0.000000000000000e+00
	0.000000000000000e+00,0.000000000000000e+00
	3.718430942966621e-04,2.623677395417048e-13
	3.718430940232821e-04,2.466013399498648e-13
	-3.642686792077782e-06,-2.753980222105231e-13
	2.275116041747433e-04,4.883766104070875e-12
	-1.983163169805423e-04,-1.326802122845840e-13
	-2.555260040212322e-05,-4.475687869575768e-12
	3.642686792077780e-06,2.753980222105227e-13
	-2.275116041747793e-04,-4.883766104070876e-12
	3.642686792077780e-06,2.753980222105227e-13
30		1.995262314968878e+00,0.000000000000000e+00
	3.642686792077780e-02,2.818128662160074e-09
	1.000000000000000e+00,0.000000000000000e+00
	0.000000000000000e+00,0.000000000000000e+00
	3.718430942966621e-04,2.684790692735687e-13
	3.718430940232821e-04,2.523454230577406e-13
	-3.642686792077782e-06,-2.818128662160071e-13
	2.275116041747433e-04,4.997523630234007e-12
	-1.983163169805423e-04,-1.357707314451377e-13
	-2.555260040212322e-05,-4.579940032572862e-12
	3.642686792077780e-06,2.818128662160074e-13
	-2.275116041747793e-04,-4.997523630234007e-12
	3.642686792077780e-06,2.818128662160074e-13
31		2.041737944669527e+00,0.000000000000000e+00
	3.642686792077780e-02,2.883771311333939e-09
	1.000000000000000e+00,0.000000000000000e+00
	0.000000000000000e+00,0.000000000000000e+00
	3.718430942966621e-04,2.747327501617019e-13
	3.718430940232821e-04,2.582233030491081e-13
	-3.642686792077782e-06,-2.883771311333948e-13
	2.275116041747433e-04,5.113930909575933e-12
	-1.983163169805423e-04,-1.389332380446416e-13
	-2.555260040212322e-05,-4.686620540397896e-12
	3.642686792077780e-06,2.883771311333939e-13
	-2.275116041747793e-04,-5.113930909575934e-12
	3.642686792077780e-06,2.883771311333939e-13
32		2.089296130854037e+00,0.000000000000000e+00
	3.642686792077780e-02,2.950942974228301e-09
	1.000000000000000e+00,0.000000000000000e+00
	0.000000000000000e+00,0.000000000000000e+00
	3.718430942966621e-04,2.811320979904888e-13
	3.718430940232821e-04,2.642380964537418e-13
	-3.642686792077778e-06,-2.950942974228297e-13
