Title: * GA CMOS Amp | W=6.324920454724983e-06 L=2.4110107723195806e-07 Vbias=1.0784630158181119
Date: Sat Sep  6 22:06:40 2025
Plotname: AC Analysis
Flags: complex forward log
No. Variables: 13
No. Points:          901
Offset:    0.0000000000000000e+00
Command: Linear Technology Corporation LTspice
Variables:
	0	frequency	frequency
	1	V(out)	voltage
	2	V(g)	voltage
	3	V(vdd)	voltage
	4	V(m1#dbody)	voltage
	5	V(m1#sbody)	voltage
	6	Id(M1)	device_current
	7	Ig(M1)	device_current
	8	Ib(M1)	device_current
	9	Is(M1)	device_current
	10	I(Rload)	device_current
	11	I(Vg)	device_current
	12	I(Vdd)	device_current
Values:
0		1.000000000000000e+00,0.000000000000000e+00
	-1.179295855270517e-02,9.500440456104769e-11
	1.000000000000000e+00,0.000000000000000e+00
	0.000000000000000e+00,0.000000000000000e+00
	8.751963131790410e-07,5.151473912229725e-15
	8.751964034309366e-07,6.866847930904470e-15
	1.179295855270519e-06,-9.500440456104741e-15
	1.243192388957419e-06,4.235423663405198e-13
	-4.667714094991480e-07,-3.548044105260405e-15
	-1.955716834728790e-06,-4.104938817791547e-13
	-1.179295855270517e-06,9.500440456104769e-15
	-1.243192388977743e-06,-4.235423663405198e-13
	-1.179295855270517e-06,9.500440456104769e-15
1		1.023292992280754e+00,0.000000000000000e+00
	-1.179295855270517e-02,9.721734142312578e-11
	1.000000000000000e+00,0.000000000000000e+00
	0.000000000000000e+00,0.000000000000000e+00
	8.751963131790410e-07,5.271467154301798e-15
	8.751964034309366e-07,7.026797366752140e-15
	1.179295855270519e-06,-9.721734142312589e-15
	1.243192388957419e-06,4.334079354102620e-13
	-4.667714094991480e-07,-3.630688669216010e-15
	-1.955716834728790e-06,-4.200555125987333e-13
	-1.179295855270517e-06,9.721734142312579e-15
	-1.243192388977743e-06,-4.334079354102619e-13
	-1.179295855270517e-06,9.721734142312579e-15
2		1.047128548050899e+00,0.000000000000000e+00
	-1.179295855270517e-02,9.948182420645008e-11
	1.000000000000000e+00,0.000000000000000e+00
	0.000000000000000e+00,0.000000000000000e+00
	8.751963131790410e-07,5.394255398035197e-15
	8.751964034309366e-07,7.190472503574320e-15
	1.179295855270519e-06,-9.948182420645055e-15
	1.243192388957419e-06,4.435033031041908e-13
	-4.667714094991480e-07,-3.715258272361880e-15
	-1.955716834728790e-06,-4.298398624111838e-13
	-1.179295855270517e-06,9.948182420645009e-15
	-1.243192388977743e-06,-4.435033031041906e-13
	-1.179295855270517e-06,9.948182420645009e-15
3		1.071519305237606e+00,0.000000000000000e+00
	-1.179295855270517e-02,1.017990535697663e-10
	1.000000000000000e+00,0.000000000000000e+00
	0.000000000000000e+00,0.000000000000000e+00
	8.751963131790410e-07,5.519903747382046e-15
	8.751964034309366e-07,7.357960124095047e-15
	1.179295855270519e-06,-1.017990535697667e-14
	1.243192388957419e-06,4.538338221198856e-13
	-4.667714094991480e-07,-3.801797754621011e-15
	-1.955716834728790e-06,-4.398521190082879e-13
	-1.179295855270517e-06,1.017990535697663e-14
	-1.243192388977743e-06,-4.538338221198854e-13
	-1.179295855270517e-06,1.017990535697663e-14
4		1.096478196143185e+00,0.000000000000000e+00
	-1.179295855270517e-02,1.041702581387549e-10
	1.000000000000000e+00,0.000000000000000e+00
	0.000000000000000e+00,0.000000000000000e+00
	8.751963131790410e-07,5.648478822760324e-15
	8.751964034309366e-07,7.529349032467694e-15
	1.179295855270519e-06,-1.041702581387549e-14
	1.243192388957419e-06,4.644049698352691e-13
	-4.667714094991480e-07,-3.890353000372389e-15
	-1.955716834728790e-06,-4.500975910210212e-13
	-1.179295855270517e-06,1.041702581387549e-14
	-1.243192388977743e-06,-4.644049698352689e-13
	-1.179295855270517e-06,1.041702581387549e-14
5		1.122018454301963e+00,0.000000000000000e+00
	-1.179295855270517e-02,1.065966951574651e-10
	1.000000000000000e+00,0.000000000000000e+00
	0.000000000000000e+00,0.000000000000000e+00
	8.751963131790410e-07,5.780048796376882e-15
	8.751964034309366e-07,7.704730101360066e-15
	1.179295855270519e-06,-1.065966951574649e-14
	1.243192388957419e-06,4.752223512127859e-13
	-4.667714094991480e-07,-3.980970962779470e-15
	-1.955716834728790e-06,-4.605817107342600e-13
	-1.179295855270517e-06,1.065966951574651e-14
	-1.243192388977743e-06,-4.752223512127858e-13
	-1.179295855270517e-06,1.065966951574651e-14
6		1.148153621496882e+00,0.000000000000000e+00
	-1.179295855270517e-02,1.090796511549218e-10
	1.000000000000000e+00,0.000000000000000e+00
	0.000000000000000e+00,0.000000000000000e+00
	8.751963131790410e-07,5.914683428373270e-15
	8.751964034309366e-07,7.884196320136339e-15
	1.179295855270519e-06,-1.090796511549220e-14
	1.243192388957419e-06,4.862917017712273e-13
	-4.667714094991480e-07,-4.073699688685400e-15
	-1.955716834728790e-06,-4.713100369670497e-13
	-1.179295855270517e-06,1.090796511549218e-14
	-1.243192388977743e-06,-4.862917017712271e-13
	-1.179295855270517e-06,1.090796511549218e-14
7		1.174897554939529e+00,0.000000000000000e+00
	-1.179295855270517e-02,1.116204426272608e-10
	1.000000000000000e+00,0.000000000000000e+00
	0.000000000000000e+00,0.000000000000000e+00
	8.751963131790410e-07,6.052454103813473e-15
	8.751964034309366e-07,8.067842844161226e-15
	1.179295855270519e-06,-1.116204426272606e-14
	1.243192388957419e-06,4.976188906267792e-13
	-4.667714094991480e-07,-4.168588344088059e-15
	-1.955716834728790e-06,-4.822882580199650e-13
	-1.179295855270517e-06,1.116204426272608e-14
	-1.243192388977743e-06,-4.976188906267791e-13
	-1.179295855270517e-06,1.116204426272608e-14
8		1.202264434617413e+00,0.000000000000000e+00
	-1.179295855270517e-02,1.142204167357519e-10
	1.000000000000000e+00,0.000000000000000e+00
	0.000000000000000e+00,0.000000000000000e+00
	8.751963131790410e-07,6.193433870533217e-15
	8.751964034309366e-07,8.255767045252609e-15
	1.179295855270519e-06,-1.142204167357525e-14
	1.243192388957419e-06,5.092099236049061e-13
	-4.667714094991480e-07,-4.265687240208543e-15
	-1.955716834728790e-06,-4.935221946911224e-13
	-1.179295855270517e-06,1.142204167357519e-14
	-1.243192388977743e-06,-5.092099236049061e-13
	-1.179295855270517e-06,1.142204167357519e-14
9		1.230268770812381e+00,0.000000000000000e+00
	-1.179295855270517e-02,1.168809520210823e-10
	1.000000000000000e+00,0.000000000000000e+00
	0.000000000000000e+00,0.000000000000000e+00
	8.751963131790410e-07,6.337697477870909e-15
	8.751964034309366e-07,8.448068563309382e-15
	1.179295855270519e-06,-1.168809520210818e-14
	1.243192388957419e-06,5.210709464247185e-13
	-4.667714094991480e-07,-4.365047860166832e-15
	-1.955716834728790e-06,-5.050178033624435e-13
	-1.179295855270517e-06,1.168809520210823e-14
	-1.243192388977743e-06,-5.210709464247186e-13
	-1.179295855270517e-06,1.168809520210823e-14
10		1.258925411794167e+00,0.000000000000000e+00
	-1.179295855270517e-02,1.196034591342765e-10
	1.000000000000000e+00,0.000000000000000e+00
	0.000000000000000e+00,0.000000000000000e+00
	8.751963131790409e-07,6.485321416300718e-15
	8.751964034309365e-07,8.644849359141834e-15
	1.179295855270519e-06,-1.196034591342776e-14
	1.243192388957419e-06,5.332082479575148e-13
	-4.667714094991479e-07,-4.466722886278822e-15
	-1.955716834728790e-06,-5.167811791578082e-13
	-1.179295855270517e-06,1.196034591342765e-14
	-1.243192388977743e-06,-5.332082479575147e-13
	-1.179295855270517e-06,1.196034591342765e-14
11		1.288249551693134e+00,0.000000000000000e+00
	-1.179295855270517e-02,1.223893815846428e-10
	1.000000000000000e+00,0.000000000000000e+00
	0.000000000000000e+00,0.000000000000000e+00
	8.751963131790409e-07,6.636383957988819e-15
	8.751964034309365e-07,8.846213768532608e-15
	1.179295855270519e-06,-1.223893815846419e-14
	1.243192388957419e-06,5.456282635612238e-13
	-4.667714094991479e-07,-4.570766227989185e-15
	-1.955716834728790e-06,-5.288185591747704e-13
	-1.179295855270517e-06,1.223893815846428e-14
	-1.243192388977743e-06,-5.456282635612236e-13
	-1.179295855270517e-06,1.223893815846428e-14
12		1.318256738556407e+00,0.000000000000000e+00
	-1.179295855270517e-02,1.252401965051401e-10
	1.000000000000000e+00,0.000000000000000e+00
	0.000000000000000e+00,0.000000000000000e+00
	8.751963131790409e-07,6.790965198294369e-15
	8.751964034309365e-07,9.052268557556937e-15
	1.179295855270519e-06,-1.252401965051406e-14
	1.243192388957419e-06,5.583375784925165e-13
	-4.667714094991479e-07,-4.677233050454866e-15
	-1.955716834728790e-06,-5.411363257915476e-13
	-1.179295855270517e-06,1.252401965051401e-14
	-1.243192388977743e-06,-5.583375784925164e-13
	-1.179295855270517e-06,1.252401965051401e-14
13		1.348962882591653e+00,0.000000000000000e+00
	-1.179295855270517e-02,1.281574154355745e-10
	1.000000000000000e+00,0.000000000000000e+00
	0.000000000000000e+00,0.000000000000000e+00
	8.751963131790409e-07,6.949147098237109e-15
	8.751964034309365e-07,9.263122979191423e-15
	1.179295855270519e-06,-1.281574154355747e-14
	1.243192388957419e-06,5.713429313983978e-13
	-4.667714094991479e-07,-4.786179803794399e-15
	-1.955716834728790e-06,-5.537410100510460e-13
	-1.179295855270517e-06,1.281574154355745e-14
	-1.243192388977743e-06,-5.713429313983976e-13
	-1.179295855270517e-06,1.281574154355745e-14
14		1.380384264602885e+00,0.000000000000000e+00
	-1.179295855270517e-02,1.311425851240367e-10
	1.000000000000000e+00,0.000000000000000e+00
	0.000000000000000e+00,0.000000000000000e+00
	8.751963131790409e-07,7.111013527954174e-15
	8.751964034309365e-07,9.478888831241407e-15
	1.179295855270519e-06,-1.311425851240371e-14
	1.243192388957419e-06,5.846512178891241e-13
	-4.667714094991479e-07,-4.897664253018484e-15
	-1.955716834728790e-06,-5.666392951237020e-13
	-1.179295855270517e-06,1.311425851240367e-14
	-1.243192388977743e-06,-5.846512178891239e-13
	-1.179295855270517e-06,1.311425851240367e-14
15		1.412537544622754e+00,0.000000000000000e+00
	-1.179295855270517e-02,1.341972883470090e-10
	1.000000000000000e+00,0.000000000000000e+00
	0.000000000000000e+00,0.000000000000000e+00
	8.751963131790409e-07,7.276650311169151e-15
	8.751964034309365e-07,9.699680515617641e-15
	1.179295855270519e-06,-1.341972883470097e-14
	1.243192388957419e-06,5.982694941943490e-13
	-4.667714094991479e-07,-5.011745508657770e-15
	-1.955716834728790e-06,-5.798380198509903e-13
	-1.179295855270517e-06,1.341972883470090e-14
	-1.243192388977743e-06,-5.982694941943488e-13
	-1.179295855270517e-06,1.341972883470090e-14
16		1.445439770745927e+00,0.000000000000000e+00
	-1.179295855270517e-02,1.373231447485741e-10
	1.000000000000000e+00,0.000000000000000e+00
	0.000000000000000e+00,0.000000000000000e+00
	8.751963131790409e-07,7.446145270696954e-15
	8.751964034309365e-07,9.925615098993697e-15
	1.179295855270519e-06,-1.373231447485732e-14
	1.243192388957419e-06,6.122049809044285e-13
	-4.667714094991479e-07,-5.128484058104036e-15
	-1.955716834728790e-06,-5.933441823714671e-13
	-1.179295855270517e-06,1.373231447485741e-14
	-1.243192388977743e-06,-6.122049809044284e-13
	-1.179295855270517e-06,1.373231447485741e-14
17		1.479108388168207e+00,0.000000000000000e+00
	-1.179295855270517e-02,1.405218116991715e-10
	1.000000000000000e+00,0.000000000000000e+00
	0.000000000000000e+00,0.000000000000000e+00
	8.751963131790409e-07,7.619588275008673e-15
	8.751964034309365e-07,1.015681237487630e-14
	1.179295855270519e-06,-1.405218116991714e-14
	1.243192388957419e-06,6.264650667988745e-13
	-4.667714094991479e-07,-5.247941797681425e-15
	-1.955716834728790e-06,-6.071649438312760e-13
	-1.179295855270517e-06,1.405218116991715e-14
	-1.243192388977743e-06,-6.264650667988744e-13
	-1.179295855270517e-06,1.405218116991715e-14
18		1.513561248436208e+00,0.000000000000000e+00
	-1.179295855270517e-02,1.437949851743578e-10
	1.000000000000000e+00,0.000000000000000e+00
	0.000000000000000e+00,0.000000000000000e+00
	8.751963131790409e-07,7.797071285880981e-15
	8.751964034309365e-07,1.039339492712136e-14
	1.179295855270519e-06,-1.437949851743582e-14
	1.243192388957419e-06,6.410573127639829e-13
	-4.667714094991479e-07,-5.370182065464668e-15
	-1.955716834728790e-06,-6.213076321810824e-13
	-1.179295855270517e-06,1.437949851743579e-14
	-1.243192388977743e-06,-6.410573127639827e-13
	-1.179295855270517e-06,1.437949851743579e-14
19		1.548816618912481e+00,0.000000000000000e+00
	-1.179295855270517e-02,1.471444006540353e-10
	1.000000000000000e+00,0.000000000000000e+00
	0.000000000000000e+00,0.000000000000000e+00
	8.751963131790409e-07,7.978688407155490e-15
	8.751964034309365e-07,1.063548819492962e-14
	1.179295855270519e-06,-1.471444006540351e-14
	1.243192388957419e-06,6.559894558017153e-13
	-4.667714094991479e-07,-5.495269674861778e-15
	-1.955716834728790e-06,-6.357797460614500e-13
	-1.179295855270517e-06,1.471444006540353e-14
	-1.243192388977743e-06,-6.559894558017152e-13
	-1.179295855270517e-06,1.471444006540353e-14
20		1.584893192461113e+00,0.000000000000000e+00
	-1.179295855270517e-02,1.505718340426260e-10
	1.000000000000000e+00,0.000000000000000e+00
	0.000000000000000e+00,0.000000000000000e+00
	8.751963131790409e-07,8.164535934633905e-15
	8.751964034309365e-07,1.088322053935617e-14
	1.179295855270519e-06,-1.505718340426264e-14
	1.243192388957419e-06,6.712694131319607e-13
	-4.667714094991479e-07,-5.623270948978995e-15
	-1.955716834728790e-06,-6.505889587787192e-13
	-1.179295855270517e-06,1.505718340426260e-14
	-1.243192388977743e-06,-6.712694131319606e-13
	-1.179295855270517e-06,1.505718340426260e-14
21		1.621810097358929e+00,0.000000000000000e+00
	-1.179295855270517e-02,1.540791026106798e-10
	1.000000000000000e+00,0.000000000000000e+00
	0.000000000000000e+00,0.000000000000000e+00
	8.751963131790409e-07,8.354712407135271e-15
	8.751964034309365e-07,1.113672331136914e-14
	1.179295855270519e-06,-1.540791026106799e-14
	1.243192388957419e-06,6.869052863903498e-13
	-4.667714094991479e-07,-5.754253755786151e-15
	-1.955716834728790e-06,-6.657431223734956e-13
	-1.179295855270517e-06,1.540791026106798e-14
	-1.243192388977743e-06,-6.869052863903497e-13
	-1.179295855270517e-06,1.540791026106798e-14
22		1.659586907437560e+00,0.000000000000000e+00
	-1.179295855270517e-02,1.576680659584159e-10
	1.000000000000000e+00,0.000000000000000e+00
	0.000000000000000e+00,0.000000000000000e+00
	8.751963131790409e-07,8.549318658742602e-15
	8.751964034309365e-07,1.139613092149376e-14
	1.179295855270519e-06,-1.576680659584164e-14
	1.243192388957419e-06,7.029053659238494e-13
	-4.667714094991479e-07,-5.888287544101182e-15
	-1.955716834728790e-06,-6.812502717839065e-13
	-1.179295855270517e-06,1.576680659584159e-14
	-1.243192388977743e-06,-7.029053659238492e-13
	-1.179295855270517e-06,1.576680659584159e-14
23		1.698243652461743e+00,0.000000000000000e+00
	-1.179295855270517e-02,1.613406270017067e-10
	1.000000000000000e+00,0.000000000000000e+00
	0.000000000000000e+00,0.000000000000000e+00
	8.751963131790409e-07,8.748457872266400e-15
	8.751964034309365e-07,1.166158091107858e-14
	1.179295855270519e-06,-1.613406270017072e-14
	1.243192388957419e-06,7.192781351864144e-13
	-4.667714094991479e-07,-6.025443380412791e-15
	-1.955716834728790e-06,-6.971186291058309e-13
	-1.179295855270517e-06,1.613406270017067e-14
	-1.243192388977743e-06,-7.192781351864143e-13
	-1.179295855270517e-06,1.613406270017067e-14
24		1.737800828749374e+00,0.000000000000000e+00
	-1.179295855270517e-02,1.650987329810295e-10
	1.000000000000000e+00,0.000000000000000e+00
	0.000000000000000e+00,0.000000000000000e+00
	8.751963131790409e-07,8.952235633953599e-15
	8.751964034309365e-07,1.193321402522172e-14
	1.179295855270519e-06,-1.650987329810293e-14
	1.243192388957419e-06,7.360322752370268e-13
	-4.667714094991479e-07,-6.165793986560865e-15
	-1.955716834728790e-06,-7.133566079523629e-13
	-1.179295855270517e-06,1.650987329810295e-14
	-1.243192388977743e-06,-7.360322752370265e-13
	-1.179295855270517e-06,1.650987329810295e-14
25		1.778279410038922e+00,0.000000000000000e+00
	-1.179295855270517e-02,1.689443764939189e-10
	1.000000000000000e+00,0.000000000000000e+00
	0.000000000000000e+00,0.000000000000000e+00
	8.751963131790409e-07,9.160759989470768e-15
	8.751964034309365e-07,1.221117428739579e-14
	1.179295855270519e-06,-1.689443764939186e-14
	1.243192388957419e-06,7.531766693425085e-13
	-4.667714094991479e-07,-6.309413778294545e-15
	-1.955716834728790e-06,-7.299728179148222e-13
	-1.179295855270517e-06,1.689443764939189e-14
	-1.243192388977743e-06,-7.531766693425083e-13
	-1.179295855270517e-06,1.689443764939189e-14
26		1.819700858609982e+00,0.000000000000000e+00
	-1.179295855270517e-02,1.728795965514686e-10
	1.000000000000000e+00,0.000000000000000e+00
	0.000000000000000e+00,0.000000000000000e+00
	8.751963131790409e-07,9.374141501191348e-15
	8.751964034309365e-07,1.249560907581104e-14
	1.179295855270519e-06,-1.728795965514680e-14
	1.243192388957419e-06,7.707204076875477e-13
	-4.667714094991479e-07,-6.456378904728443e-15
	-1.955716834728790e-06,-7.469760691276724e-13
	-1.179295855270517e-06,1.728795965514686e-14
	-1.243192388977743e-06,-7.707204076875474e-13
	-1.179295855270517e-06,1.728795965514686e-14
27		1.862087136662866e+00,0.000000000000000e+00
	-1.179295855270517e-02,1.769064796594418e-10
	1.000000000000000e+00,0.000000000000000e+00
	0.000000000000000e+00,0.000000000000000e+00
	8.751963131790409e-07,9.592493306817297e-15
	8.751964034309365e-07,1.278666920155723e-14
	1.179295855270519e-06,-1.769064796594421e-14
	1.243192388957419e-06,7.886727921944332e-13
	-4.667714094991479e-07,-6.606767288717908e-15
	-1.955716834728790e-06,-7.643753769397712e-13
	-1.179295855270517e-06,1.769064796594418e-14
	-1.243192388977743e-06,-7.886727921944332e-13
	-1.179295855270517e-06,1.769064796594418e-14
28		1.905460717963246e+00,0.000000000000000e+00
	-1.179295855270517e-02,1.810271609245645e-10
	1.000000000000000e+00,0.000000000000000e+00
	0.000000000000000e+00,0.000000000000000e+00
	8.751963131790409e-07,9.815931179366185e-15
	8.751964034309365e-07,1.308450898856566e-14
	1.179295855270519e-06,-1.810271609245645e-14
	1.243192388957419e-06,8.070433414550589e-13
	-4.667714094991479e-07,-6.760658668174756e-15
	-1.955716834728790e-06,-7.821799666944277e-13
	-1.179295855270517e-06,1.810271609245645e-14
	-1.243192388977743e-06,-8.070433414550590e-13
	-1.179295855270517e-06,1.810271609245645e-14
29		1.949844599758044e+00,0.000000000000000e+00
	-1.179295855270517e-02,1.852438251865873e-10
	1.000000000000000e+00,0.000000000000000e+00
	0.000000000000000e+00,0.000000000000000e+00
	8.751963131790409e-07,1.004457358855557e-14
	8.751964034309365e-07,1.338928635543378e-14
	1.179295855270519e-06,-1.852438251865869e-14
	1.243192388957419e-06,8.258417957778057e-13
	-4.667714094991479e-07,-6.918134638345362e-15
	-1.955716834728790e-06,-8.003992786208017e-13
	-1.179295855270517e-06,1.852438251865873e-14
	-1.243192388977743e-06,-8.258417957778057e-13
	-1.179295855270517e-06,1.852438251865873e-14
30		1.995262314968878e+00,0.000000000000000e+00
	-1.179295855270517e-02,1.895587081767158e-10
	1.000000000000000e+00,0.000000000000000e+00
	0.000000000000000e+00,0.000000000000000e+00
	8.751963131790408e-07,1.027854176361726e-14
	8.751964034309365e-07,1.370116289915570e-14
	1.179295855270519e-06,-1.895587081767162e-14
	1.243192388957419e-06,8.450781223519823e-13
	-4.667714094991479e-07,-7.079278695073555e-15
	-1.955716834728790e-06,-8.190429728392371e-13
	-1.179295855270517e-06,1.895587081767158e-14
	-1.243192388977743e-06,-8.450781223519820e-13
	-1.179295855270517e-06,1.895587081767158e-14
31		2.041737944669527e+00,0.000000000000000e+00
	-1.179295855270517e-02,1.939740977030257e-10
	1.000000000000000e+00,0.000000000000000e+00
	0.000000000000000e+00,0.000000000000000e+00
	8.751963131790408e-07,1.051795975757461e-14
	8.751964034309365e-07,1.402030398080309e-14
	1.179295855270519e-06,-1.939740977030263e-14
	1.243192388957419e-06,8.647625205325611e-13
	-4.667714094991479e-07,-7.244176279071211e-15
	-1.955716834728790e-06,-8.381209344831873e-13
	-1.179295855270517e-06,1.939740977030257e-14
	-1.243192388977743e-06,-8.647625205325611e-13
	-1.179295855270517e-06,1.939740977030257e-14
32		2.089296130854037e+00,0.000000000000000e+00
	-1.179295855270517e-02,1.984923348634886e-10
	1.000000000000000e+00,0.000000000000000e+00
	0.000000000000000e+00,0.000000000000000e+00
	8.751963131790408e-07,1.076295451301708e-14
