Title: * GA CMOS Amp | W=4.74967331491032e-05 L=4.925613457281568e-07 Vbias=1.0660213913075829
Date: Mon Sep  8 18:44:37 2025
Plotname: AC Analysis
Flags: complex forward log
No. Variables: 11
No. Points:          901
Offset:    0.0000000000000000e+00
Command: Linear Technology Corporation LTspice
Variables:
	0	frequency	frequency
	1	V(out)	voltage
	2	V(g)	voltage
	3	V(vdd)	voltage
	4	Id(M1)	device_current
	5	Ig(M1)	device_current
	6	Ib(M1)	device_current
	7	Is(M1)	device_current
	8	I(Rload)	device_current
	9	I(Vg)	device_current
	10	I(Vdd)	device_current
Values:
0		1.000000000000000e+00,0.000000000000000e+00
	-6.545607296002860e-02,2.238114830529461e-11
	1.000000000000000e+00,0.000000000000000e+00
	0.000000000000000e+00,0.000000000000000e+00
	6.545607296002927e-06,-2.238114830529495e-15
	3.009295392724920e-24,2.790963651763374e-13
	7.504316178880144e-14,2.329329551786761e-16
	-6.545607371046089e-06,-2.770911833009866e-13
	-6.545607296002860e-06,2.238114830529461e-15
	-3.009295392724920e-24,-2.790963651763374e-13
	-6.545607296002860e-06,2.238114830529461e-15
1		1.023292992280754e+00,0.000000000000000e+00
	-6.545607296002860e-02,2.290247222000426e-11
	1.000000000000000e+00,0.000000000000000e+00
	0.000000000000000e+00,0.000000000000000e+00
	6.545607296002927e-06,-2.290247222000449e-15
	3.151119115240308e-24,2.855973546559764e-13
	7.504316178880144e-14,2.383586607056547e-16
	-6.545607371046089e-06,-2.835454660946816e-13
	-6.545607296002860e-06,2.290247222000426e-15
	-3.151119115240308e-24,-2.855973546559764e-13
	-6.545607296002860e-06,2.290247222000426e-15
2		1.047128548050899e+00,0.000000000000000e+00
	-6.545607296002860e-02,2.343593932863500e-11
	1.000000000000000e+00,0.000000000000000e+00
	0.000000000000000e+00,0.000000000000000e+00
	6.545607296002927e-06,-2.343593932863509e-15
	3.299626783877018e-24,2.922497716333818e-13
	7.504316178880144e-14,2.439107471494719e-16
	-6.545607371046089e-06,-2.901500884476677e-13
	-6.545607296002860e-06,2.343593932863500e-15
	-3.299626783877018e-24,-2.922497716333818e-13
	-6.545607296002860e-06,2.343593932863500e-15
3		1.071519305237606e+00,0.000000000000000e+00
	-6.545607296002860e-02,2.398183248250911e-11
	1.000000000000000e+00,0.000000000000000e+00
	0.000000000000000e+00,0.000000000000000e+00
	6.545607296002927e-06,-2.398183248250942e-15
	3.455133403311001e-24,2.990571433080903e-13
	7.504316178880144e-14,2.495921583000708e-16
	-6.545607371046089e-06,-2.969085522181394e-13
	-6.545607296002860e-06,2.398183248250911e-15
	-3.455133403311001e-24,-2.990571433080903e-13
	-6.545607296002860e-06,2.398183248250911e-15
4		1.096478196143185e+00,0.000000000000000e+00
	-6.545607296002860e-02,2.454044112140253e-11
	1.000000000000000e+00,0.000000000000000e+00
	0.000000000000000e+00,0.000000000000000e+00
	6.545607296002927e-06,-2.454044112140285e-15
	3.617968823931209e-24,3.060230790386699e-13
	7.504316178880144e-14,2.554059065167491e-16
	-6.545607371046089e-06,-3.038244408330464e-13
	-6.545607296002860e-06,2.454044112140253e-15
	-3.617968823931209e-24,-3.060230790386699e-13
	-6.545607296002860e-06,2.454044112140253e-15
5		1.122018454301963e+00,0.000000000000000e+00
	-6.545607296002860e-02,2.511206142700967e-11
	1.000000000000000e+00,0.000000000000000e+00
	0.000000000000000e+00,0.000000000000000e+00
	6.545607296002927e-06,-2.511206142700978e-15
	3.788478441496510e-24,3.131512722564503e-13
	7.504316178880144e-14,2.613550743256471e-16
	-6.545607371046089e-06,-3.109014211880750e-13
	-6.545607296002860e-06,2.511206142700967e-15
	-3.788478441496510e-24,-3.131512722564503e-13
	-6.545607296002860e-06,2.511206142700967e-15
6		1.148153621496882e+00,0.000000000000000e+00
	-6.545607296002860e-02,2.569699647998282e-11
	1.000000000000000e+00,0.000000000000000e+00
	0.000000000000000e+00,0.000000000000000e+00
	6.545607296002927e-06,-2.569699647998285e-15
	3.967023929766374e-24,3.204455024238282e-13
	7.504316178880144e-14,2.674428160544188e-16
	-6.545607371046089e-06,-3.181432455918843e-13
	-6.545607296002860e-06,2.569699647998282e-15
	-3.967023929766374e-24,-3.204455024238282e-13
	-6.545607296002860e-06,2.569699647998282e-15
7		1.174897554939529e+00,0.000000000000000e+00
	-6.545607296002860e-02,2.629555642062963e-11
	1.000000000000000e+00,0.000000000000000e+00
	0.000000000000000e+00,0.000000000000000e+00
	6.545607296002927e-06,-2.629555642062974e-15
	4.153984007659436e-24,3.279096370381887e-13
	7.504316178880144e-14,2.736723595043649e-16
	-6.545607371046089e-06,-3.255537537556301e-13
	-6.545607296002860e-06,2.629555642062963e-15
	-4.153984007659436e-24,-3.279096370381887e-13
	-6.545607296002860e-06,2.629555642062963e-15
8		1.202264434617413e+00,0.000000000000000e+00
	-6.545607296002860e-02,2.690805861335349e-11
	1.000000000000000e+00,0.000000000000000e+00
	0.000000000000000e+00,0.000000000000000e+00
	6.545607296002927e-06,-2.690805861335373e-15
	4.349755242567084e-24,3.355476336825042e-13
	7.504316178880144e-14,2.800470076616925e-16
	-6.545607371046089e-06,-3.331368748288305e-13
	-6.545607296002860e-06,2.690805861335349e-15
	-4.349755242567084e-24,-3.355476336825042e-13
	-6.545607296002860e-06,2.690805861335349e-15
9		1.230268770812381e+00,0.000000000000000e+00
	-6.545607296002860e-02,2.753482781492441e-11
	1.000000000000000e+00,0.000000000000000e+00
	0.000000000000000e+00,0.000000000000000e+00
	6.545607296002927e-06,-2.753482781492470e-15
	4.554752891526057e-24,3.433635421236961e-13
	7.504316178880144e-14,2.865701404494174e-16
	-6.545607371046089e-06,-3.408966294826530e-13
	-6.545607296002860e-06,2.753482781492441e-15
	-4.554752891526057e-24,-3.433635421236961e-13
	-6.545607296002860e-06,2.753482781492441e-15
10		1.258925411794167e+00,0.000000000000000e+00
	-6.545607296002860e-02,2.817619634666934e-11
	1.000000000000000e+00,0.000000000000000e+00
	0.000000000000000e+00,0.000000000000000e+00
	6.545607296002927e-06,-2.817619634666935e-15
	4.769411782034318e-24,3.513615064598757e-13
	7.504316178880144e-14,2.932452165187985e-16
	-6.545607371046089e-06,-3.488371320417276e-13
	-6.545607296002860e-06,2.817619634666935e-15
	-4.769411782034318e-24,-3.513615064598757e-13
	-6.545607296002860e-06,2.817619634666935e-15
11		1.288249551693134e+00,0.000000000000000e+00
	-6.545607296002860e-02,2.883250427067333e-11
	1.000000000000000e+00,0.000000000000000e+00
	0.000000000000000e+00,0.000000000000000e+00
	6.545607296002927e-06,-2.883250427067349e-15
	4.994187234378449e-24,3.595457673175998e-13
	7.504316178880144e-14,3.000757750835584e-16
	-6.545607371046089e-06,-3.569625926656160e-13
	-6.545607296002860e-06,2.883250427067333e-15
	-4.994187234378449e-24,-3.595457673175998e-13
	-6.545607296002860e-06,2.883250427067333e-15
12		1.318256738556407e+00,0.000000000000000e+00
	-6.545607296002860e-02,2.950409957008493e-11
	1.000000000000000e+00,0.000000000000000e+00
	0.000000000000000e+00,0.000000000000000e+00
	6.545607296002927e-06,-2.950409957008511e-15
	5.229556027429042e-24,3.679206641003064e-13
	7.504316178880144e-14,3.070654377962371e-16
	-6.545607371046089e-06,-3.652773195810942e-13
	-6.545607296002860e-06,2.950409957008493e-15
	-5.229556027429042e-24,-3.679206641003064e-13
	-6.545607296002860e-06,2.950409957008493e-15
13		1.348962882591653e+00,0.000000000000000e+00
	-6.545607296002860e-02,3.019133833362152e-11
	1.000000000000000e+00,0.000000000000000e+00
	0.000000000000000e+00,0.000000000000000e+00
	6.545607296002927e-06,-3.019133833362172e-15
	5.476017409952604e-24,3.764906372891248e-13
	7.504316178880144e-14,3.142179106684935e-16
	-6.545607371046089e-06,-3.737857213664312e-13
	-6.545607296002860e-06,3.019133833362152e-15
	-5.476017409952604e-24,-3.764906372891248e-13
	-6.545607296002860e-06,3.019133833362152e-15
14		1.380384264602885e+00,0.000000000000000e+00
	-6.545607296002860e-02,3.089458494437220e-11
	1.000000000000000e+00,0.000000000000000e+00
	0.000000000000000e+00,0.000000000000000e+00
	6.545607296002927e-06,-3.089458494437264e-15
	5.734094159585118e-24,3.852602307972766e-13
	7.504316178880144e-14,3.215369860361395e-16
	-6.545607371046089e-06,-3.824923092888755e-13
	-6.545607296002860e-06,3.089458494437220e-15
	-5.734094159585118e-24,-3.852602307972766e-13
	-6.545607296002860e-06,3.089458494437220e-15
15		1.412537544622754e+00,0.000000000000000e+00
	-6.545607296002860e-02,3.161421227299857e-11
	1.000000000000000e+00,0.000000000000000e+00
	0.000000000000000e+00,0.000000000000000e+00
	6.545607296002927e-06,-3.161421227299881e-15
	6.004333691713507e-24,3.942340943793191e-13
	7.504316178880144e-14,3.290265445698637e-16
	-6.545607371046089e-06,-3.914016996965891e-13
	-6.545607296002860e-06,3.161421227299857e-15
	-6.004333691713507e-24,-3.942340943793191e-13
	-6.545607296002860e-06,3.161421227299857e-15
16		1.445439770745927e+00,0.000000000000000e+00
	-6.545607296002860e-02,3.235060187543564e-11
	1.000000000000000e+00,0.000000000000000e+00
	0.000000000000000e+00,0.000000000000000e+00
	6.545607296002927e-06,-3.235060187543565e-15
	6.287309220617061e-24,4.034169860965066e-13
	7.504316178880144e-14,3.366905573326825e-16
	-6.545607371046089e-06,-4.005186164662957e-13
	-6.545607296002860e-06,3.235060187543565e-15
	-6.287309220617061e-24,-4.034169860965066e-13
	-6.545607296002860e-06,3.235060187543565e-15
17		1.479108388168207e+00,0.000000000000000e+00
	-6.545607296002860e-02,3.310414419519791e-11
	1.000000000000000e+00,0.000000000000000e+00
	0.000000000000000e+00,0.000000000000000e+00
	6.545607296002927e-06,-3.310414419519816e-15
	6.583620975331773e-24,4.128137748395776e-13
	7.504316178880144e-14,3.445330878856299e-16
	-6.545607371046089e-06,-4.098478935079435e-13
	-6.545607296002860e-06,3.310414419519791e-15
	-6.583620975331773e-24,-4.128137748395776e-13
	-6.545607296002860e-06,3.310414419519791e-15
18		1.513561248436208e+00,0.000000000000000e+00
	-6.545607296002860e-02,3.387523877039763e-11
	1.000000000000000e+00,0.000000000000000e+00
	0.000000000000000e+00,0.000000000000000e+00
	6.545607296002927e-06,-3.387523877039774e-15
	6.893897472816608e-24,4.224294429103049e-13
	7.504316178880144e-14,3.525582944422444e-16
	-6.545607371046089e-06,-4.193944773277074e-13
	-6.545607296002860e-06,3.387523877039763e-15
	-6.893897472816608e-24,-4.224294429103049e-13
	-6.545607296002860e-06,3.387523877039763e-15
19		1.548816618912481e+00,0.000000000000000e+00
	-6.545607296002860e-02,3.466429444558520e-11
	1.000000000000000e+00,0.000000000000000e+00
	0.000000000000000e+00,0.000000000000000e+00
	6.545607296002927e-06,-3.466429444558552e-15
	7.218796851122219e-24,4.322690886631779e-13
	7.504316178880144e-14,3.607704320732397e-16
	-6.545607371046089e-06,-4.291634296506926e-13
	-6.545607296002860e-06,3.466429444558520e-15
	-7.218796851122219e-24,-4.322690886631779e-13
	-6.545607296002860e-06,3.466429444558520e-15
20		1.584893192461113e+00,0.000000000000000e+00
	-6.545607296002860e-02,3.547172958852400e-11
	1.000000000000000e+00,0.000000000000000e+00
	0.000000000000000e+00,0.000000000000000e+00
	6.545607296002927e-06,-3.547172958852427e-15
	7.559008265390016e-24,4.423379292086179e-13
	7.504316178880144e-14,3.691738549626211e-16
	-6.545607371046089e-06,-4.391599301047281e-13
	-6.545607296002860e-06,3.547172958852401e-15
	-7.559008265390016e-24,-4.423379292086179e-13
	-6.545607296002860e-06,3.547172958852401e-15
21		1.621810097358929e+00,0.000000000000000e+00
	-6.545607296002860e-02,3.629797231201449e-11
	1.000000000000000e+00,0.000000000000000e+00
	0.000000000000000e+00,0.000000000000000e+00
	6.545607296002927e-06,-3.629797231201460e-15
	7.915253349642594e-24,4.526413031791590e-13
	7.504316178880144e-14,3.777730187164611e-16
	-6.545607371046089e-06,-4.493892789666740e-13
	-6.545607296002860e-06,3.629797231201449e-15
	-7.915253349642594e-24,-4.526413031791590e-13
	-6.545607296002860e-06,3.629797231201449e-15
22		1.659586907437560e+00,0.000000000000000e+00
	-6.545607296002860e-02,3.714346070088527e-11
	1.000000000000000e+00,0.000000000000000e+00
	0.000000000000000e+00,0.000000000000000e+00
	6.545607296002927e-06,-3.714346070088566e-15
	8.288287747466269e-24,4.631846735600616e-13
	7.504316178880144e-14,3.865724827253667e-16
	-6.545607371046089e-06,-4.598568999726984e-13
	-6.545607296002860e-06,3.714346070088527e-15
	-8.288287747466269e-24,-4.631846735600616e-13
	-6.545607296002860e-06,3.714346070088527e-15
23		1.698243652461743e+00,0.000000000000000e+00
	-6.545607296002860e-02,3.800864304427149e-11
	1.000000000000000e+00,0.000000000000000e+00
	0.000000000000000e+00,0.000000000000000e+00
	6.545607296002927e-06,-3.800864304427194e-15
	8.678902714832416e-24,4.739736305858598e-13
	7.504316178880144e-14,3.955769125813735e-16
	-6.545607371046089e-06,-4.705683431940140e-13
	-6.545607296002860e-06,3.800864304427149e-15
	-8.678902714832416e-24,-4.739736305858598e-13
	-6.545607296002860e-06,3.800864304427149e-15
24		1.737800828749374e+00,0.000000000000000e+00
	-6.545607296002860e-02,3.889397807330364e-11
	1.000000000000000e+00,0.000000000000000e+00
	0.000000000000000e+00,0.000000000000000e+00
	6.545607296002927e-06,-3.889397807330396e-15
	9.087926798457475e-24,4.850138947043771e-13
	7.504316178880144e-14,4.047910825527214e-16
	-6.545607371046089e-06,-4.815292879795994e-13
	-6.545607296002860e-06,3.889397807330364e-15
	-9.087926798457475e-24,-4.850138947043771e-13
	-6.545607296002860e-06,3.889397807330364e-15
25		1.778279410038922e+00,0.000000000000000e+00
	-6.545607296002860e-02,3.979993520433292e-11
	1.000000000000000e+00,0.000000000000000e+00
	0.000000000000000e+00,0.000000000000000e+00
	6.545607296002927e-06,-3.979993520433293e-15
	9.516227593261637e-24,4.963113196097848e-13
	7.504316178880144e-14,4.142198781137128e-16
	-6.545607371046089e-06,-4.927455459674652e-13
	-6.545607296002860e-06,3.979993520433292e-15
	-9.516227593261637e-24,-4.963113196097848e-13
	-6.545607296002860e-06,3.979993520433292e-15
26		1.819700858609982e+00,0.000000000000000e+00
	-6.545607296002860e-02,4.072699478782196e-11
	1.000000000000000e+00,0.000000000000000e+00
	0.000000000000000e+00,0.000000000000000e+00
	6.545607296002927e-06,-4.072699478782253e-15
	9.964713582653960e-24,5.078718953463062e-13
	7.504316178880144e-14,4.238682985373263e-16
	-6.545607371046089e-06,-5.042230641660613e-13
	-6.545607296002860e-06,4.072699478782196e-15
	-9.964713582653960e-24,-5.078718953463062e-13
	-6.545607296002860e-06,4.072699478782196e-15
27		1.862087136662866e+00,0.000000000000000e+00
	-6.545607296002860e-02,4.167564836303301e-11
	1.000000000000000e+00,0.000000000000000e+00
	0.000000000000000e+00,0.000000000000000e+00
	6.545607296002927e-06,-4.167564836303309e-15
	1.043433606554752e-23,5.197017514842197e-13
	7.504316178880144e-14,4.337414595431639e-16
	-6.545607371046089e-06,-5.159679281074596e-13
	-6.545607296002860e-06,4.167564836303301e-15
	-1.043433606554752e-23,-5.197017514842197e-13
	-6.545607296002860e-06,4.167564836303301e-15
28		1.905460717963246e+00,0.000000000000000e+00
	-6.545607296002860e-02,4.264639891864856e-11
	1.000000000000000e+00,0.000000000000000e+00
	0.000000000000000e+00,0.000000000000000e+00
	6.545607296002927e-06,-4.264639891864862e-15
	1.092609117419191e-23,5.318071603698360e-13
	7.504316178880144e-14,4.438445960121926e-16
	-6.545607371046089e-06,-5.279863650739833e-13
	-6.545607296002860e-06,4.264639891864856e-15
	-1.092609117419191e-23,-5.318071603698360e-13
	-6.545607296002860e-06,4.264639891864856e-15
29		1.949844599758044e+00,0.000000000000000e+00
	-6.545607296002860e-02,4.363976115946260e-11
	1.000000000000000e+00,0.000000000000000e+00
	0.000000000000000e+00,0.000000000000000e+00
	6.545607296002927e-06,-4.363976115946281e-15
	1.144102198710332e-23,5.441945404511804e-13
	7.504316178880144e-14,4.541830647609097e-16
	-6.545607371046089e-06,-5.402847473999950e-13
	-6.545607296002860e-06,4.363976115946260e-15
	-1.144102198710332e-23,-5.441945404511804e-13
	-6.545607296002860e-06,4.363976115946260e-15
30		1.995262314968878e+00,0.000000000000000e+00
	-6.545607296002860e-02,4.465626177928391e-11
	1.000000000000000e+00,0.000000000000000e+00
	0.000000000000000e+00,0.000000000000000e+00
	6.545607296002927e-06,-4.465626177928395e-15
	1.198022074157392e-23,5.568704596811383e-13
	7.504316178880144e-14,4.647623473823525e-16
	-6.545607371046089e-06,-5.528695958505923e-13
	-6.545607296002860e-06,4.465626177928391e-15
	-1.198022074157392e-23,-5.568704596811383e-13
	-6.545607296002860e-06,4.465626177928391e-15
31		2.041737944669527e+00,0.000000000000000e+00
	-6.545607296002860e-02,4.569643974019610e-11
	1.000000000000000e+00,0.000000000000000e+00
	0.000000000000000e+00,0.000000000000000e+00
	6.545607296002927e-06,-4.569643974019630e-15
	1.254483115045356e-23,5.698416389998710e-13
	7.504316178880144e-14,4.755880531523377e-16
	-6.545607371046089e-06,-5.657475830790037e-13
	-6.545607296002860e-06,4.569643974019611e-15
	-1.254483115045356e-23,-5.698416389998710e-13
	-6.545607296002860e-06,4.569643974019611e-15
32		2.089296130854037e+00,0.000000000000000e+00
	-6.545607296002860e-02,4.676084655832243e-11
	1.000000000000000e+00,0.000000000000000e+00
	0.000000000000000e+00,0.000000000000000e+00
	6.545607296002927e-06,-4.676084655832259e-15
	1.313605082811813e-23,5.831149558983473e-13
	7.504316178880144e-14,4.866659220031013e-16
	-6.545607371046089e-06,-5.789255371645182e-13
	-6.545607296002860e-06,4.676084655832244e-15
	-1.313605082811813e-23,-5.831149558983473e-13
	-6.545607296002860e-06,4.676084655832244e-15
33		2.137962089502230e+00,0.000000000000000e+00
	-6.545607296002860e-02,4.785004659624697e-11
	1.000000000000000e+00,0.000000000000000e+00
	0.000000000000000e+00,0.000000000000000e+00
	6.545607296002927e-06,-4.785004659624778e-15
	1.375513383077016e-23,5.966974480648797e-13
	7.504316178880144e-14,4.980018275678214e-16
	-6.545607371046089e-06,-5.924104452328228e-13
	-6.545607296002860e-06,4.785004659624697e-15
	-1.375513383077016e-23,-5.966974480648797e-13
	-6.545607296002860e-06,4.785004659624697e-15
34		2.187761623949550e+00,0.000000000000000e+00
	-6.545607296002860e-02,4.896461736224707e-11
	1.000000000000000e+00,0.000000000000000e+00
	0.000000000000000e+00,0.000000000000000e+00
	6.545607296002927e-06,-4.896461736224757e-15
	1.440339331646016e-23,6.105963171166007e-13
	7.504316178880144e-14,5.096017802931990e-16
	-6.545607371046089e-06,-6.062094571606691e-13
	-6.545607296002860e-06,4.896461736224708e-15
	-1.440339331646016e-23,-6.105963171166007e-13
	-6.545607296002860e-06,4.896461736224708e-15
35		2.238721138568337e+00,0.000000000000000e+00
	-6.545607296002860e-02,5.010514981649597e-11
	1.000000000000000e+00,0.000000000000000e+00
	0.000000000000000e+00,0.000000000000000e+00
	6.545607296002927e-06,-5.010514981649616e-15
	1.508220433047096e-23,6.248189324178545e-13
	7.504316178880144e-14,5.214719306277682e-16
	-6.545607371046089e-06,-6.203298893668326e-13
	-6.545607296002860e-06,5.010514981649597e-15
	-1.508220433047096e-23,-6.248189324178545e-13
	-6.545607296002860e-06,5.010514981649597e-15
36		2.290867652767770e+00,0.000000000000000e+00
	-6.545607296002860e-02,5.127224868439764e-11
	1.000000000000000e+00,0.000000000000000e+00
	0.000000000000000e+00,0.000000000000000e+00
	6.545607296002927e-06,-5.127224868439774e-15
	1.579300672197304e-23,6.393728349875325e-13
	7.504316178880144e-14,5.336185722825048e-16
	-6.545607371046089e-06,-6.347792286913753e-13
	-6.545607296002860e-06,5.127224868439765e-15
	-1.579300672197304e-23,-6.393728349875325e-13
	-6.545607296002860e-06,5.127224868439765e-15
37		2.344228815319919e+00,0.000000000000000e+00
	-6.545607296002860e-02,5.246653277722022e-11
	1.000000000000000e+00,0.000000000000000e+00
	0.000000000000000e+00,0.000000000000000e+00
	6.545607296002927e-06,-5.246653277722047e-15
	1.653730819813773e-23,6.542657414974211e-13
	7.504316178880144e-14,5.460481455675687e-16
	-6.545607371046089e-06,-6.495651363652666e-13
	-6.545607296002860e-06,5.246653277722022e-15
	-1.653730819813773e-23,-6.542657414974211e-13
	-6.545607296002860e-06,5.246653277722022e-15
38		2.398832919019488e+00,0.000000000000000e+00
	-6.545607296002860e-02,5.368863532019794e-11
	1.000000000000000e+00,0.000000000000000e+00
	0.000000000000000e+00,0.000000000000000e+00
