Title: * GA CMOS Amp | W=3.132583957716769e-06 L=9.025051876515391e-07 Vbias=1.4519767307771936
Date: Sat Sep  6 22:12:23 2025
Plotname: AC Analysis
Flags: complex forward log
No. Variables: 13
No. Points:          901
Offset:    0.0000000000000000e+00
Command: Linear Technology Corporation LTspice
Variables:
	0	frequency	frequency
	1	V(out)	voltage
	2	V(g)	voltage
	3	V(vdd)	voltage
	4	V(m1#dbody)	voltage
	5	V(m1#sbody)	voltage
	6	Id(M1)	device_current
	7	Ig(M1)	device_current
	8	Ib(M1)	device_current
	9	Is(M1)	device_current
	10	I(Rload)	device_current
	11	I(Vg)	device_current
	12	I(Vdd)	device_current
Values:
0		1.000000000000000e+00,0.000000000000000e+00
	-1.020732007295319e-01,1.253494724940551e-09
	1.000000000000000e+00,0.000000000000000e+00
	0.000000000000000e+00,0.000000000000000e+00
	7.460899656967218e-05,1.334339746735408e-13
	7.460899733521372e-05,1.399356612245685e-13
	1.020732007295319e-05,-1.253494724940551e-13
	4.573294672003021e-05,6.591058346722792e-13
	-3.979146522448162e-05,-7.420243134829075e-14
	-1.614880156850177e-05,-4.595539308299334e-13
	-1.020732007295319e-05,1.253494724940551e-13
	-4.573294671983419e-05,-6.591058346722792e-13
	-1.020732007295319e-05,1.253494724940551e-13
1		1.023292992280754e+00,0.000000000000000e+00
	-1.020732007295319e-01,1.282692367892557e-09
	1.000000000000000e+00,0.000000000000000e+00
	0.000000000000000e+00,0.000000000000000e+00
	7.460899656967218e-05,1.365420512156019e-13
	7.460899733521372e-05,1.431951815012745e-13
	1.020732007295319e-05,-1.282692367892557e-13
	4.573294672003021e-05,6.744583817915006e-13
	-3.979146522448162e-05,-7.593082800889965e-14
	-1.614880156850177e-05,-4.702583169933452e-13
	-1.020732007295319e-05,1.282692367892557e-13
	-4.573294671983419e-05,-6.744583817915007e-13
	-1.020732007295319e-05,1.282692367892557e-13
2		1.047128548050899e+00,0.000000000000000e+00
	-1.020732007295319e-01,1.312570111316460e-09
	1.000000000000000e+00,0.000000000000000e+00
	0.000000000000000e+00,0.000000000000000e+00
	7.460899656967218e-05,1.397225241605652e-13
	7.460899733521372e-05,1.465306257586249e-13
	1.020732007295319e-05,-1.312570111316461e-13
	4.573294672003021e-05,6.901685356722600e-13
	-3.979146522448162e-05,-7.769948419958222e-14
	-1.614880156850177e-05,-4.812120403410316e-13
	-1.020732007295319e-05,1.312570111316460e-13
	-4.573294671983419e-05,-6.901685356722599e-13
	-1.020732007295319e-05,1.312570111316460e-13
3		1.071519305237606e+00,0.000000000000000e+00
	-1.020732007295319e-01,1.343143796787303e-09
	1.000000000000000e+00,0.000000000000000e+00
	0.000000000000000e+00,0.000000000000000e+00
	7.460899656967218e-05,1.429770798372847e-13
	7.460899733521372e-05,1.499437624933146e-13
	1.020732007295319e-05,-1.343143796787303e-13
	4.573294672003021e-05,7.062446260460930e-13
	-3.979146522448162e-05,-7.950933768526165e-14
	-1.614880156850177e-05,-4.924209086821011e-13
	-1.020732007295319e-05,1.343143796787303e-13
	-4.573294671983419e-05,-7.062446260460932e-13
	-1.020732007295319e-05,1.343143796787303e-13
4		1.096478196143185e+00,0.000000000000000e+00
	-1.020732007295319e-01,1.374429634877812e-09
	1.000000000000000e+00,0.000000000000000e+00
	0.000000000000000e+00,0.000000000000000e+00
	7.460899656967218e-05,1.463074438542593e-13
	7.460899733521372e-05,1.534364013956186e-13
	1.020732007295319e-05,-1.374429634877813e-13
	4.573294672003021e-05,7.226951766689087e-13
	-3.979146522448162e-05,-8.136134807421230e-14
	-1.614880156850177e-05,-5.038908651069151e-13
	-1.020732007295319e-05,1.374429634877812e-13
	-4.573294671983419e-05,-7.226951766689089e-13
	-1.020732007295319e-05,1.374429634877812e-13
5		1.122018454301963e+00,0.000000000000000e+00
	-1.020732007295319e-01,1.406444213753461e-09
	1.000000000000000e+00,0.000000000000000e+00
	0.000000000000000e+00,0.000000000000000e+00
	7.460899656967218e-05,1.497153820145735e-13
	7.460899733521372e-05,1.570103943089134e-13
	1.020732007295319e-05,-1.406444213753461e-13
	4.573294672003021e-05,7.395289098403959e-13
	-3.979146522448162e-05,-8.325649732685669e-14
	-1.614880156850177e-05,-5.156279911381931e-13
	-1.020732007295319e-05,1.406444213753461e-13
	-4.573294671983419e-05,-7.395289098403961e-13
	-1.020732007295319e-05,1.406444213753461e-13
6		1.148153621496882e+00,0.000000000000000e+00
	-1.020732007295319e-01,1.439204507967732e-09
	1.000000000000000e+00,0.000000000000000e+00
	0.000000000000000e+00,0.000000000000000e+00
	7.460899656967218e-05,1.532027012521491e-13
	7.460899733521372e-05,1.606676362115492e-13
	1.020732007295319e-05,-1.439204507967732e-13
	4.573294672003021e-05,7.567547510287028e-13
	-3.979146522448162e-05,-8.519579027641380e-14
	-1.614880156850177e-05,-5.276385099555158e-13
	-1.020732007295319e-05,1.439204507967732e-13
	-4.573294671983419e-05,-7.567547510287028e-13
	-1.020732007295319e-05,1.439204507967732e-13
7		1.174897554939529e+00,0.000000000000000e+00
	-1.020732007295319e-01,1.472727887462250e-09
	1.000000000000000e+00,0.000000000000000e+00
	0.000000000000000e+00,0.000000000000000e+00
	7.460899656967218e-05,1.567712505898061e-13
	7.460899733521372e-05,1.644100662215917e-13
	1.020732007295319e-05,-1.472727887462250e-13
	4.573294672003021e-05,7.743818336028382e-13
	-3.979146522448162e-05,-8.718025516167503e-14
	-1.614880156850177e-05,-5.399287896949381e-13
	-1.020732007295319e-05,1.472727887462250e-13
	-4.573294671983419e-05,-7.743818336028384e-13
	-1.020732007295319e-05,1.472727887462250e-13
8		1.202264434617413e+00,0.000000000000000e+00
	-1.020732007295319e-01,1.507032126776560e-09
	1.000000000000000e+00,0.000000000000000e+00
	0.000000000000000e+00,0.000000000000000e+00
	7.460899656967218e-05,1.604229221196387e-13
	7.460899733521372e-05,1.682396686249696e-13
	1.020732007295319e-05,-1.507032126776560e-13
	4.573294672003021e-05,7.924195036753054e-13
	-3.979146522448162e-05,-8.921094417219013e-14
	-1.614880156850177e-05,-5.525053468254593e-13
	-1.020732007295319e-05,1.507032126776560e-13
	-4.573294671983419e-05,-7.924195036753054e-13
	-1.020732007295319e-05,1.507032126776560e-13
9		1.230268770812381e+00,0.000000000000000e+00
	-1.020732007295319e-01,1.542135414472415e-09
	1.000000000000000e+00,0.000000000000000e+00
	0.000000000000000e+00,0.000000000000000e+00
	7.460899656967218e-05,1.641596520062274e-13
	7.460899733521372e-05,1.721584739275677e-13
	1.020732007295319e-05,-1.542135414472415e-13
	4.573294672003021e-05,8.108773250575333e-13
	-3.979146522448162e-05,-9.128893400615175e-14
	-1.614880156850177e-05,-5.653748496041401e-13
	-1.020732007295319e-05,1.542135414472415e-13
	-4.573294671983419e-05,-8.108773250575333e-13
	-1.020732007295319e-05,1.542135414472415e-13
10		1.258925411794167e+00,0.000000000000000e+00
	-1.020732007295319e-01,1.578056362777599e-09
	1.000000000000000e+00,0.000000000000000e+00
	0.000000000000000e+00,0.000000000000000e+00
	7.460899656967218e-05,1.679834215132197e-13
	7.460899733521372e-05,1.761685599318289e-13
	1.020732007295319e-05,-1.578056362777598e-13
	4.573294672003021e-05,8.297650843307370e-13
	-3.979146522448162e-05,-9.341532644127530e-14
	-1.614880156850177e-05,-5.785441216117019e-13
	-1.020732007295319e-05,1.578056362777599e-13
	-4.573294671983419e-05,-8.297650843307370e-13
	-1.020732007295319e-05,1.578056362777599e-13
11		1.288249551693134e+00,0.000000000000000e+00
	-1.020732007295319e-01,1.614814017454372e-09
	1.000000000000000e+00,0.000000000000000e+00
	0.000000000000000e+00,0.000000000000000e+00
	7.460899656967218e-05,1.718962580538219e-13
	7.460899733521372e-05,1.802720528384326e-13
	1.020732007295319e-05,-1.614814017454372e-13
	4.573294672003021e-05,8.490927960348923e-13
	-3.979146522448162e-05,-9.559124891897608e-14
	-1.614880156850177e-05,-5.920201453704790e-13
	-1.020732007295319e-05,1.614814017454372e-13
	-4.573294671983419e-05,-8.490927960348923e-13
	-1.020732007295319e-05,1.614814017454372e-13
12		1.318256738556407e+00,0.000000000000000e+00
	-1.020732007295319e-01,1.652427867897790e-09
	1.000000000000000e+00,0.000000000000000e+00
	0.000000000000000e+00,0.000000000000000e+00
	7.460899656967218e-05,1.759002362657600e-13
	7.460899733521372e-05,1.844711283736339e-13
	1.020732007295319e-05,-1.652427867897790e-13
	4.573294672003021e-05,8.688707079785770e-13
	-3.979146522448162e-05,-9.781785514215340e-14
	-1.614880156850177e-05,-6.058100660466446e-13
	-1.020732007295319e-05,1.652427867897790e-13
	-4.573294671983419e-05,-8.688707079785770e-13
	-1.020732007295319e-05,1.652427867897790e-13
13		1.348962882591653e+00,0.000000000000000e+00
	-1.020732007295319e-01,1.690917857469237e-09
	1.000000000000000e+00,0.000000000000000e+00
	0.000000000000000e+00,0.000000000000000e+00
	7.460899656967218e-05,1.799974791112812e-13
	7.460899733521372e-05,1.887680129428629e-13
	1.020732007295319e-05,-1.690917857469237e-13
	4.573294672003021e-05,8.891093066724954e-13
	-3.979146522448162e-05,-1.000963256868995e-13
	-1.614880156850177e-05,-6.199211952386722e-13
	-1.020732007295319e-05,1.690917857469237e-13
	-4.573294671983419e-05,-8.891093066724955e-13
	-1.020732007295319e-05,1.690917857469237e-13
14		1.380384264602885e+00,0.000000000000000e+00
	-1.020732007295319e-01,1.730304394070657e-09
	1.000000000000000e+00,0.000000000000000e+00
	0.000000000000000e+00,0.000000000000000e+00
	7.460899656967218e-05,1.841901590027756e-13
	7.460899733521372e-05,1.931649848111943e-13
	1.020732007295319e-05,-1.730304394070657e-13
	4.573294672003021e-05,9.098193228895645e-13
	-3.979146522448162e-05,-1.024278686284563e-13
	-1.614880156850177e-05,-6.343610148540424e-13
	-1.020732007295319e-05,1.730304394070657e-13
	-4.573294671983419e-05,-9.098193228895645e-13
	-1.020732007295319e-05,1.730304394070657e-13
15		1.412537544622754e+00,0.000000000000000e+00
	-1.020732007295319e-01,1.770608360965100e-09
	1.000000000000000e+00,0.000000000000000e+00
	0.000000000000000e+00,0.000000000000000e+00
	7.460899656967218e-05,1.884804989546180e-13
	7.460899733521372e-05,1.976643753113135e-13
	1.020732007295319e-05,-1.770608360965099e-13
	4.573294672003021e-05,9.310117373545120e-13
	-3.979146522448162e-05,-1.048137201817530e-13
	-1.614880156850177e-05,-6.491371810762490e-13
	-1.020732007295319e-05,1.770608360965100e-13
	-4.573294671983419e-05,-9.310117373545122e-13
	-1.020732007295319e-05,1.770608360965100e-13
16		1.445439770745927e+00,0.000000000000000e+00
	-1.020732007295319e-01,1.811851127849298e-09
	1.000000000000000e+00,0.000000000000000e+00
	0.000000000000000e+00,0.000000000000000e+00
	7.460899656967218e-05,1.928707737618406e-13
	7.460899733521372e-05,2.022685700796199e-13
	1.020732007295319e-05,-1.811851127849299e-13
	4.573294672003021e-05,9.526977865660019e-13
	-3.979146522448162e-05,-1.072551453568637e-13
	-1.614880156850177e-05,-6.642575284242084e-13
	-1.020732007295319e-05,1.811851127849298e-13
	-4.573294671983419e-05,-9.526977865660019e-13
	-1.020732007295319e-05,1.811851127849298e-13
17		1.479108388168207e+00,0.000000000000000e+00
	-1.020732007295319e-01,1.854054562184167e-09
	1.000000000000000e+00,0.000000000000000e+00
	0.000000000000000e+00,0.000000000000000e+00
	7.460899656967218e-05,1.973633112062582e-13
	7.460899733521372e-05,2.069800103211237e-13
	1.020732007295319e-05,-1.854054562184167e-13
	4.573294672003021e-05,9.748889687543753e-13
	-3.979146522448162e-05,-1.097534386297323e-13
	-1.614880156850177e-05,-6.797300739062263e-13
	-1.020732007295319e-05,1.854054562184168e-13
	-4.573294671983419e-05,-9.748889687543753e-13
	-1.020732007295319e-05,1.854054562184168e-13
18		1.513561248436208e+00,0.000000000000000e+00
	-1.020732007295319e-01,1.897241040789221e-09
	1.000000000000000e+00,0.000000000000000e+00
	0.000000000000000e+00,0.000000000000000e+00
	7.460899656967218e-05,2.019604932906897e-13
	7.460899733521372e-05,2.118011941038041e-13
	1.020732007295319e-05,-1.897241040789220e-13
	4.573294672003021e-05,9.975970499781635e-13
	-3.979146522448162e-05,-1.123099246285209e-13
	-1.614880156850177e-05,-6.955630212707207e-13
	-1.020732007295319e-05,1.897241040789221e-13
	-4.573294671983419e-05,-9.975970499781635e-13
	-1.020732007295319e-05,1.897241040789221e-13
19		1.548816618912481e+00,0.000000000000000e+00
	-1.020732007295319e-01,1.941433461707054e-09
	1.000000000000000e+00,0.000000000000000e+00
	0.000000000000000e+00,0.000000000000000e+00
	7.460899656967218e-05,2.066647575019271e-13
	7.460899733521372e-05,2.167346776831185e-13
	1.020732007295319e-05,-1.941433461707053e-13
	4.573294672003021e-05,1.020834070362608e-12
	-3.979146522448162e-05,-1.149259588359452e-13
	-1.614880156850177e-05,-7.117647653559574e-13
	-1.020732007295319e-05,1.941433461707054e-13
	-4.573294671983419e-05,-1.020834070362608e-12
	-1.020732007295319e-05,1.941433461707054e-13
20		1.584893192461113e+00,0.000000000000000e+00
	-1.020732007295319e-01,1.986655256344194e-09
	1.000000000000000e+00,0.000000000000000e+00
	0.000000000000000e+00,0.000000000000000e+00
	7.460899656967218e-05,2.114785981031233e-13
	7.460899733521372e-05,2.217830768573630e-13
	1.020732007295319e-05,-1.986655256344194e-13
	4.573294672003021e-05,1.044612350483495e-12
	-3.979146522448162e-05,-1.176029283079690e-13
	-1.614880156850177e-05,-7.283438965411064e-13
	-1.020732007295319e-05,1.986655256344194e-13
	-4.573294671983419e-05,-1.044612350483495e-12
	-1.020732007295319e-05,1.986655256344194e-13
21		1.621810097358929e+00,0.000000000000000e+00
	-1.020732007295319e-01,2.032930401894738e-09
	1.000000000000000e+00,0.000000000000000e+00
	0.000000000000000e+00,0.000000000000000e+00
	7.460899656967218e-05,2.164045674562841e-13
	7.460899733521372e-05,2.269490683546035e-13
	1.020732007295319e-05,-2.032930401894738e-13
	4.573294672003021e-05,1.068944497899687e-12
	-3.979146522448162e-05,-1.203422524092406e-13
	-1.614880156850177e-05,-7.453092053009727e-13
	-1.020732007295319e-05,2.032930401894738e-13
	-4.573294671983419e-05,-1.068944497899688e-12
	-1.020732007295319e-05,2.032930401894738e-13
22		1.659586907437560e+00,0.000000000000000e+00
	-1.020732007295319e-01,2.080283434053383e-09
	1.000000000000000e+00,0.000000000000000e+00
	0.000000000000000e+00,0.000000000000000e+00
	7.460899656967218e-05,2.214452773755633e-13
	7.460899733521372e-05,2.322353912519116e-13
	1.020732007295319e-05,-2.080283434053383e-13
	4.573294672003021e-05,1.093843413837819e-12
	-3.979146522448162e-05,-1.231453835656577e-13
	-1.614880156850177e-05,-7.626696868668234e-13
	-1.020732007295319e-05,2.080283434053384e-13
	-4.573294671983419e-05,-1.093843413837819e-12
	-1.020732007295319e-05,2.080283434053384e-13
23		1.698243652461743e+00,0.000000000000000e+00
	-1.020732007295319e-01,2.128739460024569e-09
	1.000000000000000e+00,0.000000000000000e+00
	0.000000000000000e+00,0.000000000000000e+00
	7.460899656967218e-05,2.266034005120817e-13
	7.460899733521372e-05,2.376448484276603e-13
	1.020732007295319e-05,-2.128739460024569e-13
	4.573294672003021e-05,1.119322300032697e-12
	-3.979146522448162e-05,-1.260138080344630e-13
	-1.614880156850177e-05,-7.804345459957775e-13
	-1.020732007295319e-05,2.128739460024569e-13
	-4.573294671983419e-05,-1.119322300032697e-12
	-1.020732007295319e-05,2.128739460024569e-13
24		1.737800828749374e+00,0.000000000000000e+00
	-1.020732007295319e-01,2.178324171834658e-09
	1.000000000000000e+00,0.000000000000000e+00
	0.000000000000000e+00,0.000000000000000e+00
	7.460899656967218e-05,2.318816717710023e-13
	7.460899733521372e-05,2.431803080476468e-13
	1.020732007295319e-05,-2.178324171834657e-13
	4.573294672003021e-05,1.145394665727035e-12
	-3.979146522448162e-05,-1.289490466922782e-13
	-1.614880156850177e-05,-7.986132018512908e-13
	-1.020732007295319e-05,2.178324171834658e-13
	-4.573294671983419e-05,-1.145394665727035e-12
	-1.020732007295319e-05,2.178324171834658e-13
25		1.778279410038922e+00,0.000000000000000e+00
	-1.020732007295319e-01,2.229063859954182e-09
	1.000000000000000e+00,0.000000000000000e+00
	0.000000000000000e+00,0.000000000000000e+00
	7.460899656967218e-05,2.372828897616125e-13
	7.460899733521372e-05,2.488447050858320e-13
	1.020732007295319e-05,-2.229063859954182e-13
	4.573294672003021e-05,1.172074334834232e-12
	-3.979146522448162e-05,-1.319526558414920e-13
	-1.614880156850177e-05,-8.172152929973213e-13
	-1.020732007295319e-05,2.229063859954183e-13
	-4.573294671983419e-05,-1.172074334834232e-12
	-1.020732007295319e-05,2.229063859954183e-13
26		1.819700858609982e+00,0.000000000000000e+00
	-1.020732007295319e-01,2.280985427237403e-09
	1.000000000000000e+00,0.000000000000000e+00
	0.000000000000000e+00,0.000000000000000e+00
	7.460899656967218e-05,2.428099182811847e-13
	7.460899733521372e-05,2.546410428805028e-13
	1.020732007295319e-05,-2.280985427237404e-13
	4.573294672003021e-05,1.199375453267995e-12
	-3.979146522448162e-05,-1.350262280354329e-13
	-1.614880156850177e-05,-8.362506825088221e-13
	-1.020732007295319e-05,2.280985427237403e-13
	-4.573294671983419e-05,-1.199375453267995e-12
	-1.020732007295319e-05,2.280985427237403e-13
27		1.862087136662866e+00,0.000000000000000e+00
	-1.020732007295319e-01,2.334116403186556e-09
	1.000000000000000e+00,0.000000000000000e+00
	0.000000000000000e+00,0.000000000000000e+00
	7.460899656967218e-05,2.484656878333990e-13
	7.460899733521372e-05,2.605723947266816e-13
	1.020732007295319e-05,-2.334116403186556e-13
	4.573294672003021e-05,1.227312496442693e-12
	-3.979146522448162e-05,-1.381713929227616e-13
	-1.614880156850177e-05,-8.557294632012754e-13
	-1.020732007295319e-05,2.334116403186556e-13
	-4.573294671983419e-05,-1.227312496442692e-12
	-1.020732007295319e-05,2.334116403186556e-13
28		1.905460717963246e+00,0.000000000000000e+00
	-1.020732007295319e-01,2.388484958548362e-09
	1.000000000000000e+00,0.000000000000000e+00
	0.000000000000000e+00,0.000000000000000e+00
	7.460899656967218e-05,2.542531971821345e-13
	7.460899733521372e-05,2.666419055056277e-13
	1.020732007295319e-05,-2.388484958548363e-13
	4.573294672003021e-05,1.255900276948405e-12
	-3.979146522448162e-05,-1.413898181115325e-13
	-1.614880156850177e-05,-8.756619629820365e-13
	-1.020732007295319e-05,2.388484958548362e-13
	-4.573294671983419e-05,-1.255900276948405e-12
	-1.020732007295319e-05,2.388484958548362e-13
29		1.949844599758044e+00,0.000000000000000e+00
	-1.020732007295319e-01,2.444119920250527e-09
	1.000000000000000e+00,0.000000000000000e+00
	0.000000000000000e+00,0.000000000000000e+00
	7.460899656967218e-05,2.601755149414551e-13
	7.460899733521372e-05,2.728527933522959e-13
	1.020732007295319e-05,-2.444119920250526e-13
	4.573294672003021e-05,1.285153952404762e-12
	-3.979146522448162e-05,-1.446832100533817e-13
	-1.614880156850177e-05,-8.960587503263272e-13
	-1.020732007295319e-05,2.444119920250527e-13
	-4.573294671983419e-05,-1.285153952404762e-12
	-1.020732007295319e-05,2.444119920250527e-13
30		1.995262314968878e+00,0.000000000000000e+00
	-1.020732007295319e-01,2.501050786686160e-09
	1.000000000000000e+00,0.000000000000000e+00
	0.000000000000000e+00,0.000000000000000e+00
	7.460899656967218e-05,2.662357812026276e-13
	7.460899733521372e-05,2.792083513616331e-13
	1.020732007295319e-05,-2.501050786686161e-13
	4.573294672003021e-05,1.315089033497706e-12
	-3.979146522448162e-05,-1.480533149483098e-13
	-1.614880156850177e-05,-9.169306398807803e-13
	-1.020732007295319e-05,2.501050786686160e-13
	-4.573294671983419e-05,-1.315089033497706e-12
	-1.020732007295319e-05,2.501050786686160e-13
31		2.041737944669527e+00,0.000000000000000e+00
	-1.020732007295319e-01,2.559307743354214e-09
	1.000000000000000e+00,0.000000000000000e+00
	0.000000000000000e+00,0.000000000000000e+00
	7.460899656967218e-05,2.724372091990409e-13
	7.460899733521372e-05,2.857119493346217e-13
	1.020732007295319e-05,-2.559307743354215e-13
	4.573294672003021e-05,1.345721392203473e-12
	-3.979146522448162e-05,-1.515019196705408e-13
	-1.614880156850177e-05,-9.382886981975103e-13
	-1.020732007295319e-05,2.559307743354215e-13
	-4.573294671983419e-05,-1.345721392203473e-12
	-1.020732007295319e-05,2.559307743354215e-13
32		2.089296130854037e+00,0.000000000000000e+00
	-1.020732007295319e-01,2.618921678864238e-09
	1.000000000000000e+00,0.000000000000000e+00
	0.000000000000000e+00,0.000000000000000e+00
	7.460899656967218e-05,2.787830870099044e-13
