Title: * GA CMOS Amp | W=8.649496514122082e-06 L=1e-06 Vbias=1.4845072957184262
Date: Sat Sep  6 22:16:21 2025
Plotname: AC Analysis
Flags: complex forward log
No. Variables: 13
No. Points:          901
Offset:    0.0000000000000000e+00
Command: Linear Technology Corporation LTspice
Variables:
	0	frequency	frequency
	1	V(out)	voltage
	2	V(g)	voltage
	3	V(vdd)	voltage
	4	V(m1#dbody)	voltage
	5	V(m1#sbody)	voltage
	6	Id(M1)	device_current
	7	Ig(M1)	device_current
	8	Ib(M1)	device_current
	9	Is(M1)	device_current
	10	I(Rload)	device_current
	11	I(Vg)	device_current
	12	I(Vdd)	device_current
Values:
0		1.000000000000000e+00,0.000000000000000e+00
	3.419785174889543e-02,1.458334526796516e-09
	1.000000000000000e+00,0.000000000000000e+00
	0.000000000000000e+00,0.000000000000000e+00
	2.933412877872084e-04,1.280510167497497e-13
	2.933412875306252e-04,1.214881061336059e-13
	-3.419785174889552e-06,-1.458334526796518e-13
	1.803523573344440e-04,2.198400778077882e-12
	-1.564486868183546e-04,-6.526944539639529e-14
	-2.048388534119989e-05,-1.987297880001835e-12
	3.419785174889543e-06,1.458334526796516e-13
	-1.803523573342680e-04,-2.198400778077881e-12
	3.419785174889543e-06,1.458334526796516e-13
1		1.023292992280754e+00,0.000000000000000e+00
	3.419785174889543e-02,1.492303501671945e-09
	1.000000000000000e+00,0.000000000000000e+00
	0.000000000000000e+00,0.000000000000000e+00
	2.933412877872084e-04,1.310337080944443e-13
	2.933412875306252e-04,1.243179276519794e-13
	-3.419785174889552e-06,-1.492303501671947e-13
	1.803523573344440e-04,2.249608110431653e-12
	-1.564486868183546e-04,-6.678976608418263e-14
	-2.048388534119989e-05,-2.033587994180276e-12
	3.419785174889543e-06,1.492303501671945e-13
	-1.803523573342680e-04,-2.249608110431653e-12
	3.419785174889543e-06,1.492303501671945e-13
2		1.047128548050899e+00,0.000000000000000e+00
	3.419785174889543e-02,1.527063715616931e-09
	1.000000000000000e+00,0.000000000000000e+00
	0.000000000000000e+00,0.000000000000000e+00
	2.933412877872084e-04,1.340858752456068e-13
	2.933412875306252e-04,1.272136641811363e-13
	-3.419785174889552e-06,-1.527063715616933e-13
	1.803523573344440e-04,2.302008214782659e-12
	-1.564486868183546e-04,-6.834549959001485e-14
	-2.048388534119989e-05,-2.080956343630951e-12
	3.419785174889543e-06,1.527063715616931e-13
	-1.803523573342680e-04,-2.302008214782660e-12
	3.419785174889543e-06,1.527063715616931e-13
3		1.071519305237606e+00,0.000000000000000e+00
	3.419785174889543e-02,1.562633598957016e-09
	1.000000000000000e+00,0.000000000000000e+00
	0.000000000000000e+00,0.000000000000000e+00
	2.933412877872084e-04,1.372091365026608e-13
	2.933412875306252e-04,1.301768510789140e-13
	-3.419785174889552e-06,-1.562633598957019e-13
	1.803523573344440e-04,2.355628874359824e-12
	-1.564486868183546e-04,-6.993747078438936e-14
	-2.048388534119989e-05,-2.129428043679733e-12
	3.419785174889543e-06,1.562633598957016e-13
	-1.803523573342680e-04,-2.355628874359824e-12
	3.419785174889543e-06,1.562633598957016e-13
4		1.096478196143185e+00,0.000000000000000e+00
	3.419785174889543e-02,1.599032011315169e-09
	1.000000000000000e+00,0.000000000000000e+00
	0.000000000000000e+00,0.000000000000000e+00
	2.933412877872084e-04,1.404051478600662e-13
	2.933412875306252e-04,1.332090594662280e-13
	-3.419785174889552e-06,-1.599032011315170e-13
	1.803523573344440e-04,2.410498519546609e-12
	-1.564486868183546e-04,-7.156652375150558e-14
	-2.048388534119989e-05,-2.179028794663586e-12
	3.419785174889543e-06,1.599032011315169e-13
	-1.803523573342680e-04,-2.410498519546609e-12
	3.419785174889543e-06,1.599032011315169e-13
5		1.122018454301963e+00,0.000000000000000e+00
	3.419785174889543e-02,1.636278251611412e-09
	1.000000000000000e+00,0.000000000000000e+00
	0.000000000000000e+00,0.000000000000000e+00
	2.933412877872084e-04,1.436756038853489e-13
	2.933412875306252e-04,1.363118970601014e-13
	-3.419785174889552e-06,-1.636278251611414e-13
	1.803523573344440e-04,2.466646242955178e-12
	-1.564486868183546e-04,-7.323352223680984e-14
	-2.048388534119989e-05,-2.229784895557227e-12
	3.419785174889543e-06,1.636278251611412e-13
	-1.803523573342680e-04,-2.466646242955178e-12
	3.419785174889543e-06,1.636278251611412e-13
6		1.148153621496882e+00,0.000000000000000e+00
	3.419785174889543e-02,1.674392068295362e-09
	1.000000000000000e+00,0.000000000000000e+00
	0.000000000000000e+00,0.000000000000000e+00
	2.933412877872084e-04,1.470222386175831e-13
	2.933412875306252e-04,1.394870090260973e-13
	-3.419785174889552e-06,-1.674392068295364e-13
	1.803523573344440e-04,2.524101814851684e-12
	-1.564486868183546e-04,-7.493935010496429e-14
	-2.048388534119989e-05,-2.281723257917183e-12
	3.419785174889543e-06,1.674392068295363e-13
	-1.803523573342680e-04,-2.524101814851684e-12
	3.419785174889543e-06,1.674392068295363e-13
7		1.174897554939529e+00,0.000000000000000e+00
	3.419785174889543e-02,1.713393669817122e-09
	1.000000000000000e+00,0.000000000000000e+00
	0.000000000000000e+00,0.000000000000000e+00
	2.933412877872084e-04,1.504468264868016e-13
	2.933412875306252e-04,1.427360788506077e-13
	-3.419785174889552e-06,-1.713393669817122e-13
	1.803523573344440e-04,2.582895698940861e-12
	-1.564486868183546e-04,-7.668491180848394e-14
	-2.048388534119989e-05,-2.334871420150665e-12
	3.419785174889543e-06,1.713393669817123e-13
	-1.803523573342680e-04,-2.582895698940862e-12
	3.419785174889543e-06,1.713393669817123e-13
8		1.202264434617413e+00,0.000000000000000e+00
	3.419785174889544e-02,1.753303735342065e-09
	1.000000000000000e+00,0.000000000000000e+00
	0.000000000000000e+00,0.000000000000000e+00
	2.933412877872084e-04,1.539511832548227e-13
	2.933412875306252e-04,1.460608292334600e-13
	-3.419785174889549e-06,-1.753303735342067e-13
	1.803523573344440e-04,2.643059068518284e-12
	-1.564486868183546e-04,-7.847113286728927e-14
	-2.048388534119990e-05,-2.389257562116788e-12
	3.419785174889544e-06,1.753303735342066e-13
	-1.803523573342680e-04,-2.643059068518284e-12
	3.419785174889544e-06,1.753303735342066e-13
9		1.230268770812381e+00,0.000000000000000e+00
	3.419785174889544e-02,1.794143425715205e-09
	1.000000000000000e+00,0.000000000000000e+00
	0.000000000000000e+00,0.000000000000000e+00
	2.933412877872084e-04,1.575371669779902e-13
	2.933412875306252e-04,1.494630230013155e-13
	-3.419785174889549e-06,-1.794143425715205e-13
	1.803523573344440e-04,2.704623822998857e-12
	-1.564486868183546e-04,-8.029896035942907e-14
	-2.048388534119990e-05,-2.444910520067908e-12
	3.419785174889544e-06,1.794143425715205e-13
	-1.803523573342680e-04,-2.704623822998858e-12
	3.419785174889544e-06,1.794143425715205e-13
10		1.258925411794167e+00,0.000000000000000e+00
	3.419785174889544e-02,1.835934394680956e-09
	1.000000000000000e+00,0.000000000000000e+00
	0.000000000000000e+00,0.000000000000000e+00
	2.933412877872084e-04,1.612066789923404e-13
	2.933412875306252e-04,1.529444640423433e-13
	-3.419785174889549e-06,-1.835934394680957e-13
	1.803523573344440e-04,2.767622604830313e-12
	-1.564486868183546e-04,-8.216936342323385e-14
	-2.048388534119990e-05,-2.501859801938984e-12
	3.419785174889544e-06,1.835934394680956e-13
	-1.803523573342680e-04,-2.767622604830313e-12
	3.419785174889544e-06,1.835934394680956e-13
11		1.288249551693134e+00,0.000000000000000e+00
	3.419785174889544e-02,1.878698800364231e-09
	1.000000000000000e+00,0.000000000000000e+00
	0.000000000000000e+00,0.000000000000000e+00
	2.933412877872084e-04,1.649616649217150e-13
	2.933412875306252e-04,1.565069982626657e-13
	-3.419785174889549e-06,-1.878698800364231e-13
	1.803523573344440e-04,2.832088816800667e-12
	-1.564486868183546e-04,-8.408333377116570e-14
	-2.048388534119990e-05,-2.560135602993078e-12
	3.419785174889544e-06,1.878698800364231e-13
	-1.803523573342680e-04,-2.832088816800668e-12
	3.419785174889544e-06,1.878698800364231e-13
12		1.318256738556407e+00,0.000000000000000e+00
	3.419785174889544e-02,1.922459317018976e-09
	1.000000000000000e+00,0.000000000000000e+00
	0.000000000000000e+00,0.000000000000000e+00
	2.933412877872084e-04,1.688041157093569e-13
	2.933412875306252e-04,1.601525145650820e-13
	-3.419785174889549e-06,-1.922459317018981e-13
	1.803523573344440e-04,2.898056639748815e-12
	-1.564486868183546e-04,-8.604188621563755e-14
	-2.048388534119990e-05,-2.619768821831280e-12
	3.419785174889544e-06,1.922459317018976e-13
	-1.803523573342680e-04,-2.898056639748815e-12
	3.419785174889544e-06,1.922459317018976e-13
13		1.348962882591653e+00,0.000000000000000e+00
	3.419785174889544e-02,1.967239147050363e-09
	1.000000000000000e+00,0.000000000000000e+00
	0.000000000000000e+00,0.000000000000000e+00
	2.933412877872084e-04,1.727360686735344e-13
	2.933412875306252e-04,1.638829458505898e-13
	-3.419785174889549e-06,-1.967239147050366e-13
	1.803523573344440e-04,2.965561050687673e-12
	-1.564486868183546e-04,-8.804605920707991e-14
	-2.048388534119990e-05,-2.680791076775556e-12
	3.419785174889544e-06,1.967239147050363e-13
	-1.803523573342680e-04,-2.965561050687673e-12
	3.419785174889544e-06,1.967239147050363e-13
14		1.380384264602885e+00,0.000000000000000e+00
	3.419785174889544e-02,2.013062033317005e-09
	1.000000000000000e+00,0.000000000000000e+00
	0.000000000000000e+00,0.000000000000000e+00
	2.933412877872084e-04,1.767596085877549e-13
	2.933412875306252e-04,1.677002700432349e-13
	-3.419785174889549e-06,-2.013062033317009e-13
	1.803523573344440e-04,3.034637841349446e-12
	-1.564486868183546e-04,-9.009691538454126e-14
	-2.048388534119990e-05,-2.743234722633204e-12
	3.419785174889544e-06,2.013062033317005e-13
	-1.803523573342680e-04,-3.034637841349447e-12
	3.419785174889544e-06,2.013062033317005e-13
15		1.412537544622754e+00,0.000000000000000e+00
	3.419785174889544e-02,2.059952271719737e-09
	1.000000000000000e+00,0.000000000000000e+00
	0.000000000000000e+00,0.000000000000000e+00
	2.933412877872084e-04,1.808768687861386e-13
	2.933412875306252e-04,1.716065111388323e-13
	-3.419785174889549e-06,-2.059952271719735e-13
	1.803523573344440e-04,3.105323637162882e-12
	-1.564486868183546e-04,-9.219554213911316e-14
	-2.048388534119990e-05,-2.807132867851796e-12
	3.419785174889544e-06,2.059952271719737e-13
	-1.803523573342680e-04,-3.105323637162883e-12
	3.419785174889544e-06,2.059952271719737e-13
16		1.445439770745927e+00,0.000000000000000e+00
	3.419785174889544e-02,2.107934724083627e-09
	1.000000000000000e+00,0.000000000000000e+00
	0.000000000000000e+00,0.000000000000000e+00
	2.933412877872084e-04,1.850900322945410e-13
	2.933412875306252e-04,1.756037402781162e-13
	-3.419785174889549e-06,-2.107934724083625e-13
	1.803523573344440e-04,3.177655916672560e-12
	-1.564486868183546e-04,-9.434305219047940e-14
	-2.048388534119990e-05,-2.872519392073718e-12
	3.419785174889544e-06,2.107934724083627e-13
	-1.803523573342680e-04,-3.177655916672561e-12
	3.419785174889544e-06,2.107934724083627e-13
17		1.479108388168207e+00,0.000000000000000e+00
	3.419785174889544e-02,2.157034831340039e-09
	1.000000000000000e+00,0.000000000000000e+00
	0.000000000000000e+00,0.000000000000000e+00
	2.933412877872084e-04,1.894013329880223e-13
	2.933412875306252e-04,1.796940768448859e-13
	-3.419785174889549e-06,-2.157034831340044e-13
	1.803523573344440e-04,3.251673031410507e-12
	-1.564486868183546e-04,-9.654058417689502e-14
	-2.048388534119990e-05,-2.939428964099608e-12
	3.419785174889544e-06,2.157034831340040e-13
	-1.803523573342680e-04,-3.251673031410507e-12
	3.419785174889544e-06,2.157034831340040e-13
18		1.513561248436208e+00,0.000000000000000e+00
	3.419785174889544e-02,2.207278627015761e-09
	1.000000000000000e+00,0.000000000000000e+00
	0.000000000000000e+00,0.000000000000000e+00
	2.933412877872084e-04,1.938130567752769e-13
	2.933412875306252e-04,1.838796895897312e-13
	-3.419785174889549e-06,-2.207278627015762e-13
	1.803523573344440e-04,3.327414226230688e-12
	-1.564486868183546e-04,-9.878930325890696e-14
	-2.048388534119990e-05,-3.007897060270205e-12
	3.419785174889544e-06,2.207278627015761e-13
	-1.803523573342680e-04,-3.327414226230689e-12
	3.419785174889544e-06,2.207278627015761e-13
19		1.548816618912481e+00,0.000000000000000e+00
	3.419785174889544e-02,2.258692751036312e-09
	1.000000000000000e+00,0.000000000000000e+00
	0.000000000000000e+00,0.000000000000000e+00
	2.933412877872084e-04,1.983275428106528e-13
	2.933412875306252e-04,1.881627977799322e-13
	-3.419785174889549e-06,-2.258692751036315e-13
	1.803523573344440e-04,3.404919660117151e-12
	-1.564486868183546e-04,-1.010904017371377e-13
	-2.048388534119990e-05,-3.077959983276382e-12
	3.419785174889544e-06,2.258692751036312e-13
	-1.803523573342680e-04,-3.404919660117152e-12
	3.419785174889544e-06,2.258692751036312e-13
20		1.584893192461113e+00,0.000000000000000e+00
	3.419785174889544e-02,2.311304463850797e-09
	1.000000000000000e+00,0.000000000000000e+00
	0.000000000000000e+00,0.000000000000000e+00
	2.933412877872084e-04,2.029471847344022e-13
	2.933412875306252e-04,1.925456723761452e-13
	-3.419785174889549e-06,-2.311304463850801e-13
	1.803523573344440e-04,3.484230427476848e-12
	-1.564486868183546e-04,-1.034450996844592e-13
	-2.048388534119990e-05,-3.149654881407309e-12
	3.419785174889544e-06,2.311304463850797e-13
	-1.803523573342680e-04,-3.484230427476848e-12
	3.419785174889544e-06,2.311304463850797e-13
21		1.621810097358929e+00,0.000000000000000e+00
	3.419785174889544e-02,2.365141660885745e-09
	1.000000000000000e+00,0.000000000000000e+00
	0.000000000000000e+00,0.000000000000000e+00
	2.933412877872084e-04,2.076744319418214e-13
	2.933412875306252e-04,1.970306372364954e-13
	-3.419785174889549e-06,-2.365141660885752e-13
	1.803523573344440e-04,3.565388579928435e-12
	-1.564486868183546e-04,-1.058546455928912e-13
	-2.048388534119990e-05,-3.223019768246968e-12
	3.419785174889544e-06,2.365141660885746e-13
	-1.803523573342680e-04,-3.565388579928435e-12
	3.419785174889544e-06,2.365141660885746e-13
22		1.659586907437560e+00,0.000000000000000e+00
	3.419785174889544e-02,2.420232887335647e-09
	1.000000000000000e+00,0.000000000000000e+00
	0.000000000000000e+00,0.000000000000000e+00
	2.933412877872084e-04,2.125117908819523e-13
	2.933412875306252e-04,2.016200703487172e-13
	-3.419785174889549e-06,-2.420232887335651e-13
	1.803523573344440e-04,3.648437148598597e-12
	-1.564486868183546e-04,-1.083203170355683e-13
	-2.048388534119990e-05,-3.298093542829463e-12
	3.419785174889544e-06,2.420232887335647e-13
	-1.803523573342680e-04,-3.648437148598597e-12
	3.419785174889544e-06,2.420232887335647e-13
23		1.698243652461743e+00,0.000000000000000e+00
	3.419785174889544e-02,2.476607353297984e-09
	1.000000000000000e+00,0.000000000000000e+00
	0.000000000000000e+00,0.000000000000000e+00
	2.933412877872084e-04,2.174618263865348e-13
	2.933412875306252e-04,2.063164050909949e-13
	-3.419785174889549e-06,-2.476607353297984e-13
	1.803523573344440e-04,3.733420166937720e-12
	-1.564486868183546e-04,-1.108434213441267e-13
	-2.048388534119990e-05,-3.374916010263795e-12
	3.419785174889544e-06,2.476607353297984e-13
	-1.803523573342680e-04,-3.733420166937721e-12
	3.419785174889544e-06,2.476607353297984e-13
24		1.737800828749374e+00,0.000000000000000e+00
	3.419785174889544e-02,2.534294949260813e-09
	1.000000000000000e+00,0.000000000000000e+00
	0.000000000000000e+00,0.000000000000000e+00
	2.933412877872084e-04,2.225271630299150e-13
	2.933412875306252e-04,2.111221315221724e-13
	-3.419785174889552e-06,-2.534294949260814e-13
	1.803523573344440e-04,3.820382694067011e-12
	-1.564486868183546e-04,-1.134252963018678e-13
	-2.048388534119990e-05,-3.453527902839063e-12
	3.419785174889544e-06,2.534294949260813e-13
	-1.803523573342680e-04,-3.820382694067012e-12
	3.419785174889544e-06,2.534294949260813e-13
25		1.778279410038922e+00,0.000000000000000e+00
	3.419785174889544e-02,2.593326261951099e-09
	1.000000000000000e+00,0.000000000000000e+00
	0.000000000000000e+00,0.000000000000000e+00
	2.933412877872084e-04,2.277104865206290e-13
	2.933412875306252e-04,2.160397977020147e-13
	-3.419785174889552e-06,-2.593326261951100e-13
	1.803523573344440e-04,3.909370838669441e-12
	-1.564486868183546e-04,-1.160673108530694e-13
	-2.048388534119990e-05,-3.533970901621262e-12
	3.419785174889544e-06,2.593326261951099e-13
	-1.803523573342680e-04,-3.909370838669441e-12
	3.419785174889544e-06,2.593326261951099e-13
26		1.819700858609982e+00,0.000000000000000e+00
	3.419785174889544e-02,2.653732590552202e-09
	1.000000000000000e+00,0.000000000000000e+00
	0.000000000000000e+00,0.000000000000000e+00
	2.933412877872084e-04,2.330145451254007e-13
	2.933412875306252e-04,2.210720110422234e-13
	-3.419785174889552e-06,-2.653732590552204e-13
	1.803523573344440e-04,4.000431783437174e-12
	-1.564486868183546e-04,-1.187708658288179e-13
	-2.048388534119990e-05,-3.616287658553136e-12
	3.419785174889544e-06,2.653732590552202e-13
	-1.803523573342680e-04,-4.000431783437173e-12
	3.419785174889544e-06,2.653732590552202e-13
27		1.862087136662866e+00,0.000000000000000e+00
	3.419785174889544e-02,2.715545963299121e-09
	1.000000000000000e+00,0.000000000000000e+00
	0.000000000000000e+00,0.000000000000000e+00
	2.933412877872084e-04,2.384421511263101e-13
	2.933412875306252e-04,2.262214396889207e-13
	-3.419785174889552e-06,-2.715545963299121e-13
	1.803523573344440e-04,4.093613810088459e-12
	-1.564486868183546e-04,-1.215373946897470e-13
	-2.048388534119990e-05,-3.700521819068800e-12
	3.419785174889544e-06,2.715545963299121e-13
	-1.803523573342680e-04,-4.093613810088460e-12
	3.419785174889544e-06,2.715545963299121e-13
28		1.905460717963246e+00,0.000000000000000e+00
	3.419785174889544e-02,2.778799154460280e-09
	1.000000000000000e+00,0.000000000000000e+00
	0.000000000000000e+00,0.000000000000000e+00
	2.933412877872084e-04,2.439961823119016e-13
	2.933412875306252e-04,2.314908139373358e-13
	-3.419785174889552e-06,-2.778799154460282e-13
	1.803523573344440e-04,4.188966324967238e-12
	-1.564486868183546e-04,-1.243683642860782e-13
	-2.048388534119990e-05,-3.786718045235132e-12
	3.419785174889544e-06,2.778799154460280e-13
	-1.803523573342680e-04,-4.188966324967237e-12
	3.419785174889544e-06,2.778799154460280e-13
29		1.949844599758044e+00,0.000000000000000e+00
	3.419785174889544e-02,2.843525701714890e-09
	1.000000000000000e+00,0.000000000000000e+00
	0.000000000000000e+00,0.000000000000000e+00
	2.933412877872084e-04,2.496795835030263e-13
	2.933412875306252e-04,2.368829276794437e-13
	-3.419785174889552e-06,-2.843525701714894e-13
	1.803523573344440e-04,4.286539885239039e-12
	-1.564486868183546e-04,-1.272652756353639e-13
	-2.048388534119990e-05,-3.874922039432186e-12
	3.419785174889544e-06,2.843525701714890e-13
	-1.803523573342680e-04,-4.286539885239039e-12
	3.419785174889544e-06,2.843525701714890e-13
30		1.995262314968878e+00,0.000000000000000e+00
	3.419785174889544e-02,2.909759923935060e-09
	1.000000000000000e+00,0.000000000000000e+00
	0.000000000000000e+00,0.000000000000000e+00
	2.933412877872084e-04,2.554953681142241e-13
	2.933412875306252e-04,2.424006398853233e-13
	-3.419785174889552e-06,-2.909759923935057e-13
	1.803523573344440e-04,4.386386225697056e-12
	-1.564486868183546e-04,-1.302296647183464e-13
	-2.048388534119990e-05,-3.965180568585203e-12
	3.419785174889544e-06,2.909759923935060e-13
	-1.803523573342680e-04,-4.386386225697056e-12
	3.419785174889544e-06,2.909759923935060e-13
31		2.041737944669527e+00,0.000000000000000e+00
	3.419785174889544e-02,2.977536939382126e-09
	1.000000000000000e+00,0.000000000000000e+00
	0.000000000000000e+00,0.000000000000000e+00
	2.933412877872084e-04,2.614466197514771e-13
	2.933412875306252e-04,2.480468761190219e-13
	-3.419785174889552e-06,-2.977536939382138e-13
	1.803523573344440e-04,4.488558286192625e-12
	-1.564486868183546e-04,-1.332631032933560e-13
	-2.048388534119990e-05,-4.057541488961054e-12
	3.419785174889544e-06,2.977536939382126e-13
	-1.803523573342680e-04,-4.488558286192623e-12
	3.419785174889544e-06,2.977536939382126e-13
32		2.089296130854037e+00,0.000000000000000e+00
	3.419785174889545e-02,3.046892684326815e-09
	1.000000000000000e+00,0.000000000000000e+00
	0.000000000000000e+00,0.000000000000000e+00
	2.933412877872084e-04,2.675364938471777e-13
	2.933412875306252e-04,2.538246300897276e-13
	-3.419785174889545e-06,-3.046892684326815e-13
