Title: * GA CMOS Amp | W=2.528129838715429e-06 L=8.570906335927002e-07 Vbias=1.5
Date: Sat Sep  6 22:15:32 2025
Plotname: AC Analysis
Flags: complex forward log
No. Variables: 13
No. Points:          901
Offset:    0.0000000000000000e+00
Command: Linear Technology Corporation LTspice
Variables:
	0	frequency	frequency
	1	V(out)	voltage
	2	V(g)	voltage
	3	V(vdd)	voltage
	4	V(m1#dbody)	voltage
	5	V(m1#sbody)	voltage
	6	Id(M1)	device_current
	7	Ig(M1)	device_current
	8	Ib(M1)	device_current
	9	Is(M1)	device_current
	10	I(Rload)	device_current
	11	I(Vg)	device_current
	12	I(Vdd)	device_current
Values:
0		1.000000000000000e+00,0.000000000000000e+00
	-1.524391611851467e-01,1.093798380910712e-09
	1.000000000000000e+00,0.000000000000000e+00
	0.000000000000000e+00,0.000000000000000e+00
	8.022279346596163e-05,1.214311616936796e-13
	8.022279460924886e-05,1.291146059300247e-13
	1.524391611851467e-05,-1.093798380910712e-13
	4.803061278978877e-05,4.936240212195602e-13
	-4.278549041437928e-05,-6.835195196625077e-14
	-2.048903849392416e-05,-3.158922311622382e-13
	-1.524391611851467e-05,1.093798380910712e-13
	-4.803061279012866e-05,-4.936240212195602e-13
	-1.524391611851467e-05,1.093798380910712e-13
1		1.023292992280754e+00,0.000000000000000e+00
	-1.524391611851467e-01,1.119276218153967e-09
	1.000000000000000e+00,0.000000000000000e+00
	0.000000000000000e+00,0.000000000000000e+00
	8.022279346596163e-05,1.242596568056534e-13
	8.022279460924886e-05,1.321220714492854e-13
	1.524391611851467e-05,-1.119276218153967e-13
	4.803061278978877e-05,5.051220017354223e-13
	-4.278549041437928e-05,-6.994407345577512e-14
	-2.048903849392416e-05,-3.232503064642505e-13
	-1.524391611851467e-05,1.119276218153967e-13
	-4.803061279012866e-05,-5.051220017354223e-13
	-1.524391611851467e-05,1.119276218153967e-13
2		1.047128548050899e+00,0.000000000000000e+00
	-1.524391611851467e-01,1.145347510463459e-09
	1.000000000000000e+00,0.000000000000000e+00
	0.000000000000000e+00,0.000000000000000e+00
	8.022279346596163e-05,1.271540360324367e-13
	8.022279460924886e-05,1.351995898396708e-13
	1.524391611851467e-05,-1.145347510463459e-13
	4.803061278978877e-05,5.168878046226845e-13
	-4.278549041437928e-05,-7.157328021886497e-14
	-2.048903849392416e-05,-3.307797733574737e-13
	-1.524391611851467e-05,1.145347510463459e-13
	-4.803061279012866e-05,-5.168878046226845e-13
	-1.524391611851467e-05,1.145347510463459e-13
3		1.071519305237606e+00,0.000000000000000e+00
	-1.524391611851467e-01,1.172026081183465e-09
	1.000000000000000e+00,0.000000000000000e+00
	0.000000000000000e+00,0.000000000000000e+00
	8.022279346596163e-05,1.301158340122070e-13
	8.022279460924886e-05,1.383487928421674e-13
	1.524391611851467e-05,-1.172026081183465e-13
	4.803061278978877e-05,5.289276682657765e-13
	-4.278549041437928e-05,-7.324043608251125e-14
	-2.048903849392416e-05,-3.384846240649188e-13
	-1.524391611851467e-05,1.172026081183465e-13
	-4.803061279012866e-05,-5.289276682657766e-13
	-1.524391611851467e-05,1.172026081183465e-13
4		1.096478196143185e+00,0.000000000000000e+00
	-1.524391611851467e-01,1.199326075645314e-09
	1.000000000000000e+00,0.000000000000000e+00
	0.000000000000000e+00,0.000000000000000e+00
	8.022279346596163e-05,1.331466211294571e-13
	8.022279460924886e-05,1.415713502058916e-13
	1.524391611851467e-05,-1.199326075645314e-13
	4.803061278978877e-05,5.412479763597684e-13
	-4.278549041437928e-05,-7.494642499482023e-14
	-2.048903849392416e-05,-3.463689438004168e-13
	-1.524391611851467e-05,1.199326075645314e-13
	-4.803061279012866e-05,-5.412479763597685e-13
	-1.524391611851467e-05,1.199326075645314e-13
5		1.122018454301963e+00,0.000000000000000e+00
	-1.524391611851467e-01,1.227261968667427e-09
	1.000000000000000e+00,0.000000000000000e+00
	0.000000000000000e+00,0.000000000000000e+00
	8.022279346596163e-05,1.362480043476341e-13
	8.022279460924886e-05,1.448689705734133e-13
	1.524391611851467e-05,-1.227261968667427e-13
	4.803061278978877e-05,5.538552612950904e-13
	-4.278549041437928e-05,-7.669215149369469e-14
	-2.048903849392416e-05,-3.544369129346530e-13
	-1.524391611851467e-05,1.227261968667427e-13
	-4.803061279012866e-05,-5.538552612950905e-13
	-1.524391611851467e-05,1.227261968667427e-13
6		1.148153621496882e+00,0.000000000000000e+00
	-1.524391611851467e-01,1.255848572230061e-09
	1.000000000000000e+00,0.000000000000000e+00
	0.000000000000000e+00,0.000000000000000e+00
	8.022279346596163e-05,1.394216280611717e-13
	8.022279460924886e-05,1.482434023867007e-13
	1.524391611851467e-05,-1.255848572230061e-13
	4.803061278978877e-05,5.667562076210920e-13
	-4.278549041437928e-05,-7.847854118643178e-14
	-2.048903849392416e-05,-3.626928092116542e-13
	-1.524391611851467e-05,1.255848572230061e-13
	-4.803061279012866e-05,-5.667562076210920e-13
	-1.524391611851467e-05,1.255848572230061e-13
7		1.174897554939529e+00,0.000000000000000e+00
	-1.524391611851467e-01,1.285101043328812e-09
	1.000000000000000e+00,0.000000000000000e+00
	0.000000000000000e+00,0.000000000000000e+00
	8.022279346596163e-05,1.426691749673707e-13
	8.022279460924886e-05,1.516964348141668e-13
	1.524391611851467e-05,-1.285101043328811e-13
	4.803061278978877e-05,5.799576555902795e-13
	-4.278549041437928e-05,-8.030654124049216e-14
	-2.048903849392416e-05,-3.711410100169062e-13
	-1.524391611851467e-05,1.285101043328812e-13
	-4.803061279012866e-05,-5.799576555902796e-13
	-1.524391611851467e-05,1.285101043328812e-13
8		1.202264434617413e+00,0.000000000000000e+00
	-1.524391611851467e-01,1.315034892011059e-09
	1.000000000000000e+00,0.000000000000000e+00
	0.000000000000000e+00,0.000000000000000e+00
	8.022279346596163e-05,1.459923669585873e-13
	8.022279460924886e-05,1.552298986993111e-13
	1.524391611851467e-05,-1.315034892011058e-13
	4.803061278978877e-05,5.934666047851081e-13
	-4.278549041437928e-05,-8.217712088570101e-14
	-2.048903849392416e-05,-3.797859946983013e-13
	-1.524391611851467e-05,1.315034892011059e-13
	-4.803061279012866e-05,-5.934666047851083e-13
	-1.524391611851467e-05,1.315034892011059e-13
9		1.230268770812381e+00,0.000000000000000e+00
	-1.524391611851467e-01,1.345665989599595e-09
	1.000000000000000e+00,0.000000000000000e+00
	0.000000000000000e+00,0.000000000000000e+00
	8.022279346596163e-05,1.493929660352026e-13
	8.022279460924886e-05,1.588456675314564e-13
	1.524391611851467e-05,-1.345665989599594e-13
	4.803061278978877e-05,6.072902178292531e-13
	-4.278549041437928e-05,-8.409127192814623e-14
	-2.048903849392416e-05,-3.886323469411474e-13
	-1.524391611851467e-05,1.345665989599595e-13
	-4.803061279012866e-05,-6.072902178292529e-13
	-1.524391611851467e-05,1.345665989599595e-13
10		1.258925411794167e+00,0.000000000000000e+00
	-1.524391611851467e-01,1.377010577107811e-09
	1.000000000000000e+00,0.000000000000000e+00
	0.000000000000000e+00,0.000000000000000e+00
	8.022279346596163e-05,1.528727752398596e-13
	8.022279460924886e-05,1.625456584390979e-13
	1.524391611851467e-05,-1.377010577107811e-13
	4.803061278978877e-05,6.214358241853274e-13
	-4.278549041437928e-05,-8.605000927604735e-14
	-2.048903849392416e-05,-3.976847571984990e-13
	-1.524391611851467e-05,1.377010577107812e-13
	-4.803061279012866e-05,-6.214358241853272e-13
	-1.524391611851467e-05,1.377010577107812e-13
11		1.288249551693134e+00,0.000000000000000e+00
	-1.524391611851467e-01,1.409085273850901e-09
	1.000000000000000e+00,0.000000000000000e+00
	0.000000000000000e+00,0.000000000000000e+00
	8.022279346596163e-05,1.564336396134591e-13
	8.022279460924886e-05,1.663318332063899e-13
	1.524391611851467e-05,-1.409085273850900e-13
	4.803061278978877e-05,6.359109240410604e-13
	-4.278549041437928e-05,-8.805437147787315e-14
	-2.048903849392416e-05,-4.069480251780972e-13
	-1.524391611851467e-05,1.409085273850901e-13
	-4.803061279012866e-05,-6.359109240410603e-13
	-1.524391611851467e-05,1.409085273850901e-13
12		1.318256738556407e+00,0.000000000000000e+00
	-1.524391611851467e-01,1.441907086257634e-09
	1.000000000000000e+00,0.000000000000000e+00
	0.000000000000000e+00,0.000000000000000e+00
	8.022279346596163e-05,1.600774471734257e-13
	8.022279460924886e-05,1.702061993133100e-13
	1.524391611851467e-05,-1.441907086257633e-13
	4.803061278978877e-05,6.507231922859958e-13
	-4.278549041437928e-05,-9.010542127299390e-14
	-2.048903849392416e-05,-4.164270623872387e-13
	-1.524391611851467e-05,1.441907086257635e-13
	-4.803061279012866e-05,-6.507231922859958e-13
	-1.524391611851467e-05,1.441907086257635e-13
13		1.348962882591653e+00,0.000000000000000e+00
	-1.524391611851467e-01,1.475493416887398e-09
	1.000000000000000e+00,0.000000000000000e+00
	0.000000000000000e+00,0.000000000000000e+00
	8.022279346596163e-05,1.638061299147592e-13
	8.022279460924886e-05,1.741708110000515e-13
	1.524391611851467e-05,-1.475493416887397e-13
	4.803061278978877e-05,6.658804825808215e-13
	-4.278549041437928e-05,-9.220424615515986e-14
	-2.048903849392416e-05,-4.261268947369218e-13
	-1.524391611851467e-05,1.475493416887398e-13
	-4.803061279012866e-05,-6.658804825808215e-13
	-1.524391611851467e-05,1.475493416887398e-13
14		1.380384264602885e+00,0.000000000000000e+00
	-1.524391611851467e-01,1.509862073657260e-09
	1.000000000000000e+00,0.000000000000000e+00
	0.000000000000000e+00,0.000000000000000e+00
	8.022279346596163e-05,1.676216648344038e-13
	8.022279460924886e-05,1.782277703562083e-13
	1.524391611851467e-05,-1.509862073657260e-13
	4.803061278978877e-05,6.813908315214815e-13
	-4.278549041437928e-05,-9.435195894910474e-14
	-2.048903849392416e-05,-4.360526652066507e-13
	-1.524391611851467e-05,1.509862073657260e-13
	-4.803061279012866e-05,-6.813908315214813e-13
	-1.524391611851467e-05,1.509862073657260e-13
15		1.412537544622754e+00,0.000000000000000e+00
	-1.524391611851467e-01,1.545031279283961e-09
	1.000000000000000e+00,0.000000000000000e+00
	0.000000000000000e+00,0.000000000000000e+00
	8.022279346596163e-05,1.715260749794788e-13
	8.022279460924886e-05,1.823792284353316e-13
	1.524391611851467e-05,-1.545031279283961e-13
	4.803061278978877e-05,6.972624629002878e-13
	-4.278549041437928e-05,-9.654969840058029e-14
	-2.048903849392416e-05,-4.462096365713115e-13
	-1.524391611851467e-05,1.545031279283961e-13
	-4.803061279012866e-05,-6.972624629002879e-13
	-1.524391611851467e-05,1.545031279283961e-13
16		1.445439770745927e+00,0.000000000000000e+00
	-1.524391611851467e-01,1.581019680945846e-09
	1.000000000000000e+00,0.000000000000000e+00
	0.000000000000000e+00,0.000000000000000e+00
	8.022279346596163e-05,1.755214305199238e-13
	8.022279460924886e-05,1.866273863954456e-13
	1.524391611851467e-05,-1.581019680945846e-13
	4.803061278978877e-05,7.135037920662838e-13
	-4.278549041437928e-05,-9.879862978013412e-14
	-2.048903849392416e-05,-4.566031941915650e-13
	-1.524391611851467e-05,1.581019680945846e-13
	-4.803061279012866e-05,-7.135037920662838e-13
	-1.524391611851467e-05,1.581019680945846e-13
17		1.479108388168207e+00,0.000000000000000e+00
	-1.524391611851467e-01,1.617846360169838e-09
	1.000000000000000e+00,0.000000000000000e+00
	0.000000000000000e+00,0.000000000000000e+00
	8.022279346596163e-05,1.796098498461313e-13
	8.022279460924886e-05,1.909744966661320e-13
	1.524391611851467e-05,-1.617846360169838e-13
	4.803061278978877e-05,7.301234303871725e-13
	-4.278549041437928e-05,-1.010999455009518e-13
	-2.048903849392416e-05,-4.672388488692368e-13
	-1.524391611851467e-05,1.617846360169838e-13
	-4.803061279012866e-05,-7.301234303871726e-13
	-1.524391611851467e-05,1.617846360169838e-13
18		1.513561248436208e+00,0.000000000000000e+00
	-1.524391611851467e-01,1.655530842948720e-09
	1.000000000000000e+00,0.000000000000000e+00
	0.000000000000000e+00,0.000000000000000e+00
	8.022279346596163e-05,1.837935006921446e-13
	8.022279460924886e-05,1.954228641427971e-13
	1.524391611851467e-05,-1.655530842948720e-13
	4.803061278978877e-05,7.471301898151786e-13
	-4.278549041437928e-05,-1.034548657510902e-13
	-2.048903849392416e-05,-4.781222397692164e-13
	-1.524391611851467e-05,1.655530842948720e-13
	-4.803061279012866e-05,-7.471301898151784e-13
	-1.524391611851467e-05,1.655530842948720e-13
19		1.548816618912481e+00,0.000000000000000e+00
	-1.524391611851467e-01,1.694093110094075e-09
	1.000000000000000e+00,0.000000000000000e+00
	0.000000000000000e+00,0.000000000000000e+00
	8.022279346596163e-05,1.880746012850195e-13
	8.022279460924886e-05,1.999748474087581e-13
	1.524391611851467e-05,-1.694093110094074e-13
	4.803061278978877e-05,7.645330875592618e-13
	-4.278549041437928e-05,-1.058646391404368e-13
	-2.048903849392416e-05,-4.892591374094176e-13
	-1.524391611851467e-05,1.694093110094075e-13
	-4.803061279012866e-05,-7.645330875592618e-13
	-1.524391611851467e-05,1.694093110094075e-13
20		1.584893192461113e+00,0.000000000000000e+00
	-1.524391611851467e-01,1.733553607830375e-09
	1.000000000000000e+00,0.000000000000000e+00
	0.000000000000000e+00,0.000000000000000e+00
	8.022279346596163e-05,1.924554215209574e-13
	8.022279460924886e-05,2.046328599857954e-13
	1.524391611851467e-05,-1.733553607830375e-13
	4.803061278978877e-05,7.823413508661609e-13
	-4.278549041437928e-05,-1.083305433627398e-13
	-2.048903849392416e-05,-5.006554467203837e-13
	-1.524391611851467e-05,1.733553607830376e-13
	-4.803061279012866e-05,-7.823413508661610e-13
	-1.524391611851467e-05,1.733553607830376e-13
21		1.621810097358929e+00,0.000000000000000e+00
	-1.524391611851467e-01,1.773933258635841e-09
	1.000000000000000e+00,0.000000000000000e+00
	0.000000000000000e+00,0.000000000000000e+00
	8.022279346596163e-05,1.969382841688343e-13
	8.022279460924886e-05,2.093993716138330e-13
	1.524391611851467e-05,-1.773933258635841e-13
	4.803061278978877e-05,8.005644219128011e-13
	-4.278549041437928e-05,-1.108538858730580e-13
	-2.048903849392416e-05,-5.123172101761589e-13
	-1.524391611851467e-05,1.773933258635841e-13
	-4.803061279012866e-05,-8.005644219128012e-13
	-1.524391611851467e-05,1.773933258635841e-13
22		1.659586907437560e+00,0.000000000000000e+00
	-1.524391611851467e-01,1.815253472335819e-09
	1.000000000000000e+00,0.000000000000000e+00
	0.000000000000000e+00,0.000000000000000e+00
	8.022279346596163e-05,2.015255661017640e-13
	8.022279460924886e-05,2.142769095604289e-13
	1.524391611851467e-05,-1.815253472335819e-13
	4.803061278978877e-05,8.192119628126625e-13
	-4.278549041437928e-05,-1.134360045809908e-13
	-2.048903849392416e-05,-5.242506109980899e-13
	-1.524391611851467e-05,1.815253472335819e-13
	-4.803061279012866e-05,-8.192119628126626e-13
	-1.524391611851467e-05,1.815253472335819e-13
23		1.698243652461743e+00,0.000000000000000e+00
	-1.524391611851467e-01,1.857536157454549e-09
	1.000000000000000e+00,0.000000000000000e+00
	0.000000000000000e+00,0.000000000000000e+00
	8.022279346596163e-05,2.062196995573469e-13
	8.022279460924886e-05,2.192680599607638e-13
	1.524391611851467e-05,-1.857536157454549e-13
	4.803061278978877e-05,8.382938607387592e-13
	-4.278549041437928e-05,-1.160782685600554e-13
	-2.048903849392416e-05,-5.364619764332489e-13
	-1.524391611851467e-05,1.857536157454550e-13
	-4.803061279012866e-05,-8.382938607387594e-13
	-1.524391611851467e-05,1.857536157454550e-13
24		1.737800828749374e+00,0.000000000000000e+00
	-1.524391611851467e-01,1.900803732831360e-09
	1.000000000000000e+00,0.000000000000000e+00
	0.000000000000000e+00,0.000000000000000e+00
	8.022279346596163e-05,2.110231734272757e-13
	8.022279460924886e-05,2.243754691888458e-13
	1.524391611851467e-05,-1.900803732831360e-13
	4.803061278978877e-05,8.578202331659505e-13
	-4.278549041437928e-05,-1.187820787735880e-13
	-2.048903849392416e-05,-5.489577811092266e-13
	-1.524391611851467e-05,1.900803732831360e-13
	-4.803061279012866e-05,-8.578202331659504e-13
	-1.524391611851467e-05,1.900803732831360e-13
25		1.778279410038922e+00,0.000000000000000e+00
	-1.524391611851467e-01,1.945079139507430e-09
	1.000000000000000e+00,0.000000000000000e+00
	0.000000000000000e+00,0.000000000000000e+00
	8.022279346596163e-05,2.159385345769774e-13
	8.022279460924886e-05,2.296018452606521e-13
	1.524391611851467e-05,-1.945079139507429e-13
	4.803061278978877e-05,8.778014332353598e-13
	-4.278549041437928e-05,-1.215488688175531e-13
	-2.048903849392416e-05,-5.617446504670638e-13
	-1.524391611851467e-05,1.945079139507430e-13
	-4.803061279012866e-05,-8.778014332353599e-13
	-1.524391611851467e-05,1.945079139507430e-13
26		1.819700858609982e+00,0.000000000000000e+00
	-1.524391611851467e-01,1.990385852889431e-09
	1.000000000000000e+00,0.000000000000000e+00
	0.000000000000000e+00,0.000000000000000e+00
	8.022279346596163e-05,2.209683891959963e-13
	8.022279460924886e-05,2.349499592699554e-13
	1.524391611851467e-05,-1.990385852889431e-13
	4.803061278978877e-05,8.982480552437457e-13
	-4.278549041437928e-05,-1.243801056806548e-13
	-2.048903849392416e-05,-5.748293642741478e-13
	-1.524391611851467e-05,1.990385852889431e-13
	-4.803061279012866e-05,-8.982480552437457e-13
	-1.524391611851467e-05,1.990385852889431e-13
27		1.862087136662866e+00,0.000000000000000e+00
	-1.524391611851467e-01,2.036747895196507e-09
	1.000000000000000e+00,0.000000000000000e+00
	0.000000000000000e+00,0.000000000000000e+00
	8.022279346596163e-05,2.261154041798292e-13
	8.022279460924886e-05,2.404226468575939e-13
	1.524391611851467e-05,-2.036747895196506e-13
	4.803061278978877e-05,9.191709402607407e-13
	-4.278549041437928e-05,-1.272772905221536e-13
	-2.048903849392416e-05,-5.882188602189364e-13
	-1.524391611851467e-05,2.036747895196507e-13
	-4.803061279012866e-05,-9.191709402607407e-13
	-1.524391611851467e-05,2.036747895196507e-13
28		1.905460717963246e+00,0.000000000000000e+00
	-1.524391611851467e-01,2.084189848197162e-09
	1.000000000000000e+00,0.000000000000000e+00
	0.000000000000000e+00,0.000000000000000e+00
	8.022279346596163e-05,2.313823085439496e-13
	8.022279460924886e-05,2.460228097149663e-13
	1.524391611851467e-05,-2.084189848197161e-13
	4.803061278978877e-05,9.405811818769277e-13
	-4.278549041437928e-05,-1.302419594678014e-13
	-2.048903849392416e-05,-6.019202375894101e-13
	-1.524391611851467e-05,2.084189848197162e-13
	-4.803061279012866e-05,-9.405811818769277e-13
	-1.524391611851467e-05,2.084189848197162e-13
29		1.949844599758044e+00,0.000000000000000e+00
	-1.524391611851467e-01,2.132736866242844e-09
	1.000000000000000e+00,0.000000000000000e+00
	0.000000000000000e+00,0.000000000000000e+00
	8.022279346596163e-05,2.367718948707670e-13
	8.022279460924886e-05,2.517534171225465e-13
	1.524391611851467e-05,-2.132736866242844e-13
	4.803061278978877e-05,9.624901320858096e-13
	-4.278549041437928e-05,-1.332756844243153e-13
	-2.048903849392416e-05,-6.159407610372099e-13
	-1.524391611851467e-05,2.132736866242845e-13
	-4.803061279012866e-05,-9.624901320858096e-13
	-1.524391611851467e-05,2.132736866242845e-13
30		1.995262314968878e+00,0.000000000000000e+00
	-1.524391611851467e-01,2.182414689605118e-09
	1.000000000000000e+00,0.000000000000000e+00
	0.000000000000000e+00,0.000000000000000e+00
	8.022279346596163e-05,2.422870207902912e-13
	8.022279460924886e-05,2.576175075242354e-13
	1.524391611851467e-05,-2.182414689605118e-13
	4.803061278978877e-05,9.849094073027862e-13
	-4.278549041437928e-05,-1.363800739128230e-13
	-2.048903849392416e-05,-6.302878644294514e-13
	-1.524391611851467e-05,2.182414689605118e-13
	-4.803061279012866e-05,-9.849094073027864e-13
	-1.524391611851467e-05,2.182414689605118e-13
31		2.041737944669527e+00,0.000000000000000e+00
	-1.524391611851467e-01,2.233249658123495e-09
	1.000000000000000e+00,0.000000000000000e+00
	0.000000000000000e+00,0.000000000000000e+00
	8.022279346596163e-05,2.479306104952864e-13
	8.022279460924886e-05,2.636181901383846e-13
	1.524391611851467e-05,-2.233249658123494e-13
	4.803061278978877e-05,1.007850894524332e-12
	-4.278549041437928e-05,-1.395567739217231e-13
	-2.048903849392416e-05,-6.449691547902596e-13
	-1.524391611851467e-05,2.233249658123495e-13
	-4.803061279012866e-05,-1.007850894524332e-12
	-1.524391611851467e-05,2.233249658123495e-13
32		2.089296130854037e+00,0.000000000000000e+00
	-1.524391611851467e-01,2.285268725171162e-09
	1.000000000000000e+00,0.000000000000000e+00
	0.000000000000000e+00,0.000000000000000e+00
	8.022279346596163e-05,2.537056562917157e-13
