LTspice 24.0.9 for Windows
Circuit: * GA CMOS Amp | W=2.469381263624912e-06 L=1e-06 Vbias=1.4895782416835688
Start Time: Sat Sep  6 22:16:13 2025
solver = Normal
Maximum thread count: 2
tnom = 27
temp = 27
method = modified trap
AsciiRawFile = 1
Direct Newton iteration for .op point succeeded.
Semiconductor Device Operating Points:
                        --- BSIM4 MOSFETS ---
Name:      m1
Model:      n
Id:      1.01e-04
Vgs:     1.49e+00
Vds:     7.88e-01
Vbs:     0.00e+00
Vth:     2.36e-01
Vdsat:   8.64e-01
Gm:      3.90e-05
Gds:     2.83e-05
Gmb      5.42e-05
Cbd:     1.02e-15
Cbs:     1.98e-15


.measure op idd find i(vdd)
  Error: FIND can not be evaluated over an interval.

gain_db: MAX(db(v(out)/v(g)))=(29.3619dB,111.77°) FROM 1 TO 1e+09
gain_lin: MAX(mag(v(out)/v(g)))=(3.13298dB,0°) FROM 1 TO 1e+09
fc: mag(v(out)/v(g))=1 AT 6.6881e+08

Total elapsed time: 0.766 seconds.

