Title: * GA CMOS Amp | W=1e-06 L=6.856860219915656e-07 Vbias=1.0368701241408302
Date: Mon Sep  8 18:44:56 2025
Plotname: AC Analysis
Flags: complex forward log
No. Variables: 11
No. Points:          901
Offset:    0.0000000000000000e+00
Command: Linear Technology Corporation LTspice
Variables:
	0	frequency	frequency
	1	V(out)	voltage
	2	V(g)	voltage
	3	V(vdd)	voltage
	4	Id(M1)	device_current
	5	Ig(M1)	device_current
	6	Ib(M1)	device_current
	7	Is(M1)	device_current
	8	I(Rload)	device_current
	9	I(Vg)	device_current
	10	I(Vdd)	device_current
Values:
0		1.000000000000000e+00,0.000000000000000e+00
	-2.169463124457239e-01,1.525016580493202e-11
	1.000000000000000e+00,0.000000000000000e+00
	0.000000000000000e+00,0.000000000000000e+00
	2.169463124457239e-05,-1.525016580493202e-15
	1.916392354352028e-26,6.741653376502232e-15
	2.169463136155077e-13,-4.431549924759526e-16
	-2.169463146151871e-05,-4.773481803533078e-15
	-2.169463124457239e-05,1.525016580493202e-15
	-1.916392354352028e-26,-6.741653376502232e-15
	-2.169463124457239e-05,1.525016580493202e-15
1		1.023292992280754e+00,0.000000000000000e+00
	-2.169463124457239e-01,1.560538779930652e-11
	1.000000000000000e+00,0.000000000000000e+00
	0.000000000000000e+00,0.000000000000000e+00
	2.169463124457239e-05,-1.560538779930652e-15
	2.006709143508484e-26,6.898686656560619e-15
	2.169463136155077e-13,-4.534773982948723e-16
	-2.169463146151871e-05,-4.884670478335095e-15
	-2.169463124457239e-05,1.560538779930652e-15
	-2.006709143508484e-26,-6.898686656560619e-15
	-2.169463124457239e-05,1.560538779930652e-15
2		1.047128548050899e+00,0.000000000000000e+00
	-2.169463124457239e-01,1.596888397685394e-11
	1.000000000000000e+00,0.000000000000000e+00
	0.000000000000000e+00,0.000000000000000e+00
	2.169463124457239e-05,-1.596888397685394e-15
	2.101282431802503e-26,7.059377711599227e-15
	2.169463136155077e-13,-4.640402438328518e-16
	-2.169463146151871e-05,-4.998449070080980e-15
	-2.169463124457239e-05,1.596888397685394e-15
	-2.101282431802503e-26,-7.059377711599227e-15
	-2.169463124457239e-05,1.596888397685394e-15
3		1.071519305237606e+00,0.000000000000000e+00
	-2.169463124457239e-01,1.634084706805906e-11
	1.000000000000000e+00,0.000000000000000e+00
	0.000000000000000e+00,0.000000000000000e+00
	2.169463124457239e-05,-1.634084706805906e-15
	2.200312821858218e-26,7.223811742142434e-15
	2.169463136155077e-13,-4.748491296504090e-16
	-2.169463146151871e-05,-5.114877905686119e-15
	-2.169463124457239e-05,1.634084706805906e-15
	-2.200312821858218e-26,-7.223811742142434e-15
	-2.169463124457239e-05,1.634084706805906e-15
4		1.096478196143185e+00,0.000000000000000e+00
	-2.169463124457239e-01,1.672147429267634e-11
	1.000000000000000e+00,0.000000000000000e+00
	0.000000000000000e+00,0.000000000000000e+00
	2.169463124457239e-05,-1.672147429267634e-15
	2.304010370410172e-26,7.392075933289778e-15
	2.169463136155077e-13,-4.859097867618791e-16
	-2.169463146151871e-05,-5.234018717260265e-15
	-2.169463124457239e-05,1.672147429267634e-15
	-2.304010370410172e-26,-7.392075933289778e-15
	-2.169463124457239e-05,1.672147429267634e-15
5		1.122018454301963e+00,0.000000000000000e+00
	-2.169463124457239e-01,1.711096746429848e-11
	1.000000000000000e+00,0.000000000000000e+00
	0.000000000000000e+00,0.000000000000000e+00
	2.169463124457239e-05,-1.711096746429848e-15
	2.412595033861820e-26,7.564259500942646e-15
	2.169463136155077e-13,-4.972280796740661e-16
	-2.169463146151871e-05,-5.355934674838732e-15
	-2.169463124457239e-05,1.711096746429848e-15
	-2.412595033861820e-26,-7.564259500942646e-15
	-2.169463124457239e-05,1.711096746429848e-15
6		1.148153621496882e+00,0.000000000000000e+00
	-2.169463124457239e-01,1.750953309736062e-11
	1.000000000000000e+00,0.000000000000000e+00
	0.000000000000000e+00,0.000000000000000e+00
	2.169463124457239e-05,-1.750953309736062e-15
	2.526297134842538e-26,7.740453739107723e-15
	2.169463136155077e-13,-5.088100094956882e-16
	-2.169463146151871e-05,-5.480690419875973e-15
	-2.169463124457239e-05,1.750953309736062e-15
	-2.526297134842538e-26,-7.740453739107723e-15
	-2.169463124457239e-05,1.750953309736062e-15
7		1.174897554939529e+00,0.000000000000000e+00
	-2.169463124457239e-01,1.791738251663705e-11
	1.000000000000000e+00,0.000000000000000e+00
	0.000000000000000e+00,0.000000000000000e+00
	2.169463124457239e-05,-1.791738251663705e-15
	2.645357850752814e-26,7.920752068302294e-15
	2.169463136155077e-13,-5.206617171192426e-16
	-2.169463146151871e-05,-5.608352099519346e-15
	-2.169463124457239e-05,1.791738251663705e-15
	-2.645357850752814e-26,-7.920752068302294e-15
	-2.169463124457239e-05,1.791738251663705e-15
8		1.202264434617413e+00,0.000000000000000e+00
	-2.169463124457239e-01,1.833473196928839e-11
	1.000000000000000e+00,0.000000000000000e+00
	0.000000000000000e+00,0.000000000000000e+00
	2.169463124457239e-05,-1.833473196928839e-15
	2.770029725333842e-26,8.105250085087028e-15
	2.169463136155077e-13,-5.327894864769857e-16
	-2.169463146151871e-05,-5.738987401681202e-15
	-2.169463124457239e-05,1.833473196928839e-15
	-2.770029725333842e-26,-8.105250085087028e-15
	-2.169463124457239e-05,1.833473196928839e-15
9		1.230268770812381e+00,0.000000000000000e+00
	-2.169463124457239e-01,1.876180273951872e-11
	1.000000000000000e+00,0.000000000000000e+00
	0.000000000000000e+00,0.000000000000000e+00
	2.169463124457239e-05,-1.876180273951872e-15
	2.900577204346658e-26,8.294045612752540e-15
	2.169463136155077e-13,-5.451997478727596e-16
	-2.169463146151871e-05,-5.872665590927908e-15
	-2.169463124457239e-05,1.876180273951872e-15
	-2.900577204346658e-26,-8.294045612752540e-15
	-2.169463124457239e-05,1.876180273951872e-15
10		1.258925411794167e+00,0.000000000000000e+00
	-2.169463124457239e-01,1.919882126590336e-11
	1.000000000000000e+00,0.000000000000000e+00
	0.000000000000000e+00,0.000000000000000e+00
	2.169463124457239e-05,-1.919882126590337e-15
	3.037277196497053e-26,8.487238753186607e-15
	2.169463136155077e-13,-5.578990813914284e-16
	-2.169463146151871e-05,-6.009457545204842e-15
	-2.169463124457239e-05,1.919882126590336e-15
	-3.037277196497053e-26,-8.487238753186607e-15
	-2.169463124457239e-05,1.919882126590336e-15
11		1.288249551693134e+00,0.000000000000000e+00
	-2.169463124457239e-01,1.964601926144963e-11
	1.000000000000000e+00,0.000000000000000e+00
	0.000000000000000e+00,0.000000000000000e+00
	2.169463124457239e-05,-1.964601926144963e-15
	3.180419660796067e-26,8.684931939949501e-15
	2.169463136155077e-13,-5.708942203877186e-16
	-2.169463146151871e-05,-6.149435793416819e-15
	-2.169463124457239e-05,1.964601926144963e-15
	-3.180419660796067e-26,-8.684931939949501e-15
	-2.169463124457239e-05,1.964601926144963e-15
12		1.318256738556407e+00,0.000000000000000e+00
	-2.169463124457239e-01,2.010363383645413e-11
	1.000000000000000e+00,0.000000000000000e+00
	0.000000000000000e+00,0.000000000000000e+00
	2.169463124457239e-05,-2.010363383645413e-15
	3.330308221601920e-26,8.887229992585620e-15
	2.169463136155077e-13,-5.841920550563378e-16
	-2.169463146151871e-05,-6.292674553883870e-15
	-2.169463124457239e-05,2.010363383645413e-15
	-3.330308221601920e-26,-8.887229992585620e-15
	-2.169463124457239e-05,2.010363383645413e-15
13		1.348962882591653e+00,0.000000000000000e+00
	-2.169463124457239e-01,2.057190762422176e-11
	1.000000000000000e+00,0.000000000000000e+00
	0.000000000000000e+00,0.000000000000000e+00
	2.169463124457239e-05,-2.057190762422176e-15
	3.487260812647992e-26,9.094240172200203e-15
	2.169463136155077e-13,-5.977996360852423e-16
	-2.169463146151871e-05,-6.439249773692785e-15
	-2.169463124457239e-05,2.057190762422176e-15
	-3.487260812647992e-26,-9.094240172200203e-15
	-2.169463124457239e-05,2.057190762422176e-15
14		1.380384264602885e+00,0.000000000000000e+00
	-2.169463124457239e-01,2.105108890971314e-11
	1.000000000000000e+00,0.000000000000000e+00
	0.000000000000000e+00,0.000000000000000e+00
	2.169463124457239e-05,-2.105108890971314e-15
	3.651610351422892e-26,9.306072238330588e-15
	2.169463136155077e-13,-6.117241783940145e-16
	-2.169463146151871e-05,-6.589239168965259e-15
	-2.169463124457239e-05,2.105108890971314e-15
	-3.651610351422892e-26,-9.306072238330588e-15
	-2.169463124457239e-05,2.105108890971314e-15
15		1.412537544622754e+00,0.000000000000000e+00
	-2.169463124457239e-01,2.154143176118856e-11
	1.000000000000000e+00,0.000000000000000e+00
	0.000000000000000e+00,0.000000000000000e+00
	2.169463124457239e-05,-2.154143176118856e-15
	3.823705445333088e-26,9.522838507142162e-15
	2.169463136155077e-13,-6.259730649592972e-16
	-2.169463146151871e-05,-6.742722266064009e-15
	-2.169463124457239e-05,2.154143176118857e-15
	-3.823705445333088e-26,-9.522838507142162e-15
	-2.169463124457239e-05,2.154143176118857e-15
16		1.445439770745927e+00,0.000000000000000e+00
	-2.169463124457239e-01,2.204319616491831e-11
	1.000000000000000e+00,0.000000000000000e+00
	0.000000000000000e+00,0.000000000000000e+00
	2.169463124457239e-05,-2.204319616491831e-15
	4.003911131145952e-26,9.744653910979891e-15
	2.169463136155077e-13,-6.405538507293534e-16
	-2.169463146151871e-05,-6.899780443758706e-15
	-2.169463124457239e-05,2.204319616491831e-15
	-4.003911131145952e-26,-9.744653910979891e-15
	-2.169463124457239e-05,2.204319616491831e-15
17		1.479108388168207e+00,0.000000000000000e+00
	-2.169463124457239e-01,2.255664816303090e-11
	1.000000000000000e+00,0.000000000000000e+00
	0.000000000000000e+00,0.000000000000000e+00
	2.169463124457239e-05,-2.255664816303090e-15
	4.192609649281695e-26,9.971636059306965e-15
	2.169463136155077e-13,-6.554742666297996e-16
	-2.169463146151871e-05,-7.060496976374075e-15
	-2.169463124457239e-05,2.255664816303091e-15
	-4.192609649281695e-26,-9.971636059306965e-15
	-2.169463124457239e-05,2.255664816303091e-15
18		1.513561248436208e+00,0.000000000000000e+00
	-2.169463124457239e-01,2.308205999457207e-11
	1.000000000000000e+00,0.000000000000000e+00
	0.000000000000000e+00,0.000000000000000e+00
	2.169463124457239e-05,-2.308205999457207e-15
	4.390201254596534e-26,1.020390530106289e-14
	2.169463136155077e-13,-6.707422236626405e-16
	-2.169463146151871e-05,-7.224957077943045e-15
	-2.169463124457239e-05,2.308205999457207e-15
	-4.390201254596534e-26,-1.020390530106289e-14
	-2.169463124457239e-05,2.308205999457207e-15
19		1.548816618912481e+00,0.000000000000000e+00
	-2.169463124457239e-01,2.361971023984954e-11
	1.000000000000000e+00,0.000000000000000e+00
	0.000000000000000e+00,0.000000000000000e+00
	2.169463124457239e-05,-2.361971023984954e-15
	4.597105065376906e-26,1.044158478847410e-14
	2.169463136155077e-13,-6.863658171007899e-16
	-2.169463146151871e-05,-7.393247947388352e-15
	-2.169463124457239e-05,2.361971023984954e-15
	-4.597105065376906e-26,-1.044158478847410e-14
	-2.169463124457239e-05,2.361971023984954e-15
20		1.584893192461113e+00,0.000000000000000e+00
	-2.169463124457239e-01,2.416988396814001e-11
	1.000000000000000e+00,0.000000000000000e+00
	0.000000000000000e+00,0.000000000000000e+00
	2.169463124457239e-05,-2.416988396814001e-15
	4.813759952345555e-26,1.068480054235086e-14
	2.169463136155077e-13,-7.023533307802941e-16
	-2.169463146151871e-05,-7.565458814756569e-15
	-2.169463124457239e-05,2.416988396814001e-15
	-4.813759952345555e-26,-1.068480054235086e-14
	-2.169463124457239e-05,2.416988396814001e-15
21		1.621810097358929e+00,0.000000000000000e+00
	-2.169463124457239e-01,2.473287288883661e-11
	1.000000000000000e+00,0.000000000000000e+00
	0.000000000000000e+00,0.000000000000000e+00
	2.169463124457239e-05,-2.473287288883661e-15
	5.040625469565167e-26,1.093368151890524e-14
	2.169463136155077e-13,-7.187132414925209e-16
	-2.169463146151871e-05,-7.741680988529057e-15
	-2.169463124457239e-05,2.473287288883661e-15
	-5.040625469565167e-26,-1.093368151890524e-14
	-2.169463124457239e-05,2.473287288883661e-15
22		1.659586907437560e+00,0.000000000000000e+00
	-2.169463124457239e-01,2.530897550611716e-11
	1.000000000000000e+00,0.000000000000000e+00
	0.000000000000000e+00,0.000000000000000e+00
	2.169463124457239e-05,-2.530897550611716e-15
	5.278182829214157e-26,1.118835967812532e-14
	2.169463136155077e-13,-7.354542234786815e-16
	-2.169463146151871e-05,-7.922007904034926e-15
	-2.169463124457239e-05,2.530897550611716e-15
	-5.278182829214157e-26,-1.118835967812532e-14
	-2.169463124457239e-05,2.530897550611716e-15
23		1.698243652461743e+00,0.000000000000000e+00
	-2.169463124457239e-01,2.589849727721494e-11
	1.000000000000000e+00,0.000000000000000e+00
	0.000000000000000e+00,0.000000000000000e+00
	2.169463124457239e-05,-2.589849727721494e-15
	5.526935922302209e-26,1.144897005374220e-14
	2.169463136155077e-13,-7.525851530290191e-16
	-2.169463146151871e-05,-8.106535172991684e-15
	-2.169463124457239e-05,2.589849727721494e-15
	-5.526935922302209e-26,-1.144897005374220e-14
	-2.169463124457239e-05,2.589849727721494e-15
24		1.737800828749374e+00,0.000000000000000e+00
	-2.169463124457239e-01,2.650175077437624e-11
	1.000000000000000e+00,0.000000000000000e+00
	0.000000000000000e+00,0.000000000000000e+00
	2.169463124457239e-05,-2.650175077437624e-15
	5.787412387490671e-26,1.171565082482660e-14
	2.169463136155077e-13,-7.701151131891332e-16
	-2.169463146151871e-05,-8.295360634199841e-15
	-2.169463124457239e-05,2.650175077437624e-15
	-5.787412387490671e-26,-1.171565082482660e-14
	-2.169463124457239e-05,2.650175077437624e-15
25		1.778279410038922e+00,0.000000000000000e+00
	-2.169463124457239e-01,2.711905585059025e-11
	1.000000000000000e+00,0.000000000000000e+00
	0.000000000000000e+00,0.000000000000000e+00
	2.169463124457239e-05,-2.711905585059025e-15
	6.060164730284896e-26,1.198854338905329e-14
	2.169463136155077e-13,-7.880533985759389e-16
	-2.169463146151871e-05,-8.488584405418330e-15
	-2.169463124457239e-05,2.711905585059025e-15
	-6.060164730284896e-26,-1.198854338905329e-14
	-2.169463124457239e-05,2.711905585059025e-15
26		1.819700858609982e+00,0.000000000000000e+00
	-2.169463124457239e-01,2.775073980917938e-11
	1.000000000000000e+00,0.000000000000000e+00
	0.000000000000000e+00,0.000000000000000e+00
	2.169463124457239e-05,-2.775073980917939e-15
	6.345771494972492e-26,1.226779243767200e-14
	2.169463136155077e-13,-8.064095203057898e-16
	-2.169463146151871e-05,-8.686308936448268e-15
	-2.169463124457239e-05,2.775073980917938e-15
	-6.345771494972492e-26,-1.226779243767200e-14
	-2.169463124457239e-05,2.775073980917938e-15
27		1.862087136662866e+00,0.000000000000000e+00
	-2.169463124457239e-01,2.839713757733982e-11
	1.000000000000000e+00,0.000000000000000e+00
	0.000000000000000e+00,0.000000000000000e+00
	2.169463124457239e-05,-2.839713757733982e-15
	6.644838491793333e-26,1.255354603222458e-14
	2.169463136155077e-13,-8.251932110373991e-16
	-2.169463146151871e-05,-8.888639063453203e-15
	-2.169463124457239e-05,2.839713757733982e-15
	-6.644838491793333e-26,-1.255354603222458e-14
	-2.169463124457239e-05,2.839713757733982e-15
28		1.905460717963246e+00,0.000000000000000e+00
	-2.169463124457239e-01,2.905859188372430e-11
	1.000000000000000e+00,0.000000000000000e+00
	0.000000000000000e+00,0.000000000000000e+00
	2.169463124457239e-05,-2.905859188372430e-15
	6.958000081944279e-26,1.284595568304928e-14
	2.169463136155077e-13,-8.444144301322248e-16
	-2.169463146151871e-05,-9.095682064544626e-15
	-2.169463124457239e-05,2.905859188372430e-15
	-6.958000081944279e-26,-1.284595568304928e-14
	-2.169463124457239e-05,2.905859188372430e-15
29		1.949844599758044e+00,0.000000000000000e+00
	-2.169463124457239e-01,2.973545344016148e-11
	1.000000000000000e+00,0.000000000000000e+00
	0.000000000000000e+00,0.000000000000000e+00
	2.169463124457239e-05,-2.973545344016148e-15
	7.285920523144357e-26,1.314517642961346e-14
	2.169463136155077e-13,-8.640833689350514e-16
	-2.169463146151871e-05,-9.307547716662260e-15
	-2.169463124457239e-05,2.973545344016148e-15
	-7.285920523144357e-26,-1.314517642961346e-14
	-2.169463124457239e-05,2.973545344016148e-15
30		1.995262314968878e+00,0.000000000000000e+00
	-2.169463124457239e-01,3.042808112760789e-11
	1.000000000000000e+00,0.000000000000000e+00
	0.000000000000000e+00,0.000000000000000e+00
	2.169463124457239e-05,-3.042808112760789e-15
	7.629295378614399e-26,1.345136692271760e-14
	2.169463136155077e-13,-8.842104561775837e-16
	-2.169463146151871e-05,-9.524348353779224e-15
	-2.169463124457239e-05,3.042808112760789e-15
	-7.629295378614399e-26,-1.345136692271760e-14
	-2.169463124457239e-05,3.042808112760789e-15
31		2.041737944669527e+00,0.000000000000000e+00
	-2.169463124457239e-01,3.113684218643141e-11
	1.000000000000000e+00,0.000000000000000e+00
	0.000000000000000e+00,0.000000000000000e+00
	2.169463124457239e-05,-3.113684218643141e-15
	7.988852992459929e-26,1.376468950861405e-14
	2.169463136155077e-13,-9.048063635078921e-16
	-2.169463146151871e-05,-9.746198926463013e-15
	-2.169463124457239e-05,3.113684218643141e-15
	-7.988852992459929e-26,-1.376468950861405e-14
	-2.169463124457239e-05,3.113684218643141e-15
32		2.089296130854037e+00,0.000000000000000e+00
	-2.169463124457239e-01,3.186211241112702e-11
	1.000000000000000e+00,0.000000000000000e+00
	0.000000000000000e+00,0.000000000000000e+00
	2.169463124457239e-05,-3.186211241112702e-15
	8.365356034586651e-26,1.408531031508517e-14
	2.169463136155077e-13,-9.258820111486584e-16
	-2.169463146151871e-05,-9.973217062823812e-15
	-2.169463124457239e-05,3.186211241112702e-15
	-8.365356034586651e-26,-1.408531031508517e-14
	-2.169463124457239e-05,3.186211241112702e-15
33		2.137962089502230e+00,0.000000000000000e+00
	-2.169463124457239e-01,3.260427634956792e-11
	1.000000000000000e+00,0.000000000000000e+00
	0.000000000000000e+00,0.000000000000000e+00
	2.169463124457239e-05,-3.260427634956793e-15
	8.759603118425550e-26,1.441339933952648e-14
	2.169463136155077e-13,-9.474485736872320e-16
	-2.169463146151871e-05,-1.020552313088245e-14
	-2.169463124457239e-05,3.260427634956792e-15
	-8.759603118425550e-26,-1.441339933952648e-14
	-2.169463124457239e-05,3.260427634956792e-15
34		2.187761623949550e+00,0.000000000000000e+00
	-2.169463124457239e-01,3.336372750689797e-11
	1.000000000000000e+00,0.000000000000000e+00
	0.000000000000000e+00,0.000000000000000e+00
	2.169463124457239e-05,-3.336372750689798e-15
	9.172430494899075e-26,1.474913053908149e-14
	2.169463136155077e-13,-9.695174860005420e-16
	-2.169463146151871e-05,-1.044324030239115e-14
	-2.169463124457239e-05,3.336372750689797e-15
	-9.172430494899075e-26,-1.474913053908149e-14
	-2.169463124457239e-05,3.336372750689797e-15
35		2.238721138568337e+00,0.000000000000000e+00
	-2.169463124457239e-01,3.414086855417334e-11
	1.000000000000000e+00,0.000000000000000e+00
	0.000000000000000e+00,0.000000000000000e+00
	2.169463124457239e-05,-3.414086855417334e-15
	9.604713826221463e-26,1.509268192287615e-14
	2.169463136155077e-13,-9.921004493180092e-16
	-2.169463146151871e-05,-1.068649461814081e-14
	-2.169463124457239e-05,3.414086855417334e-15
	-9.604713826221463e-26,-1.509268192287615e-14
	-2.169463124457239e-05,3.414086855417334e-15
36		2.290867652767770e+00,0.000000000000000e+00
	-2.169463124457239e-01,3.493611154186394e-11
	1.000000000000000e+00,0.000000000000000e+00
	0.000000000000000e+00,0.000000000000000e+00
	2.169463124457239e-05,-3.493611154186394e-15
	1.005737004329568e-25,1.544423564640158e-14
	2.169463136155077e-13,-1.015209437425704e-15
	-2.169463146151871e-05,-1.093541505478949e-14
	-2.169463124457239e-05,3.493611154186394e-15
	-1.005737004329568e-25,-1.544423564640158e-14
	-2.169463124457239e-05,3.493611154186394e-15
37		2.344228815319919e+00,0.000000000000000e+00
	-2.169463124457239e-01,3.574987811832813e-11
	1.000000000000000e+00,0.000000000000000e+00
	0.000000000000000e+00,0.000000000000000e+00
	2.169463124457239e-05,-3.574987811832814e-15
	1.053135929064682e-25,1.580397810809537e-14
	2.169463136155077e-13,-1.038856703015013e-15
	-2.169463146151871e-05,-1.119013359324754e-14
	-2.169463124457239e-05,3.574987811832814e-15
	-1.053135929064682e-25,-1.580397810809537e-14
	-2.169463124457239e-05,3.574987811832814e-15
38		2.398832919019488e+00,0.000000000000000e+00
	-2.169463124457239e-01,3.658259975337626e-11
	1.000000000000000e+00,0.000000000000000e+00
	0.000000000000000e+00,0.000000000000000e+00
