Title: * GA CMOS Amp | W=1.0013222134337229e-06 L=1.3839786240106986e-07 Vbias=1.3775633518203887
Date: Sat Sep  6 22:08:41 2025
Plotname: AC Analysis
Flags: complex forward log
No. Variables: 13
No. Points:          901
Offset:    0.0000000000000000e+00
Command: Linear Technology Corporation LTspice
Variables:
	0	frequency	frequency
	1	V(out)	voltage
	2	V(g)	voltage
	3	V(vdd)	voltage
	4	V(m1#dbody)	voltage
	5	V(m1#sbody)	voltage
	6	Id(M1)	device_current
	7	Ig(M1)	device_current
	8	Ib(M1)	device_current
	9	Is(M1)	device_current
	10	I(Rload)	device_current
	11	I(Vg)	device_current
	12	I(Vdd)	device_current
Values:
0		1.000000000000000e+00,0.000000000000000e+00
	-5.488675133573163e-02,3.700987143743867e-11
	1.000000000000000e+00,0.000000000000000e+00
	0.000000000000000e+00,0.000000000000000e+00
	9.157288876149966e-07,4.267909046974575e-15
	9.157292992672204e-07,5.456246073202622e-15
	5.488675133573161e-06,-3.700987143743863e-15
	6.764490574378789e-07,3.984952776622486e-14
	-4.883889325347532e-07,-2.830789266504184e-15
	-5.676735258476287e-06,-3.331775135597681e-14
	-5.488675133573163e-06,3.700987143743867e-15
	-6.764490574351356e-07,-3.984952776622486e-14
	-5.488675133573163e-06,3.700987143743867e-15
1		1.023292992280754e+00,0.000000000000000e+00
	-5.488675133573163e-02,3.787194208714262e-11
	1.000000000000000e+00,0.000000000000000e+00
	0.000000000000000e+00,0.000000000000000e+00
	9.157288876149966e-07,4.367321419460715e-15
	9.157292992672204e-07,5.583338370867626e-15
	5.488675133573161e-06,-3.787194208714263e-15
	6.764490574378789e-07,4.077774250887524e-14
	-4.883889325347532e-07,-2.896726819037308e-15
	-5.676735258476287e-06,-3.409382148112366e-14
	-5.488675133573163e-06,3.787194208714262e-15
	-6.764490574351356e-07,-4.077774250887524e-14
	-5.488675133573163e-06,3.787194208714262e-15
2		1.047128548050899e+00,0.000000000000000e+00
	-5.488675133573163e-02,3.875409294183560e-11
	1.000000000000000e+00,0.000000000000000e+00
	0.000000000000000e+00,0.000000000000000e+00
	9.157288876149966e-07,4.469049403571784e-15
	9.157292992672204e-07,5.713391028441082e-15
	5.488675133573161e-06,-3.875409294183556e-15
	6.764490574378789e-07,4.172757815036103e-14
	-4.883889325347532e-07,-2.964200254472597e-15
	-5.676735258476287e-06,-3.488796860170488e-14
	-5.488675133573163e-06,3.875409294183560e-15
	-6.764490574351356e-07,-4.172757815036104e-14
	-5.488675133573163e-06,3.875409294183560e-15
3		1.071519305237606e+00,0.000000000000000e+00
	-5.488675133573163e-02,3.965679172957740e-11
	1.000000000000000e+00,0.000000000000000e+00
	0.000000000000000e+00,0.000000000000000e+00
	9.157288876149966e-07,4.573146936831489e-15
	9.157292992672204e-07,5.846473001563490e-15
	5.488675133573161e-06,-3.965679172957737e-15
	6.764490574378789e-07,4.269953830611196e-14
	-4.883889325347532e-07,-3.033245348118636e-15
	-5.676735258476287e-06,-3.570061378503558e-14
	-5.488675133573163e-06,3.965679172957740e-15
	-6.764490574351356e-07,-4.269953830611196e-14
	-5.488675133573163e-06,3.965679172957740e-15
4		1.096478196143185e+00,0.000000000000000e+00
	-5.488675133573163e-02,4.058051707321392e-11
	1.000000000000000e+00,0.000000000000000e+00
	0.000000000000000e+00,0.000000000000000e+00
	9.157288876149966e-07,4.679669213129859e-15
	9.157292992672204e-07,5.982654852058546e-15
	5.488675133573161e-06,-4.058051707321391e-15
	6.764490574378789e-07,4.369413832226799e-14
	-4.883889325347532e-07,-3.103898708597997e-15
	-5.676735258476287e-06,-3.653218790634860e-14
	-5.488675133573163e-06,4.058051707321391e-15
	-6.764490574351356e-07,-4.369413832226799e-14
	-5.488675133573163e-06,4.058051707321391e-15
5		1.122018454301963e+00,0.000000000000000e+00
	-5.488675133573163e-02,4.152575874414931e-11
	1.000000000000000e+00,0.000000000000000e+00
	0.000000000000000e+00,0.000000000000000e+00
	9.157288876149966e-07,4.788672711987776e-15
	9.157292992672204e-07,6.122008785345961e-15
	5.488675133573161e-06,-4.152575874414931e-15
	6.764490574378789e-07,4.471190554892278e-14
	-4.883889325347532e-07,-3.176197797257612e-15
	-5.676735258476287e-06,-3.738313187725024e-14
	-5.488675133573163e-06,4.152575874414931e-15
	-6.764490574351356e-07,-4.471190554892279e-14
	-5.488675133573163e-06,4.152575874414931e-15
6		1.148153621496882e+00,0.000000000000000e+00
	-5.488675133573163e-02,4.249301792202923e-11
	1.000000000000000e+00,0.000000000000000e+00
	0.000000000000000e+00,0.000000000000000e+00
	9.157288876149966e-07,4.900215228503166e-15
	9.157292992672204e-07,6.264608688725735e-15
	5.488675133573161e-06,-4.249301792202921e-15
	6.764490574378789e-07,4.575337961973164e-14
	-4.883889325347532e-07,-3.250180948031283e-15
	-5.676735258476287e-06,-3.825389687949744e-14
	-5.488675133573163e-06,4.249301792202923e-15
	-6.764490574351356e-07,-4.575337961973165e-14
	-5.488675133573163e-06,4.249301792202923e-15
7		1.174897554939529e+00,0.000000000000000e+00
	-5.488675133573163e-02,4.348280746047300e-11
	1.000000000000000e+00,0.000000000000000e+00
	0.000000000000000e+00,0.000000000000000e+00
	9.157288876149966e-07,5.014355903994723e-15
	9.157292992672204e-07,6.410530170554167e-15
	5.488675133573161e-06,-4.348280746047299e-15
	6.764490574378789e-07,4.681911273803246e-14
	-4.883889325347532e-07,-3.325887387764829e-15
	-5.676735258476287e-06,-3.914494460422033e-14
	-5.488675133573163e-06,4.348280746047300e-15
	-6.764490574351356e-07,-4.681911273803246e-14
	-5.488675133573163e-06,4.348280746047300e-15
8		1.202264434617413e+00,0.000000000000000e+00
	-5.488675133573163e-02,4.449565215899532e-11
	1.000000000000000e+00,0.000000000000000e+00
	0.000000000000000e+00,0.000000000000000e+00
	9.157288876149966e-07,5.131155257359427e-15
	9.157292992672204e-07,6.559850600332429e-15
	5.488675133573161e-06,-4.449565215899531e-15
	6.764490574378789e-07,4.790966996963122e-14
	-4.883889325347532e-07,-3.403357257014693e-15
	-5.676735258476287e-06,-4.005674749671699e-14
	-5.488675133573163e-06,4.449565215899532e-15
	-6.764490574351356e-07,-4.790966996963122e-14
	-5.488675133573163e-06,4.449565215899532e-15
9		1.230268770812381e+00,0.000000000000000e+00
	-5.488675133573163e-02,4.553208904126192e-11
	1.000000000000000e+00,0.000000000000000e+00
	0.000000000000000e+00,0.000000000000000e+00
	9.157288876149966e-07,5.250675217160451e-15
	9.157292992672204e-07,6.712649149728872e-15
	5.488675133573161e-06,-4.553208904126190e-15
	6.764490574378789e-07,4.902562954240731e-14
	-4.883889325347532e-07,-3.482631631330985e-15
	-5.676735258476287e-06,-4.098978900695013e-14
	-5.488675133573163e-06,4.553208904126192e-15
	-6.764490574351356e-07,-4.902562954240732e-14
	-5.488675133573163e-06,4.553208904126192e-15
10		1.258925411794167e+00,0.000000000000000e+00
	-5.488675133573163e-02,4.659266763982663e-11
	1.000000000000000e+00,0.000000000000000e+00
	0.000000000000000e+00,0.000000000000000e+00
	9.157288876149966e-07,5.372979154462514e-15
	9.157292992672204e-07,6.869006834556915e-15
	5.488675133573161e-06,-4.659266763982664e-15
	6.764490574378789e-07,5.016758315289772e-14
	-4.883889325347532e-07,-3.563752543036287e-15
	-5.676735258476287e-06,-4.194456384587876e-14
	-5.488675133573163e-06,4.659266763982663e-15
	-6.764490574351356e-07,-5.016758315289773e-14
	-5.488675133573163e-06,4.659266763982663e-15
11		1.288249551693134e+00,0.000000000000000e+00
	-5.488675133573163e-02,4.767795028750087e-11
	1.000000000000000e+00,0.000000000000000e+00
	0.000000000000000e+00,0.000000000000000e+00
	9.157288876149966e-07,5.498131916432064e-15
	9.157292992672204e-07,7.029006557730698e-15
	5.488675133573161e-06,-4.767795028750084e-15
	6.764490574378789e-07,5.133613628002225e-14
	-4.883889325347532e-07,-3.646763003511750e-15
	-5.676735258476287e-06,-4.292157824776042e-14
	-5.488675133573163e-06,4.767795028750087e-15
	-6.764490574351356e-07,-5.133613628002227e-14
	-5.488675133573163e-06,4.767795028750087e-15
12		1.318256738556407e+00,0.000000000000000e+00
	-5.488675133573163e-02,4.878851241550981e-11
	1.000000000000000e+00,0.000000000000000e+00
	0.000000000000000e+00,0.000000000000000e+00
	9.157288876149966e-07,5.626199860720086e-15
	9.157292992672204e-07,7.192733153221290e-15
	5.488675133573161e-06,-4.878851241550978e-15
	6.764490574378789e-07,5.253190850611655e-14
	-4.883889325347532e-07,-3.731707026002289e-15
	-5.676735258476287e-06,-4.392135023856329e-14
	-5.488675133573163e-06,4.878851241550981e-15
	-6.764490574351356e-07,-5.253190850611657e-14
	-5.488675133573163e-06,4.878851241550981e-15
13		1.348962882591653e+00,0.000000000000000e+00
	-5.488675133573163e-02,4.992494285859375e-11
	1.000000000000000e+00,0.000000000000000e+00
	0.000000000000000e+00,0.000000000000000e+00
	9.157288876149966e-07,5.757250890645816e-15
	9.157292992672204e-07,7.360273431036798e-15
	5.488675133573161e-06,-4.992494285859376e-15
	6.764490574378789e-07,5.375553384544282e-14
	-4.883889325347532e-07,-3.818629648952996e-15
	-5.676735258476287e-06,-4.494440991063045e-14
	-5.488675133573163e-06,4.992494285859375e-15
	-6.764490574351356e-07,-5.375553384544282e-14
	-5.488675133573163e-06,4.992494285859375e-15
14		1.380384264602885e+00,0.000000000000000e+00
	-5.488675133573163e-02,5.108784416721608e-11
	1.000000000000000e+00,0.000000000000000e+00
	0.000000000000000e+00,0.000000000000000e+00
	9.157288876149966e-07,5.891354491199998e-15
	9.157292992672204e-07,7.531716223250180e-15
	5.488675133573161e-06,-5.108784416721602e-15
	6.764490574378789e-07,5.500766108035253e-14
	-4.883889325347532e-07,-3.907576959889119e-15
	-5.676735258476287e-06,-4.599129970374181e-14
	-5.488675133573163e-06,5.108784416721608e-15
	-6.764490574351356e-07,-5.500766108035254e-14
	-5.488675133573163e-06,5.108784416721608e-15
15		1.412537544622754e+00,0.000000000000000e+00
	-5.488675133573163e-02,5.227783292704341e-11
	1.000000000000000e+00,0.000000000000000e+00
	0.000000000000000e+00,0.000000000000000e+00
	9.157288876149966e-07,6.028581765886704e-15
	9.157292992672204e-07,7.707152431099178e-15
	5.488675133573161e-06,-5.227783292704342e-15
	6.764490574378789e-07,5.628895410527953e-14
	-4.883889325347532e-07,-3.998596119852268e-15
	-5.676735258476287e-06,-4.706257469272292e-14
	-5.488675133573163e-06,5.227783292704342e-15
	-6.764490574351356e-07,-5.628895410527953e-14
	-5.488675133573163e-06,5.227783292704342e-15
16		1.445439770745927e+00,0.000000000000000e+00
	-5.488675133573163e-02,5.349554008586757e-11
	1.000000000000000e+00,0.000000000000000e+00
	0.000000000000000e+00,0.000000000000000e+00
	9.157288876149966e-07,6.169005474423398e-15
	9.157292992672204e-07,7.886675073183364e-15
	5.488675133573161e-06,-5.349554008586753e-15
	6.764490574378789e-07,5.760009227874551e-14
	-4.883889325347532e-07,-4.091735388405840e-15
	-5.676735258476287e-06,-4.815880288175292e-14
	-5.488675133573163e-06,5.349554008586758e-15
	-6.764490574351356e-07,-5.760009227874551e-14
	-5.488675133573163e-06,5.349554008586758e-15
17		1.479108388168207e+00,0.000000000000000e+00
	-5.488675133573163e-02,5.474161128814245e-11
	1.000000000000000e+00,0.000000000000000e+00
	0.000000000000000e+00,0.000000000000000e+00
	9.157288876149966e-07,6.312700071319070e-15
	9.157292992672204e-07,8.070379334783837e-15
	5.488675133573161e-06,-5.474161128814245e-15
	6.764490574378789e-07,5.894177078356506e-14
	-4.883889325347532e-07,-4.187044149222864e-15
	-5.676735258476287e-06,-4.928056550552794e-14
	-5.488675133573163e-06,5.474161128814245e-15
	-6.764490574351356e-07,-5.894177078356507e-14
	-5.488675133573163e-06,5.474161128814245e-15
18		1.513561248436208e+00,0.000000000000000e+00
	-5.488675133573163e-02,5.601670721731319e-11
	1.000000000000000e+00,0.000000000000000e+00
	0.000000000000000e+00,0.000000000000000e+00
	9.157288876149966e-07,6.459741745351023e-15
	9.157292992672204e-07,8.258362618331718e-15
	5.488675133573161e-06,-5.601670721731321e-15
	6.764490574378789e-07,6.031470099544061e-14
	-4.883889325347532e-07,-4.284572936269891e-15
	-5.676735258476287e-06,-5.042845733743940e-14
	-5.488675133573163e-06,5.601670721731319e-15
	-6.764490574351356e-07,-6.031470099544061e-14
	-5.488675133573163e-06,5.601670721731319e-15
19		1.548816618912481e+00,0.000000000000000e+00
	-5.488675133573163e-02,5.732150394611933e-11
	1.000000000000000e+00,0.000000000000000e+00
	0.000000000000000e+00,0.000000000000000e+00
	9.157288876149966e-07,6.610208459961149e-15
	9.157292992672204e-07,8.450724595052184e-15
	5.488675133573161e-06,-5.732150394611934e-15
	6.764490574378789e-07,6.171961086014341e-14
	-4.883889325347532e-07,-4.384373460600752e-15
	-5.676735258476287e-06,-5.160308700493072e-14
	-5.488675133573163e-06,5.732150394611934e-15
	-6.764490574351356e-07,-6.171961086014341e-14
	-5.488675133573163e-06,5.732150394611934e-15
20		1.584893192461113e+00,0.000000000000000e+00
	-5.488675133573163e-02,5.865669329505751e-11
	1.000000000000000e+00,0.000000000000000e+00
	0.000000000000000e+00,0.000000000000000e+00
	9.157288876149966e-07,6.764179994593200e-15
	9.157292992672204e-07,8.647567257811514e-15
	5.488675133573161e-06,-5.865669329505750e-15
	6.764490574378789e-07,6.315724527947987e-14
	-4.883889325347532e-07,-4.486498637774469e-15
	-5.676735258476287e-06,-5.280507731219965e-14
	-5.488675133573163e-06,5.865669329505752e-15
	-6.764490574351356e-07,-6.315724527947988e-14
	-5.488675133573163e-06,5.865669329505752e-15
21		1.621810097358929e+00,0.000000000000000e+00
	-5.488675133573163e-02,6.002298319919384e-11
	1.000000000000000e+00,0.000000000000000e+00
	0.000000000000000e+00,0.000000000000000e+00
	9.157288876149966e-07,6.921737986992888e-15
	9.157292992672204e-07,8.848994975195019e-15
	5.488675133573161e-06,-6.002298319919387e-15
	6.764490574378789e-07,6.462836650624850e-14
	-4.883889325347532e-07,-4.591002615911762e-15
	-5.676735258476287e-06,-5.403506557041734e-14
	-5.488675133573163e-06,6.002298319919385e-15
	-6.764490574351356e-07,-6.462836650624848e-14
	-5.488675133573163e-06,6.002298319919385e-15
22		1.659586907437560e+00,0.000000000000000e+00
	-5.488675133573163e-02,6.142109808352050e-11
	1.000000000000000e+00,0.000000000000000e+00
	0.000000000000000e+00,0.000000000000000e+00
	9.157288876149966e-07,7.082965976493317e-15
	9.157292992672204e-07,9.055114546844669e-15
	5.488675133573161e-06,-6.142109808352051e-15
	6.764490574378789e-07,6.613375454839628e-14
	-4.883889325347532e-07,-4.697940804405117e-15
	-5.676735258476287e-06,-5.529370393563912e-14
	-5.488675133573163e-06,6.142109808352050e-15
	-6.764490574351356e-07,-6.613375454839631e-14
	-5.488675133573163e-06,6.142109808352050e-15
23		1.698243652461743e+00,0.000000000000000e+00
	-5.488675133573163e-02,6.285177924705539e-11
	1.000000000000000e+00,0.000000000000000e+00
	0.000000000000000e+00,0.000000000000000e+00
	9.157288876149966e-07,7.247949448308621e-15
	9.157292992672204e-07,9.266035260085667e-15
	5.488675133573161e-06,-6.285177924705541e-15
	6.764490574378789e-07,6.767420758258936e-14
	-4.883889325347532e-07,-4.807369903297566e-15
	-5.676735258476287e-06,-5.658165975458626e-14
	-5.488675133573163e-06,6.285177924705538e-15
	-6.764490574351356e-07,-6.767420758258939e-14
	-5.488675133573163e-06,6.285177924705538e-15
24		1.737800828749374e+00,0.000000000000000e+00
	-5.488675133573163e-02,6.431578525588870e-11
	1.000000000000000e+00,0.000000000000000e+00
	0.000000000000000e+00,0.000000000000000e+00
	9.157288876149966e-07,7.416775878859368e-15
	9.157292992672204e-07,9.481868947872034e-15
	5.488675133573161e-06,-6.431578525588872e-15
	6.764490574378789e-07,6.925054237741677e-14
	-4.883889325347532e-07,-4.919347933345805e-15
	-5.676735258476287e-06,-5.789961591848208e-14
	-5.488675133573163e-06,6.431578525588871e-15
	-6.764490574351356e-07,-6.925054237741677e-14
	-5.488675133573163e-06,6.431578525588871e-15
25		1.778279410038922e+00,0.000000000000000e+00
	-5.488675133573163e-02,6.581389234538476e-11
	1.000000000000000e+00,0.000000000000000e+00
	0.000000000000000e+00,0.000000000000000e+00
	9.157288876149966e-07,7.589534782153720e-15
	9.157292992672204e-07,9.702730048081940e-15
	5.488675133573161e-06,-6.581389234538471e-15
	6.764490574378789e-07,7.086359472645197e-14
	-4.883889325347532e-07,-5.033934266783572e-15
	-5.676735258476287e-06,-5.924827122512992e-14
	-5.488675133573163e-06,6.581389234538476e-15
	-6.764490574351356e-07,-7.086359472645200e-14
	-5.488675133573163e-06,6.581389234538476e-15
26		1.819700858609982e+00,0.000000000000000e+00
	-5.488675133573163e-02,6.734689483175219e-11
	1.000000000000000e+00,0.000000000000000e+00
	0.000000000000000e+00,0.000000000000000e+00
	9.157288876149966e-07,7.766317757248945e-15
	9.157292992672204e-07,9.928735664194155e-15
	5.488675133573161e-06,-6.734689483175208e-15
	6.764490574378789e-07,7.251421989140168e-14
	-4.883889325347532e-07,-5.151189658801586e-15
	-5.676735258476287e-06,-6.062834074942489e-14
	-5.488675133573163e-06,6.734689483175219e-15
	-6.764490574351356e-07,-7.251421989140171e-14
	-5.488675133573163e-06,6.734689483175219e-15
27		1.862087136662866e+00,0.000000000000000e+00
	-5.488675133573163e-02,6.891560553320095e-11
	1.000000000000000e+00,0.000000000000000e+00
	0.000000000000000e+00,0.000000000000000e+00
	9.157288876149966e-07,7.947218536818427e-15
	9.157292992672204e-07,1.016000562737788e-14
	5.488675133573161e-06,-6.891560553320096e-15
	6.764490574378789e-07,7.420329305557703e-14
	-4.883889325347532e-07,-5.271176279760752e-15
	-5.676735258476287e-06,-6.204055622249618e-14
	-5.488675133573163e-06,6.891560553320096e-15
	-6.764490574351356e-07,-7.420329305557704e-14
	-5.488675133573163e-06,6.891560553320096e-15
28		1.905460717963246e+00,0.000000000000000e+00
	-5.488675133573163e-02,7.052085620090928e-11
	1.000000000000000e+00,0.000000000000000e+00
	0.000000000000000e+00,0.000000000000000e+00
	9.157288876149966e-07,8.132333036850005e-15
	9.157292992672204e-07,1.039666256002881e-14
	5.488675133573161e-06,-7.052085620090926e-15
	6.764490574378789e-07,7.593170978792710e-14
	-4.883889325347532e-07,-5.393957748155713e-15
	-5.676735258476287e-06,-6.348566641968046e-14
	-5.488675133573163e-06,7.052085620090929e-15
	-6.764490574351356e-07,-7.593170978792711e-14
	-5.488675133573163e-06,7.052085620090929e-15
29		1.949844599758044e+00,0.000000000000000e+00
	-5.488675133573163e-02,7.216349796002924e-11
	1.000000000000000e+00,0.000000000000000e+00
	0.000000000000000e+00,0.000000000000000e+00
	9.157288876149966e-07,8.321759407501875e-15
	9.157292992672204e-07,1.063883194078517e-14
	5.488675133573161e-06,-7.216349796002921e-15
	6.764490574378789e-07,7.770038651788176e-14
	-4.883889325347532e-07,-5.519599164346218e-15
	-5.676735258476287e-06,-6.496443755753262e-14
	-5.488675133573163e-06,7.216349796002924e-15
	-6.764490574351356e-07,-7.770038651788180e-14
	-5.488675133573163e-06,7.216349796002924e-15
30		1.995262314968878e+00,0.000000000000000e+00
	-5.488675133573163e-02,7.384440176096442e-11
	1.000000000000000e+00,0.000000000000000e+00
	0.000000000000000e+00,0.000000000000000e+00
	9.157288876149966e-07,8.515598085143107e-15
	9.157292992672204e-07,1.088664217105811e-14
	5.488675133573161e-06,-7.384440176096427e-15
	6.764490574378789e-07,7.951026102125437e-14
	-4.883889325347532e-07,-5.648167145074190e-15
	-5.676735258476287e-06,-6.647765370008376e-14
	-5.488675133573163e-06,7.384440176096441e-15
	-6.764490574351356e-07,-7.951026102125439e-14
	-5.488675133573163e-06,7.384440176096441e-15
31		2.041737944669527e+00,0.000000000000000e+00
	-5.488675133573163e-02,7.556445884115946e-11
	1.000000000000000e+00,0.000000000000000e+00
	0.000000000000000e+00,0.000000000000000e+00
	9.157288876149966e-07,8.713951845606346e-15
	9.157292992672204e-07,1.114022464311190e-14
	5.488675133573161e-06,-7.556445884115939e-15
	6.764490574378789e-07,8.136229291746320e-14
	-4.883889325347532e-07,-5.779729858784811e-15
	-5.676735258476287e-06,-6.802611717456245e-14
	-5.488675133573163e-06,7.556445884115946e-15
	-6.764490574351356e-07,-8.136229291746322e-14
	-5.488675133573163e-06,7.556445884115946e-15
32		2.089296130854037e+00,0.000000000000000e+00
	-5.488675133573163e-02,7.732458119764593e-11
	1.000000000000000e+00,0.000000000000000e+00
	0.000000000000000e+00,0.000000000000000e+00
	9.157288876149966e-07,8.916925858680925e-15
