Title: * GA CMOS Amp | W=4.864637412561357e-06 L=1e-06 Vbias=1.1299601490684148
Date: Mon Sep  8 18:47:26 2025
Plotname: AC Analysis
Flags: complex forward log
No. Variables: 11
No. Points:          901
Offset:    0.0000000000000000e+00
Command: Linear Technology Corporation LTspice
Variables:
	0	frequency	frequency
	1	V(out)	voltage
	2	V(g)	voltage
	3	V(vdd)	voltage
	4	Id(M1)	device_current
	5	Ig(M1)	device_current
	6	Ib(M1)	device_current
	7	Is(M1)	device_current
	8	I(Rload)	device_current
	9	I(Vg)	device_current
	10	I(Vdd)	device_current
Values:
0		1.000000000000000e+00,0.000000000000000e+00
	-1.516510561579160e+00,1.462209577110452e-10
	1.000000000000000e+00,0.000000000000000e+00
	0.000000000000000e+00,0.000000000000000e+00
	1.516510561579160e-04,-1.462209577110452e-14
	8.938609477821799e-25,5.125087062758830e-14
	1.516510549949557e-12,-1.608338244632489e-15
	-1.516510576744265e-04,-3.502043661185129e-14
	-1.516510561579160e-04,1.462209577110452e-14
	-8.938609477821799e-25,-5.125087062758830e-14
	-1.516510561579160e-04,1.462209577110452e-14
1		1.023292992280754e+00,0.000000000000000e+00
	-1.516510561579160e+00,1.496268813502930e-10
	1.000000000000000e+00,0.000000000000000e+00
	0.000000000000000e+00,0.000000000000000e+00
	1.516510561579160e-04,-1.496268813502930e-14
	9.359873164105550e-25,5.244465676149864e-14
	1.516510549949557e-12,-1.645801254949548e-15
	-1.516510576744265e-04,-3.583616737151979e-14
	-1.516510561579160e-04,1.496268813502930e-14
	-9.359873164105550e-25,-5.244465676149864e-14
	-1.516510561579160e-04,1.496268813502930e-14
2		1.047128548050899e+00,0.000000000000000e+00
	-1.516510561579160e+00,1.531121391425787e-10
	1.000000000000000e+00,0.000000000000000e+00
	0.000000000000000e+00,0.000000000000000e+00
	1.516510561579160e-04,-1.531121391425787e-14
	9.800990396270423e-25,5.366624974661102e-14
	1.516510549949557e-12,-1.684136890876747e-15
	-1.516510576744265e-04,-3.667089894147641e-14
	-1.516510561579160e-04,1.531121391425787e-14
	-9.800990396270423e-25,-5.366624974661102e-14
	-1.516510561579160e-04,1.531121391425787e-14
3		1.071519305237606e+00,0.000000000000000e+00
	-1.516510561579160e+00,1.566785790177165e-10
	1.000000000000000e+00,0.000000000000000e+00
	0.000000000000000e+00,0.000000000000000e+00
	1.516510561579160e-04,-1.566785790177165e-14
	1.026289684310745e-24,5.491629728769585e-14
	1.516510549949557e-12,-1.723365478475672e-15
	-1.516510576744265e-04,-3.752507390744853e-14
	-1.516510561579160e-04,1.566785790177165e-14
	-1.026289684310745e-24,-5.491629728769585e-14
	-1.516510561579160e-04,1.566785790177165e-14
4		1.096478196143185e+00,0.000000000000000e+00
	-1.516510561579160e+00,1.603280919493357e-10
	1.000000000000000e+00,0.000000000000000e+00
	0.000000000000000e+00,0.000000000000000e+00
	1.516510561579160e-04,-1.603280919493357e-14
	1.074657227011927e-24,5.619546217650574e-14
	1.516510549949557e-12,-1.763507817262719e-15
	-1.516510576744265e-04,-3.839914516430945e-14
	-1.516510561579160e-04,1.603280919493357e-14
	-1.074657227011927e-24,-5.619546217650574e-14
	-1.516510561579160e-04,1.603280919493357e-14
5		1.122018454301963e+00,0.000000000000000e+00
	-1.516510561579160e+00,1.640626129574996e-10
	1.000000000000000e+00,0.000000000000000e+00
	0.000000000000000e+00,0.000000000000000e+00
	1.516510561579160e-04,-1.640626129574997e-14
	1.125304261773405e-24,5.750442264319651e-14
	1.516510549949557e-12,-1.804585191237270e-15
	-1.516510576744265e-04,-3.929357615620927e-14
	-1.516510561579160e-04,1.640626129574997e-14
	-1.125304261773405e-24,-5.750442264319651e-14
	-1.516510561579160e-04,1.640626129574997e-14
6		1.148153621496882e+00,0.000000000000000e+00
	-1.516510561579160e+00,1.678841221346790e-10
	1.000000000000000e+00,0.000000000000000e+00
	0.000000000000000e+00,0.000000000000000e+00
	1.516510561579160e-04,-1.678841221346790e-14
	1.178338217746275e-24,5.884387271593371e-14
	1.516510549949557e-12,-1.846619380166727e-15
	-1.516510576744265e-04,-4.020884112229908e-14
	-1.516510561579160e-04,1.678841221346791e-14
	-1.178338217746275e-24,-5.884387271593371e-14
	-1.516510561579160e-04,1.678841221346791e-14
7		1.174897554939529e+00,0.000000000000000e+00
	-1.516510561579160e+00,1.717946456956233e-10
	1.000000000000000e+00,0.000000000000000e+00
	0.000000000000000e+00,0.000000000000000e+00
	1.516510561579160e-04,-1.717946456956233e-14
	1.233871587061541e-24,6.021452258887561e-14
	1.516510549949557e-12,-1.889632671134426e-15
	-1.516510576744265e-04,-4.114542534817886e-14
	-1.516510561579160e-04,1.717946456956233e-14
	-1.233871587061541e-24,-6.021452258887561e-14
	-1.516510561579160e-04,1.717946456956233e-14
8		1.202264434617413e+00,0.000000000000000e+00
	-1.516510561579160e+00,1.757962570516863e-10
	1.000000000000000e+00,0.000000000000000e+00
	0.000000000000000e+00,0.000000000000000e+00
	1.516510561579160e-04,-1.757962570516863e-14
	1.292022163441011e-24,6.161709899872760e-14
	1.516510549949557e-12,-1.933647870356637e-15
	-1.516510576744265e-04,-4.210382542320233e-14
	-1.516510561579160e-04,1.757962570516863e-14
	-1.292022163441011e-24,-6.161709899872760e-14
	-1.516510561579160e-04,1.757962570516863e-14
9		1.230268770812381e+00,0.000000000000000e+00
	-1.516510561579160e+00,1.798910779101767e-10
	1.000000000000000e+00,0.000000000000000e+00
	0.000000000000000e+00,0.000000000000000e+00
	1.516510561579160e-04,-1.798910779101767e-14
	1.352913292053568e-24,6.305234561006743e-14
	1.516510549949557e-12,-1.978688315274551e-15
	-1.516510576744265e-04,-4.308454950377521e-14
	-1.516510561579160e-04,1.798910779101767e-14
	-1.352913292053568e-24,-6.305234561006743e-14
	-1.516510561579160e-04,1.798910779101767e-14
10		1.258925411794167e+00,0.000000000000000e+00
	-1.516510561579160e+00,1.840812793993150e-10
	1.000000000000000e+00,0.000000000000000e+00
	0.000000000000000e+00,0.000000000000000e+00
	1.516510561579160e-04,-1.840812793993150e-14
	1.416674131146815e-24,6.452102340964616e-14
	1.516510549949557e-12,-2.024777886928255e-15
	-1.516510576744265e-04,-4.408811758278641e-14
	-1.516510561579160e-04,1.840812793993150e-14
	-1.416674131146815e-24,-6.452102340964616e-14
	-1.516510561579160e-04,1.840812793993150e-14
11		1.288249551693134e+00,0.000000000000000e+00
	-1.516510561579160e+00,1.883690832193946e-10
	1.000000000000000e+00,0.000000000000000e+00
	0.000000000000000e+00,0.000000000000000e+00
	1.516510561579160e-04,-1.883690832193946e-14
	1.483439926009034e-24,6.602391110987342e-14
	1.516510549949557e-12,-2.071941022618720e-15
	-1.516510576744265e-04,-4.511506176531524e-14
	-1.516510561579160e-04,1.883690832193946e-14
	-1.483439926009034e-24,-6.602391110987342e-14
	-1.516510561579160e-04,1.883690832193946e-14
12		1.318256738556407e+00,0.000000000000000e+00
	-1.516510561579160e+00,1.927567628207567e-10
	1.000000000000000e+00,0.000000000000000e+00
	0.000000000000000e+00,0.000000000000000e+00
	1.516510561579160e-04,-1.927567628207567e-14
	1.553352295842574e-24,6.756180556170089e-14
	1.516510549949557e-12,-2.120202728864748e-15
	-1.516510576744265e-04,-4.616592655076047e-14
	-1.516510561579160e-04,1.927567628207567e-14
	-1.553352295842574e-24,-6.756180556170089e-14
	-1.516510561579160e-04,1.927567628207567e-14
13		1.348962882591653e+00,0.000000000000000e+00
	-1.516510561579160e+00,1.972466446092037e-10
	1.000000000000000e+00,0.000000000000000e+00
	0.000000000000000e+00,0.000000000000000e+00
	1.516510561579160e-04,-1.972466446092038e-14
	1.626559534157165e-24,6.913552217712341e-14
	1.516510549949557e-12,-2.169588594661841e-15
	-1.516510576744265e-04,-4.724126912154120e-14
	-1.516510561579160e-04,1.972466446092037e-14
	-1.626559534157165e-24,-6.913552217712341e-14
	-1.516510561579160e-04,1.972466446092037e-14
14		1.380384264602885e+00,0.000000000000000e+00
	-1.516510561579160e+00,2.018411091794906e-10
	1.000000000000000e+00,0.000000000000000e+00
	0.000000000000000e+00,0.000000000000000e+00
	1.516510561579160e-04,-2.018411091794906e-14
	1.703216923320341e-24,7.074589536152106e-14
	1.516510549949557e-12,-2.220124805049712e-15
	-1.516510576744265e-04,-4.834165963852229e-14
	-1.516510561579160e-04,2.018411091794906e-14
	-1.703216923320341e-24,-7.074589536152106e-14
	-1.516510561579160e-04,2.018411091794906e-14
15		1.412537544622754e+00,0.000000000000000e+00
	-1.516510561579160e+00,2.065425925775473e-10
	1.000000000000000e+00,0.000000000000000e+00
	0.000000000000000e+00,0.000000000000000e+00
	1.516510561579160e-04,-2.065425925775473e-14
	1.783487063932148e-24,7.239377895607200e-14
	1.516510549949557e-12,-2.271838154996037e-15
	-1.516510576744265e-04,-4.946768154332123e-14
	-1.516510561579160e-04,2.065425925775473e-14
	-1.783487063932148e-24,-7.239377895607200e-14
	-1.516510561579160e-04,2.065425925775473e-14
16		1.445439770745927e+00,0.000000000000000e+00
	-1.516510561579160e+00,2.113535875921031e-10
	1.000000000000000e+00,0.000000000000000e+00
	0.000000000000000e+00,0.000000000000000e+00
	1.516510561579160e-04,-2.113535875921030e-14
	1.867540219722832e-24,7.408004669047039e-14
	1.516510549949557e-12,-2.324756063603477e-15
	-1.516510576744265e-04,-5.061993186765661e-14
	-1.516510561579160e-04,2.113535875921031e-14
	-1.867540219722832e-24,-7.408004669047039e-14
	-1.516510561579160e-04,2.113535875921031e-14
17		1.479108388168207e+00,0.000000000000000e+00
	-1.516510561579160e+00,2.162766450763956e-10
	1.000000000000000e+00,0.000000000000000e+00
	0.000000000000000e+00,0.000000000000000e+00
	1.516510561579160e-04,-2.162766450763956e-14
	1.955554678705027e-24,7.580559264618941e-14
	1.516510549949557e-12,-2.378906588647629e-15
	-1.516510576744265e-04,-5.179902154990222e-14
	-1.516510561579160e-04,2.162766450763956e-14
	-1.955554678705027e-24,-7.580559264618941e-14
	-1.516510561579160e-04,2.162766450763956e-14
18		1.513561248436208e+00,0.000000000000000e+00
	-1.516510561579160e+00,2.213143753006675e-10
	1.000000000000000e+00,0.000000000000000e+00
	0.000000000000000e+00,0.000000000000000e+00
	1.516510561579160e-04,-2.213143753006675e-14
	2.047717131346538e-24,7.757133173053510e-14
	1.516510549949557e-12,-2.434318441453635e-15
	-1.516510576744265e-04,-5.300557575901472e-14
	-1.516510561579160e-04,2.213143753006675e-14
	-2.047717131346538e-24,-7.757133173053510e-14
	-1.516510561579160e-04,2.213143753006675e-14
19		1.548816618912481e+00,0.000000000000000e+00
	-1.516510561579160e+00,2.264694493361658e-10
	1.000000000000000e+00,0.000000000000000e+00
	0.000000000000000e+00,0.000000000000000e+00
	1.516510561579160e-04,-2.264694493361658e-14
	2.144223066565854e-24,7.937820016174228e-14
	1.516510549949557e-12,-2.491021002119325e-15
	-1.516510576744265e-04,-5.424023422600637e-14
	-1.516510561579160e-04,2.264694493361659e-14
	-2.144223066565854e-24,-7.937820016174228e-14
	-1.516510561579160e-04,2.264694493361659e-14
20		1.584893192461113e+00,0.000000000000000e+00
	-1.516510561579160e+00,2.317446004713798e-10
	1.000000000000000e+00,0.000000000000000e+00
	0.000000000000000e+00,0.000000000000000e+00
	1.516510561579160e-04,-2.317446004713798e-14
	2.245277186390350e-24,8.122715596536990e-14
	1.516510549949557e-12,-2.549044335092876e-15
	-1.516510576744265e-04,-5.550365158313904e-14
	-1.516510561579160e-04,2.317446004713798e-14
	-2.245277186390350e-24,-8.122715596536990e-14
	-1.516510561579160e-04,2.317446004713798e-14
21		1.621810097358929e+00,0.000000000000000e+00
	-1.516510561579160e+00,2.371426256612660e-10
	1.000000000000000e+00,0.000000000000000e+00
	0.000000000000000e+00,0.000000000000000e+00
	1.516510561579160e-04,-2.371426256612660e-14
	2.351093840156735e-24,8.311917948225885e-14
	1.516510549949557e-12,-2.608419205113490e-15
	-1.516510576744265e-04,-5.679649771101876e-14
	-1.516510561579160e-04,2.371426256612661e-14
	-2.351093840156735e-24,-8.311917948225885e-14
	-1.516510561579160e-04,2.371426256612661e-14
22		1.659586907437560e+00,0.000000000000000e+00
	-1.516510561579160e+00,2.426663870102317e-10
	1.000000000000000e+00,0.000000000000000e+00
	0.000000000000000e+00,0.000000000000000e+00
	1.516510561579160e-04,-2.426663870102317e-14
	2.461897479174735e-24,8.505527388832174e-14
	1.516510549949557e-12,-2.669177093523190e-15
	-1.516510576744265e-04,-5.811945809377538e-14
	-1.516510561579160e-04,2.426663870102317e-14
	-2.461897479174735e-24,-8.505527388832174e-14
	-1.516510561579160e-04,2.426663870102317e-14
23		1.698243652461743e+00,0.000000000000000e+00
	-1.516510561579160e+00,2.483188132896596e-10
	1.000000000000000e+00,0.000000000000000e+00
	0.000000000000000e+00,0.000000000000000e+00
	1.516510561579160e-04,-2.483188132896595e-14
	2.577923132818411e-24,8.703646572643984e-14
	1.516510549949557e-12,-2.731350214958581e-15
	-1.516510576744265e-04,-5.947323418251531e-14
	-1.516510561579160e-04,2.483188132896596e-14
	-2.577923132818411e-24,-8.703646572643984e-14
	-1.516510561579160e-04,2.483188132896596e-14
24		1.737800828749374e+00,0.000000000000000e+00
	-1.516510561579160e+00,2.541029014907815e-10
	1.000000000000000e+00,0.000000000000000e+00
	0.000000000000000e+00,0.000000000000000e+00
	1.516510561579160e-04,-2.541029014907815e-14
	2.699416907054967e-24,8.906380545074991e-14
	1.516510549949557e-12,-2.794971534431643e-15
	-1.516510576744265e-04,-6.085854376724012e-14
	-1.516510561579160e-04,2.541029014907816e-14
	-2.699416907054967e-24,-8.906380545074991e-14
	-1.516510561579160e-04,2.541029014907816e-14
25		1.778279410038922e+00,0.000000000000000e+00
	-1.516510561579160e+00,2.600217184137236e-10
	1.000000000000000e+00,0.000000000000000e+00
	0.000000000000000e+00,0.000000000000000e+00
	1.516510561579160e-04,-2.600217184137235e-14
	2.826636506468519e-24,9.113836798360883e-14
	1.516510549949557e-12,-2.860074784808094e-15
	-1.516510576744265e-04,-6.227612135742838e-14
	-1.516510561579160e-04,2.600217184137236e-14
	-2.826636506468519e-24,-9.113836798360883e-14
	-1.516510561579160e-04,2.600217184137236e-14
26		1.819700858609982e+00,0.000000000000000e+00
	-1.516510561579160e+00,2.660784022935628e-10
	1.000000000000000e+00,0.000000000000000e+00
	0.000000000000000e+00,0.000000000000000e+00
	1.516510561579160e-04,-2.660784022935628e-14
	2.959851780886046e-24,9.326125328553153e-14
	1.516510549949557e-12,-2.926694484693002e-15
	-1.516510576744265e-04,-6.372671857148225e-14
	-1.516510561579160e-04,2.660784022935628e-14
	-2.959851780886046e-24,-9.326125328553153e-14
	-1.516510561579160e-04,2.660784022935628e-14
27		1.862087136662866e+00,0.000000000000000e+00
	-1.516510561579160e+00,2.722761644642621e-10
	1.000000000000000e+00,0.000000000000000e+00
	0.000000000000000e+00,0.000000000000000e+00
	1.516510561579160e-04,-2.722761644642621e-14
	3.099345297765075e-24,9.543358693840489e-14
	1.516510549949557e-12,-2.994865956733084e-15
	-1.516510576744265e-04,-6.521110453524559e-14
	-1.516510561579160e-04,2.722761644642622e-14
	-3.099345297765075e-24,-9.543358693840489e-14
	-1.516510561579160e-04,2.722761644642622e-14
28		1.905460717963246e+00,0.000000000000000e+00
	-1.516510561579160e+00,2.786182910613615e-10
	1.000000000000000e+00,0.000000000000000e+00
	0.000000000000000e+00,0.000000000000000e+00
	1.516510561579160e-04,-2.786182910613615e-14
	3.245412941557125e-24,9.765652074228582e-14
	1.516510549949557e-12,-3.064625346345154e-15
	-1.516510576744265e-04,-6.673006628980451e-14
	-1.516510561579160e-04,2.786182910613615e-14
	-3.245412941557125e-24,-9.765652074228582e-14
	-1.516510561579160e-04,2.786182910613615e-14
29		1.949844599758044e+00,0.000000000000000e+00
	-1.516510561579160e+00,2.851081447643308e-10
	1.000000000000000e+00,0.000000000000000e+00
	0.000000000000000e+00,0.000000000000000e+00
	1.516510561579160e-04,-2.851081447643308e-14
	3.398364541318312e-24,9.993123332610120e-14
	1.516510549949557e-12,-3.136009640880980e-15
	-1.516510576744265e-04,-6.828440920878714e-14
	-1.516510561579160e-04,2.851081447643308e-14
	-3.398364541318312e-24,-9.993123332610120e-14
	-1.516510561579160e-04,2.851081447643308e-14
30		1.995262314968878e+00,0.000000000000000e+00
	-1.516510561579160e+00,2.917491665795064e-10
	1.000000000000000e+00,0.000000000000000e+00
	0.000000000000000e+00,0.000000000000000e+00
	1.516510561579160e-04,-2.917491665795064e-14
	3.558524527898304e-24,1.022589307725723e-13
	1.516510549949557e-12,-3.209056689238387e-15
	-1.516510576744265e-04,-6.987495742538327e-14
	-1.516510561579160e-04,2.917491665795064e-14
	-3.558524527898304e-24,-1.022589307725723e-13
	-1.516510561579160e-04,2.917491665795064e-14
31		2.041737944669527e+00,0.000000000000000e+00
	-1.516510561579160e+00,2.985448776645593e-10
	1.000000000000000e+00,0.000000000000000e+00
	0.000000000000000e+00,0.000000000000000e+00
	1.516510561579160e-04,-2.985448776645592e-14
	3.726232622101662e-24,1.046408472576960e-13
	1.516510549949557e-12,-3.283805221929326e-15
	-1.516510576744265e-04,-7.150255426931073e-14
	-1.516510561579160e-04,2.985448776645592e-14
	-3.726232622101662e-24,-1.046408472576960e-13
	-1.516510561579160e-04,2.985448776645592e-14
32		2.089296130854037e+00,0.000000000000000e+00
	-1.516510561579160e+00,3.054988811954585e-10
	1.000000000000000e+00,0.000000000000000e+00
	0.000000000000000e+00,0.000000000000000e+00
	1.516510561579160e-04,-3.054988811954586e-14
	3.901844555281210e-24,1.070782457051211e-13
	1.516510549949557e-12,-3.360294871615205e-15
	-1.516510576744265e-04,-7.316806271396000e-14
	-1.516510561579160e-04,3.054988811954585e-14
	-3.901844555281210e-24,-1.070782457051211e-13
	-1.516510561579160e-04,3.054988811954585e-14
33		2.137962089502230e+00,0.000000000000000e+00
	-1.516510561579160e+00,3.126148642769234e-10
	1.000000000000000e+00,0.000000000000000e+00
	0.000000000000000e+00,0.000000000000000e+00
	1.516510561579160e-04,-3.126148642769234e-14
	4.085732823891922e-24,1.095724184557671e-13
	1.516510549949557e-12,-3.438566194120804e-15
	-1.516510576744265e-04,-7.487236583395400e-14
	-1.516510561579160e-04,3.126148642769234e-14
	-4.085732823891922e-24,-1.095724184557671e-13
	-1.516510561579160e-04,3.126148642769234e-14
34		2.187761623949550e+00,0.000000000000000e+00
	-1.516510561579160e+00,3.198965998973747e-10
	1.000000000000000e+00,0.000000000000000e+00
	0.000000000000000e+00,0.000000000000000e+00
	1.516510561579160e-04,-3.198965998973748e-14
	4.278287479605849e-24,1.121246879530409e-13
	1.516510549949557e-12,-3.518660689937320e-15
	-1.516510576744265e-04,-7.661636727336609e-14
	-1.516510561579160e-04,3.198965998973747e-14
	-4.278287479605849e-24,-1.121246879530409e-13
	-1.516510561579160e-04,3.198965998973747e-14
35		2.238721138568337e+00,0.000000000000000e+00
	-1.516510561579160e+00,3.273479489294237e-10
	1.000000000000000e+00,0.000000000000000e+00
	0.000000000000000e+00,0.000000000000000e+00
	1.516510561579160e-04,-3.273479489294238e-14
	4.479916956664015e-24,1.147364074440130e-13
	1.516510549949557e-12,-3.600620826226615e-15
	-1.516510576744265e-04,-7.840099172484403e-14
	-1.516510561579160e-04,3.273479489294238e-14
	-4.479916956664015e-24,-1.147364074440130e-13
	-1.516510561579160e-04,3.273479489294238e-14
36		2.290867652767770e+00,0.000000000000000e+00
	-1.516510561579160e+00,3.349728621769576e-10
	1.000000000000000e+00,0.000000000000000e+00
	0.000000000000000e+00,0.000000000000000e+00
	1.516510561579160e-04,-3.349728621769575e-14
	4.691048938220195e-24,1.174089616969279e-13
	1.516510549949557e-12,-3.684490059337867e-15
	-1.516510576744265e-04,-8.022718541989427e-14
	-1.516510561579160e-04,3.349728621769576e-14
	-4.691048938220195e-24,-1.174089616969279e-13
	-1.516510561579160e-04,3.349728621769576e-14
37		2.344228815319919e+00,0.000000000000000e+00
	-1.516510561579160e+00,3.427753824699075e-10
	1.000000000000000e+00,0.000000000000000e+00
	0.000000000000000e+00,0.000000000000000e+00
	1.516510561579160e-04,-3.427753824699075e-14
	4.912131263514226e-24,1.201437677354258e-13
	1.516510549949557e-12,-3.770312857848521e-15
	-1.516510576744265e-04,-8.209591663058651e-14
	-1.516510561579160e-04,3.427753824699075e-14
	-4.912131263514226e-24,-1.201437677354258e-13
	-1.516510561579160e-04,3.427753824699075e-14
38		2.398832919019488e+00,0.000000000000000e+00
	-1.516510561579160e+00,3.507596468078116e-10
	1.000000000000000e+00,0.000000000000000e+00
	0.000000000000000e+00,0.000000000000000e+00
