LTspice 24.0.9 for Windows
Circuit: * GA CMOS Amp | W=2.9278980976867432e-05 L=9.400813394938405e-07 Vbias=0.56891111607318
Start Time: Sat Sep  6 22:36:38 2025
solver = Normal
Maximum thread count: 2
tnom = 27
temp = 27
method = modified trap
AsciiRawFile = 1
Direct Newton iteration for .op point succeeded.
Semiconductor Device Operating Points:
                        --- BSIM4 MOSFETS ---
Name:      m1
Model:      n
Id:      1.72e-04
Vgs:     5.69e-01
Vds:     8.02e-02
Vbs:     0.00e+00
Vth:     2.37e-01
Vdsat:   2.61e-01
Gm:      3.37e-04
Gds:     1.75e-03
Gmb      2.31e-04
Cbd:     1.43e-14
Cbs:     2.34e-14


.measure op idd find i(vdd)
  Error: FIND can not be evaluated over an interval.

gain_db: MAX(db(v(out)/v(g)))=(29.8382dB,118.462°) FROM 1 TO 1e+09
gain_lin: MAX(mag(v(out)/v(g)))=(-0.476423dB,0°) FROM 1 TO 1e+09

Measurement "fc" FAIL'ed

Total elapsed time: 0.531 seconds.

