LTspice 24.0.9 for Windows
Circuit: * GA CMOS Amp | W=1e-06 L=4.346766966102945e-07 Vbias=1.5
Start Time: Sat Sep  6 22:07:19 2025
solver = Normal
Maximum thread count: 2
tnom = 27
temp = 27
method = modified trap
AsciiRawFile = 1
Direct Newton iteration for .op point succeeded.
Semiconductor Device Operating Points:
                        --- BSIM4 MOSFETS ---
Name:      m1
Model:      n
Id:      9.40e-05
Vgs:     1.50e+00
Vds:     8.60e-01
Vbs:     0.00e+00
Vth:     2.55e-01
Vdsat:   8.63e-01
Gm:      4.27e-05
Gds:     1.78e-05
Gmb      4.97e-05
Cbd:     4.07e-16
Cbs:     8.00e-16


.measure op idd find i(vdd)
  Error: FIND can not be evaluated over an interval.

gain_db: MAX(db(v(out)/v(g)))=(29.1578dB,108.054°) FROM 1 TO 1e+09
gain_lin: MAX(mag(v(out)/v(g)))=(-6.71614dB,0°) FROM 1 TO 1e+09

Measurement "fc" FAIL'ed

Total elapsed time: 0.557 seconds.

