Title: * GA CMOS Amp | W=1.5513211331418418e-05 L=6.901696344416825e-07 Vbias=1.4168239380749614
Date: Sat Sep  6 22:12:55 2025
Plotname: AC Analysis
Flags: complex forward log
No. Variables: 13
No. Points:          901
Offset:    0.0000000000000000e+00
Command: Linear Technology Corporation LTspice
Variables:
	0	frequency	frequency
	1	V(out)	voltage
	2	V(g)	voltage
	3	V(vdd)	voltage
	4	V(m1#dbody)	voltage
	5	V(m1#sbody)	voltage
	6	Id(M1)	device_current
	7	Ig(M1)	device_current
	8	Ib(M1)	device_current
	9	Is(M1)	device_current
	10	I(Rload)	device_current
	11	I(Vg)	device_current
	12	I(Vdd)	device_current
Values:
0		1.000000000000000e+00,0.000000000000000e+00
	1.653880760368907e-02,6.727929502816229e-10
	1.000000000000000e+00,0.000000000000000e+00
	0.000000000000000e+00,0.000000000000000e+00
	2.088416941160839e-04,7.619584025856757e-14
	2.088416939901633e-04,7.026314595343012e-14
	-1.653880760368913e-06,-6.727929502816236e-14
	1.354000715844156e-04,2.807592895779555e-12
	-1.113822368873530e-04,-3.791804634441203e-14
	-2.236395393669369e-05,-2.702395554406980e-12
	1.653880760368907e-06,6.727929502816230e-14
	-1.354000715844683e-04,-2.807592895779554e-12
	1.653880760368907e-06,6.727929502816230e-14
1		1.023292992280754e+00,0.000000000000000e+00
	1.653880760368907e-02,6.884643112790786e-10
	1.000000000000000e+00,0.000000000000000e+00
	0.000000000000000e+00,0.000000000000000e+00
	2.088416941160839e-04,7.797066937753596e-14
	2.088416939901633e-04,7.189978486974487e-14
	-1.653880760368913e-06,-6.884643112790767e-14
	1.354000715844156e-04,2.872990135428447e-12
	-1.113822368873530e-04,-3.880127110521369e-14
	-2.236395393669369e-05,-2.765342433195326e-12
	1.653880760368907e-06,6.884643112790786e-14
	-1.354000715844683e-04,-2.872990135428448e-12
	1.653880760368907e-06,6.884643112790786e-14
2		1.047128548050899e+00,0.000000000000000e+00
	1.653880760368907e-02,7.045007051672767e-10
	1.000000000000000e+00,0.000000000000000e+00
	0.000000000000000e+00,0.000000000000000e+00
	2.088416941160839e-04,7.978683957747213e-14
	2.088416939901633e-04,7.357454600370372e-14
	-1.653880760368913e-06,-7.045007051672774e-14
	1.354000715844156e-04,2.939910672475665e-12
	-1.113822368873530e-04,-3.970506881355088e-14
	-2.236395393669369e-05,-2.829755533145387e-12
	1.653880760368907e-06,7.045007051672768e-14
	-1.354000715844683e-04,-2.939910672475664e-12
	1.653880760368907e-06,7.045007051672768e-14
3		1.071519305237606e+00,0.000000000000000e+00
	1.653880760368907e-02,7.209106346545238e-10
	1.000000000000000e+00,0.000000000000000e+00
	0.000000000000000e+00,0.000000000000000e+00
	2.088416941160839e-04,8.164531381585593e-14
	2.088416939901633e-04,7.528831733582796e-14
	-1.653880760368913e-06,-7.209106346545261e-14
	1.354000715844156e-04,3.008389989075747e-12
	-1.113822368873530e-04,-4.062991867493172e-14
	-2.236395393669369e-05,-2.895669006935363e-12
	1.653880760368907e-06,7.209106346545239e-14
	-1.354000715844683e-04,-3.008389989075747e-12
	1.653880760368907e-06,7.209106346545239e-14
4		1.096478196143185e+00,0.000000000000000e+00
	1.653880760368907e-02,7.377028005026450e-10
	1.000000000000000e+00,0.000000000000000e+00
	0.000000000000000e+00,0.000000000000000e+00
	2.088416941160839e-04,8.354707748032842e-14
	2.088416939901633e-04,7.704200753036237e-14
	-1.653880760368913e-06,-7.377028005026475e-14
	1.354000715844156e-04,3.078464393868786e-12
	-1.113822368873530e-04,-4.157631105699457e-14
	-2.236395393669369e-05,-2.963117802761527e-12
	1.653880760368907e-06,7.377028005026450e-14
	-1.354000715844683e-04,-3.078464393868785e-12
	1.653880760368907e-06,7.377028005026450e-14
5		1.122018454301963e+00,0.000000000000000e+00
	1.653880760368907e-02,7.548861061402441e-10
	1.000000000000000e+00,0.000000000000000e+00
	0.000000000000000e+00,0.000000000000000e+00
	2.088416941160839e-04,8.549313891115729e-14
	2.088416939901633e-04,7.883654641706091e-14
	-1.653880760368913e-06,-7.548861061402469e-14
	1.354000715844156e-04,3.150171041231749e-12
	-1.113822368873530e-04,-4.254474774950739e-14
	-2.236395393669369e-05,-3.032137682868217e-12
	1.653880760368907e-06,7.548861061402441e-14
	-1.354000715844683e-04,-3.150171041231748e-12
	1.653880760368907e-06,7.548861061402441e-14
6		1.148153621496882e+00,0.000000000000000e+00
	1.653880760368907e-02,7.724696623834172e-10
	1.000000000000000e+00,0.000000000000000e+00
	0.000000000000000e+00,0.000000000000000e+00
	2.088416941160839e-04,8.748452993587232e-14
	2.088416939901633e-04,8.067288548419482e-14
	-1.653880760368913e-06,-7.724696623834197e-14
	1.354000715844156e-04,3.223547950978215e-12
	-1.113822368873530e-04,-4.353574223042329e-14
	-2.236395393669369e-05,-3.102765242509450e-12
	1.653880760368907e-06,7.724696623834172e-14
	-1.354000715844683e-04,-3.223547950978215e-12
	1.653880760368907e-06,7.724696623834172e-14
7		1.174897554939529e+00,0.000000000000000e+00
	1.653880760368907e-02,7.904627922664308e-10
	1.000000000000000e+00,0.000000000000000e+00
	0.000000000000000e+00,0.000000000000000e+00
	2.088416941160839e-04,8.952230641635399e-14
	2.088416939901633e-04,8.255199838304432e-14
	-1.653880760368913e-06,-7.904627922664355e-14
	1.354000715844156e-04,3.298634028516991e-12
	-1.113822368873530e-04,-4.454981993813344e-14
	-2.236395393669369e-05,-3.175037929352214e-12
	1.653880760368907e-06,7.904627922664309e-14
	-1.354000715844683e-04,-3.298634028516991e-12
	1.653880760368907e-06,7.904627922664309e-14
8		1.202264434617413e+00,0.000000000000000e+00
	1.653880760368907e-02,8.088750359849163e-10
	1.000000000000000e+00,0.000000000000000e+00
	0.000000000000000e+00,0.000000000000000e+00
	2.088416941160839e-04,9.160754880866544e-14
	2.088416939901633e-04,8.447488144414142e-14
	-1.653880760368913e-06,-8.088750359849158e-14
	1.354000715844156e-04,3.375469085480270e-12
	-1.113822368873530e-04,-4.558751855006138e-14
	-2.236395393669369e-05,-3.248994063331717e-12
	1.653880760368907e-06,8.088750359849164e-14
	-1.354000715844683e-04,-3.375469085480270e-12
	1.653880760368907e-06,8.088750359849164e-14
9		1.230268770812381e+00,0.000000000000000e+00
	1.653880760368907e-02,8.277161559542077e-10
	1.000000000000000e+00,0.000000000000000e+00
	0.000000000000000e+00,0.000000000000000e+00
	2.088416941160839e-04,9.374136273592446e-14
	2.088416939901633e-04,8.644255420553741e-14
	-1.653880760368913e-06,-8.277161559542091e-14
	1.354000715844156e-04,3.454093860832286e-12
	-1.113822368873530e-04,-4.664938826774668e-14
	-2.236395393669369e-05,-3.324672856969119e-12
	1.653880760368907e-06,8.277161559542077e-14
	-1.354000715844683e-04,-3.454093860832286e-12
	1.653880760368907e-06,8.277161559542077e-14
10		1.258925411794167e+00,0.000000000000000e+00
	1.653880760368907e-02,8.469961419855044e-10
	1.000000000000000e+00,0.000000000000000e+00
	0.000000000000000e+00,0.000000000000000e+00
	2.088416941160839e-04,9.592487957451973e-14
	2.088416939901633e-04,8.845605995337567e-14
	-1.653880760368913e-06,-8.469961419855057e-14
	1.354000715844156e-04,3.534550042469652e-12
	-1.113822368873530e-04,-4.773599210856922e-14
	-2.236395393669369e-05,-3.402114436162533e-12
	1.653880760368907e-06,8.469961419855045e-14
	-1.354000715844683e-04,-3.534550042469653e-12
	1.653880760368907e-06,8.469961419855045e-14
11		1.288249551693134e+00,0.000000000000000e+00
	1.653880760368907e-02,8.667252165826013e-10
	1.000000000000000e+00,0.000000000000000e+00
	0.000000000000000e+00,0.000000000000000e+00
	2.088416941160839e-04,9.815925705398129e-14
	2.088416939901633e-04,9.051646627505558e-14
	-1.653880760368913e-06,-8.667252165826092e-14
	1.354000715844156e-04,3.616880289324839e-12
	-1.113822368873530e-04,-4.884790620426826e-14
	-2.236395393669369e-05,-3.481359861462310e-12
	1.653880760368907e-06,8.667252165826013e-14
	-1.354000715844683e-04,-3.616880289324838e-12
	1.653880760368907e-06,8.667252165826013e-14
12		1.318256738556407e+00,0.000000000000000e+00
	1.653880760368907e-02,8.869138403619948e-10
	1.000000000000000e+00,0.000000000000000e+00
	0.000000000000000e+00,0.000000000000000e+00
	2.088416941160839e-04,1.004456798708243e-13
	2.088416939901633e-04,9.262486562528160e-14
	-1.653880760368913e-06,-8.869138403619986e-14
	1.354000715844156e-04,3.701128253984494e-12
	-1.113822368873530e-04,-4.998572010641528e-14
	-2.236395393669369e-05,-3.562451149841878e-12
	1.653880760368907e-06,8.869138403619949e-14
	-1.354000715844683e-04,-3.701128253984494e-12
	1.653880760368907e-06,8.869138403619949e-14
13		1.348962882591653e+00,0.000000000000000e+00
	1.653880760368907e-02,9.075727175992406e-10
	1.000000000000000e+00,0.000000000000000e+00
	0.000000000000000e+00,0.000000000000000e+00
	2.088416941160839e-04,1.027853603166905e-13
	2.088416939901633e-04,9.478237590529716e-14
	-1.653880760368913e-06,-9.075727175992481e-14
	1.354000715844156e-04,3.787338605834635e-12
	-1.113822368873530e-04,-5.115003709900194e-14
	-2.236395393669369e-05,-3.645431296975709e-12
	1.653880760368907e-06,9.075727175992406e-14
	-1.354000715844683e-04,-3.787338605834635e-12
	1.653880760368907e-06,9.075727175992406e-14
14		1.380384264602885e+00,0.000000000000000e+00
	1.653880760368907e-02,9.287128019045030e-10
	1.000000000000000e+00,0.000000000000000e+00
	0.000000000000000e+00,0.000000000000000e+00
	2.088416941160839e-04,1.051795389211217e-13
	2.088416939901633e-04,9.699014105561080e-14
	-1.653880760368913e-06,-9.287128019045062e-14
	1.354000715844156e-04,3.875557054744944e-12
	-1.113822368873530e-04,-5.234147451830929e-14
	-2.236395393669369e-05,-3.730344300036184e-12
	1.653880760368907e-06,9.287128019045030e-14
	-1.354000715844683e-04,-3.875557054744943e-12
	1.653880760368907e-06,9.287128019045030e-14
15		1.412537544622754e+00,0.000000000000000e+00
	1.653880760368907e-02,9.503453020303019e-10
	1.000000000000000e+00,0.000000000000000e+00
	0.000000000000000e+00,0.000000000000000e+00
	2.088416941160839e-04,1.076294851093046e-13
	2.088416939901633e-04,9.924933166252838e-14
	-1.653880760368913e-06,-9.503453020303112e-14
	1.354000715844156e-04,3.965830375304740e-12
	-1.113822368873530e-04,-5.356066408022755e-14
	-2.236395393669369e-05,-3.817235181021481e-12
	1.653880760368907e-06,9.503453020303020e-14
	-1.354000715844683e-04,-3.965830375304739e-12
	1.653880760368907e-06,9.503453020303020e-14
16		1.445439770745927e+00,0.000000000000000e+00
	1.653880760368907e-02,9.724816878145448e-10
	1.000000000000000e+00,0.000000000000000e+00
	0.000000000000000e+00,0.000000000000000e+00
	2.088416941160839e-04,1.101364978751372e-13
	2.088416939901633e-04,1.015611455788137e-13
	-1.653880760368913e-06,-9.724816878145484e-14
	1.354000715844156e-04,4.058206431623493e-12
	-1.113822368873530e-04,-5.480825221520035e-14
	-2.236395393669369e-05,-3.906150010626838e-12
	1.653880760368907e-06,9.724816878145449e-14
	-1.354000715844683e-04,-4.058206431623492e-12
	1.653880760368907e-06,9.724816878145449e-14
17		1.479108388168207e+00,0.000000000000000e+00
	1.653880760368907e-02,9.951336962619836e-10
	1.000000000000000e+00,0.000000000000000e+00
	0.000000000000000e+00,0.000000000000000e+00
	2.088416941160839e-04,1.127019064699721e-13
	2.088416939901633e-04,1.039268085588055e-13
	-1.653880760368913e-06,-9.951336962619871e-14
	1.354000715844156e-04,4.152734202709006e-12
	-1.113822368873530e-04,-5.608490041097065e-14
	-2.236395393669369e-05,-3.997135932671836e-12
	1.653880760368907e-06,9.951336962619837e-14
	-1.354000715844683e-04,-4.152734202709005e-12
	1.653880760368907e-06,9.951336962619837e-14
18		1.513561248436208e+00,0.000000000000000e+00
	1.653880760368907e-02,1.018313337767332e-09
	1.000000000000000e+00,0.000000000000000e+00
	0.000000000000000e+00,0.000000000000000e+00
	2.088416941160839e-04,1.153270711074034e-13
	2.088416939901633e-04,1.063475749083292e-13
	-1.653880760368913e-06,-1.018313337767338e-13
	1.354000715844156e-04,4.249463808436730e-12
	-1.113822368873530e-04,-5.739128556331025e-14
	-2.236395393669369e-05,-4.090241189096686e-12
	1.653880760368907e-06,1.018313337767332e-13
	-1.354000715844683e-04,-4.249463808436729e-12
	1.653880760368907e-06,1.018313337767332e-13
19		1.548816618912481e+00,0.000000000000000e+00
	1.653880760368907e-02,1.042032902483336e-09
	1.000000000000000e+00,0.000000000000000e+00
	0.000000000000000e+00,0.000000000000000e+00
	2.088416941160839e-04,1.180133836844701e-13
	2.088416939901633e-04,1.088247281497458e-13
	-1.653880760368913e-06,-1.042032902483340e-13
	1.354000715844156e-04,4.348446536123989e-12
	-1.113822368873530e-04,-5.872810033491897e-14
	-2.236395393669369e-05,-4.185515145540737e-12
	1.653880760368907e-06,1.042032902483336e-13
	-1.354000715844683e-04,-4.348446536123990e-12
	1.653880760368907e-06,1.042032902483336e-13
20		1.584893192461113e+00,0.000000000000000e+00
	1.653880760368907e-02,1.066304966837172e-09
	1.000000000000000e+00,0.000000000000000e+00
	0.000000000000000e+00,0.000000000000000e+00
	2.088416941160839e-04,1.207622685196581e-13
	2.088416939901633e-04,1.113595817024930e-13
	-1.653880760368913e-06,-1.066304966837180e-13
	1.354000715844156e-04,4.449734867723199e-12
	-1.113822368873530e-04,-6.009605352268360e-14
	-2.236395393669369e-05,-4.283008317516797e-12
	1.653880760368907e-06,1.066304966837172e-13
	-1.354000715844683e-04,-4.449734867723198e-12
	1.653880760368907e-06,1.066304966837172e-13
21		1.621810097358929e+00,0.000000000000000e+00
	1.653880760368907e-02,1.091142400198640e-09
	1.000000000000000e+00,0.000000000000000e+00
	0.000000000000000e+00,0.000000000000000e+00
	2.088416941160839e-04,1.235751831080929e-13
	2.088416939901633e-04,1.139534795794771e-13
	-1.653880760368913e-06,-1.091142400198649e-13
	1.354000715844156e-04,4.553382507648477e-12
	-1.113822368873530e-04,-6.149587043349125e-14
	-2.236395393669369e-05,-4.382772397195121e-12
	1.653880760368907e-06,1.091142400198640e-13
	-1.354000715844683e-04,-4.553382507648477e-12
	1.653880760368907e-06,1.091142400198640e-13
22		1.659586907437560e+00,0.000000000000000e+00
	1.653880760368907e-02,1.116558371703671e-09
	1.000000000000000e+00,0.000000000000000e+00
	0.000000000000000e+00,0.000000000000000e+00
	2.088416941160839e-04,1.264536188943225e-13
	2.088416939901633e-04,1.166077970996870e-13
	-1.653880760368913e-06,-1.116558371703673e-13
	1.354000715844156e-04,4.659444411250455e-12
	-1.113822368873530e-04,-6.292829326879682e-14
	-2.236395393669369e-05,-4.484860280811291e-12
	1.653880760368907e-06,1.116558371703671e-13
	-1.354000715844683e-04,-4.659444411250454e-12
	1.653880760368907e-06,1.116558371703671e-13
23		1.698243652461743e+00,0.000000000000000e+00
	1.653880760368907e-02,1.142566357236775e-09
	1.000000000000000e+00,0.000000000000000e+00
	0.000000000000000e+00,0.000000000000000e+00
	2.088416941160839e-04,1.293991020631014e-13
	2.088416939901633e-04,1.193239416174057e-13
	-1.653880760368913e-06,-1.142566357236777e-13
	1.354000715844156e-04,4.767976813954314e-12
	-1.113822368873530e-04,-6.439408151814794e-14
	-2.236395393669369e-05,-4.589326096712489e-12
	1.653880760368907e-06,1.142566357236776e-13
	-1.354000715844683e-04,-4.767976813954313e-12
	1.653880760368907e-06,1.142566357236776e-13
24		1.737800828749374e+00,0.000000000000000e+00
	1.653880760368908e-02,1.169180146576141e-09
	1.000000000000000e+00,0.000000000000000e+00
	0.000000000000000e+00,0.000000000000000e+00
	2.088416941160839e-04,1.324131943485937e-13
	2.088416939901633e-04,1.221033532684092e-13
	-1.653880760368913e-06,-1.169180146576141e-13
	1.354000715844156e-04,4.879037261076567e-12
	-1.113822368873530e-04,-6.589401236187643e-14
	-2.236395393669370e-05,-4.696225234057075e-12
	1.653880760368908e-06,1.169180146576141e-13
	-1.354000715844683e-04,-4.879037261076565e-12
	1.653880760368908e-06,1.169180146576141e-13
25		1.778279410038922e+00,0.000000000000000e+00
	1.653880760368908e-02,1.196413850705150e-09
	1.000000000000000e+00,0.000000000000000e+00
	0.000000000000000e+00,0.000000000000000e+00
	2.088416941160839e-04,1.354974938624255e-13
	2.088416939901633e-04,1.249475057335444e-13
	-1.653880760368913e-06,-1.196413850705153e-13
	1.354000715844156e-04,4.992684638336334e-12
	-1.113822368873530e-04,-6.742888108316952e-14
	-2.236395393669370e-05,-4.805614372182649e-12
	1.653880760368908e-06,1.196413850705150e-13
	-1.354000715844683e-04,-4.992684638336333e-12
	1.653880760368908e-06,1.196413850705150e-13
26		1.819700858609982e+00,0.000000000000000e+00
	1.653880760368908e-02,1.224281909294212e-09
	1.000000000000000e+00,0.000000000000000e+00
	0.000000000000000e+00,0.000000000000000e+00
	2.088416941160839e-04,1.386536359410245e-13
	2.088416939901633e-04,1.278579070200953e-13
	-1.653880760368913e-06,-1.224281909294214e-13
	1.354000715844156e-04,5.108979203077341e-12
	-1.113822368873530e-04,-6.899950148973966e-14
	-2.236395393669370e-05,-4.917551510658180e-12
	1.653880760368908e-06,1.224281909294212e-13
	-1.354000715844683e-04,-5.108979203077342e-12
	1.653880760368908e-06,1.224281909294212e-13
27		1.862087136662866e+00,0.000000000000000e+00
	1.653880760368908e-02,1.252799098356869e-09
	1.000000000000000e+00,0.000000000000000e+00
	0.000000000000000e+00,0.000000000000000e+00
	2.088416941160839e-04,1.418832940126973e-13
	2.088416939901633e-04,1.308361002613478e-13
	-1.653880760368913e-06,-1.252799098356876e-13
	1.354000715844156e-04,5.227982616217155e-12
	-1.113822368873530e-04,-7.060670634531605e-14
	-2.236395393669370e-05,-5.032096000036151e-12
	1.653880760368908e-06,1.252799098356869e-13
	-1.354000715844683e-04,-5.227982616217155e-12
	1.653880760368908e-06,1.252799098356869e-13
28		1.905460717963246e+00,0.000000000000000e+00
	1.653880760368908e-02,1.281980538084231e-09
	1.000000000000000e+00,0.000000000000000e+00
	0.000000000000000e+00,0.000000000000000e+00
	2.088416941160839e-04,1.451881804849030e-13
	2.088416939901633e-04,1.338836645347793e-13
	-1.653880760368913e-06,-1.281980538084230e-13
	1.354000715844156e-04,5.349757974940617e-12
	-1.113822368873530e-04,-7.225134781118697e-14
	-2.236395393669370e-05,-5.149308573321008e-12
	1.653880760368908e-06,1.281980538084232e-13
	-1.354000715844683e-04,-5.349757974940617e-12
	1.653880760368908e-06,1.281980538084232e-13
29		1.949844599758044e+00,0.000000000000000e+00
	1.653880760368908e-02,1.311841700861905e-09
	1.000000000000000e+00,0.000000000000000e+00
	0.000000000000000e+00,0.000000000000000e+00
	2.088416941160839e-04,1.485700476521946e-13
	2.088416939901633e-04,1.370022156993070e-13
	-1.653880760368913e-06,-1.311841700861908e-13
	1.354000715844156e-04,5.474369846154814e-12
	-1.113822368873530e-04,-7.393429789802705e-14
	-2.236395393669370e-05,-5.269251378170596e-12
	1.653880760368908e-06,1.311841700861905e-13
	-1.354000715844683e-04,-5.474369846154813e-12
	1.653880760368908e-06,1.311841700861905e-13
30		1.995262314968878e+00,0.000000000000000e+00
	1.653880760368908e-02,1.342398419473652e-09
	1.000000000000000e+00,0.000000000000000e+00
	0.000000000000000e+00,0.000000000000000e+00
	2.088416941160839e-04,1.520306886253084e-13
	2.088416939901633e-04,1.401934072520371e-13
	-1.653880760368913e-06,-1.342398419473660e-13
	1.354000715844156e-04,5.601884300723290e-12
	-1.113822368873530e-04,-7.565644892824874e-14
	-2.236395393669370e-05,-5.391988009847675e-12
	1.653880760368908e-06,1.342398419473652e-13
	-1.354000715844683e-04,-5.601884300723287e-12
	1.653880760368908e-06,1.342398419473652e-13
31		2.041737944669527e+00,0.000000000000000e+00
	1.653880760368908e-02,1.373666895496148e-09
	1.000000000000000e+00,0.000000000000000e+00
	0.000000000000000e+00,0.000000000000000e+00
	2.088416941160839e-04,1.555719382818954e-13
	2.088416939901633e-04,1.434589312049715e-13
	-1.653880760368913e-06,-1.373666895496154e-13
	1.354000715844156e-04,5.732368948497716e-12
	-1.113822368873530e-04,-7.741871400912370e-14
	-2.236395393669370e-05,-5.517583544938976e-12
	1.653880760368908e-06,1.373666895496148e-13
	-1.354000715844683e-04,-5.732368948497713e-12
	1.653880760368908e-06,1.373666895496148e-13
32		2.089296130854037e+00,0.000000000000000e+00
	1.653880760368908e-02,1.405663707889268e-09
	1.000000000000000e+00,0.000000000000000e+00
	0.000000000000000e+00,0.000000000000000e+00
	2.088416941160839e-04,1.591956742393975e-13
	2.088416939901633e-04,1.468005189821341e-13
