Title: * GA CMOS Amp | W=1.3017048885464049e-05 L=7.914642209638561e-07 Vbias=1.3657997664250299
Date: Mon Sep  8 18:44:45 2025
Plotname: AC Analysis
Flags: complex forward log
No. Variables: 11
No. Points:          901
Offset:    0.0000000000000000e+00
Command: Linear Technology Corporation LTspice
Variables:
	0	frequency	frequency
	1	V(out)	voltage
	2	V(g)	voltage
	3	V(vdd)	voltage
	4	Id(M1)	device_current
	5	Ig(M1)	device_current
	6	Ib(M1)	device_current
	7	Is(M1)	device_current
	8	I(Rload)	device_current
	9	I(Vg)	device_current
	10	I(Vdd)	device_current
Values:
0		1.000000000000000e+00,0.000000000000000e+00
	-3.041664096196030e-01,8.655879034406359e-11
	1.000000000000000e+00,0.000000000000000e+00
	0.000000000000000e+00,0.000000000000000e+00
	3.041664096196028e-05,-8.655879034406366e-15
	4.894006956357862e-24,1.337292215462925e-13
	3.046818982006816e-13,6.638457922317418e-16
	-3.041664126664218e-05,-1.257371883041179e-13
	-3.041664096196030e-05,8.655879034406359e-15
	-4.894006956357862e-24,-1.337292215462925e-13
	-3.041664096196030e-05,8.655879034406359e-15
1		1.023292992280754e+00,0.000000000000000e+00
	-3.041664096196030e-01,8.857500357937928e-11
	1.000000000000000e+00,0.000000000000000e+00
	0.000000000000000e+00,0.000000000000000e+00
	3.041664096196028e-05,-8.857500357937932e-15
	5.124654398362010e-24,1.368441752714816e-13
	3.046818982006816e-13,6.793087471458032e-16
	-3.041664126664218e-05,-1.286659836606895e-13
	-3.041664096196030e-05,8.857500357937929e-15
	-5.124654398362010e-24,-1.368441752714816e-13
	-3.041664096196030e-05,8.857500357937929e-15
2		1.047128548050899e+00,0.000000000000000e+00
	-3.041664096196030e-01,9.063818045402153e-11
	1.000000000000000e+00,0.000000000000000e+00
	0.000000000000000e+00,0.000000000000000e+00
	3.041664096196028e-05,-9.063818045402159e-15
	5.366171919419467e-24,1.400316855897464e-13
	3.046818982006816e-13,6.951318805493237e-16
	-3.041664126664218e-05,-1.316629994248935e-13
	-3.041664096196030e-05,9.063818045402153e-15
	-5.366171919419467e-24,-1.400316855897464e-13
	-3.041664096196030e-05,9.063818045402153e-15
3		1.071519305237606e+00,0.000000000000000e+00
	-3.041664096196030e-01,9.274941489167865e-11
	1.000000000000000e+00,0.000000000000000e+00
	0.000000000000000e+00,0.000000000000000e+00
	3.041664096196028e-05,-9.274941489167859e-15
	5.619071810573213e-24,1.432934425612493e-13
	3.046818982006816e-13,7.113235820770605e-16
	-3.041664126664218e-05,-1.347298246541585e-13
	-3.041664096196030e-05,9.274941489167865e-15
	-5.619071810573213e-24,-1.432934425612493e-13
	-3.041664096196030e-05,9.274941489167865e-15
4		1.096478196143185e+00,0.000000000000000e+00
	-3.041664096196030e-01,9.490982629679496e-11
	1.000000000000000e+00,0.000000000000000e+00
	0.000000000000000e+00,0.000000000000000e+00
	3.041664096196028e-05,-9.490982629679496e-15
	5.883890506399266e-24,1.466311756127111e-13
	3.046818982006816e-13,7.278924367835503e-16
	-3.041664126664218e-05,-1.378680854198152e-13
	-3.041664096196030e-05,9.490982629679497e-15
	-5.883890506399266e-24,-1.466311756127111e-13
	-3.041664096196030e-05,9.490982629679497e-15
5		1.122018454301963e+00,0.000000000000000e+00
	-3.041664096196030e-01,9.712056014809393e-11
	1.000000000000000e+00,0.000000000000000e+00
	0.000000000000000e+00,0.000000000000000e+00
	3.041664096196028e-05,-9.712056014809405e-15
	6.161189722856337e-24,1.500466544543759e-13
	3.046818982006816e-13,7.448472296947597e-16
	-3.041664126664218e-05,-1.410794456692613e-13
	-3.041664096196030e-05,9.712056014809394e-15
	-6.161189722856337e-24,-1.500466544543759e-13
	-3.041664096196030e-05,9.712056014809394e-15
6		1.148153621496882e+00,0.000000000000000e+00
	-3.041664096196030e-01,9.938278860592600e-11
	1.000000000000000e+00,0.000000000000000e+00
	0.000000000000000e+00,0.000000000000000e+00
	3.041664096196028e-05,-9.938278860592596e-15
	6.451557648760681e-24,1.535416900183347e-13
	3.046818982006816e-13,7.621969504663416e-16
	-3.041664126664218e-05,-1.443656081082084e-13
	-3.041664096196030e-05,9.938278860592601e-15
	-6.451557648760681e-24,-1.535416900183347e-13
	-3.041664096196030e-05,9.938278860592601e-15
7		1.174897554939529e+00,0.000000000000000e+00
	-3.041664096196030e-01,1.016977111337636e-10
	1.000000000000000e+00,0.000000000000000e+00
	0.000000000000000e+00,0.000000000000000e+00
	3.041664096196028e-05,-1.016977111337637e-14
	6.755610193413445e-24,1.571181354187057e-13
	3.046818982006816e-13,7.799507981499447e-16
	-3.041664126664218e-05,-1.477283151034793e-13
	-3.041664096196030e-05,1.016977111337636e-14
	-6.755610193413445e-24,-1.571181354187057e-13
	-3.041664096196030e-05,1.016977111337636e-14
8		1.202264434617413e+00,0.000000000000000e+00
	-3.041664096196030e-01,1.040665551341728e-10
	1.000000000000000e+00,0.000000000000000e+00
	0.000000000000000e+00,0.000000000000000e+00
	3.041664096196028e-05,-1.040665551341728e-14
	7.073992293026878e-24,1.607778869341801e-13
	3.046818982006816e-13,7.981181860706459e-16
	-3.041664126664218e-05,-1.511693496068335e-13
	-3.041664096196030e-05,1.040665551341728e-14
	-7.073992293026878e-24,-1.607778869341801e-13
	-3.041664096196030e-05,1.040665551341728e-14
9		1.230268770812381e+00,0.000000000000000e+00
	-3.041664096196030e-01,1.064905765995977e-10
	1.000000000000000e+00,0.000000000000000e+00
	0.000000000000000e+00,0.000000000000000e+00
	3.041664096196028e-05,-1.064905765995978e-14
	7.407379278720488e-24,1.645228850134539e-13
	3.046818982006816e-13,8.167087468179410e-16
	-3.041664126664218e-05,-1.546905361003121e-13
	-3.041664096196030e-05,1.064905765995977e-14
	-7.407379278720488e-24,-1.645228850134539e-13
	-3.041664096196030e-05,1.064905765995977e-14
10		1.258925411794167e+00,0.000000000000000e+00
	-3.041664096196030e-01,1.089710607783052e-10
	1.000000000000000e+00,0.000000000000000e+00
	0.000000000000000e+00,0.000000000000000e+00
	3.041664096196028e-05,-1.089710607783052e-14
	7.756478308988905e-24,1.683551153040797e-13
	3.046818982006816e-13,8.357323373531834e-16
	-3.041664126664218e-05,-1.582937415636024e-13
	-3.041664096196030e-05,1.089710607783052e-14
	-7.756478308988905e-24,-1.683551153040797e-13
	-3.041664096196030e-05,1.089710607783052e-14
11		1.288249551693134e+00,0.000000000000000e+00
	-3.041664096196030e-01,1.115093228558399e-10
	1.000000000000000e+00,0.000000000000000e+00
	0.000000000000000e+00,0.000000000000000e+00
	3.041664096196028e-05,-1.115093228558400e-14
	8.122029869679851e-24,1.722766097052831e-13
	3.046818982006816e-13,8.551990442359325e-16
	-3.041664126664218e-05,-1.619808764639351e-13
	-3.041664096196030e-05,1.115093228558399e-14
	-8.122029869679851e-24,-1.722766097052831e-13
	-3.041664096196030e-05,1.115093228558399e-14
12		1.318256738556407e+00,0.000000000000000e+00
	-3.041664096196030e-01,1.141067086523531e-10
	1.000000000000000e+00,0.000000000000000e+00
	0.000000000000000e+00,0.000000000000000e+00
	3.041664096196028e-05,-1.141067086523532e-14
	8.504809344663896e-24,1.762894474453028e-13
	3.046818982006816e-13,8.751191889718256e-16
	-3.041664126664218e-05,-1.657538957690393e-13
	-3.041664096196030e-05,1.141067086523531e-14
	-8.504809344663896e-24,-1.762894474453028e-13
	-3.041664096196030e-05,1.141067086523531e-14
13		1.348962882591653e+00,0.000000000000000e+00
	-3.041664096196030e-01,1.167645953361746e-10
	1.000000000000000e+00,0.000000000000000e+00
	0.000000000000000e+00,0.000000000000000e+00
	3.041664096196028e-05,-1.167645953361747e-14
	8.905628660527629e-24,1.803957561838246e-13
	3.046818982006816e-13,8.955033334852899e-16
	-3.041664126664218e-05,-1.696147999836924e-13
	-3.041664096196030e-05,1.167645953361746e-14
	-8.905628660527629e-24,-1.803957561838246e-13
	-3.041664096196030e-05,1.167645953361746e-14
14		1.380384264602885e+00,0.000000000000000e+00
	-3.041664096196030e-01,1.194843921540055e-10
	1.000000000000000e+00,0.000000000000000e+00
	0.000000000000000e+00,0.000000000000000e+00
	3.041664096196028e-05,-1.194843921540056e-14
	9.325338008778776e-24,1.845977131400953e-13
	3.046818982006816e-13,9.163622857195722e-16
	-3.041664126664218e-05,-1.735656362104143e-13
	-3.041664096196030e-05,1.194843921540055e-14
	-9.325338008778776e-24,-1.845977131400953e-13
	-3.041664096196030e-05,1.194843921540055e-14
15		1.412537544622754e+00,0.000000000000000e+00
	-3.041664096196030e-01,1.222675411781193e-10
	1.000000000000000e+00,0.000000000000000e+00
	0.000000000000000e+00,0.000000000000000e+00
	3.041664096196028e-05,-1.222675411781195e-14
	9.764827649216384e-24,1.888975462473123e-13
	3.046818982006816e-13,9.377071053672137e-16
	-3.041664126664218e-05,-1.776084992348676e-13
	-3.041664096196030e-05,1.222675411781193e-14
	-9.764827649216384e-24,-1.888975462473123e-13
	-3.041664096196030e-05,1.222675411781193e-14
16		1.445439770745927e+00,0.000000000000000e+00
	-3.041664096196030e-01,1.251155180709681e-10
	1.000000000000000e+00,0.000000000000000e+00
	0.000000000000000e+00,0.000000000000000e+00
	3.041664096196028e-05,-1.251155180709681e-14
	1.022502979829123e-23,1.932975353339044e-13
	3.046818982006816e-13,9.595491097341134e-16
	-3.041664126664218e-05,-1.817455326365417e-13
	-3.041664096196030e-05,1.251155180709681e-14
	-1.022502979829123e-23,-1.932975353339044e-13
	-3.041664096196030e-05,1.251155180709681e-14
17		1.479108388168207e+00,0.000000000000000e+00
	-3.041664096196030e-01,1.280298328675976e-10
	1.000000000000000e+00,0.000000000000000e+00
	0.000000000000000e+00,0.000000000000000e+00
	3.041664096196028e-05,-1.280298328675978e-14
	1.070692060646187e-23,1.978000133323258e-13
	3.046818982006816e-13,9.818998797401599e-16
	-3.041664126664218e-05,-1.859789299253062e-13
	-3.041664096196030e-05,1.280298328675977e-14
	-1.070692060646187e-23,-1.978000133323258e-13
	-3.041664096196030e-05,1.280298328675977e-14
18		1.513561248436208e+00,0.000000000000000e+00
	-3.041664096196030e-01,1.310120307762888e-10
	1.000000000000000e+00,0.000000000000000e+00
	0.000000000000000e+00,0.000000000000000e+00
	3.041664096196028e-05,-1.310120307762891e-14
	1.121152222874068e-23,2.024073675160087e-13
	3.046818982006816e-13,1.004771266059447e-15
	-3.041664126664218e-05,-1.903109357044392e-13
	-3.041664096196030e-05,1.310120307762888e-14
	-1.121152222874068e-23,-2.024073675160087e-13
	-3.041664096196030e-05,1.310120307762888e-14
19		1.548816618912481e+00,0.000000000000000e+00
	-3.041664096196030e-01,1.340636929978469e-10
	1.000000000000000e+00,0.000000000000000e+00
	0.000000000000000e+00,0.000000000000000e+00
	3.041664096196028e-05,-1.340636929978472e-14
	1.173990499282161e-23,2.071220407651269e-13
	3.046818982006816e-13,1.028175395403670e-15
	-3.041664126664218e-05,-1.947438468607458e-13
	-3.041664096196030e-05,1.340636929978469e-14
	-1.173990499282161e-23,-2.071220407651269e-13
	-3.041664096196030e-05,1.340636929978469e-14
20		1.584893192461113e+00,0.000000000000000e+00
	-3.041664096196030e-01,1.371864375639751e-10
	1.000000000000000e+00,0.000000000000000e+00
	0.000000000000000e+00,0.000000000000000e+00
	3.041664096196028e-05,-1.371864375639751e-14
	1.229318966938880e-23,2.119465328618430e-13
	3.046818982006816e-13,1.052124676952064e-15
	-3.041664126664218e-05,-1.992800137823975e-13
	-3.041664096196030e-05,1.371864375639751e-14
	-1.229318966938880e-23,-2.119465328618430e-13
	-3.041664096196030e-05,1.371864375639751e-14
21		1.621810097358929e+00,0.000000000000000e+00
	-3.041664096196030e-01,1.403819201951769e-10
	1.000000000000000e+00,0.000000000000000e+00
	0.000000000000000e+00,0.000000000000000e+00
	3.041664096196028e-05,-1.403819201951771e-14
	1.287254984942141e-23,2.168834018157265e-13
	3.046818982006816e-13,1.076631808930701e-15
	-3.041664126664218e-05,-2.039218416051395e-13
	-3.041664096196030e-05,1.403819201951769e-14
	-1.287254984942141e-23,-2.168834018157265e-13
	-3.041664096196030e-05,1.403819201951769e-14
22		1.659586907437560e+00,0.000000000000000e+00
	-3.041664096196030e-01,1.436518351786406e-10
	1.000000000000000e+00,0.000000000000000e+00
	0.000000000000000e+00,0.000000000000000e+00
	3.041664096196028e-05,-1.436518351786404e-14
	1.347921443353747e-23,2.219352652200439e-13
	3.046818982006816e-13,1.101709785345316e-15
	-3.041664126664218e-05,-2.086717914875252e-13
	-3.041664096196030e-05,1.436518351786406e-14
	-1.347921443353747e-23,-2.219352652200439e-13
	-3.041664096196030e-05,1.436518351786406e-14
23		1.698243652461743e+00,0.000000000000000e+00
	-3.041664096196030e-01,1.469979162665729e-10
	1.000000000000000e+00,0.000000000000000e+00
	0.000000000000000e+00,0.000000000000000e+00
	3.041664096196028e-05,-1.469979162665732e-14
	1.411447023865682e-23,2.271048016396415e-13
	3.046818982006816e-13,1.127371902871038e-15
	-3.041664126664218e-05,-2.135323819158553e-13
	-3.041664096196030e-05,1.469979162665729e-14
	-1.411447023865682e-23,-2.271048016396415e-13
	-3.041664096196030e-05,1.469979162665729e-14
24		1.737800828749374e+00,0.000000000000000e+00
	-3.041664096196030e-01,1.504219375954571e-10
	1.000000000000000e+00,0.000000000000000e+00
	0.000000000000000e+00,0.000000000000000e+00
	3.041664096196028e-05,-1.504219375954573e-14
	1.477966472751234e-23,2.323947520311559e-13
	3.046818982006816e-13,1.153631767902130e-15
	-3.041664126664218e-05,-2.185061900395123e-13
	-3.041664096196030e-05,1.504219375954571e-14
	-1.477966472751234e-23,-2.323947520311559e-13
	-3.041664096196030e-05,1.504219375954571e-14
25		1.778279410038922e+00,0.000000000000000e+00
	-3.041664096196030e-01,1.539257146267241e-10
	1.000000000000000e+00,0.000000000000000e+00
	0.000000000000000e+00,0.000000000000000e+00
	3.041664096196028e-05,-1.539257146267242e-14
	1.547620886679909e-23,2.378079211963054e-13
	3.046818982006816e-13,1.180503303766699e-15
	-3.041664126664218e-05,-2.235958530373996e-13
	-3.041664096196030e-05,1.539257146267241e-14
	-1.547620886679909e-23,-2.378079211963054e-13
	-3.041664096196030e-05,1.539257146267241e-14
26		1.819700858609982e+00,0.000000000000000e+00
	-3.041664096196030e-01,1.575111051093340e-10
	1.000000000000000e+00,0.000000000000000e+00
	0.000000000000000e+00,0.000000000000000e+00
	3.041664096196028e-05,-1.575111051093342e-14
	1.620558012002379e-23,2.433471792690330e-13
	3.046818982006816e-13,1.208000758108743e-15
	-3.041664126664218e-05,-2.288040695162084e-13
	-3.041664096196030e-05,1.575111051093340e-14
	-1.620558012002379e-23,-2.433471792690330e-13
	-3.041664096196030e-05,1.575111051093340e-14
27		1.862087136662866e+00,0.000000000000000e+00
	-3.041664096196030e-01,1.611800100647787e-10
	1.000000000000000e+00,0.000000000000000e+00
	0.000000000000000e+00,0.000000000000000e+00
	3.041664096196028e-05,-1.611800100647788e-14
	1.696932558140303e-23,2.490154632372899e-13
	3.046818982006816e-13,1.236138710442531e-15
	-3.041664126664218e-05,-2.341336009412546e-13
	-3.041664096196030e-05,1.611800100647788e-14
	-1.696932558140303e-23,-2.490154632372899e-13
	-3.041664096196030e-05,1.611800100647788e-14
28		1.905460717963246e+00,0.000000000000000e+00
	-3.041664096196030e-01,1.649343747950295e-10
	1.000000000000000e+00,0.000000000000000e+00
	0.000000000000000e+00,0.000000000000000e+00
	3.041664096196028e-05,-1.649343747950297e-14
	1.776906525745754e-23,2.548157785002645e-13
	3.046818982006816e-13,1.264932079882839e-15
	-3.041664126664218e-05,-2.395872731006444e-13
	-3.041664096196030e-05,1.649343747950295e-14
	-1.776906525745754e-23,-2.548157785002645e-13
	-3.041664096196030e-05,1.649343747950295e-14
29		1.949844599758044e+00,0.000000000000000e+00
	-3.041664096196030e-01,1.687761899139611e-10
	1.000000000000000e+00,0.000000000000000e+00
	0.000000000000000e+00,0.000000000000000e+00
	3.041664096196028e-05,-1.687761899139612e-14
	1.860649550326320e-23,2.607512004618855e-13
	3.046818982006816e-13,1.294396133055216e-15
	-3.041664126664218e-05,-2.451679776035446e-13
	-3.041664096196030e-05,1.687761899139611e-14
	-1.860649550326320e-23,-2.607512004618855e-13
	-3.041664096196030e-05,1.687761899139611e-14
30		1.995262314968878e+00,0.000000000000000e+00
	-3.041664096196030e-01,1.727074924028021e-10
	1.000000000000000e+00,0.000000000000000e+00
	0.000000000000000e+00,0.000000000000000e+00
	3.041664096196028e-05,-1.727074924028021e-14
	1.948339262064758e-23,2.668248761614416e-13
	3.046818982006816e-13,1.324546492190655e-15
	-3.041664126664218e-05,-2.508786734133521e-13
	-3.041664096196030e-05,1.727074924028021e-14
	-1.948339262064758e-23,-2.668248761614416e-13
	-3.041664096196030e-05,1.727074924028021e-14
31		2.041737944669527e+00,0.000000000000000e+00
	-3.041664096196030e-01,1.767303666901689e-10
	1.000000000000000e+00,0.000000000000000e+00
	0.000000000000000e+00,0.000000000000000e+00
	3.041664096196028e-05,-1.767303666901690e-14
	2.040161662596430e-23,2.730400259421832e-13
	3.046818982006816e-13,1.355399143408761e-15
	-3.041664126664218e-05,-2.567223884165750e-13
	-3.041664096196030e-05,1.767303666901690e-14
	-2.040161662596430e-23,-2.730400259421832e-13
	-3.041664096196030e-05,1.767303666901690e-14
32		2.089296130854037e+00,0.000000000000000e+00
	-3.041664096196030e-01,1.808469457572579e-10
	1.000000000000000e+00,0.000000000000000e+00
	0.000000000000000e+00,0.000000000000000e+00
	3.041664096196028e-05,-1.808469457572579e-14
	2.136311519543710e-23,2.793999451587913e-13
	3.046818982006816e-13,1.386970445193574e-15
	-3.041664126664218e-05,-2.627022210282591e-13
	-3.041664096196030e-05,1.808469457572579e-14
	-2.136311519543710e-23,-2.793999451587913e-13
	-3.041664096196030e-05,1.808469457572579e-14
33		2.137962089502230e+00,0.000000000000000e+00
	-3.041664096196030e-01,1.850594122687796e-10
	1.000000000000000e+00,0.000000000000000e+00
	0.000000000000000e+00,0.000000000000000e+00
	3.041664096196028e-05,-1.850594122687799e-14
	2.236992779644216e-23,2.859080059246182e-13
	3.046818982006816e-13,1.419277137067074e-15
	-3.041664126664218e-05,-2.688213418348073e-13
	-3.041664096196030e-05,1.850594122687796e-14
	-2.236992779644216e-23,-2.859080059246182e-13
	-3.041664096196030e-05,1.850594122687796e-14
34		2.187761623949550e+00,0.000000000000000e+00
	-3.041664096196030e-01,1.893699997302372e-10
	1.000000000000000e+00,0.000000000000000e+00
	0.000000000000000e+00,0.000000000000000e+00
	3.041664096196028e-05,-1.893699997302374e-14
	2.342419001349193e-23,2.925676588996262e-13
	3.046818982006816e-13,1.452336348465022e-15
	-3.041664126664218e-05,-2.750829952750674e-13
	-3.041664096196030e-05,1.893699997302372e-14
	-2.342419001349193e-23,-2.925676588996262e-13
	-3.041664096196030e-05,1.893699997302372e-14
35		2.238721138568337e+00,0.000000000000000e+00
	-3.041664096196030e-01,1.937809936721600e-10
	1.000000000000000e+00,0.000000000000000e+00
	0.000000000000000e+00,0.000000000000000e+00
	3.041664096196028e-05,-1.937809936721602e-14
	2.452813807809618e-23,2.993824351199734e-13
	3.046818982006816e-13,1.486165607818897e-15
	-3.041664126664218e-05,-2.814905013605763e-13
	-3.041664096196030e-05,1.937809936721600e-14
	-2.452813807809618e-23,-2.993824351199734e-13
	-3.041664096196030e-05,1.937809936721600e-14
36		2.290867652767770e+00,0.000000000000000e+00
	-3.041664096196030e-01,1.982947328619225e-10
	1.000000000000000e+00,0.000000000000000e+00
	0.000000000000000e+00,0.000000000000000e+00
	3.041664096196028e-05,-1.982947328619226e-14
	2.568411361210883e-23,3.063559478702164e-13
	3.046818982006816e-13,1.520782851849669e-15
	-3.041664126664218e-05,-2.880472574358738e-13
	-3.041664096196030e-05,1.982947328619225e-14
	-2.568411361210883e-23,-3.063559478702164e-13
	-3.041664096196030e-05,1.982947328619225e-14
37		2.344228815319919e+00,0.000000000000000e+00
	-3.041664096196030e-01,2.029136105437895e-10
	1.000000000000000e+00,0.000000000000000e+00
	0.000000000000000e+00,0.000000000000000e+00
	3.041664096196028e-05,-2.029136105437898e-14
	2.689456859462187e-23,3.134918945991204e-13
	3.046818982006816e-13,1.556206435078609e-15
	-3.041664126664218e-05,-2.947567399798200e-13
	-3.041664096196030e-05,2.029136105437895e-14
	-2.689456859462187e-23,-3.134918945991204e-13
	-3.041664096196030e-05,2.029136105437895e-14
38		2.398832919019488e+00,0.000000000000000e+00
	-3.041664096196030e-01,2.076400757078459e-10
	1.000000000000000e+00,0.000000000000000e+00
	0.000000000000000e+00,0.000000000000000e+00
