LTspice 24.0.9 for Windows
Circuit: * GA CMOS Amp | W=1.3873711931823489e-05 L=4.3408728783470374e-07 Vbias=0.9754933437803466
Start Time: Mon Sep  8 18:43:51 2025
solver = Normal
Maximum thread count: 2
tnom = 27
temp = 27
method = modified trap
AsciiRawFile = 1
Instance "m1": Length shorter than recommended for a level 3 MOSFET.
Direct Newton iteration for .op point succeeded.
Semiconductor Device Operating Points:
                        --- MOSFET Transistors ---
Name:          m1
Model:        n_1u
Id:          1.69e-04
Vgs:         9.75e-01
Vds:         1.11e-01
Vbs:         0.00e+00
Vth:         6.81e-01
Vdsat:       2.00e-01
Gm:          5.75e-04
Gds:         8.50e-04
Gmb:         5.34e-05
Cbd:         0.00e+00
Cbs:         0.00e+00
Cgsov:       2.77e-15
Cgdov:       2.77e-15
Cgbov:       2.34e-17
Cgs:         3.38e-15
Cgd:         1.95e-15
Cgb:         0.00e+00



gain_db: MAX(db(v(out)/v(g)))=(28.8293dB,99.0993°) FROM 1 TO 1e+09
gain_lin: MAX(mag(v(out)/v(g)))=(-4.36405dB,0°) FROM 1 TO 1e+09

Measurement "fc" FAIL'ed

Total elapsed time: 0.457 seconds.

