Title: * GA CMOS Amp | W=1.9165283052191803e-05 L=2.7455325020778064e-07 Vbias=1.4305600926651985
Date: Sat Sep  6 22:01:52 2025
Plotname: AC Analysis
Flags: complex forward log
No. Variables: 13
No. Points:          901
Offset:    0.0000000000000000e+00
Command: Linear Technology Corporation LTspice
Variables:
	0	frequency	frequency
	1	V(out)	voltage
	2	V(g)	voltage
	3	V(vdd)	voltage
	4	V(m1#dbody)	voltage
	5	V(m1#sbody)	voltage
	6	Id(M1)	device_current
	7	Ig(M1)	device_current
	8	Ib(M1)	device_current
	9	Is(M1)	device_current
	10	I(Rload)	device_current
	11	I(Vg)	device_current
	12	I(Vdd)	device_current
Values:
0		1.000000000000000e+00,0.000000000000000e+00
	4.050675462820620e-03,1.150601885386459e-10
	1.000000000000000e+00,0.000000000000000e+00
	0.000000000000000e+00,0.000000000000000e+00
	8.548003173837179e-05,1.639334891151193e-14
	8.548003170408386e-05,1.455741031476843e-14
	-4.050675462820615e-07,-1.150601885386452e-14
	5.738895690794362e-05,1.463694800543353e-12
	-4.558935027893329e-05,-7.911052376396973e-15
	-1.139453908272828e-05,-1.444277729313092e-12
	4.050675462820620e-07,1.150601885386459e-14
	-5.738895690794721e-05,-1.463694800543353e-12
	4.050675462820620e-07,1.150601885386459e-14
1		1.023292992280754e+00,0.000000000000000e+00
	4.050675462820620e-03,1.177402846220987e-10
	1.000000000000000e+00,0.000000000000000e+00
	0.000000000000000e+00,0.000000000000000e+00
	8.548003173837179e-05,1.677519906116349e-14
	8.548003170408386e-05,1.489649596085810e-14
	-4.050675462820615e-07,-1.177402846220975e-14
	5.738895690794362e-05,1.497788632233789e-12
	-4.558935027893329e-05,-8.095324458333030e-15
	-1.139453908272828e-05,-1.477919279313247e-12
	4.050675462820620e-07,1.177402846220987e-14
	-5.738895690794721e-05,-1.497788632233790e-12
	4.050675462820620e-07,1.177402846220987e-14
2		1.047128548050899e+00,0.000000000000000e+00
	4.050675462820620e-03,1.204828081629350e-10
	1.000000000000000e+00,0.000000000000000e+00
	0.000000000000000e+00,0.000000000000000e+00
	8.548003173837179e-05,1.716594364340328e-14
	8.548003170408386e-05,1.524347992628465e-14
	-4.050675462820615e-07,-1.204828081629346e-14
	5.738895690794362e-05,1.532676611282612e-12
	-4.558935027893329e-05,-8.283888788451181e-15
	-1.139453908272828e-05,-1.512344441677868e-12
	4.050675462820620e-07,1.204828081629350e-14
	-5.738895690794721e-05,-1.532676611282613e-12
	4.050675462820620e-07,1.204828081629350e-14
3		1.071519305237606e+00,0.000000000000000e+00
	4.050675462820620e-03,1.232892132834378e-10
	1.000000000000000e+00,0.000000000000000e+00
	0.000000000000000e+00,0.000000000000000e+00
	8.548003173837179e-05,1.756578983618093e-14
	8.548003170408386e-05,1.559854618653943e-14
	-4.050675462820615e-07,-1.232892132834377e-14
	5.738895690794362e-05,1.568377235758111e-12
	-4.558935027893329e-05,-8.476845346055199e-15
	-1.139453908272828e-05,-1.547571469083712e-12
	4.050675462820620e-07,1.232892132834378e-14
	-5.738895690794721e-05,-1.568377235758111e-12
	4.050675462820620e-07,1.232892132834378e-14
4		1.096478196143185e+00,0.000000000000000e+00
	4.050675462820620e-03,1.261609879767492e-10
	1.000000000000000e+00,0.000000000000000e+00
	0.000000000000000e+00,0.000000000000000e+00
	8.548003173837179e-05,1.797494964324044e-14
	8.548003170408386e-05,1.596188300245347e-14
	-4.050675462820615e-07,-1.261609879767498e-14
	5.738895690794362e-05,1.604909434603934e-12
	-4.558935027893329e-05,-8.674296439266008e-15
	-1.139453908272828e-05,-1.583619039366993e-12
	4.050675462820620e-07,1.261609879767492e-14
	-5.738895690794721e-05,-1.604909434603934e-12
	4.050675462820620e-07,1.261609879767492e-14
5		1.122018454301963e+00,0.000000000000000e+00
	4.050675462820620e-03,1.290996548958239e-10
	1.000000000000000e+00,0.000000000000000e+00
	0.000000000000000e+00,0.000000000000000e+00
	8.548003173837179e-05,1.839364000652739e-14
	8.548003170408386e-05,1.633368302001592e-14
	-4.050675462820615e-07,-1.290996548958257e-14
	5.738895690794362e-05,1.642292577675474e-12
	-4.558935027893329e-05,-8.876346759266806e-15
	-1.139453908272828e-05,-1.620506265426624e-12
	4.050675462820620e-07,1.290996548958239e-14
	-5.738895690794721e-05,-1.642292577675473e-12
	4.050675462820620e-07,1.290996548958239e-14
6		1.148153621496882e+00,0.000000000000000e+00
	4.050675462820620e-03,1.321067721607603e-10
	1.000000000000000e+00,0.000000000000000e+00
	0.000000000000000e+00,0.000000000000000e+00
	8.548003173837179e-05,1.882208292121440e-14
	8.548003170408386e-05,1.671414337251744e-14
	-4.050675462820615e-07,-1.321067721607602e-14
	5.738895690794362e-05,1.680546486010008e-12
	-4.558935027893329e-05,-9.083103435811705e-15
	-1.139453908272828e-05,-1.658252705358120e-12
	4.050675462820620e-07,1.321067721607604e-14
	-5.738895690794721e-05,-1.680546486010008e-12
	4.050675462820620e-07,1.321067721607604e-14
7		1.174897554939529e+00,0.000000000000000e+00
	4.050675462820620e-03,1.351839341849363e-10
	1.000000000000000e+00,0.000000000000000e+00
	0.000000000000000e+00,0.000000000000000e+00
	8.548003173837179e-05,1.926050555340596e-14
	8.548003170408386e-05,1.710346578507290e-14
	-4.050675462820615e-07,-1.351839341849365e-14
	5.738895690794362e-05,1.719691442336087e-12
	-4.558935027893329e-05,-9.294676094027356e-15
	-1.139453908272828e-05,-1.696878372823566e-12
	4.050675462820620e-07,1.351839341849363e-14
	-5.738895690794721e-05,-1.719691442336088e-12
	4.050675462820620e-07,1.351839341849363e-14
8		1.202264434617413e+00,0.000000000000000e+00
	4.050675462820620e-03,1.383327725203880e-10
	1.000000000000000e+00,0.000000000000000e+00
	0.000000000000000e+00,0.000000000000000e+00
	8.548003173837179e-05,1.970914036058486e-14
	8.548003170408386e-05,1.750185668157875e-14
	-4.050675462820615e-07,-1.383327725203872e-14
	5.738895690794362e-05,1.759748201827701e-12
	-4.558935027893329e-05,-9.511176912537647e-15
	-1.139453908272828e-05,-1.736403747663125e-12
	4.050675462820620e-07,1.383327725203880e-14
	-5.738895690794721e-05,-1.759748201827701e-12
	4.050675462820620e-07,1.383327725203880e-14
9		1.230268770812381e+00,0.000000000000000e+00
	4.050675462820620e-03,1.415549567228807e-10
	1.000000000000000e+00,0.000000000000000e+00
	0.000000000000000e+00,0.000000000000000e+00
	8.548003173837179e-05,2.016822521486427e-14
	8.548003170408386e-05,1.790952729416163e-14
	-4.050675462820615e-07,-1.415549567228811e-14
	5.738895690794362e-05,1.800738003108945e-12
	-4.558935027893329e-05,-9.732720682942272e-15
	-1.139453908272828e-05,-1.776849786753714e-12
	4.050675462820620e-07,1.415549567228807e-14
	-5.738895690794721e-05,-1.800738003108945e-12
	4.050675462820620e-07,1.415549567228807e-14
10		1.258925411794167e+00,0.000000000000000e+00
	4.050675462820620e-03,1.448521952371292e-10
	1.000000000000000e+00,0.000000000000000e+00
	0.000000000000000e+00,0.000000000000000e+00
	8.548003173837179e-05,2.063800352911062e-14
	8.548003170408386e-05,1.832669377517650e-14
	-4.050675462820615e-07,-1.448521952371290e-14
	5.738895690794362e-05,1.842682579515022e-12
	-4.558935027893329e-05,-9.959424870680786e-15
	-1.139453908272828e-05,-1.818237935120628e-12
	4.050675462820620e-07,1.448521952371292e-14
	-5.738895690794721e-05,-1.842682579515022e-12
	4.050675462820620e-07,1.448521952371292e-14
11		1.288249551693134e+00,0.000000000000000e+00
	4.050675462820620e-03,1.482262363026380e-10
	1.000000000000000e+00,0.000000000000000e+00
	0.000000000000000e+00,0.000000000000000e+00
	8.548003173837179e-05,2.111872438600437e-14
	8.548003170408386e-05,1.875357731181343e-14
	-4.050675462820615e-07,-1.482262363026386e-14
	5.738895690794362e-05,1.885604170615545e-12
	-4.558935027893329e-05,-1.019140967731430e-14
	-1.139453908272828e-05,-1.860590137307967e-12
	4.050675462820620e-07,1.482262363026380e-14
	-5.738895690794721e-05,-1.885604170615546e-12
	4.050675462820620e-07,1.482262363026380e-14
12		1.318256738556407e+00,0.000000000000000e+00
	4.050675462820620e-03,1.516788688806405e-10
	1.000000000000000e+00,0.000000000000000e+00
	0.000000000000000e+00,0.000000000000000e+00
	8.548003173837179e-05,2.161064267010694e-14
	8.548003170408386e-05,1.919040424337403e-14
	-4.050675462820615e-07,-1.516788688806408e-14
	5.738895690794362e-05,1.929525534006251e-12
	-4.558935027893329e-05,-1.042879810425799e-14
	-1.139453908272828e-05,-1.903928849013929e-12
	4.050675462820620e-07,1.516788688806405e-14
	-5.738895690794721e-05,-1.929525534006252e-12
	4.050675462820620e-07,1.516788688806405e-14
13		1.348962882591653e+00,0.000000000000000e+00
	4.050675462820620e-03,1.552119236026308e-10
	1.000000000000000e+00,0.000000000000000e+00
	0.000000000000000e+00,0.000000000000000e+00
	8.548003173837179e-05,2.211401920300388e-14
	8.548003170408386e-05,1.963740618127948e-14
	-4.050675462820615e-07,-1.552119236026306e-14
	5.738895690794362e-05,1.974469957375377e-12
	-4.558935027893329e-05,-1.067171601799801e-14
	-1.139453908272828e-05,-1.948277048997116e-12
	4.050675462820620e-07,1.552119236026308e-14
	-5.738895690794721e-05,-1.974469957375378e-12
	4.050675462820620e-07,1.552119236026308e-14
14		1.380384264602885e+00,0.000000000000000e+00
	4.050675462820620e-03,1.588272737409880e-10
	1.000000000000000e+00,0.000000000000000e+00
	0.000000000000000e+00,0.000000000000000e+00
	8.548003173837179e-05,2.262912088159590e-14
	8.548003170408386e-05,2.009482013187406e-14
	-4.050675462820615e-07,-1.588272737409851e-14
	5.738895690794362e-05,2.020461270851102e-12
	-4.558935027893329e-05,-1.092029221682764e-14
	-1.139453908272828e-05,-1.993658251260176e-12
	4.050675462820620e-07,1.588272737409880e-14
	-5.738895690794721e-05,-2.020461270851103e-12
	4.050675462820620e-07,1.588272737409880e-14
15		1.412537544622754e+00,0.000000000000000e+00
	4.050675462820620e-03,1.625268362022100e-10
	1.000000000000000e+00,0.000000000000000e+00
	0.000000000000000e+00,0.000000000000000e+00
	8.548003173837179e-05,2.315622081961117e-14
	8.548003170408386e-05,2.056288862208895e-14
	-4.050675462820615e-07,-1.625268362022081e-14
	5.738895690794362e-05,2.067523859636600e-12
	-4.558935027893329e-05,-1.117465849913779e-14
	-1.139453908272828e-05,-2.040096517517241e-12
	4.050675462820620e-07,1.625268362022100e-14
	-5.738895690794721e-05,-2.067523859636600e-12
	4.050675462820620e-07,1.625268362022100e-14
16		1.445439770745927e+00,0.000000000000000e+00
	4.050675462820620e-03,1.663125725432834e-10
	1.000000000000000e+00,0.000000000000000e+00
	0.000000000000000e+00,0.000000000000000e+00
	8.548003173837179e-05,2.369559849241380e-14
	8.548003170408386e-05,2.104185982803326e-14
	-4.050675462820615e-07,-1.663125725432815e-14
	5.738895690794362e-05,2.115682676939390e-12
	-4.558935027893329e-05,-1.143494973329826e-14
	-1.139453908272828e-05,-2.087616469951763e-12
	4.050675462820620e-07,1.663125725432834e-14
	-5.738895690794721e-05,-2.115682676939390e-12
	4.050675462820620e-07,1.663125725432834e-14
17		1.479108388168207e+00,0.000000000000000e+00
	4.050675462820620e-03,1.701864900117265e-10
	1.000000000000000e+00,0.000000000000000e+00
	0.000000000000000e+00,0.000000000000000e+00
	8.548003173837179e-05,2.424753988518544e-14
	8.548003170408386e-05,2.153198770658035e-14
	-4.050675462820615e-07,-1.701864900117284e-14
	5.738895690794362e-05,2.164963257201865e-12
	-4.558935027893329e-05,-1.170130392916679e-14
	-1.139453908272828e-05,-2.136243304271525e-12
	4.050675462820620e-07,1.701864900117265e-14
	-5.738895690794721e-05,-2.164963257201865e-12
	4.050675462820620e-07,1.701864900117265e-14
18		1.513561248436208e+00,0.000000000000000e+00
	4.050675462820620e-03,1.741506426098582e-10
	1.000000000000000e+00,0.000000000000000e+00
	0.000000000000000e+00,0.000000000000000e+00
	8.548003173837179e-05,2.481233764455834e-14
	8.548003170408386e-05,2.203353213001902e-14
	-4.050675462820615e-07,-1.741506426098585e-14
	5.738895690794362e-05,2.215391729639983e-12
	-4.558935027893329e-05,-1.197386231126363e-14
	-1.139453908272828e-05,-2.186002803067734e-12
	4.050675462820620e-07,1.741506426098582e-14
	-5.738895690794721e-05,-2.215391729639984e-12
	4.050675462820620e-07,1.741506426098582e-14
19		1.548816618912481e+00,0.000000000000000e+00
	4.050675462820620e-03,1.782071321838581e-10
	1.000000000000000e+00,0.000000000000000e+00
	0.000000000000000e+00,0.000000000000000e+00
	8.548003173837179e-05,2.539029123378050e-14
	8.548003170408386e-05,2.254675902384130e-14
	-4.050675462820615e-07,-1.782071321838599e-14
	5.738895690794362e-05,2.266994832097334e-12
	-4.558935027893329e-05,-1.225276939365071e-14
	-1.139453908272828e-05,-2.236921349485297e-12
	4.050675462820620e-07,1.782071321838581e-14
	-5.738895690794721e-05,-2.266994832097335e-12
	4.050675462820620e-07,1.782071321838581e-14
20		1.584893192461113e+00,0.000000000000000e+00
	4.050675462820620e-03,1.823581095381920e-10
	1.000000000000000e+00,0.000000000000000e+00
	0.000000000000000e+00,0.000000000000000e+00
	8.548003173837179e-05,2.598170709149505e-14
	8.548003170408386e-05,2.307194050773967e-14
	-4.050675462820615e-07,-1.823581095381903e-14
	5.738895690794362e-05,2.319799925221887e-12
	-4.558935027893329e-05,-1.253817305655487e-14
	-1.139453908272828e-05,-2.289025941211513e-12
	4.050675462820620e-07,1.823581095381920e-14
	-5.738895690794721e-05,-2.319799925221887e-12
	4.050675462820620e-07,1.823581095381920e-14
21		1.621810097358929e+00,0.000000000000000e+00
	4.050675462820620e-03,1.866057755759980e-10
	1.000000000000000e+00,0.000000000000000e+00
	0.000000000000000e+00,0.000000000000000e+00
	8.548003173837179e-05,2.658689879421806e-14
	8.548003170408386e-05,2.360935503988846e-14
	-4.050675462820615e-07,-1.866057755759981e-14
	5.738895690794362e-05,2.373835006972974e-12
	-4.558935027893329e-05,-1.283022462477597e-14
	-1.139453908272828e-05,-2.342344204790598e-12
	4.050675462820620e-07,1.866057755759980e-14
	-5.738895690794721e-05,-2.373835006972975e-12
	4.050675462820620e-07,1.866057755759980e-14
22		1.659586907437560e+00,0.000000000000000e+00
	4.050675462820620e-03,1.909523824660339e-10
	1.000000000000000e+00,0.000000000000000e+00
	0.000000000000000e+00,0.000000000000000e+00
	8.548003173837179e-05,2.720618722260098e-14
	8.548003170408386e-05,2.415928756458618e-14
	-4.050675462820615e-07,-1.909523824660347e-14
	5.738895690794362e-05,2.429128727466179e-12
	-4.558935027893329e-05,-1.312907894792122e-14
	-1.139453908272828e-05,-2.396904410271655e-12
	4.050675462820620e-07,1.909523824660339e-14
	-5.738895690794721e-05,-2.429128727466180e-12
	4.050675462820620e-07,1.909523824660339e-14
23		1.698243652461743e+00,0.000000000000000e+00
	4.050675462820620e-03,1.954002348368068e-10
	1.000000000000000e+00,0.000000000000000e+00
	0.000000000000000e+00,0.000000000000000e+00
	8.548003173837179e-05,2.783990073156577e-14
	8.548003170408386e-05,2.472202966333659e-14
	-4.050675462820615e-07,-1.954002348368055e-14
	5.738895690794362e-05,2.485710404164008e-12
	-4.558935027893329e-05,-1.343489448250855e-14
	-1.139453908272828e-05,-2.452735486197819e-12
	4.050675462820620e-07,1.954002348368068e-14
	-5.738895690794721e-05,-2.485710404164008e-12
	4.050675462820620e-07,1.954002348368068e-14
24		1.737800828749374e+00,0.000000000000000e+00
	4.050675462820620e-03,1.999516909985180e-10
	1.000000000000000e+00,0.000000000000000e+00
	0.000000000000000e+00,0.000000000000000e+00
	8.548003173837179e-05,2.848837532440309e-14
	8.548003170408386e-05,2.529787970944927e-14
	-4.050675462820615e-07,-1.999516909985171e-14
	5.738895690794362e-05,2.543610037420389e-12
	-4.558935027893329e-05,-1.374783337598237e-14
	-1.139453908272828e-05,-2.509867034944556e-12
	4.050675462820620e-07,1.999516909985181e-14
	-5.738895690794721e-05,-2.543610037420389e-12
	4.050675462820620e-07,1.999516909985181e-14
25		1.778279410038922e+00,0.000000000000000e+00
	4.050675462820620e-03,2.046091641934703e-10
	1.000000000000000e+00,0.000000000000000e+00
	0.000000000000000e+00,0.000000000000000e+00
	8.548003173837179e-05,2.915195483092563e-14
	8.548003170408386e-05,2.588714302624091e-14
	-4.050675462820615e-07,-2.046091641934675e-14
	5.738895690794362e-05,2.602858326387271e-12
	-4.558935027893329e-05,-1.406806155268622e-14
	-1.139453908272828e-05,-2.568329348415238e-12
	4.050675462820620e-07,2.046091641934703e-14
	-5.738895690794721e-05,-2.602858326387272e-12
	4.050675462820620e-07,2.046091641934703e-14
26		1.819700858609982e+00,0.000000000000000e+00
	4.050675462820620e-03,2.093751238756003e-10
	1.000000000000000e+00,0.000000000000000e+00
	0.000000000000000e+00,0.000000000000000e+00
	8.548003173837179e-05,2.983099108977128e-14
	8.548003170408386e-05,2.649013204892192e-14
	-4.050675462820615e-07,-2.093751238756007e-14
	5.738895690794362e-05,2.663486685291706e-12
	-4.558935027893329e-05,-1.439574880183811e-14
	-1.139453908272828e-05,-2.628153424102308e-12
	4.050675462820620e-07,2.093751238756003e-14
	-5.738895690794721e-05,-2.663486685291707e-12
	4.050675462820620e-07,2.093751238756003e-14
27		1.862087136662866e+00,0.000000000000000e+00
	4.050675462820620e-03,2.142520970198166e-10
	1.000000000000000e+00,0.000000000000000e+00
	0.000000000000000e+00,0.000000000000000e+00
	8.548003173837179e-05,3.052584413495256e-14
	8.548003170408386e-05,2.710716649025361e-14
	-4.050675462820615e-07,-2.142520970198191e-14
	5.738895690794362e-05,2.725527260092097e-12
	-4.558935027893329e-05,-1.473106886755500e-14
	-1.139453908272828e-05,-2.689370981522560e-12
	4.050675462820620e-07,2.142520970198166e-14
	-5.738895690794721e-05,-2.725527260092098e-12
	4.050675462820620e-07,2.142520970198166e-14
28		1.905460717963246e+00,0.000000000000000e+00
	4.050675462820620e-03,2.192426694618345e-10
	1.000000000000000e+00,0.000000000000000e+00
	0.000000000000000e+00,0.000000000000000e+00
	8.548003173837179e-05,3.123688238675151e-14
	8.548003170408386e-05,2.773857351006420e-14
	-4.050675462820615e-07,-2.192426694618365e-14
	5.738895690794362e-05,2.789012945522408e-12
	-4.558935027893329e-05,-1.507419954097422e-14
	-1.139453908272828e-05,-2.752014479035250e-12
	4.050675462820620e-07,2.192426694618346e-14
	-5.738895690794721e-05,-2.789012945522408e-12
	4.050675462820620e-07,2.192426694618346e-14
29		1.949844599758044e+00,0.000000000000000e+00
	4.050675462820620e-03,2.243494872692210e-10
	1.000000000000000e+00,0.000000000000000e+00
	0.000000000000000e+00,0.000000000000000e+00
	8.548003173837179e-05,3.196448284706095e-14
	8.548003170408386e-05,2.838468788871326e-14
	-4.050675462820615e-07,-2.243494872692195e-14
	5.738895690794362e-05,2.853977402533384e-12
	-4.558935027893329e-05,-1.542532275452068e-14
	-1.139453908272828e-05,-2.816117131051942e-12
	4.050675462820620e-07,2.243494872692210e-14
	-5.738895690794721e-05,-2.853977402533384e-12
	4.050675462820620e-07,2.243494872692210e-14
30		1.995262314968878e+00,0.000000000000000e+00
	4.050675462820620e-03,2.295752581443741e-10
	1.000000000000000e+00,0.000000000000000e+00
	0.000000000000000e+00,0.000000000000000e+00
	8.548003173837179e-05,3.270903129927584e-14
	8.548003170408386e-05,2.904585220459668e-14
	-4.050675462820615e-07,-2.295752581443739e-14
	5.738895690794362e-05,2.920455076140041e-12
	-4.558935027893329e-05,-1.578462467836987e-14
	-1.139453908272828e-05,-2.881712925647233e-12
	4.050675462820620e-07,2.295752581443741e-14
	-5.738895690794721e-05,-2.920455076140042e-12
	4.050675462820620e-07,2.295752581443741e-14
31		2.041737944669527e+00,0.000000000000000e+00
	4.050675462820620e-03,2.349227528601831e-10
	1.000000000000000e+00,0.000000000000000e+00
	0.000000000000000e+00,0.000000000000000e+00
	8.548003173837179e-05,3.347092251284081e-14
	8.548003170408386e-05,2.972241701578627e-14
	-4.050675462820615e-07,-2.349227528601853e-14
	5.738895690794362e-05,2.988481213684860e-12
	-4.558935027893329e-05,-1.615229581915774e-14
	-1.139453908272828e-05,-2.948836642579683e-12
	4.050675462820620e-07,2.349227528601831e-14
	-5.738895690794721e-05,-2.988481213684860e-12
	4.050675462820620e-07,2.349227528601831e-14
32		2.089296130854037e+00,0.000000000000000e+00
	4.050675462820620e-03,2.403948067291289e-10
	1.000000000000000e+00,0.000000000000000e+00
	0.000000000000000e+00,0.000000000000000e+00
	8.548003173837179e-05,3.425056045256212e-14
	8.548003170408386e-05,3.041474104590033e-14
