LTspice 24.0.9 for Windows
Circuit: * GA CMOS Amp | W=7.062333653035823e-06 L=7.474143077637906e-07 Vbias=0.6272007385308873
Start Time: Sat Sep  6 22:06:41 2025
solver = Normal
Maximum thread count: 2
tnom = 27
temp = 27
method = modified trap
AsciiRawFile = 1
Direct Newton iteration for .op point succeeded.
Semiconductor Device Operating Points:
                        --- BSIM4 MOSFETS ---
Name:      m1
Model:      n
Id:      1.31e-04
Vgs:     6.27e-01
Vds:     4.93e-01
Vbs:     0.00e+00
Vth:     2.41e-01
Vdsat:   2.98e-01
Gm:      4.04e-04
Gds:     2.21e-05
Gmb      1.96e-04
Cbd:     3.09e-15
Cbs:     5.65e-15


.measure op idd find i(vdd)
  Error: FIND can not be evaluated over an interval.

gain_db: MAX(db(v(out)/v(g)))=(29.3077dB,69.1474°) FROM 1 TO 1e+09
gain_lin: MAX(mag(v(out)/v(g)))=(11.9012dB,0°) FROM 1 TO 1e+09

Measurement "fc" FAIL'ed

Total elapsed time: 1.431 seconds.

