LTspice 24.0.9 for Windows
Circuit: * GA CMOS Amp | W=2.317790215524888e-05 L=1e-06 Vbias=1.1104224456459637
Start Time: Mon Sep  8 18:44:28 2025
solver = Normal
Maximum thread count: 2
tnom = 27
temp = 27
method = modified trap
AsciiRawFile = 1
Direct Newton iteration for .op point succeeded.
Semiconductor Device Operating Points:
                        --- MOSFET Transistors ---
Name:          m1
Model:        n_1u
Id:          1.52e-04
Vgs:         1.11e+00
Vds:         2.82e-01
Vbs:         0.00e+00
Vth:         8.10e-01
Vdsat:       2.75e-01
Gm:          7.34e-04
Gds:         4.13e-05
Gmb:         1.74e-04
Cbd:         0.00e+00
Cbs:         0.00e+00
Cgsov:       4.64e-15
Cgdov:       4.64e-15
Cgbov:       8.00e-17
Cgs:         2.13e-14
Cgd:         0.00e+00
Cgb:         0.00e+00



gain_db: MAX(db(v(out)/v(g)))=(29.7743dB,62.3283°) FROM 1 TO 1e+09
gain_lin: MAX(mag(v(out)/v(g)))=(14.3091dB,0°) FROM 1 TO 1e+09

Measurement "fc" FAIL'ed

Total elapsed time: 0.438 seconds.

