Title: * GA CMOS Amp | W=1e-06 L=1e-06 Vbias=1.3795455816389075
Date: Sat Sep  6 22:14:48 2025
Plotname: AC Analysis
Flags: complex forward log
No. Variables: 13
No. Points:          901
Offset:    0.0000000000000000e+00
Command: Linear Technology Corporation LTspice
Variables:
	0	frequency	frequency
	1	V(out)	voltage
	2	V(g)	voltage
	3	V(vdd)	voltage
	4	V(m1#dbody)	voltage
	5	V(m1#sbody)	voltage
	6	Id(M1)	device_current
	7	Ig(M1)	device_current
	8	Ib(M1)	device_current
	9	Is(M1)	device_current
	10	I(Rload)	device_current
	11	I(Vg)	device_current
	12	I(Vdd)	device_current
Values:
0		1.000000000000000e+00,0.000000000000000e+00
	-2.174809739356975e-01,7.147069317191106e-10
	1.000000000000000e+00,0.000000000000000e+00
	0.000000000000000e+00,0.000000000000000e+00
	1.551675543633884e-05,6.675556534575805e-14
	1.551675706744564e-05,7.059926304293370e-14
	2.174809739356975e-05,-7.147069317191106e-14
	9.604675583820350e-06,2.162965531235978e-13
	-8.275603666817341e-06,-3.739692779181221e-14
	-2.307716931057276e-05,-1.074289321598745e-13
	-2.174809739356975e-05,7.147069317191106e-14
	-9.604675583751998e-06,-2.162965531235978e-13
	-2.174809739356975e-05,7.147069317191106e-14
1		1.023292992280754e+00,0.000000000000000e+00
	-2.174809739356975e-01,7.313545947626451e-10
	1.000000000000000e+00,0.000000000000000e+00
	0.000000000000000e+00,0.000000000000000e+00
	1.551675543633884e-05,6.831050221405417e-14
	1.551675706744564e-05,7.224373113201969e-14
	2.174809739356975e-05,-7.313545947626453e-14
	9.604675583820350e-06,2.213347470658595e-13
	-8.275603666817341e-06,-3.826801414219080e-14
	-2.307716931057276e-05,-1.099312734474042e-13
	-2.174809739356975e-05,7.313545947626452e-14
	-9.604675583751998e-06,-2.213347470658595e-13
	-2.174809739356975e-05,7.313545947626452e-14
2		1.047128548050899e+00,0.000000000000000e+00
	-2.174809739356975e-01,7.483900316929454e-10
	1.000000000000000e+00,0.000000000000000e+00
	0.000000000000000e+00,0.000000000000000e+00
	1.551675543633884e-05,6.990165821482058e-14
	1.551675706744564e-05,7.392650380361070e-14
	2.174809739356975e-05,-7.483900316929457e-14
	9.604675583820350e-06,2.264902956207272e-13
	-8.275603666817341e-06,-3.915939070020465e-14
	-2.307716931057276e-05,-1.124919017512280e-13
	-2.174809739356975e-05,7.483900316929454e-14
	-9.604675583751998e-06,-2.264902956207272e-13
	-2.174809739356975e-05,7.483900316929454e-14
3		1.071519305237606e+00,0.000000000000000e+00
	-2.174809739356975e-01,7.658222749241625e-10
	1.000000000000000e+00,0.000000000000000e+00
	0.000000000000000e+00,0.000000000000000e+00
	1.551675543633884e-05,7.152987700003027e-14
	1.551675706744564e-05,7.564847328605133e-14
	2.174809739356975e-05,-7.658222749241626e-14
	9.604675583820350e-06,2.317659323282865e-13
	-8.275603666817341e-06,-4.007153008550354e-14
	-2.307716931057276e-05,-1.151121747503667e-13
	-2.174809739356975e-05,7.658222749241625e-14
	-9.604675583751998e-06,-2.317659323282865e-13
	-2.174809739356975e-05,7.658222749241625e-14
4		1.096478196143185e+00,0.000000000000000e+00
	-2.174809739356975e-01,7.836605672624005e-10
	1.000000000000000e+00,0.000000000000000e+00
	0.000000000000000e+00,0.000000000000000e+00
	1.551675543633884e-05,7.319602187283523e-14
	1.551675706744564e-05,7.741055259035413e-14
	2.174809739356975e-05,-7.836605672624006e-14
	9.604675583820350e-06,2.371644544009510e-13
	-8.275603666817341e-06,-4.100491592646317e-14
	-2.307716931057276e-05,-1.177934817482478e-13
	-2.174809739356975e-05,7.836605672624006e-14
	-9.604675583751998e-06,-2.371644544009511e-13
	-2.174809739356975e-05,7.836605672624006e-14
5		1.122018454301963e+00,0.000000000000000e+00
	-2.174809739356975e-01,8.019143668063752e-10
	1.000000000000000e+00,0.000000000000000e+00
	0.000000000000000e+00,0.000000000000000e+00
	1.551675543633884e-05,7.490097624530114e-14
	1.551675706744564e-05,7.921367599429019e-14
	2.174809739356975e-05,-8.019143668063752e-14
	9.604675583820350e-06,2.426887242065817e-13
	-8.275603666817341e-06,-4.196004311661126e-14
	-2.307716931057276e-05,-1.205372444093329e-13
	-2.174809739356975e-05,8.019143668063752e-14
	-9.604675583751998e-06,-2.426887242065816e-13
	-2.174809739356975e-05,8.019143668063752e-14
6		1.148153621496882e+00,0.000000000000000e+00
	-2.174809739356975e-01,8.205933519622218e-10
	1.000000000000000e+00,0.000000000000000e+00
	0.000000000000000e+00,0.000000000000000e+00
	1.551675543633884e-05,7.664564410680390e-14
	1.551675706744564e-05,8.105879953775535e-14
	2.174809739356975e-05,-8.205933519622219e-14
	9.604675583820350e-06,2.483416707861517e-13
	-8.275603666817341e-06,-4.293741807702660e-14
	-2.307716931057276e-05,-1.233449175129029e-13
	-2.174809739356975e-05,8.205933519622219e-14
	-9.604675583751998e-06,-2.483416707861517e-13
	-2.174809739356975e-05,8.205933519622219e-14
7		1.174897554939529e+00,0.000000000000000e+00
	-2.174809739356975e-01,8.397074265751159e-10
	1.000000000000000e+00,0.000000000000000e+00
	0.000000000000000e+00,0.000000000000000e+00
	1.551675543633884e-05,7.843095050333709e-14
	1.551675706744564e-05,8.294690152967545e-14
	2.174809739356975e-05,-8.397074265751161e-14
	9.604675583820350e-06,2.541262914067631e-13
	-8.275603666817341e-06,-4.393755902485028e-14
	-2.307716931057276e-05,-1.262179897244011e-13
	-2.174809739356975e-05,8.397074265751159e-14
	-9.604675583751998e-06,-2.541262914067630e-13
	-2.174809739356975e-05,8.397074265751159e-14
8		1.202264434617413e+00,0.000000000000000e+00
	-2.174809739356975e-01,8.592667251804222e-10
	1.000000000000000e+00,0.000000000000000e+00
	0.000000000000000e+00,0.000000000000000e+00
	1.551675543633884e-05,8.025784202798353e-14
	1.551675706744564e-05,8.487898306671866e-14
	2.174809739356975e-05,-8.592667251804222e-14
	9.604675583820350e-06,2.600456531508374e-13
	-8.275603666817341e-06,-4.496099624805130e-14
	-2.307716931057276e-05,-1.291579843847439e-13
	-2.174809739356975e-05,8.592667251804223e-14
	-9.604675583751998e-06,-2.600456531508374e-13
	-2.174809739356975e-05,8.592667251804223e-14
9		1.230268770812381e+00,0.000000000000000e+00
	-2.174809739356975e-01,8.792816183771586e-10
	1.000000000000000e+00,0.000000000000000e+00
	0.000000000000000e+00,0.000000000000000e+00
	1.551675543633884e-05,8.212728732281133e-14
	1.551675706744564e-05,8.685606856408998e-14
	2.174809739356975e-05,-8.792816183771586e-14
	9.604675583820350e-06,2.661028945423236e-13
	-8.275603666817341e-06,-4.600827238659216e-14
	-2.307716931057276e-05,-1.321664603180156e-13
	-2.174809739356975e-05,8.792816183771586e-14
	-9.604675583751998e-06,-2.661028945423235e-13
	-2.174809739356975e-05,8.792816183771586e-14
10		1.258925411794167e+00,0.000000000000000e+00
	-2.174809739356975e-01,8.997627183266267e-10
	1.000000000000000e+00,0.000000000000000e+00
	0.000000000000000e+00,0.000000000000000e+00
	1.551675543633884e-05,8.404027759246085e-14
	1.551675706744564e-05,8.887920629869000e-14
	2.174809739356975e-05,-8.997627183266267e-14
	9.604675583820350e-06,2.723012272107842e-13
	-8.275603666817341e-06,-4.707994272014390e-14
	-2.307716931057276e-05,-1.352450126579777e-13
	-2.174809739356975e-05,8.997627183266267e-14
	-9.604675583751998e-06,-2.723012272107842e-13
	-2.174809739356975e-05,8.997627183266267e-14
11		1.288249551693134e+00,0.000000000000000e+00
	-2.174809739356975e-01,9.207208843791193e-10
	1.000000000000000e+00,0.000000000000000e+00
	0.000000000000000e+00,0.000000000000000e+00
	1.551675543633884e-05,8.599782712969447e-14
	1.551675706744564e-05,9.094946896492494e-14
	2.174809739356975e-05,-9.207208843791193e-14
	9.604675583820350e-06,2.786439375942449e-13
	-8.275603666817341e-06,-4.817657546250255e-14
	-2.307716931057276e-05,-1.383952736938305e-13
	-2.174809739356975e-05,9.207208843791193e-14
	-9.604675583751998e-06,-2.786439375942449e-13
	-2.174809739356975e-05,9.207208843791193e-14
12		1.318256738556407e+00,0.000000000000000e+00
	-2.174809739356975e-01,9.421672288316911e-10
	1.000000000000000e+00,0.000000000000000e+00
	0.000000000000000e+00,0.000000000000000e+00
	1.551675543633884e-05,8.800097385318808e-14
	1.551675706744564e-05,9.306795424346363e-14
	2.174809739356975e-05,-9.421672288316912e-14
	9.604675583820350e-06,2.851343886817066e-13
	-8.275603666817341e-06,-4.929875206286380e-14
	-2.307716931057276e-05,-1.416189137356737e-13
	-2.174809739356975e-05,9.421672288316911e-14
	-9.604675583751998e-06,-2.851343886817066e-13
	-2.174809739356975e-05,9.421672288316911e-14
13		1.348962882591653e+00,0.000000000000000e+00
	-2.174809739356975e-01,9.641131228200472e-10
	1.000000000000000e+00,0.000000000000000e+00
	0.000000000000000e+00,0.000000000000000e+00
	1.551675543633884e-05,9.005077985784924e-14
	1.551675706744564e-05,9.523578538324222e-14
	2.174809739356975e-05,-9.641131228200473e-14
	9.604675583820350e-06,2.917760217962472e-13
	-8.275603666817341e-06,-5.044706751411490e-14
	-2.307716931057276e-05,-1.449176420001275e-13
	-2.174809739356975e-05,9.641131228200473e-14
	-9.604675583751998e-06,-2.917760217962472e-13
	-2.174809739356975e-05,9.641131228200473e-14
14		1.380384264602885e+00,0.000000000000000e+00
	-2.174809739356975e-01,9.865702023476685e-10
	1.000000000000000e+00,0.000000000000000e+00
	0.000000000000000e+00,0.000000000000000e+00
	1.551675543633884e-05,9.214833197795401e-14
	1.551675706744564e-05,9.745411179702563e-14
	2.174809739356975e-05,-9.865702023476686e-14
	9.604675583820350e-06,2.985723584196563e-13
	-8.275603666817341e-06,-5.162213066830786e-14
	-2.307716931057276e-05,-1.482932075165816e-13
	-2.174809739356975e-05,9.865702023476686e-14
	-9.604675583751998e-06,-2.985723584196562e-13
	-2.174809739356975e-05,9.865702023476686e-14
15		1.412537544622754e+00,0.000000000000000e+00
	-2.174809739356975e-01,1.009550374455375e-09
	1.000000000000000e+00,0.000000000000000e+00
	0.000000000000000e+00,0.000000000000000e+00
	1.551675543633884e-05,9.429474236340087e-14
	1.551675706744564e-05,9.972410967084151e-14
	2.174809739356975e-05,-1.009550374455375e-13
	9.604675583820350e-06,3.055270020595719e-13
	-8.275603666817341e-06,-5.282456455948084e-14
	-2.307716931057276e-05,-1.517474000545536e-13
	-2.174809739356975e-05,1.009550374455375e-13
	-9.604675583751998e-06,-3.055270020595720e-13
	-2.174809739356975e-05,1.009550374455375e-13
16		1.445439770745927e+00,0.000000000000000e+00
	-2.174809739356975e-01,1.033065823534596e-09
	1.000000000000000e+00,0.000000000000000e+00
	0.000000000000000e+00,0.000000000000000e+00
	1.551675543633884e-05,9.649114906938725e-14
	1.551675706744564e-05,1.020469825876095e-13
	2.174809739356975e-05,-1.033065823534596e-13
	9.604675583820350e-06,3.126436401601074e-13
	-8.275603666817341e-06,-5.405500673399902e-14
	-2.307716931057276e-05,-1.552820510726488e-13
	-2.174809739356975e-05,1.033065823534596e-13
	-9.604675583751998e-06,-3.126436401601074e-13
	-2.174809739356975e-05,1.033065823534596e-13
17		1.479108388168207e+00,0.000000000000000e+00
	-2.174809739356975e-01,1.057129017787698e-09
	1.000000000000000e+00,0.000000000000000e+00
	0.000000000000000e+00,0.000000000000000e+00
	1.551675543633884e-05,9.873871665982158e-14
	1.551675706744564e-05,1.044239621652969e-13
	2.174809739356975e-05,-1.057129017787698e-13
	9.604675583820350e-06,3.199260460569837e-13
	-8.275603666817341e-06,-5.531410958859017e-14
	-2.307716931057276e-05,-1.588990346896237e-13
	-2.174809739356975e-05,1.057129017787698e-13
	-9.604675583751998e-06,-3.199260460569837e-13
	-2.174809739356975e-05,1.057129017787698e-13
18		1.513561248436208e+00,0.000000000000000e+00
	-2.174809739356975e-01,1.081752715838788e-09
	1.000000000000000e+00,0.000000000000000e+00
	0.000000000000000e+00,0.000000000000000e+00
	1.551675543633884e-05,1.010386368247904e-13
	1.551675706744564e-05,1.068563087099389e-13
	2.174809739356975e-05,-1.081752715838788e-13
	9.604675583820350e-06,3.273780809782012e-13
	-8.275603666817341e-06,-5.660254071625398e-14
	-2.307716931057276e-05,-1.626002686780684e-13
	-2.174809739356975e-05,1.081752715838788e-13
	-9.604675583751998e-06,-3.273780809782012e-13
	-2.174809739356975e-05,1.081752715838788e-13
19		1.548816618912481e+00,0.000000000000000e+00
	-2.174809739356975e-01,1.106949973498506e-09
	1.000000000000000e+00,0.000000000000000e+00
	0.000000000000000e+00,0.000000000000000e+00
	1.551675543633884e-05,1.033921290124081e-13
	1.551675706744564e-05,1.093453118838694e-13
	2.174809739356975e-05,-1.106949973498506e-13
	9.604675583820350e-06,3.350036960913145e-13
	-8.275603666817341e-06,-5.792098326022875e-14
	-2.307716931057276e-05,-1.663877154812351e-13
	-2.174809739356975e-05,1.106949973498506e-13
	-9.604675583751998e-06,-3.350036960913145e-13
	-2.174809739356975e-05,1.106949973498506e-13
20		1.584893192461113e+00,0.000000000000000e+00
	-2.174809739356975e-01,1.132734150686388e-09
	1.000000000000000e+00,0.000000000000000e+00
	0.000000000000000e+00,0.000000000000000e+00
	1.551675543633884e-05,1.058004410753849e-13
	1.551675706744564e-05,1.118922913895170e-13
	2.174809739356975e-05,-1.132734150686388e-13
	9.604675583820350e-06,3.428069345983936e-13
	-8.275603666817341e-06,-5.927013627620296e-14
	-2.307716931057276e-05,-1.702633832535519e-13
	-2.174809739356975e-05,1.132734150686388e-13
	-9.604675583751998e-06,-3.428069345983936e-13
	-2.174809739356975e-05,1.132734150686388e-13
21		1.621810097358929e+00,0.000000000000000e+00
	-2.174809739356975e-01,1.159118918514472e-09
	1.000000000000000e+00,0.000000000000000e+00
	0.000000000000000e+00,0.000000000000000e+00
	1.551675543633884e-05,1.082648499326542e-13
	1.551675706744564e-05,1.144985976691289e-13
	2.174809739356975e-05,-1.159118918514472e-13
	9.604675583820350e-06,3.507919338797829e-13
	-8.275603666817341e-06,-6.065071510296379e-14
	-2.307716931057276e-05,-1.742293269253719e-13
	-2.174809739356975e-05,1.159118918514472e-13
	-9.604675583751998e-06,-3.507919338797829e-13
	-2.174809739356975e-05,1.159118918514472e-13
22		1.659586907437560e+00,0.000000000000000e+00
	-2.174809739356975e-01,1.186118266535906e-09
	1.000000000000000e+00,0.000000000000000e+00
	0.000000000000000e+00,0.000000000000000e+00
	1.551675543633884e-05,1.107866622464125e-13
	1.551675706744564e-05,1.171656126207931e-13
	2.174809739356975e-05,-1.186118266535906e-13
	9.604675583820350e-06,3.589629276877955e-13
	-8.275603666817341e-06,-6.206345174167933e-14
	-2.307716931057276e-05,-1.782876492925256e-13
	-2.174809739356975e-05,1.186118266535906e-13
	-9.604675583751998e-06,-3.589629276877956e-13
	-2.174809739356975e-05,1.186118266535906e-13
23		1.698243652461743e+00,0.000000000000000e+00
	-2.174809739356975e-01,1.213746510162388e-09
	1.000000000000000e+00,0.000000000000000e+00
	0.000000000000000e+00,0.000000000000000e+00
	1.551675543633884e-05,1.133672151149287e-13
	1.551675706744564e-05,1.198947503311391e-13
	2.174809739356975e-05,-1.213746510162388e-13
	9.604675583820350e-06,3.673242483915043e-13
	-8.275603666817341e-06,-6.350909524401524e-14
	-2.307716931057276e-05,-1.824405021312502e-13
	-2.174809739356975e-05,1.213746510162388e-13
	-9.604675583751998e-06,-3.673242483915043e-13
	-2.174809739356975e-05,1.213746510162388e-13
24		1.737800828749374e+00,0.000000000000000e+00
	-2.174809739356975e-01,1.242018298254393e-09
	1.000000000000000e+00,0.000000000000000e+00
	0.000000000000000e+00,0.000000000000000e+00
	1.551675543633884e-05,1.160078767814914e-13
	1.551675706744564e-05,1.226874578251053e-13
	2.174809739356975e-05,-1.242018298254393e-13
	9.604675583820350e-06,3.758803292738214e-13
	-8.275603666817341e-06,-6.498841210929176e-14
	-2.307716931057276e-05,-1.866900873390903e-13
	-2.174809739356975e-05,1.242018298254393e-13
	-9.604675583751998e-06,-3.758803292738213e-13
	-2.174809739356975e-05,1.242018298254393e-13
25		1.778279410038922e+00,0.000000000000000e+00
	-2.174809739356975e-01,1.270948620888188e-09
	1.000000000000000e+00,0.000000000000000e+00
	0.000000000000000e+00,0.000000000000000e+00
	1.551675543633884e-05,1.187100473598693e-13
	1.551675706744564e-05,1.255452158331708e-13
	2.174809739356975e-05,-1.270948620888188e-13
	9.604675583820350e-06,3.846357068820838e-13
	-8.275603666817341e-06,-6.650218669089196e-14
	-2.307716931057276e-05,-1.910386581023730e-13
	-2.174809739356975e-05,1.270948620888188e-13
	-9.604675583751998e-06,-3.846357068820838e-13
	-2.174809739356975e-05,1.270948620888188e-13
26		1.819700858609982e+00,0.000000000000000e+00
	-2.174809739356975e-01,1.300552817303771e-09
	1.000000000000000e+00,0.000000000000000e+00
	0.000000000000000e+00,0.000000000000000e+00
	1.551675543633884e-05,1.214751595766707e-13
	1.551675706744564e-05,1.284695395764584e-13
	2.174809739356975e-05,-1.300552817303771e-13
	9.604675583820350e-06,3.935950234333906e-13
	-8.275603666817341e-06,-6.805122161213616e-14
	-2.307716931057276e-05,-1.954885200908773e-13
	-2.174809739356975e-05,1.300552817303771e-13
	-9.604675583751998e-06,-3.935950234333906e-13
	-2.174809739356975e-05,1.300552817303771e-13
27		1.862087136662866e+00,0.000000000000000e+00
	-2.174809739356975e-01,1.330846584037941e-09
	1.000000000000000e+00,0.000000000000000e+00
	0.000000000000000e+00,0.000000000000000e+00
	1.551675543633884e-05,1.243046795309935e-13
	1.551675706744564e-05,1.314619795701249e-13
	2.174809739356975e-05,-1.330846584037941e-13
	9.604675583820350e-06,4.027630292759677e-13
	-8.275603666817341e-06,-6.963633819184355e-14
	-2.307716931057276e-05,-2.000420326803301e-13
	-2.174809739356975e-05,1.330846584037941e-13
	-9.604675583751998e-06,-4.027630292759677e-13
	-2.174809739356975e-05,1.330846584037941e-13
28		1.905460717963246e+00,0.000000000000000e+00
	-2.174809739356975e-01,1.361845983246805e-09
	1.000000000000000e+00,0.000000000000000e+00
	0.000000000000000e+00,0.000000000000000e+00
	1.551675543633884e-05,1.272001074717705e-13
	1.551675706744564e-05,1.345241224454644e-13
	2.174809739356975e-05,-1.361845983246805e-13
	9.604675583820350e-06,4.121445854078660e-13
	-8.275603666817341e-06,-7.125837687980612e-14
	-2.307716931057276e-05,-2.047016102033794e-13
	-2.174809739356975e-05,1.361845983246805e-13
	-9.604675583751998e-06,-4.121445854078659e-13
	-2.174809739356975e-05,1.361845983246805e-13
29		1.949844599758044e+00,0.000000000000000e+00
	-2.174809739356975e-01,1.393567451222149e-09
	1.000000000000000e+00,0.000000000000000e+00
	0.000000000000000e+00,0.000000000000000e+00
	1.551675543633884e-05,1.301629785932216e-13
	1.551675706744564e-05,1.376575917911619e-13
	2.174809739356975e-05,-1.393567451222149e-13
	9.604675583820350e-06,4.217446660543261e-13
	-8.275603666817341e-06,-7.291819770240654e-14
	-2.307716931057276e-05,-2.094697232297046e-13
	-2.174809739356975e-05,1.393567451222149e-13
	-9.604675583751998e-06,-4.217446660543260e-13
	-2.174809739356975e-05,1.393567451222149e-13
30		1.995262314968878e+00,0.000000000000000e+00
	-2.174809739356975e-01,1.426027807106176e-09
	1.000000000000000e+00,0.000000000000000e+00
	0.000000000000000e+00,0.000000000000000e+00
	1.551675543633884e-05,1.331948638488334e-13
	1.551675706744564e-05,1.408640490141406e-13
	2.174809739356975e-05,-1.426027807106176e-13
	9.604675583820350e-06,4.315683613051786e-13
	-8.275603666817341e-06,-7.461668071861517e-14
	-2.307716931057276e-05,-2.143488998759458e-13
	-2.174809739356975e-05,1.426027807106176e-13
	-9.604675583751998e-06,-4.315683613051785e-13
	-2.174809739356975e-05,1.426027807106176e-13
31		2.041737944669527e+00,0.000000000000000e+00
	-2.174809739356975e-01,1.459244261809241e-09
	1.000000000000000e+00,0.000000000000000e+00
	0.000000000000000e+00,0.000000000000000e+00
	1.551675543633884e-05,1.362973707843003e-13
	1.551675706744564e-05,1.441451942204628e-13
	2.174809739356975e-05,-1.459244261809241e-13
	9.604675583820350e-06,4.416208798136779e-13
	-8.275603666817341e-06,-7.635472648660937e-14
	-2.307716931057276e-05,-2.193417271461443e-13
	-2.174809739356975e-05,1.459244261809241e-13
	-9.604675583751998e-06,-4.416208798136778e-13
	-2.174809739356975e-05,1.459244261809241e-13
32		2.089296130854037e+00,0.000000000000000e+00
	-2.174809739356975e-01,1.493234427135298e-09
	1.000000000000000e+00,0.000000000000000e+00
	0.000000000000000e+00,0.000000000000000e+00
	1.551675543633884e-05,1.394721443898661e-13
	1.551675706744564e-05,1.475027671167478e-13
