Title: * GA CMOS Amp | W=4.119522269276747e-05 L=9.534286020393814e-07 Vbias=1.1601538821834971
Date: Mon Sep  8 18:43:21 2025
Plotname: AC Analysis
Flags: complex forward log
No. Variables: 11
No. Points:          901
Offset:    0.0000000000000000e+00
Command: Linear Technology Corporation LTspice
Variables:
	0	frequency	frequency
	1	V(out)	voltage
	2	V(g)	voltage
	3	V(vdd)	voltage
	4	Id(M1)	device_current
	5	Ig(M1)	device_current
	6	Ib(M1)	device_current
	7	Is(M1)	device_current
	8	I(Rload)	device_current
	9	I(Vg)	device_current
	10	I(Vdd)	device_current
Values:
0		1.000000000000000e+00,0.000000000000000e+00
	-2.396572343188824e-01,1.574656225528564e-10
	1.000000000000000e+00,0.000000000000000e+00
	0.000000000000000e+00,0.000000000000000e+00
	2.396572343188827e-05,-1.574656225528565e-14
	3.402413250334016e-23,4.923699919090736e-13
	2.440423080632415e-13,2.873121469658126e-15
	-2.396572367593057e-05,-4.794965511234461e-13
	-2.396572343188824e-05,1.574656225528564e-14
	-3.402413250334016e-23,-4.923699919090736e-13
	-2.396572343188824e-05,1.574656225528564e-14
1		1.023292992280754e+00,0.000000000000000e+00
	-2.396572343188824e-01,1.611334680834643e-10
	1.000000000000000e+00,0.000000000000000e+00
	0.000000000000000e+00,0.000000000000000e+00
	2.396572343188827e-05,-1.611334680834641e-14
	3.562764046691401e-23,5.038387623298866e-13
	2.440423080632415e-13,2.940045065872659e-15
	-2.396572367593057e-05,-4.906654605874129e-13
	-2.396572343188824e-05,1.611334680834643e-14
	-3.562764046691401e-23,-5.038387623298866e-13
	-2.396572343188824e-05,1.611334680834643e-14
2		1.047128548050899e+00,0.000000000000000e+00
	-2.396572343188824e-01,1.648867487117035e-10
	1.000000000000000e+00,0.000000000000000e+00
	0.000000000000000e+00,0.000000000000000e+00
	2.396572343188827e-05,-1.648867487117036e-14
	3.730671943259913e-23,5.155746747315813e-13
	2.440423080632415e-13,3.008527512897012e-15
	-2.396572367593057e-05,-5.020945273733079e-13
	-2.396572343188824e-05,1.648867487117035e-14
	-3.730671943259913e-23,-5.155746747315813e-13
	-2.396572343188824e-05,1.648867487117035e-14
3		1.071519305237606e+00,0.000000000000000e+00
	-2.396572343188824e-01,1.687274544766438e-10
	1.000000000000000e+00,0.000000000000000e+00
	0.000000000000000e+00,0.000000000000000e+00
	2.396572343188827e-05,-1.687274544766444e-14
	3.906493095199979e-23,5.275839516502563e-13
	2.440423080632415e-13,3.078605121031322e-15
	-2.396572367593057e-05,-5.137898113236232e-13
	-2.396572343188824e-05,1.687274544766438e-14
	-3.906493095199979e-23,-5.275839516502563e-13
	-2.396572343188824e-05,1.687274544766438e-14
4		1.096478196143185e+00,0.000000000000000e+00
	-2.396572343188824e-01,1.726576217713196e-10
	1.000000000000000e+00,0.000000000000000e+00
	0.000000000000000e+00,0.000000000000000e+00
	2.396572343188827e-05,-1.726576217713194e-14
	4.090600442747617e-23,5.398729605634954e-13
	2.440423080632415e-13,3.150315046351136e-15
	-2.396572367593057e-05,-5.257575134327146e-13
	-2.396572343188824e-05,1.726576217713196e-14
	-4.090600442747617e-23,-5.398729605634954e-13
	-2.396572343188824e-05,1.726576217713196e-14
5		1.122018454301963e+00,0.000000000000000e+00
	-2.396572343188824e-01,1.766793344224523e-10
	1.000000000000000e+00,0.000000000000000e+00
	0.000000000000000e+00,0.000000000000000e+00
	2.396572343188827e-05,-1.766793344224530e-14
	4.283384502270680e-23,5.524482172664888e-13
	2.440423080632415e-13,3.223695310407737e-15
	-2.396572367593057e-05,-5.380039791346513e-13
	-2.396572343188824e-05,1.766793344224523e-14
	-4.283384502270680e-23,-5.524482172664888e-13
	-2.396572343188824e-05,1.766793344224523e-14
6		1.148153621496882e+00,0.000000000000000e+00
	-2.396572343188824e-01,1.807947247953233e-10
	1.000000000000000e+00,0.000000000000000e+00
	0.000000000000000e+00,0.000000000000000e+00
	2.396572343188827e-05,-1.807947247953237e-14
	4.485254194606423e-23,5.653163893267935e-13
	2.440423080632415e-13,3.298784820388596e-15
	-2.396572367593057e-05,-5.505357016676498e-13
	-2.396572343188824e-05,1.807947247953233e-14
	-4.485254194606423e-23,-5.653163893267935e-13
	-2.396572343188824e-05,1.807947247953233e-14
7		1.174897554939529e+00,0.000000000000000e+00
	-2.396572343188824e-01,1.850059749243818e-10
	1.000000000000000e+00,0.000000000000000e+00
	0.000000000000000e+00,0.000000000000000e+00
	2.396572343188827e-05,-1.850059749243814e-14
	4.696637712437429e-23,5.784842996195663e-13
	2.440423080632415e-13,3.375623389745546e-15
	-2.396572367593057e-05,-5.633593255168737e-13
	-2.396572343188824e-05,1.850059749243818e-14
	-4.696637712437429e-23,-5.784842996195663e-13
	-2.396572343188824e-05,1.850059749243818e-14
8		1.202264434617413e+00,0.000000000000000e+00
	-2.396572343188824e-01,1.893153176701888e-10
	1.000000000000000e+00,0.000000000000000e+00
	0.000000000000000e+00,0.000000000000000e+00
	2.396572343188827e-05,-1.893153176701886e-14
	4.917983428545704e-23,5.919589299451424e-13
	2.440423080632415e-13,3.454251759305706e-15
	-2.396572367593057e-05,-5.764816499374292e-13
	-2.396572343188824e-05,1.893153176701888e-14
	-4.917983428545704e-23,-5.919589299451424e-13
	-2.396572343188824e-05,1.893153176701888e-14
9		1.230268770812381e+00,0.000000000000000e+00
	-2.396572343188824e-01,1.937250379033090e-10
	1.000000000000000e+00,0.000000000000000e+00
	0.000000000000000e+00,0.000000000000000e+00
	2.396572343188827e-05,-1.937250379033092e-14
	5.149760846871447e-23,6.057474247308781e-13
	2.440423080632415e-13,3.534711618870925e-15
	-2.396572367593057e-05,-5.899096325594181e-13
	-2.396572343188824e-05,1.937250379033090e-14
	-5.149760846871447e-23,-6.057474247308781e-13
	-2.396572343188824e-05,1.937250379033090e-14
10		1.258925411794167e+00,0.000000000000000e+00
	-2.396572343188824e-01,1.982374737157796e-10
	1.000000000000000e+00,0.000000000000000e+00
	0.000000000000000e+00,0.000000000000000e+00
	2.396572343188827e-05,-1.982374737157797e-14
	5.392461598393870e-23,6.198570948192211e-13
	2.440423080632415e-13,3.617045629324058e-15
	-2.396572367593057e-05,-6.036503930769672e-13
	-2.396572343188824e-05,1.982374737157796e-14
	-5.392461598393870e-23,-6.198570948192211e-13
	-2.396572343188824e-05,1.982374737157796e-14
11		1.288249551693134e+00,0.000000000000000e+00
	-2.396572343188824e-01,2.028550176607975e-10
	1.000000000000000e+00,0.000000000000000e+00
	0.000000000000000e+00,0.000000000000000e+00
	2.396572343188827e-05,-2.028550176607977e-14
	5.646600483946407e-23,6.342954213440160e-13
	2.440423080632415e-13,3.701297445246991e-15
	-2.396572367593057e-05,-6.177112170231832e-13
	-2.396572343188824e-05,2.028550176607975e-14
	-5.646600483946407e-23,-6.342954213440160e-13
	-2.396572343188824e-05,2.028550176607975e-14
12		1.318256738556407e+00,0.000000000000000e+00
	-2.396572343188824e-01,2.075801180212827e-10
	1.000000000000000e+00,0.000000000000000e+00
	0.000000000000000e+00,0.000000000000000e+00
	2.396572343188827e-05,-2.075801180212832e-14
	5.912716566178307e-23,6.490700596970997e-13
	2.440423080632415e-13,3.787511738068110e-15
	-2.396572367593057e-05,-6.320995596330395e-13
	-2.396572343188824e-05,2.075801180212827e-14
	-5.912716566178307e-23,-6.490700596970997e-13
	-2.396572343188824e-05,2.075801180212827e-14
13		1.348962882591653e+00,0.000000000000000e+00
	-2.396572343188824e-01,2.124152801079905e-10
	1.000000000000000e+00,0.000000000000000e+00
	0.000000000000000e+00,0.000000000000000e+00
	2.396572343188827e-05,-2.124152801079909e-14
	6.191374312978791e-23,6.641888435872929e-13
	2.440423080632415e-13,3.875734219746157e-15
	-2.396572367593057e-05,-6.468230497962399e-13
	-2.396572343188824e-05,2.124152801079905e-14
	-6.191374312978791e-23,-6.641888435872929e-13
	-2.396572343188824e-05,2.124152801079905e-14
14		1.380384264602885e+00,0.000000000000000e+00
	-2.396572343188824e-01,2.173630675878601e-10
	1.000000000000000e+00,0.000000000000000e+00
	0.000000000000000e+00,0.000000000000000e+00
	2.396572343188827e-05,-2.173630675878601e-14
	6.483164794789120e-23,6.796597891939349e-13
	2.440423080632415e-13,3.966011667008880e-15
	-2.396572367593057e-05,-6.618894941021577e-13
	-2.396572343188824e-05,2.173630675878602e-14
	-6.483164794789120e-23,-6.796597891939349e-13
	-2.396572343188824e-05,2.173630675878602e-14
15		1.412537544622754e+00,0.000000000000000e+00
	-2.396572343188824e-01,2.224261038433052e-10
	1.000000000000000e+00,0.000000000000000e+00
	0.000000000000000e+00,0.000000000000000e+00
	2.396572343188827e-05,-2.224261038433049e-14
	6.788706938342237e-23,6.954910994171681e-13
	2.440423080632415e-13,4.058391946153815e-15
	-2.396572367593057e-05,-6.773068809789914e-13
	-2.396572343188824e-05,2.224261038433052e-14
	-6.788706938342237e-23,-6.954910994171681e-13
	-2.396572343188824e-05,2.224261038433052e-14
16		1.445439770745927e+00,0.000000000000000e+00
	-2.396572343188824e-01,2.276070733631654e-10
	1.000000000000000e+00,0.000000000000000e+00
	0.000000000000000e+00,0.000000000000000e+00
	2.396572343188827e-05,-2.276070733631655e-14
	7.108648839489371e-23,7.116911682272252e-13
	2.440423080632415e-13,4.152924038427892e-15
	-2.396572367593057e-05,-6.930833849293366e-13
	-2.396572343188824e-05,2.276070733631654e-14
	-7.108648839489371e-23,-7.116911682272252e-13
	-2.396572343188824e-05,2.276070733631654e-14
17		1.479108388168207e+00,0.000000000000000e+00
	-2.396572343188824e-01,2.329087231660587e-10
	1.000000000000000e+00,0.000000000000000e+00
	0.000000000000000e+00,0.000000000000000e+00
	2.396572343188827e-05,-2.329087231660579e-14
	7.443669137898218e-23,7.282685851150229e-13
	2.440423080632415e-13,4.249658065997497e-15
	-2.396572367593057e-05,-7.092273708644146e-13
	-2.396572343188824e-05,2.329087231660587e-14
	-7.443669137898218e-23,-7.282685851150229e-13
	-2.396572343188824e-05,2.329087231660587e-14
18		1.513561248436208e+00,0.000000000000000e+00
	-2.396572343188824e-01,2.383338642568860e-10
	1.000000000000000e+00,0.000000000000000e+00
	0.000000000000000e+00,0.000000000000000e+00
	2.396572343188827e-05,-2.383338642568857e-14
	7.794478456538652e-23,7.452321396464229e-13
	2.440423080632415e-13,4.348645318524628e-15
	-2.396572367593057e-05,-7.257473985392589e-13
	-2.396572343188824e-05,2.383338642568860e-14
	-7.794478456538652e-23,-7.452321396464229e-13
	-2.396572343188824e-05,2.383338642568860e-14
19		1.548816618912481e+00,0.000000000000000e+00
	-2.396572343188824e-01,2.438853731172640e-10
	1.000000000000000e+00,0.000000000000000e+00
	0.000000000000000e+00,0.000000000000000e+00
	2.396572343188827e-05,-2.438853731172632e-14
	8.161820909009335e-23,7.625908261225768e-13
	2.440423080632415e-13,4.449938280360757e-15
	-2.396572367593057e-05,-7.426522270912113e-13
	-2.396572343188824e-05,2.438853731172640e-14
	-8.161820909009335e-23,-7.625908261225768e-13
	-2.396572343188824e-05,2.438853731172640e-14
20		1.584893192461113e+00,0.000000000000000e+00
	-2.396572343188824e-01,2.495661932306732e-10
	1.000000000000000e+00,0.000000000000000e+00
	0.000000000000000e+00,0.000000000000000e+00
	2.396572343188827e-05,-2.495661932306743e-14
	8.546475677902417e-23,7.803538483488239e-13
	2.440423080632415e-13,4.553590658375171e-15
	-2.396572367593057e-05,-7.599508196841316e-13
	-2.396572343188824e-05,2.495661932306732e-14
	-8.546475677902417e-23,-7.803538483488239e-13
	-2.396572343188824e-05,2.495661932306732e-14
21		1.621810097358929e+00,0.000000000000000e+00
	-2.396572343188824e-01,2.553793366431324e-10
	1.000000000000000e+00,0.000000000000000e+00
	0.000000000000000e+00,0.000000000000000e+00
	2.396572343188827e-05,-2.553793366431325e-14
	8.949258667554284e-23,7.985306245146697e-13
	2.440423080632415e-13,4.659657410430402e-15
	-2.396572367593057e-05,-7.776523482607869e-13
	-2.396572343188824e-05,2.553793366431325e-14
	-8.949258667554284e-23,-7.985306245146697e-13
	-2.396572343188824e-05,2.553793366431325e-14
22		1.659586907437560e+00,0.000000000000000e+00
	-2.396572343188824e-01,2.613278855602251e-10
	1.000000000000000e+00,0.000000000000000e+00
	0.000000000000000e+00,0.000000000000000e+00
	2.396572343188827e-05,-2.613278855602248e-14
	9.371024234688047e-23,8.171307921874359e-13
	2.440423080632415e-13,4.768194774522517e-15
	-2.396572367593057e-05,-7.957661984059359e-13
	-2.396572343188824e-05,2.613278855602251e-14
	-9.371024234688047e-23,-8.171307921874359e-13
	-2.396572343188824e-05,2.613278855602251e-14
23		1.698243652461743e+00,0.000000000000000e+00
	-2.396572343188824e-01,2.674149939813252e-10
	1.000000000000000e+00,0.000000000000000e+00
	0.000000000000000e+00,0.000000000000000e+00
	2.396572343188827e-05,-2.674149939813250e-14
	9.812667000618686e-23,8.361642134222243e-13
	2.440423080632415e-13,4.879260298598501e-15
	-2.396572367593057e-05,-8.143019743226903e-13
	-2.396572343188824e-05,2.674149939813252e-14
	-9.812667000618686e-23,-8.361642134222243e-13
	-2.396572343188824e-05,2.674149939813252e-14
24		1.737800828749374e+00,0.000000000000000e+00
	-2.396572343188824e-01,2.736438893718901e-10
	1.000000000000000e+00,0.000000000000000e+00
	0.000000000000000e+00,0.000000000000000e+00
	2.396572343188827e-05,-2.736438893718896e-14
	1.027512374886482e-22,8.556409799909109e-13
	2.440423080632415e-13,4.992912871069494e-15
	-2.396572367593057e-05,-8.332695039247914e-13
	-2.396572343188824e-05,2.736438893718901e-14
	-1.027512374886482e-22,-8.556409799909109e-13
	-2.396572343188824e-05,2.736438893718901e-14
25		1.778279410038922e+00,0.000000000000000e+00
	-2.396572343188824e-01,2.800178743747050e-10
	1.000000000000000e+00,0.000000000000000e+00
	0.000000000000000e+00,0.000000000000000e+00
	2.396572343188827e-05,-2.800178743747052e-14
	1.075937541219213e-22,8.755714187329361e-13
	2.440423080632415e-13,5.109212752033931e-15
	-2.396572367593057e-05,-8.526788440474995e-13
	-2.396572343188824e-05,2.800178743747051e-14
	-1.075937541219213e-22,-8.755714187329361e-13
	-2.396572343188824e-05,2.800178743747051e-14
26		1.819700858609982e+00,0.000000000000000e+00
	-2.396572343188824e-01,2.865403285609882e-10
	1.000000000000000e+00,0.000000000000000e+00
	0.000000000000000e+00,0.000000000000000e+00
	2.396572343188827e-05,-2.865403285609878e-14
	1.126644915330329e-22,8.959660970307312e-13
	2.440423080632415e-13,5.228221605227698e-15
	-2.396572367593057e-05,-8.725402857798601e-13
	-2.396572343188824e-05,2.865403285609882e-14
	-1.126644915330329e-22,-8.959660970307312e-13
	-2.396572343188824e-05,2.865403285609882e-14
27		1.862087136662866e+00,0.000000000000000e+00
	-2.396572343188824e-01,2.932147102222841e-10
	1.000000000000000e+00,0.000000000000000e+00
	0.000000000000000e+00,0.000000000000000e+00
	2.396572343188827e-05,-2.932147102222835e-14
	1.179742054358776e-22,9.168358284126855e-13
	2.440423080632415e-13,5.350002530720282e-15
	-2.396572367593057e-05,-8.928643599211774e-13
	-2.396572343188824e-05,2.932147102222841e-14
	-1.179742054358776e-22,-9.168358284126855e-13
	-2.396572343188824e-05,2.932147102222841e-14
28		1.905460717963246e+00,0.000000000000000e+00
	-2.396572343188824e-01,3.000445582040952e-10
	1.000000000000000e+00,0.000000000000000e+00
	0.000000000000000e+00,0.000000000000000e+00
	2.396572343188827e-05,-3.000445582040955e-14
	1.235341584455291e-22,9.381916782866208e-13
	2.440423080632415e-13,5.474620098370452e-15
	-2.396572367593057e-05,-9.136618425645817e-13
	-2.396572343188824e-05,3.000445582040952e-14
	-1.235341584455291e-22,-9.381916782866208e-13
	-2.396572343188824e-05,3.000445582040952e-14
29		1.949844599758044e+00,0.000000000000000e+00
	-2.396572343188824e-01,3.070334937822255e-10
	1.000000000000000e+00,0.000000000000000e+00
	0.000000000000000e+00,0.000000000000000e+00
	2.396572343188827e-05,-3.070334937822269e-14
	1.293561439677566e-22,9.600449698068190e-13
	2.440423080632415e-13,5.602140382061962e-15
	-2.396572367593057e-05,-9.349437608106583e-13
	-2.396572343188824e-05,3.070334937822256e-14
	-1.293561439677566e-22,-9.600449698068190e-13
	-2.396572343188824e-05,3.070334937822256e-14
30		1.995262314968878e+00,0.000000000000000e+00
	-2.396572343188824e-01,3.141852225828279e-10
	1.000000000000000e+00,0.000000000000000e+00
	0.000000000000000e+00,0.000000000000000e+00
	2.396572343188827e-05,-3.141852225828274e-14
	1.354525112144201e-22,9.824072898777059e-13
	2.440423080632415e-13,5.732630994736850e-15
	-2.396572367593057e-05,-9.567213986141600e-13
	-2.396572343188824e-05,3.141852225828279e-14
	-1.354525112144201e-22,-9.824072898777059e-13
	-2.396572343188824e-05,3.141852225828279e-14
31		2.041737944669527e+00,0.000000000000000e+00
	-2.396572343188824e-01,3.215035365471766e-10
	1.000000000000000e+00,0.000000000000000e+00
	0.000000000000000e+00,0.000000000000000e+00
	2.396572343188827e-05,-3.215035365471772e-14
	1.418361913978039e-22,1.005290495297384e-12
	2.440423080632415e-13,5.866161124245928e-15
	-2.396572367593057e-05,-9.790063027669118e-13
	-2.396572343188824e-05,3.215035365471766e-14
	-1.418361913978039e-22,-1.005290495297384e-12
	-2.396572343188824e-05,3.215035365471766e-14
32		2.089296130854037e+00,0.000000000000000e+00
	-2.396572343188824e-01,3.289923159422051e-10
	1.000000000000000e+00,0.000000000000000e+00
	0.000000000000000e+00,0.000000000000000e+00
	2.396572343188827e-05,-3.289923159422058e-14
	1.485207251594518e-22,1.028706719044261e-12
	2.440423080632415e-13,6.002801570030379e-15
	-2.396572367593057e-05,-1.001810289020071e-12
	-2.396572343188824e-05,3.289923159422052e-14
	-1.485207251594518e-22,-1.028706719044261e-12
	-2.396572343188824e-05,3.289923159422052e-14
33		2.137962089502230e+00,0.000000000000000e+00
	-2.396572343188824e-01,3.366555314178744e-10
	1.000000000000000e+00,0.000000000000000e+00
	0.000000000000000e+00,0.000000000000000e+00
	2.396572343188827e-05,-3.366555314178742e-14
	1.555202912916835e-22,1.052668376710119e-12
	2.440423080632415e-13,6.142624780664067e-15
	-2.396572367593057e-05,-1.025145448348996e-12
	-2.396572343188824e-05,3.366555314178744e-14
	-1.555202912916835e-22,-1.052668376710119e-12
	-2.396572343188824e-05,3.366555314178744e-14
34		2.187761623949550e+00,0.000000000000000e+00
	-2.396572343188824e-01,3.444972461124641e-10
	1.000000000000000e+00,0.000000000000000e+00
	0.000000000000000e+00,0.000000000000000e+00
	2.396572343188827e-05,-3.444972461124638e-14
	1.628497368127135e-22,1.077188173083022e-12
	2.440423080632415e-13,6.285704892263816e-15
	-2.396572367593057e-05,-1.049024153364039e-12
	-2.396572343188824e-05,3.444972461124641e-14
	-1.628497368127135e-22,-1.077188173083022e-12
	-2.396572343188824e-05,3.444972461124641e-14
35		2.238721138568337e+00,0.000000000000000e+00
	-2.396572343188824e-01,3.525216178069028e-10
	1.000000000000000e+00,0.000000000000000e+00
	0.000000000000000e+00,0.000000000000000e+00
	2.396572343188827e-05,-3.525216178069023e-14
	1.705246084591678e-22,1.102279108883564e-12
	2.440423080632415e-13,6.432117767798365e-15
	-2.396572367593057e-05,-1.073459064870672e-12
	-2.396572343188824e-05,3.525216178069028e-14
	-1.705246084591678e-22,-1.102279108883564e-12
	-2.396572343188824e-05,3.525216178069028e-14
36		2.290867652767770e+00,0.000000000000000e+00
	-2.396572343188824e-01,3.607329011292779e-10
	1.000000000000000e+00,0.000000000000000e+00
	0.000000000000000e+00,0.000000000000000e+00
	2.396572343188827e-05,-3.607329011292789e-14
	1.785611856627965e-22,1.127954487658025e-12
	2.440423080632415e-13,6.581941037312647e-15
	-2.396572367593057e-05,-1.098463138582410e-12
	-2.396572343188824e-05,3.607329011292779e-14
	-1.785611856627965e-22,-1.127954487658025e-12
	-2.396572343188824e-05,3.607329011292779e-14
37		2.344228815319919e+00,0.000000000000000e+00
	-2.396572343188824e-01,3.691354498106962e-10
	1.000000000000000e+00,0.000000000000000e+00
	0.000000000000000e+00,0.000000000000000e+00
	2.396572343188827e-05,-3.691354498106954e-14
	1.869765150813312e-22,1.154227922832086e-12
	2.440423080632415e-13,6.735254139086995e-15
	-2.396572367593057e-05,-1.124049631990104e-12
	-2.396572343188824e-05,3.691354498106963e-14
	-1.869765150813312e-22,-1.154227922832086e-12
	-2.396572343188824e-05,3.691354498106963e-14
38		2.398832919019488e+00,0.000000000000000e+00
	-2.396572343188824e-01,3.777337189936894e-10
	1.000000000000000e+00,0.000000000000000e+00
	0.000000000000000e+00,0.000000000000000e+00
