Title: * GA CMOS Amp | W=1.2194148773395845e-05 L=8.934653062874317e-07 Vbias=1.104205963751409
Date: Sat Sep  6 22:02:41 2025
Plotname: AC Analysis
Flags: complex forward log
No. Variables: 13
No. Points:          901
Offset:    0.0000000000000000e+00
Command: Linear Technology Corporation LTspice
Variables:
	0	frequency	frequency
	1	V(out)	voltage
	2	V(g)	voltage
	3	V(vdd)	voltage
	4	V(m1#dbody)	voltage
	5	V(m1#sbody)	voltage
	6	Id(M1)	device_current
	7	Ig(M1)	device_current
	8	Ib(M1)	device_current
	9	Is(M1)	device_current
	10	I(Rload)	device_current
	11	I(Vg)	device_current
	12	I(Vdd)	device_current
Values:
0		1.000000000000000e+00,0.000000000000000e+00
	-8.528571180745615e-03,1.172280877410053e-09
	1.000000000000000e+00,0.000000000000000e+00
	0.000000000000000e+00,0.000000000000000e+00
	1.500286420443473e-05,7.897076524630250e-14
	1.500286426851990e-05,8.131712524110667e-14
	8.528571180745622e-07,-1.172280877410052e-13
	1.483097695864860e-05,2.806896330951473e-12
	-8.001527611653425e-06,-4.321546827404424e-14
	-7.682306465069739e-06,-2.646452774936424e-12
	-8.528571180745616e-07,1.172280877410053e-13
	-1.483097695875735e-05,-2.806896330951473e-12
	-8.528571180745616e-07,1.172280877410053e-13
1		1.023292992280754e+00,0.000000000000000e+00
	-8.528571180745615e-03,1.199586806838441e-09
	1.000000000000000e+00,0.000000000000000e+00
	0.000000000000000e+00,0.000000000000000e+00
	1.500286420443473e-05,8.081023067158987e-14
	1.500286426851990e-05,8.321124441164088e-14
	8.528571180745622e-07,-1.199586806838438e-13
	1.483097695864860e-05,2.872277345521203e-12
	-8.001527611653425e-06,-4.422208584296074e-14
	-7.682306465069739e-06,-2.708096578994398e-12
	-8.528571180745616e-07,1.199586806838441e-13
	-1.483097695875735e-05,-2.872277345521203e-12
	-8.528571180745616e-07,1.199586806838441e-13
2		1.047128548050899e+00,0.000000000000000e+00
	-8.528571180745615e-03,1.227528773070223e-09
	1.000000000000000e+00,0.000000000000000e+00
	0.000000000000000e+00,0.000000000000000e+00
	1.500286420443473e-05,8.269254275082916e-14
	1.500286426851990e-05,8.514948328539317e-14
	8.528571180745622e-07,-1.227528773070224e-13
	1.483097695864860e-05,2.939181279558612e-12
	-8.001527611653425e-06,-4.525215054713966e-14
	-7.682306465069739e-06,-2.771176251704450e-12
	-8.528571180745616e-07,1.227528773070223e-13
	-1.483097695875735e-05,-2.939181279558613e-12
	-8.528571180745616e-07,1.227528773070223e-13
3		1.071519305237606e+00,0.000000000000000e+00
	-8.528571180745615e-03,1.256121591305751e-09
	1.000000000000000e+00,0.000000000000000e+00
	0.000000000000000e+00,0.000000000000000e+00
	1.500286420443473e-05,8.461869951080014e-14
	1.500286426851990e-05,8.713286954227003e-14
	8.528571180745622e-07,-1.256121591305750e-13
	1.483097695864860e-05,3.007643606415108e-12
	-8.001527611653425e-06,-4.630620854052171e-14
	-7.682306465069739e-06,-2.835725238744012e-12
	-8.528571180745616e-07,1.256121591305751e-13
	-1.483097695875735e-05,-3.007643606415108e-12
	-8.528571180745616e-07,1.256121591305751e-13
4		1.096478196143185e+00,0.000000000000000e+00
	-8.528571180745615e-03,1.285380421835724e-09
	1.000000000000000e+00,0.000000000000000e+00
	0.000000000000000e+00,0.000000000000000e+00
	1.500286420443473e-05,8.658972222531266e-14
	1.500286426851990e-05,8.916245479991807e-14
	8.528571180745622e-07,-1.285380421835724e-13
	1.483097695864860e-05,3.077700625722594e-12
	-8.001527611653425e-06,-4.738481869860706e-14
	-7.682306465069741e-06,-2.901777764840415e-12
	-8.528571180745616e-07,1.285380421835725e-13
	-1.483097695875735e-05,-3.077700625722595e-12
	-8.528571180745616e-07,1.285380421835725e-13
5		1.122018454301963e+00,0.000000000000000e+00
	-8.528571180745615e-03,1.315320778079377e-09
	1.000000000000000e+00,0.000000000000000e+00
	0.000000000000000e+00,0.000000000000000e+00
	1.500286420443473e-05,8.860665595669954e-14
	1.500286426851990e-05,9.123931517130568e-14
	8.528571180745622e-07,-1.315320778079372e-13
	1.483097695864860e-05,3.149389482640023e-12
	-8.001527611653425e-06,-4.848855291477866e-14
	-7.682306465069741e-06,-2.969368851917307e-12
	-8.528571180745616e-07,1.315320778079377e-13
	-1.483097695875735e-05,-3.149389482640024e-12
	-8.528571180745616e-07,1.315320778079377e-13
6		1.148153621496882e+00,0.000000000000000e+00
	-8.528571180745615e-03,1.345958534809895e-09
	1.000000000000000e+00,0.000000000000000e+00
	0.000000000000000e+00,0.000000000000000e+00
	1.500286420443473e-05,9.067057010992238e-14
	1.500286426851990e-05,9.336455183529217e-14
	8.528571180745622e-07,-1.345958534809894e-13
	1.483097695864860e-05,3.222748187548245e-12
	-8.001527611653425e-06,-4.961799640352754e-14
	-7.682306465069741e-06,-3.038534337663729e-12
	-8.528571180745616e-07,1.345958534809895e-13
	-1.483097695875735e-05,-3.222748187548246e-12
	-8.528571180745616e-07,1.345958534809895e-13
7		1.174897554939529e+00,0.000000000000000e+00
	-8.528571180745615e-03,1.377309936571437e-09
	1.000000000000000e+00,0.000000000000000e+00
	0.000000000000000e+00,0.000000000000000e+00
	1.500286420443473e-05,9.278255899958435e-14
	1.500286426851990e-05,9.553929162048768e-14
	8.528571180745622e-07,-1.377309936571436e-13
	1.483097695864860e-05,3.297815636203620e-12
	-8.001527611653425e-06,-5.077374801074138e-14
	-7.682306465069741e-06,-3.109310894535736e-12
	-8.528571180745616e-07,1.377309936571437e-13
	-1.483097695875735e-05,-3.297815636203621e-12
	-8.528571180745616e-07,1.377309936571437e-13
8		1.202264434617413e+00,0.000000000000000e+00
	-8.528571180745615e-03,1.409391606292202e-09
	1.000000000000000e+00,0.000000000000000e+00
	0.000000000000000e+00,0.000000000000000e+00
	1.500286420443473e-05,9.494374243015031e-14
	1.500286426851990e-05,9.776468760271245e-14
	8.528571180745622e-07,-1.409391606292203e-13
	1.483097695864860e-05,3.374631630361062e-12
	-8.001527611653425e-06,-5.195642053122055e-14
	-7.682306465069741e-06,-3.181736049200621e-12
	-8.528571180745616e-07,1.409391606292201e-13
	-1.483097695875735e-05,-3.374631630361063e-12
	-8.528571180745616e-07,1.409391606292201e-13
9		1.230268770812381e+00,0.000000000000000e+00
	-8.528571180745615e-03,1.442220554098125e-09
	1.000000000000000e+00,0.000000000000000e+00
	0.000000000000000e+00,0.000000000000000e+00
	1.500286420443473e-05,9.715526628968168e-14
	1.500286426851990e-05,1.000419197163728e-13
	8.528571180745605e-07,-1.442220554098124e-13
	1.483097695864860e-05,3.453236898877451e-12
	-8.001527611653425e-06,-5.316664103358987e-14
	-7.682306465069741e-06,-3.255848202434049e-12
	-8.528571180745616e-07,1.442220554098126e-13
	-1.483097695875735e-05,-3.453236898877451e-12
	-8.528571180745616e-07,1.442220554098126e-13
10		1.258925411794167e+00,0.000000000000000e+00
	-8.528571180745615e-03,1.475814186331878e-09
	1.000000000000000e+00,0.000000000000000e+00
	0.000000000000000e+00,0.000000000000000e+00
	1.500286420443473e-05,9.941830315740185e-14
	1.500286426851990e-05,1.023721953800781e-13
	8.528571180745605e-07,-1.475814186331877e-13
	1.483097695864860e-05,3.533673119306619e-12
	-8.001527611653425e-06,-5.440505119277891e-14
	-7.682306465069741e-06,-3.331686649480653e-12
	-8.528571180745616e-07,1.475814186331878e-13
	-1.483097695875735e-05,-3.533673119306620e-12
	-8.528571180745616e-07,1.475814186331878e-13
11		1.288249551693134e+00,0.000000000000000e+00
	-8.528571180745615e-03,1.510190314781934e-09
	1.000000000000000e+00,0.000000000000000e+00
	0.000000000000000e+00,0.000000000000000e+00
	1.500286420443473e-05,1.017340529254129e-13
	1.500286426851990e-05,1.047567501368301e-13
	8.528571180745605e-07,-1.510190314781935e-13
	1.483097695864860e-05,3.615982939997337e-12
	-8.001527611653425e-06,-5.567230763024635e-14
	-7.682306465069741e-06,-3.409291600888897e-12
	-8.528571180745616e-07,1.510190314781934e-13
	-1.483097695875735e-05,-3.615982939997337e-12
	-8.528571180745616e-07,1.510190314781934e-13
12		1.318256738556407e+00,0.000000000000000e+00
	-8.528571180745615e-03,1.545367166126619e-09
	1.000000000000000e+00,0.000000000000000e+00
	0.000000000000000e+00,0.000000000000000e+00
	1.500286420443473e-05,1.041037434348944e-13
	1.500286426851990e-05,1.071968483091241e-13
	8.528571180745605e-07,-1.545367166126622e-13
	1.483097695864860e-05,3.700210002706033e-12
	-8.001527611653425e-06,-5.696908226212943e-14
	-7.682306465069741e-06,-3.488704203831242e-12
	-8.528571180745616e-07,1.545367166126619e-13
	-1.483097695875735e-05,-3.700210002706034e-12
	-8.528571180745616e-07,1.545367166126619e-13
13		1.348962882591653e+00,0.000000000000000e+00
	-8.528571180745613e-03,1.581363391598138e-09
	1.000000000000000e+00,0.000000000000000e+00
	0.000000000000000e+00,0.000000000000000e+00
	1.500286420443473e-05,1.065286311271210e-13
	1.500286426851990e-05,1.096937836693098e-13
	8.528571180745639e-07,-1.581363391598131e-13
	1.483097695864860e-05,3.786398965736234e-12
	-8.001527611653425e-06,-5.829606265550287e-14
	-7.682306465069742e-06,-3.569966563920918e-12
	-8.528571180745613e-07,1.581363391598138e-13
	-1.483097695875735e-05,-3.786398965736235e-12
	-8.528571180745613e-07,1.581363391598138e-13
14		1.380384264602885e+00,0.000000000000000e+00
	-8.528571180745613e-03,1.618198076871700e-09
	1.000000000000000e+00,0.000000000000000e+00
	0.000000000000000e+00,0.000000000000000e+00
	1.500286420443473e-05,1.090100017096443e-13
	1.500286426851990e-05,1.122488801255657e-13
	8.528571180745639e-07,-1.618198076871701e-13
	1.483097695864860e-05,3.874595527616983e-12
	-8.001527611653425e-06,-5.965395239293587e-14
	-7.682306465069742e-06,-3.653121767536878e-12
	-8.528571180745613e-07,1.618198076871700e-13
	-1.483097695875735e-05,-3.874595527616984e-12
	-8.528571180745613e-07,1.618198076871700e-13
15		1.412537544622754e+00,0.000000000000000e+00
	-8.528571180745613e-03,1.655890752185004e-09
	1.000000000000000e+00,0.000000000000000e+00
	0.000000000000000e+00,0.000000000000000e+00
	1.500286420443473e-05,1.115491708379920e-13
	1.500286426851990e-05,1.148634924238538e-13
	8.528571180745639e-07,-1.655890752185001e-13
	1.483097695864860e-05,3.964846451332811e-12
	-8.001527611653425e-06,-6.104347144554099e-14
	-7.682306465069742e-06,-3.738213904668770e-12
	-8.528571180745613e-07,1.655890752185004e-13
	-1.483097695875735e-05,-3.964846451332811e-12
	-8.528571180745613e-07,1.655890752185004e-13
16		1.445439770745927e+00,0.000000000000000e+00
	-8.528571180745613e-03,1.694461402693421e-09
	1.000000000000000e+00,0.000000000000000e+00
	0.000000000000000e+00,0.000000000000000e+00
	1.500286420443473e-05,1.141474848132459e-13
	1.500286426851990e-05,1.175390068662231e-13
	8.528571180745639e-07,-1.694461402693418e-13
	1.483097695864860e-05,4.057199589118080e-12
	-8.001527611653425e-06,-6.246535655471239e-14
	-7.682306465069742e-06,-3.825288092294026e-12
	-8.528571180745613e-07,1.694461402693421e-13
	-1.483097695875735e-05,-4.057199589118082e-12
	-8.528571180745613e-07,1.694461402693421e-13
17		1.479108388168207e+00,0.000000000000000e+00
	-8.528571180745613e-03,1.733930479066395e-09
	1.000000000000000e+00,0.000000000000000e+00
	0.000000000000000e+00,0.000000000000000e+00
	1.500286420443472e-05,1.168063212958684e-13
	1.500286426851990e-05,1.202768420458455e-13
	8.528571180745639e-07,-1.733930479066394e-13
	1.483097695864860e-05,4.151703907828886e-12
	-8.001527611653423e-06,-6.392036162275588e-14
	-7.682306465069742e-06,-3.914390498299491e-12
	-8.528571180745613e-07,1.733930479066395e-13
	-1.483097695875735e-05,-4.151703907828887e-12
	-8.528571180745613e-07,1.733930479066395e-13
18		1.513561248436208e+00,0.000000000000000e+00
	-8.528571180745613e-03,1.774318908330652e-09
	1.000000000000000e+00,0.000000000000000e+00
	0.000000000000000e+00,0.000000000000000e+00
	1.500286420443472e-05,1.195270900361563e-13
	1.500286426851990e-05,1.230784495991728e-13
	8.528571180745639e-07,-1.774318908330656e-13
	1.483097695864860e-05,4.248409514905922e-12
	-8.001527611653423e-06,-6.540925811261774e-14
	-7.682306465069742e-06,-4.005568365960238e-12
	-8.528571180745613e-07,1.774318908330652e-13
	-1.483097695875735e-05,-4.248409514905923e-12
	-8.528571180745613e-07,1.774318908330652e-13
19		1.548816618912481e+00,0.000000000000000e+00
	-8.528571180745613e-03,1.815648104965994e-09
	1.000000000000000e+00,0.000000000000000e+00
	0.000000000000000e+00,0.000000000000000e+00
	1.500286420443472e-05,1.223112336217094e-13
	1.500286426851990e-05,1.259453149756135e-13
	8.528571180745639e-07,-1.815648104965995e-13
	1.483097695864860e-05,4.347367684942106e-12
	-8.001527611653423e-06,-6.693283545692478e-14
	-7.682306465069742e-06,-4.098870038988583e-12
	-8.528571180745613e-07,1.815648104965994e-13
	-1.483097695875735e-05,-4.347367684942109e-12
	-8.528571180745613e-07,1.815648104965994e-13
20		1.584893192461113e+00,0.000000000000000e+00
	-8.528571180745613e-03,1.857939982259533e-09
	1.000000000000000e+00,0.000000000000000e+00
	0.000000000000000e+00,0.000000000000000e+00
	1.500286420443472e-05,1.251602282423095e-13
	1.500286426851990e-05,1.288789582251377e-13
	8.528571180745622e-07,-1.857939982259529e-13
	1.483097695864860e-05,4.448630886869064e-12
	-8.001527611653423e-06,-6.849190147655192e-14
	-7.682306465069742e-06,-4.194344987166559e-12
	-8.528571180745613e-07,1.857939982259533e-13
	-1.483097695875735e-05,-4.448630886869065e-12
	-8.528571180745613e-07,1.857939982259533e-13
21		1.621810097358929e+00,0.000000000000000e+00
	-8.528571180745613e-03,1.901216963924409e-09
	1.000000000000000e+00,0.000000000000000e+00
	0.000000000000000e+00,0.000000000000000e+00
	1.500286420443472e-05,1.280755844726150e-13
	1.500286426851990e-05,1.318809348042274e-13
	8.528571180745622e-07,-1.901216963924406e-13
	1.483097695864860e-05,4.552252811776829e-12
	-8.001527611653423e-06,-7.008728280893941e-14
	-7.682306465069742e-06,-4.292043832575449e-12
	-8.528571180745613e-07,1.901216963924409e-13
	-1.483097695875735e-05,-4.552252811776829e-12
	-8.528571180745613e-07,1.901216963924409e-13
22		1.659586907437560e+00,0.000000000000000e+00
	-8.528571180745613e-03,1.945501995989139e-09
	1.000000000000000e+00,0.000000000000000e+00
	0.000000000000000e+00,0.000000000000000e+00
	1.500286420443472e-05,1.310588480730887e-13
	1.500286426851990e-05,1.349528364006009e-13
	8.528571180745622e-07,-1.945501995989135e-13
	1.483097695864860e-05,4.658288401381589e-12
	-8.001527611653423e-06,-7.171982534638707e-14
	-7.682306465069742e-06,-4.392018376436288e-12
	-8.528571180745613e-07,1.945501995989139e-13
	-1.483097695875735e-05,-4.658288401381589e-12
	-8.528571180745613e-07,1.945501995989139e-13
23		1.698243652461743e+00,0.000000000000000e+00
	-8.528571180745613e-03,1.990818558963906e-09
	1.000000000000000e+00,0.000000000000000e+00
	0.000000000000000e+00,0.000000000000000e+00
	1.500286420443472e-05,1.341116008095797e-13
	1.500286426851990e-05,1.380962917771460e-13
	8.528571180745622e-07,-1.990818558963904e-13
	1.483097695864860e-05,4.766793877156496e-12
	-8.001527611653423e-06,-7.339039468455748e-14
	-7.682306465069742e-06,-4.494321626575548e-12
	-8.528571180745613e-07,1.990818558963906e-13
	-1.483097695875735e-05,-4.766793877156499e-12
	-8.528571180745613e-07,1.990818558963906e-13
24		1.737800828749374e+00,0.000000000000000e+00
	-8.528571180745612e-03,2.037190680290234e-09
	1.000000000000000e+00,0.000000000000000e+00
	0.000000000000000e+00,0.000000000000000e+00
	1.500286420443472e-05,1.372354612919968e-13
	1.500286426851989e-05,1.413129676355119e-13
	8.528571180745639e-07,-2.037190680290228e-13
	1.483097695864860e-05,4.877826770141048e-12
	-8.001527611653423e-06,-7.509987658142641e-14
	-7.682306465069744e-06,-4.599007825530598e-12
	-8.528571180745612e-07,2.037190680290234e-13
	-1.483097695875735e-05,-4.877826770141050e-12
	-8.528571180745612e-07,2.037190680290234e-13
25		1.778279410038922e+00,0.000000000000000e+00
	-8.528571180745612e-03,2.084642947080658e-09
	1.000000000000000e+00,0.000000000000000e+00
	0.000000000000000e+00,0.000000000000000e+00
	1.500286420443472e-05,1.404320858325170e-13
	1.500286426851989e-05,1.446045694998163e-13
	8.528571180745639e-07,-2.084642947080661e-13
	1.483097695864860e-05,4.991445951444798e-12
	-8.001527611653423e-06,-7.684917742692316e-14
	-7.682306465069744e-06,-4.706132479309810e-12
	-8.528571180745612e-07,2.084642947080658e-13
	-1.483097695875735e-05,-4.991445951444800e-12
	-8.528571180745612e-07,2.084642947080658e-13
26		1.819700858609982e+00,0.000000000000000e+00
	-8.528571180745612e-03,2.133200519155137e-09
	1.000000000000000e+00,0.000000000000000e+00
	0.000000000000000e+00,0.000000000000000e+00
	1.500286420443472e-05,1.437031693237840e-13
	1.500286426851989e-05,1.479728426209373e-13
	8.528571180745639e-07,-2.133200519155134e-13
	1.483097695864860e-05,5.107711663461604e-12
	-8.001527611653423e-06,-7.863922472351077e-14
	-7.682306465069744e-06,-4.815752386822580e-12
	-8.528571180745612e-07,2.133200519155137e-13
	-1.483097695875735e-05,-5.107711663461605e-12
	-8.528571180745612e-07,2.133200519155137e-13
27		1.862087136662866e+00,0.000000000000000e+00
	-8.528571180745612e-03,2.182889142381118e-09
	1.000000000000000e+00,0.000000000000000e+00
	0.000000000000000e+00,0.000000000000000e+00
	1.500286420443472e-05,1.470504461375628e-13
	1.500286426851989e-05,1.514195729018680e-13
	8.528571180745622e-07,-2.182889142381113e-13
	1.483097695864860e-05,5.226685551810931e-12
	-8.001527611653423e-06,-8.047096757795998e-14
	-7.682306465069744e-06,-4.927925669994861e-12
	-8.528571180745612e-07,2.182889142381118e-13
	-1.483097695875735e-05,-5.226685551810934e-12
	-8.528571180745612e-07,2.182889142381118e-13
28		1.905460717963246e+00,0.000000000000000e+00
	-8.528571180745612e-03,2.233735162324343e-09
	1.000000000000000e+00,0.000000000000000e+00
	0.000000000000000e+00,0.000000000000000e+00
	1.500286420443472e-05,1.504756910443265e-13
	1.500286426851989e-05,1.549465878446263e-13
	8.528571180745622e-07,-2.233735162324345e-13
	1.483097695864861e-05,5.348430698023194e-12
	-8.001527611653423e-06,-8.234537720457823e-14
	-7.682306465069746e-06,-5.042711804586181e-12
	-8.528571180745612e-07,2.233735162324343e-13
	-1.483097695875735e-05,-5.348430698023193e-12
	-8.528571180745612e-07,2.233735162324343e-13
29		1.949844599758044e+00,0.000000000000000e+00
	-8.528571180745612e-03,2.285765538217614e-09
	1.000000000000000e+00,0.000000000000000e+00
	0.000000000000000e+00,0.000000000000000e+00
	1.500286420443472e-05,1.539807201542632e-13
	1.500286426851989e-05,1.585557575192204e-13
	8.528571180745622e-07,-2.285765538217613e-13
	1.483097695864860e-05,5.473011652986397e-12
	-8.001527611653420e-06,-8.426344744016028e-14
	-7.682306465069746e-06,-5.160171651724475e-12
	-8.528571180745612e-07,2.285765538217614e-13
	-1.483097695875735e-05,-5.473011652986398e-12
	-8.528571180745612e-07,2.285765538217614e-13
30		1.995262314968878e+00,0.000000000000000e+00
	-8.528571180745612e-03,2.339007857254929e-09
	1.000000000000000e+00,0.000000000000000e+00
	0.000000000000000e+00,0.000000000000000e+00
	1.500286420443472e-05,1.575673918802013e-13
	1.500286426851989e-05,1.622489955551846e-13
	8.528571180745622e-07,-2.339007857254933e-13
	1.483097695864860e-05,5.600494471171885e-12
	-8.001527611653420e-06,-8.622619527093360e-14
	-7.682306465069746e-06,-5.280367490175459e-12
	-8.528571180745612e-07,2.339007857254930e-13
	-1.483097695875735e-05,-5.600494471171886e-12
	-8.528571180745612e-07,2.339007857254930e-13
31		2.041737944669527e+00,0.000000000000000e+00
	-8.528571180745612e-03,2.393490349218591e-09
	1.000000000000000e+00,0.000000000000000e+00
	0.000000000000000e+00,0.000000000000000e+00
	1.500286420443472e-05,1.612376079229655e-13
	1.500286426851989e-05,1.660282601562117e-13
	8.528571180745622e-07,-2.393490349218590e-13
	1.483097695864860e-05,5.730946745657297e-12
	-8.001527611653420e-06,-8.823466137177829e-14
	-7.682306465069746e-06,-5.403363049363660e-12
	-8.528571180745612e-07,2.393490349218592e-13
	-1.483097695875735e-05,-5.730946745657299e-12
	-8.528571180745612e-07,2.393490349218592e-13
32		2.089296130854037e+00,0.000000000000000e+00
	-8.528571180745610e-03,2.449241901447000e-09
	1.000000000000000e+00,0.000000000000000e+00
	0.000000000000000e+00,0.000000000000000e+00
	1.500286420443472e-05,1.649933142796823e-13
