LTspice 24.0.9 for Windows
Circuit: * GA CMOS Amp | W=3.845557133266482e-06 L=5.180731156497205e-07 Vbias=1.5
Start Time: Sat Sep  6 22:08:55 2025
solver = Normal
Maximum thread count: 2
tnom = 27
temp = 27
method = modified trap
AsciiRawFile = 1
Direct Newton iteration for .op point succeeded.
Semiconductor Device Operating Points:
                        --- BSIM4 MOSFETS ---
Name:      m1
Model:      n
Id:      1.54e-04
Vgs:     1.50e+00
Vds:     2.61e-01
Vbs:     0.00e+00
Vth:     2.50e-01
Vdsat:   8.65e-01
Gm:     -6.70e-06
Gds:     4.88e-04
Gmb      7.29e-05
Cbd:     1.78e-15
Cbs:     3.08e-15


.measure op idd find i(vdd)
  Error: FIND can not be evaluated over an interval.

gain_db: MAX(db(v(out)/v(g)))=(31.1352dB,180°) FROM 1 TO 1e+09
gain_lin: MAX(mag(v(out)/v(g)))=(-8.32986dB,0°) FROM 1 TO 1e+09

Measurement "fc" FAIL'ed

Total elapsed time: 0.824 seconds.

