LTspice 24.0.9 for Windows
Circuit: * GA CMOS Amp | W=3.504909683652998e-05 L=7.13851224248264e-07 Vbias=1.0710958907010646
Start Time: Sat Sep  6 22:01:57 2025
solver = Normal
Maximum thread count: 2
tnom = 27
temp = 27
method = modified trap
AsciiRawFile = 1
Direct Newton iteration for .op point succeeded.
Semiconductor Device Operating Points:
                        --- BSIM4 MOSFETS ---
Name:      m1
Model:      n
Id:      1.76e-04
Vgs:     1.07e+00
Vds:     3.73e-02
Vbs:     0.00e+00
Vth:     2.42e-01
Vdsat:   5.91e-01
Gm:      2.86e-06
Gds:     4.61e-03
Gmb      1.13e-04
Cbd:     1.73e-14
Cbs:     2.80e-14


.measure op idd find i(vdd)
  Error: FIND can not be evaluated over an interval.

gain_db: MAX(db(v(out)/v(g)))=(35.7171dB,180°) FROM 1 TO 1e+09
gain_lin: MAX(mag(v(out)/v(g)))=(-5.59741dB,0°) FROM 1 TO 1e+09

Measurement "fc" FAIL'ed

Total elapsed time: 1.196 seconds.

