Title: * GA CMOS Amp | W=1.7304325167132944e-05 L=5.809419627692048e-07 Vbias=0.9557606682747373
Date: Mon Sep  8 18:45:29 2025
Plotname: AC Analysis
Flags: complex forward log
No. Variables: 11
No. Points:          901
Offset:    0.0000000000000000e+00
Command: Linear Technology Corporation LTspice
Variables:
	0	frequency	frequency
	1	V(out)	voltage
	2	V(g)	voltage
	3	V(vdd)	voltage
	4	Id(M1)	device_current
	5	Ig(M1)	device_current
	6	Ib(M1)	device_current
	7	Is(M1)	device_current
	8	I(Rload)	device_current
	9	I(Vg)	device_current
	10	I(Vdd)	device_current
Values:
0		1.000000000000000e+00,0.000000000000000e+00
	-4.807690003970033e+00,2.086474892754611e-09
	1.000000000000000e+00,0.000000000000000e+00
	0.000000000000000e+00,0.000000000000000e+00
	4.807690003970034e-04,-2.086474892754612e-13
	9.674323800759252e-23,3.348053725854117e-13
	4.807689999147130e-12,9.568051490149378e-15
	-4.807690052046934e-04,-1.357259348000999e-13
	-4.807690003970034e-04,2.086474892754611e-13
	-9.674323800759252e-23,-3.348053725854117e-13
	-4.807690003970034e-04,2.086474892754611e-13
1		1.023292992280754e+00,0.000000000000000e+00
	-4.807690003970033e+00,2.135075136325532e-09
	1.000000000000000e+00,0.000000000000000e+00
	0.000000000000000e+00,0.000000000000000e+00
	4.807690003970034e-04,-2.135075136325533e-13
	1.013026063486330e-22,3.426039915445987e-13
	4.807689999147130e-12,9.790920039651368e-15
	-4.807690052046934e-04,-1.388873979516968e-13
	-4.807690003970034e-04,2.135075136325532e-13
	-1.013026063486330e-22,-3.426039915445987e-13
	-4.807690003970034e-04,2.135075136325532e-13
2		1.047128548050899e+00,0.000000000000000e+00
	-4.807690003970033e+00,2.184807424994793e-09
	1.000000000000000e+00,0.000000000000000e+00
	0.000000000000000e+00,0.000000000000000e+00
	4.807690003970034e-04,-2.184807424994793e-13
	1.060768510996159e-22,3.505842636750026e-13
	4.807689999147130e-12,1.001897986455637e-14
	-4.807690052046934e-04,-1.421225010400797e-13
	-4.807690003970034e-04,2.184807424994793e-13
	-1.060768510996159e-22,-3.505842636750026e-13
	-4.807690003970034e-04,2.184807424994793e-13
3		1.071519305237606e+00,0.000000000000000e+00
	-4.807690003970033e+00,2.235698127480131e-09
	1.000000000000000e+00,0.000000000000000e+00
	0.000000000000000e+00,0.000000000000000e+00
	4.807690003970034e-04,-2.235698127480130e-13
	1.110760990737522e-22,3.587504202225383e-13
	4.807689999147130e-12,1.025235188520250e-14
	-4.807690052046934e-04,-1.454329593597278e-13
	-4.807690003970034e-04,2.235698127480131e-13
	-1.110760990737522e-22,-3.587504202225383e-13
	-4.807690003970034e-04,2.235698127480131e-13
4		1.096478196143185e+00,0.000000000000000e+00
	-4.807690003970033e+00,2.287774226705622e-09
	1.000000000000000e+00,0.000000000000000e+00
	0.000000000000000e+00,0.000000000000000e+00
	4.807690003970034e-04,-2.287774226705620e-13
	1.163109543462560e-22,3.671067909914991e-13
	4.807689999147130e-12,1.049115983852404e-14
	-4.807690052046934e-04,-1.488205281594611e-13
	-4.807690003970034e-04,2.287774226705621e-13
	-1.163109543462560e-22,-3.671067909914991e-13
	-4.807690003970034e-04,2.287774226705621e-13
5		1.122018454301963e+00,0.000000000000000e+00
	-4.807690003970033e+00,2.341063334108384e-09
	1.000000000000000e+00,0.000000000000000e+00
	0.000000000000000e+00,0.000000000000000e+00
	4.807690003970034e-04,-2.341063334108384e-13
	1.217925207470095e-22,3.756578066402766e-13
	4.807689999147130e-12,1.073553034365901e-14
	-4.807690052046934e-04,-1.522870035730972e-13
	-4.807690003970034e-04,2.341063334108384e-13
	-1.217925207470095e-22,-3.756578066402766e-13
	-4.807690003970034e-04,2.341063334108384e-13
6		1.148153621496882e+00,0.000000000000000e+00
	-4.807690003970033e+00,2.395593704278527e-09
	1.000000000000000e+00,0.000000000000000e+00
	0.000000000000000e+00,0.000000000000000e+00
	4.807690003970034e-04,-2.395593704278527e-13
	1.275324254132751e-22,3.844080010305535e-13
	4.807689999147130e-12,1.098559296908371e-14
	-4.807690052046934e-04,-1.558342235717845e-13
	-4.807690003970034e-04,2.395593704278527e-13
	-1.275324254132751e-22,-3.844080010305535e-13
	-4.807690003970034e-04,2.395593704278527e-13
7		1.174897554939529e+00,0.000000000000000e+00
	-4.807690003970033e+00,2.451394249940109e-09
	1.000000000000000e+00,0.000000000000000e+00
	0.000000000000000e+00,0.000000000000000e+00
	4.807690003970034e-04,-2.451394249940109e-13
	1.335428434524124e-22,3.933620136312183e-13
	4.807689999147130e-12,1.124148030131200e-14
	-4.807690052046934e-04,-1.594640689385194e-13
	-4.807690003970034e-04,2.451394249940109e-13
	-1.335428434524124e-22,-3.933620136312183e-13
	-4.807690003970034e-04,2.451394249940109e-13
8		1.202264434617413e+00,0.000000000000000e+00
	-4.807690003970033e+00,2.508494557281049e-09
	1.000000000000000e+00,0.000000000000000e+00
	0.000000000000000e+00,0.000000000000000e+00
	4.807690003970034e-04,-2.508494557281049e-13
	1.398365237669132e-22,4.025245919782722e-13
	4.807689999147130e-12,1.150332801519471e-14
	-4.807690052046934e-04,-1.631784642653619e-13
	-4.807690003970034e-04,2.508494557281049e-13
	-1.398365237669132e-22,-4.025245919782722e-13
	-4.807690003970034e-04,2.508494557281049e-13
9		1.230268770812381e+00,0.000000000000000e+00
	-4.807690003970033e+00,2.566924901640111e-09
	1.000000000000000e+00,0.000000000000000e+00
	0.000000000000000e+00,0.000000000000000e+00
	4.807690003970034e-04,-2.566924901640111e-13
	1.464268160965329e-22,4.119005941920358e-13
	4.807689999147130e-12,1.177127494585560e-14
	-4.807690052046934e-04,-1.669793789738803e-13
	-4.807690003970034e-04,2.566924901640111e-13
	-1.464268160965329e-22,-4.119005941920358e-13
	-4.807690003970034e-04,2.566924901640111e-13
10		1.258925411794167e+00,0.000000000000000e+00
	-4.807690003970033e+00,2.626716263559290e-09
	1.000000000000000e+00,0.000000000000000e+00
	0.000000000000000e+00,0.000000000000000e+00
	4.807690003970034e-04,-2.626716263559290e-13
	1.533276993348786e-22,4.214949915529889e-13
	4.807689999147130e-12,1.204546316230418e-14
	-4.807690052046934e-04,-1.708688283593641e-13
	-4.807690003970034e-04,2.626716263559290e-13
	-1.533276993348786e-22,-4.214949915529889e-13
	-4.807690003970034e-04,2.626716263559290e-13
11		1.288249551693134e+00,0.000000000000000e+00
	-4.807690003970033e+00,2.687900345210108e-09
	1.000000000000000e+00,0.000000000000000e+00
	0.000000000000000e+00,0.000000000000000e+00
	4.807690003970034e-04,-2.687900345210108e-13
	1.605538111805163e-22,4.313128711376092e-13
	4.807689999147130e-12,1.232603804276179e-14
	-4.807690052046934e-04,-1.748488746593602e-13
	-4.807690003970034e-04,2.687900345210108e-13
	-1.605538111805163e-22,-4.313128711376092e-13
	-4.807690003970034e-04,2.687900345210108e-13
12		1.318256738556407e+00,0.000000000000000e+00
	-4.807690003970033e+00,2.750509587202523e-09
	1.000000000000000e+00,0.000000000000000e+00
	0.000000000000000e+00,0.000000000000000e+00
	4.807690003970034e-04,-2.750509587202523e-13
	1.681204791854923e-22,4.413594385156075e-13
	4.807689999147130e-12,1.261314835174411e-14
	-4.807690052046934e-04,-1.789216281470993e-13
	-4.807690003970034e-04,2.750509587202523e-13
	-1.681204791854923e-22,-4.413594385156075e-13
	-4.807690003970034e-04,2.750509587202523e-13
13		1.348962882591653e+00,0.000000000000000e+00
	-4.807690003970033e+00,2.814577185785372e-09
	1.000000000000000e+00,0.000000000000000e+00
	0.000000000000000e+00,0.000000000000000e+00
	4.807690003970034e-04,-2.814577185785371e-13
	1.760437532671260e-22,4.516400205099895e-13
	4.807689999147130e-12,1.290694631893722e-14
	-4.807690052046934e-04,-1.830892482503896e-13
	-4.807690003970034e-04,2.814577185785372e-13
	-1.760437532671260e-22,-4.516400205099895e-13
	-4.807690003970034e-04,2.814577185785372e-13
14		1.380384264602885e+00,0.000000000000000e+00
	-4.807690003970033e+00,2.880137110447457e-09
	1.000000000000000e+00,0.000000000000000e+00
	0.000000000000000e+00,0.000000000000000e+00
	4.807690003970034e-04,-2.880137110447457e-13
	1.843404397520365e-22,4.621600680214083e-13
	4.807689999147130e-12,1.320758771991243e-14
	-4.807690052046934e-04,-1.873539446965751e-13
	-4.807690003970034e-04,2.880137110447457e-13
	-1.843404397520365e-22,-4.621600680214083e-13
	-4.807690003970034e-04,2.880137110447457e-13
15		1.412537544622754e+00,0.000000000000000e+00
	-4.807690003970033e+00,2.947224121928624e-09
	1.000000000000000e+00,0.000000000000000e+00
	0.000000000000000e+00,0.000000000000000e+00
	4.807690003970034e-04,-2.947224121928624e-13
	1.930281370246143e-22,4.729251589183038e-13
	4.807689999147130e-12,1.351523195871976e-14
	-4.807690052046934e-04,-1.917179786841612e-13
	-4.807690003970034e-04,2.947224121928624e-13
	-1.930281370246143e-22,-4.729251589183038e-13
	-4.807690003970034e-04,2.947224121928624e-13
16		1.445439770745927e+00,0.000000000000000e+00
	-4.807690003970033e+00,3.015873790650359e-09
	1.000000000000000e+00,0.000000000000000e+00
	0.000000000000000e+00,0.000000000000000e+00
	4.807690003970034e-04,-3.015873790650358e-13
	2.021252728555544e-22,4.839410009943622e-13
	4.807689999147130e-12,1.383004215240675e-14
	-4.807690052046934e-04,-1.961836640817331e-13
	-4.807690003970034e-04,3.015873790650359e-13
	-2.021252728555544e-22,-4.839410009943622e-13
	-4.807690003970034e-04,3.015873790650359e-13
17		1.479108388168207e+00,0.000000000000000e+00
	-4.807690003970033e+00,3.086122515575706e-09
	1.000000000000000e+00,0.000000000000000e+00
	0.000000000000000e+00,0.000000000000000e+00
	4.807690003970034e-04,-3.086122515575705e-13
	2.116511434896285e-22,4.952134349948643e-13
	4.807689999147130e-12,1.415218521750521e-14
	-4.807690052046934e-04,-2.007533686547990e-13
	-4.807690003970034e-04,3.086122515575706e-13
	-2.116511434896285e-22,-4.952134349948643e-13
	-4.807690003970034e-04,3.086122515575706e-13
18		1.513561248436208e+00,0.000000000000000e+00
	-4.807690003970033e+00,3.158007543508472e-09
	1.000000000000000e+00,0.000000000000000e+00
	0.000000000000000e+00,0.000000000000000e+00
	4.807690003970034e-04,-3.158007543508472e-13
	2.216259545756074e-22,5.067484377135254e-13
	4.807689999147130e-12,1.448183195853240e-14
	-4.807690052046934e-04,-2.054295153212106e-13
	-4.807690003970034e-04,3.158007543508472e-13
	-2.216259545756074e-22,-5.067484377135254e-13
	-4.807690003970034e-04,3.158007543508472e-13
19		1.548816618912481e+00,0.000000000000000e+00
	-4.807690003970033e+00,3.231566988841978e-09
	1.000000000000000e+00,0.000000000000000e+00
	0.000000000000000e+00,0.000000000000000e+00
	4.807690003970034e-04,-3.231566988841978e-13
	2.320708640251503e-22,5.185521251614707e-13
	4.807689999147130e-12,1.481915715855365e-14
	-4.807690052046934e-04,-2.102145834358266e-13
	-4.807690003970034e-04,3.231566988841978e-13
	-2.320708640251503e-22,-5.185521251614707e-13
	-4.807690003970034e-04,3.231566988841978e-13
20		1.584893192461113e+00,0.000000000000000e+00
	-4.807690003970033e+00,3.306839853767814e-09
	1.000000000000000e+00,0.000000000000000e+00
	0.000000000000000e+00,0.000000000000000e+00
	4.807690003970034e-04,-3.306839853767815e-13
	2.430080268915734e-22,5.306307558100255e-13
	4.807689999147130e-12,1.516433967185523e-14
	-4.807690052046934e-04,-2.151111101050992e-13
	-4.807690003970034e-04,3.306839853767814e-13
	-2.430080268915734e-22,-5.306307558100255e-13
	-4.807690003970034e-04,3.306839853767814e-13
21		1.621810097358929e+00,0.000000000000000e+00
	-4.807690003970033e+00,3.383866048955317e-09
	1.000000000000000e+00,0.000000000000000e+00
	0.000000000000000e+00,0.000000000000000e+00
	4.807690003970034e-04,-3.383866048955318e-13
	2.544606423636871e-22,5.429907339090391e-13
	4.807689999147130e-12,1.551756251877436e-14
	-4.807690052046934e-04,-2.201216915322817e-13
	-4.807690003970034e-04,3.383866048955318e-13
	-2.544606423636871e-22,-5.429907339090391e-13
	-4.807690003970034e-04,3.383866048955318e-13
22		1.659586907437560e+00,0.000000000000000e+00
	-4.807690003970033e+00,3.462686414712741e-09
	1.000000000000000e+00,0.000000000000000e+00
	0.000000000000000e+00,0.000000000000000e+00
	4.807690003970034e-04,-3.462686414712740e-13
	2.664530029743870e-22,5.556386128825034e-13
	4.807689999147130e-12,1.587901298274038e-14
	-4.807690052046934e-04,-2.252489843939698e-13
	-4.807690003970034e-04,3.462686414712741e-13
	-2.664530029743870e-22,-5.556386128825034e-13
	-4.807690003970034e-04,3.462686414712741e-13
23		1.698243652461743e+00,0.000000000000000e+00
	-4.807690003970033e+00,3.543342742641316e-09
	1.000000000000000e+00,0.000000000000000e+00
	0.000000000000000e+00,0.000000000000000e+00
	4.807690003970034e-04,-3.543342742641317e-13
	2.790105461283718e-22,5.685810988032645e-13
	4.807689999147130e-12,1.624888270957338e-14
	-4.807690052046934e-04,-2.304957072487062e-13
	-4.807690003970034e-04,3.543342742641316e-13
	-2.790105461283718e-22,-5.685810988032645e-13
	-4.807690003970034e-04,3.543342742641316e-13
24		1.737800828749374e+00,0.000000000000000e+00
	-4.807690003970033e+00,3.625877797793726e-09
	1.000000000000000e+00,0.000000000000000e+00
	0.000000000000000e+00,0.000000000000000e+00
	4.807690003970034e-04,-3.625877797793726e-13
	2.921599080582904e-22,5.818250539486716e-13
	4.807689999147130e-12,1.662736780909826e-14
	-4.807690052046934e-04,-2.358646419783973e-13
	-4.807690003970034e-04,3.625877797793726e-13
	-2.921599080582904e-22,-5.818250539486716e-13
	-4.807690003970034e-04,3.625877797793726e-13
25		1.778279410038922e+00,0.000000000000000e+00
	-4.807690003970033e+00,3.710335341348694e-09
	1.000000000000000e+00,0.000000000000000e+00
	0.000000000000000e+00,0.000000000000000e+00
	4.807690003970034e-04,-3.710335341348694e-13
	3.059289803237620e-22,5.953775004390473e-13
	4.807689999147130e-12,1.701466895912500e-14
	-4.807690052046934e-04,-2.413586352633029e-13
	-4.807690003970034e-04,3.710335341348694e-13
	-3.059289803237620e-22,-5.953775004390473e-13
	-4.807690003970034e-04,3.710335341348694e-13
26		1.819700858609982e+00,0.000000000000000e+00
	-4.807690003970033e+00,3.796760153813737e-09
	1.000000000000000e+00,0.000000000000000e+00
	0.000000000000000e+00,0.000000000000000e+00
	4.807690003970034e-04,-3.796760153813736e-13
	3.203469689731130e-22,6.092456239609087e-13
	4.807689999147130e-12,1.741099151184923e-14
	-4.807690052046934e-04,-2.469806000913843e-13
	-4.807690003970034e-04,3.796760153813738e-13
	-3.203469689731130e-22,-6.092456239609087e-13
	-4.807690003970034e-04,3.796760153813738e-13
27		1.862087136662866e+00,0.000000000000000e+00
	-4.807690003970033e+00,3.885198058768396e-09
	1.000000000000000e+00,0.000000000000000e+00
	0.000000000000000e+00,0.000000000000000e+00
	4.807690003970034e-04,-3.885198058768395e-13
	3.354444564933224e-22,6.234367775769134e-13
	4.807689999147130e-12,1.781654560273512e-14
	-4.807690052046934e-04,-2.527335173028090e-13
	-4.807690003970034e-04,3.885198058768396e-13
	-3.354444564933224e-22,-6.234367775769134e-13
	-4.807690003970034e-04,3.885198058768396e-13
28		1.905460717963246e+00,0.000000000000000e+00
	-4.807690003970033e+00,3.975695947160488e-09
	1.000000000000000e+00,0.000000000000000e+00
	0.000000000000000e+00,0.000000000000000e+00
	4.807690003970034e-04,-3.975695947160487e-13
	3.512534666795758e-22,6.379584856245506e-13
	4.807689999147130e-12,1.823154626192926e-14
	-4.807690052046934e-04,-2.586204371704311e-13
	-4.807690003970034e-04,3.975695947160489e-13
	-3.512534666795758e-22,-6.379584856245506e-13
	-4.807690003970034e-04,3.975695947160489e-13
29		1.949844599758044e+00,0.000000000000000e+00
	-4.807690003970033e+00,4.068301802168323e-09
	1.000000000000000e+00,0.000000000000000e+00
	0.000000000000000e+00,0.000000000000000e+00
	4.807690003970034e-04,-4.068301802168323e-13
	3.678075325620292e-22,6.528184477056449e-13
	4.807689999147130e-12,1.865621352827464e-14
	-4.807690052046934e-04,-2.646444810170872e-13
	-4.807690003970034e-04,4.068301802168323e-13
	-3.678075325620292e-22,-6.528184477056449e-13
	-4.807690003970034e-04,4.068301802168323e-13
30		1.995262314968878e+00,0.000000000000000e+00
	-4.807690003970033e+00,4.163064724642008e-09
	1.000000000000000e+00,0.000000000000000e+00
	0.000000000000000e+00,0.000000000000000e+00
	4.807690003970034e-04,-4.163064724642006e-13
	3.851417675338616e-22,6.680245427687863e-13
	4.807689999147130e-12,1.909077256597674e-14
	-4.807690052046934e-04,-2.708088428705624e-13
	-4.807690003970034e-04,4.163064724642008e-13
	-3.851417675338616e-22,-6.680245427687863e-13
	-4.807690003970034e-04,4.163064724642008e-13
31		2.041737944669527e+00,0.000000000000000e+00
	-4.807690003970033e+00,4.260034959137373e-09
	1.000000000000000e+00,0.000000000000000e+00
	0.000000000000000e+00,0.000000000000000e+00
	4.807690003970034e-04,-4.260034959137373e-13
	4.032929398314894e-22,6.835848332868539e-13
	4.807689999147130e-12,1.953545378398980e-14
	-4.807690052046934e-04,-2.771167911571063e-13
	-4.807690003970034e-04,4.260034959137373e-13
	-4.032929398314894e-22,-6.835848332868539e-13
	-4.807690003970034e-04,4.260034959137373e-13
32		2.089296130854037e+00,0.000000000000000e+00
	-4.807690003970033e+00,4.359263920556303e-09
	1.000000000000000e+00,0.000000000000000e+00
	0.000000000000000e+00,0.000000000000000e+00
	4.807690003970034e-04,-4.359263920556303e-13
	4.222995505249263e-22,6.995075695318451e-13
	4.807689999147130e-12,1.999049295818134e-14
	-4.807690052046934e-04,-2.835716704343962e-13
	-4.807690003970034e-04,4.359263920556303e-13
	-4.222995505249263e-22,-6.995075695318451e-13
	-4.807690003970034e-04,4.359263920556303e-13
33		2.137962089502230e+00,0.000000000000000e+00
	-4.807690003970033e+00,4.460804221407591e-09
	1.000000000000000e+00,0.000000000000000e+00
	0.000000000000000e+00,0.000000000000000e+00
	4.807690003970034e-04,-4.460804221407591e-13
	4.422019151837136e-22,7.158011939492796e-13
	4.807689999147130e-12,2.045613135634474e-14
	-4.807690052046934e-04,-2.901769031648652e-13
	-4.807690003970034e-04,4.460804221407591e-13
	-4.422019151837136e-22,-7.158011939492796e-13
	-4.807690003970034e-04,4.460804221407591e-13
34		2.187761623949550e+00,0.000000000000000e+00
	-4.807690003970033e+00,4.564709699702792e-09
	1.000000000000000e+00,0.000000000000000e+00
	0.000000000000000e+00,0.000000000000000e+00
	4.807690003970034e-04,-4.564709699702793e-13
	4.630422493916489e-22,7.324743456344946e-13
	4.807689999147130e-12,2.093261586612213e-14
	-4.807690052046934e-04,-2.969359915303374e-13
	-4.807690003970034e-04,4.564709699702792e-13
	-4.630422493916489e-22,-7.324743456344946e-13
	-4.807690003970034e-04,4.564709699702792e-13
35		2.238721138568337e+00,0.000000000000000e+00
	-4.807690003970033e+00,4.671035447501854e-09
	1.000000000000000e+00,0.000000000000000e+00
	0.000000000000000e+00,0.000000000000000e+00
	4.807690003970034e-04,-4.671035447501853e-13
	4.848647582917000e-22,7.495358649132094e-13
	4.807689999147130e-12,2.142019912590762e-14
	-4.807690052046934e-04,-3.038525192889317e-13
	-4.807690003970034e-04,4.671035447501854e-13
	-4.848647582917000e-22,-7.495358649132094e-13
	-4.807690003970034e-04,4.671035447501854e-13
36		2.290867652767770e+00,0.000000000000000e+00
	-4.807690003970033e+00,4.779837840123643e-09
	1.000000000000000e+00,0.000000000000000e+00
	0.000000000000000e+00,0.000000000000000e+00
	4.807690003970034e-04,-4.779837840123643e-13
	5.077157303510380e-22,7.669947980287811e-13
	4.807689999147130e-12,2.191913965879971e-14
	-4.807690052046934e-04,-3.109301536752165e-13
	-4.807690003970034e-04,4.779837840123643e-13
	-5.077157303510380e-22,-7.669947980287811e-13
	-4.807690003970034e-04,4.779837840123643e-13
37		2.344228815319919e+00,0.000000000000000e+00
	-4.807690003970033e+00,4.891174566036899e-09
	1.000000000000000e+00,0.000000000000000e+00
	0.000000000000000e+00,0.000000000000000e+00
	4.807690003970034e-04,-4.891174566036900e-13
	5.316436355450844e-22,7.848604019386441e-13
	4.807689999147130e-12,2.242970200967283e-14
	-4.807690052046934e-04,-3.181726473446269e-13
	-4.807690003970034e-04,4.891174566036899e-13
	-5.316436355450844e-22,-7.848604019386441e-13
	-4.807690003970034e-04,4.891174566036899e-13
38		2.398832919019488e+00,0.000000000000000e+00
	-4.807690003970033e+00,5.005104657447418e-09
	1.000000000000000e+00,0.000000000000000e+00
	0.000000000000000e+00,0.000000000000000e+00
