Title: * GA CMOS Amp | W=3.504909683652998e-05 L=7.13851224248264e-07 Vbias=1.0710958907010646
Date: Sat Sep  6 22:01:58 2025
Plotname: AC Analysis
Flags: complex forward log
No. Variables: 13
No. Points:          901
Offset:    0.0000000000000000e+00
Command: Linear Technology Corporation LTspice
Variables:
	0	frequency	frequency
	1	V(out)	voltage
	2	V(g)	voltage
	3	V(vdd)	voltage
	4	V(m1#dbody)	voltage
	5	V(m1#sbody)	voltage
	6	Id(M1)	device_current
	7	Ig(M1)	device_current
	8	Ib(M1)	device_current
	9	Is(M1)	device_current
	10	I(Rload)	device_current
	11	I(Vg)	device_current
	12	I(Vdd)	device_current
Values:
0		1.000000000000000e+00,0.000000000000000e+00
	8.836957625571396e-04,6.886051954782754e-10
	1.000000000000000e+00,0.000000000000000e+00
	0.000000000000000e+00,0.000000000000000e+00
	2.248425186801682e-05,7.972186269130267e-14
	2.248425186077328e-05,7.898947884723132e-14
	-8.836957625571378e-08,-6.886051954782688e-14
	2.614537416552604e-05,6.544897304460171e-12
	-1.199160100196653e-05,-4.218843123485169e-14
	-1.406540358730380e-05,-6.433848353677491e-12
	8.836957625571397e-08,6.886051954782755e-14
	-2.614537416550933e-05,-6.544897304460170e-12
	8.836957625571397e-08,6.886051954782755e-14
1		1.023292992280754e+00,0.000000000000000e+00
	8.836957625571397e-04,7.046448709810380e-10
	1.000000000000000e+00,0.000000000000000e+00
	0.000000000000000e+00,0.000000000000000e+00
	2.248425186801682e-05,8.157882342357850e-14
	2.248425186077328e-05,8.082938016828066e-14
	-8.836957625571293e-08,-7.046448709810316e-14
	2.614537416552604e-05,6.697347546851289e-12
	-1.199160100196653e-05,-4.317112603794222e-14
	-1.406540358730380e-05,-6.583711933715244e-12
	8.836957625571398e-08,7.046448709810381e-14
	-2.614537416550933e-05,-6.697347546851288e-12
	8.836957625571398e-08,7.046448709810381e-14
2		1.047128548050899e+00,0.000000000000000e+00
	8.836957625571397e-04,7.210581585214723e-10
	1.000000000000000e+00,0.000000000000000e+00
	0.000000000000000e+00,0.000000000000000e+00
	2.248425186801682e-05,8.347903832785693e-14
	2.248425186077328e-05,8.271213829659855e-14
	-8.836957625571293e-08,-7.210581585214639e-14
	2.614537416552604e-05,6.853348811561623e-12
	-1.199160100196653e-05,-4.417671074349546e-14
	-1.406540358730380e-05,-6.737066284965981e-12
	8.836957625571398e-08,7.210581585214724e-14
	-2.614537416550933e-05,-6.853348811561622e-12
	8.836957625571398e-08,7.210581585214724e-14
3		1.071519305237606e+00,0.000000000000000e+00
	8.836957625571397e-04,7.378537606418876e-10
	1.000000000000000e+00,0.000000000000000e+00
	0.000000000000000e+00,0.000000000000000e+00
	2.248425186801682e-05,8.542351492323247e-14
	2.248425186077328e-05,8.463875149546587e-14
	-8.836957625571378e-08,-7.378537606418885e-14
	2.614537416552604e-05,7.012983812526644e-12
	-1.199160100196653e-05,-4.520571852583280e-14
	-1.406540358730380e-05,-6.893992717936623e-12
	8.836957625571398e-08,7.378537606418876e-14
	-2.614537416550933e-05,-7.012983812526642e-12
	8.836957625571398e-08,7.378537606418876e-14
4		1.096478196143185e+00,0.000000000000000e+00
	8.836957625571397e-04,7.550405825928444e-10
	1.000000000000000e+00,0.000000000000000e+00
	0.000000000000000e+00,0.000000000000000e+00
	2.248425186801682e-05,8.741328419693417e-14
	2.248425186077328e-05,8.661024128070242e-14
	-8.836957625571378e-08,-7.550405825928426e-14
	2.614537416552604e-05,7.176337190336879e-12
	-1.199160100196653e-05,-4.625869497850096e-14
	-1.406540358730380e-05,-7.054574437099094e-12
	8.836957625571398e-08,7.550405825928444e-14
	-2.614537416550933e-05,-7.176337190336878e-12
	8.836957625571398e-08,7.550405825928444e-14
5		1.122018454301963e+00,0.000000000000000e+00
	8.836957625571398e-04,7.726277370548355e-10
	1.000000000000000e+00,0.000000000000000e+00
	0.000000000000000e+00,0.000000000000000e+00
	2.248425186801682e-05,8.944940115096875e-14
	2.248425186077328e-05,8.862765296228809e-14
	-8.836957625571378e-08,-7.726277370548415e-14
	2.614537416552604e-05,7.343495557115484e-12
	-1.199160100196653e-05,-4.733619840355295e-14
	-1.406540358730380e-05,-7.218896585006448e-12
	8.836957625571398e-08,7.726277370548356e-14
	-2.614537416550933e-05,-7.343495557115486e-12
	8.836957625571398e-08,7.726277370548356e-14
6		1.148153621496882e+00,0.000000000000000e+00
	8.836957625571398e-04,7.906245489699506e-10
	1.000000000000000e+00,0.000000000000000e+00
	0.000000000000000e+00,0.000000000000000e+00
	2.248425186801682e-05,9.153294536149636e-14
	2.248425186077328e-05,9.069205619860002e-14
	-8.836957625571378e-08,-7.906245489699452e-14
	2.614537416552604e-05,7.514547542441130e-12
	-1.199160100196653e-05,-4.843880010756716e-14
	-1.406540358730380e-05,-7.387046287436568e-12
	8.836957625571398e-08,7.906245489699506e-14
	-2.614537416550933e-05,-7.514547542441130e-12
	8.836957625571398e-08,7.906245489699506e-14
7		1.174897554939529e+00,0.000000000000000e+00
	8.836957625571398e-04,8.090405604860825e-10
	1.000000000000000e+00,0.000000000000000e+00
	0.000000000000000e+00,0.000000000000000e+00
	2.248425186801682e-05,9.366502155123636e-14
	2.248425186077328e-05,9.280454556355972e-14
	-8.836957625571378e-08,-8.090405604860768e-14
	2.614537416552604e-05,7.689583840340570e-12
	-1.199160100196653e-05,-4.956708470456171e-14
	-1.406540358730380e-05,-7.559112699587401e-12
	8.836957625571398e-08,8.090405604860825e-14
	-2.614537416550933e-05,-7.689583840340570e-12
	8.836957625571398e-08,8.090405604860825e-14
8		1.202264434617413e+00,0.000000000000000e+00
	8.836957625571399e-04,8.278855360163017e-10
	1.000000000000000e+00,0.000000000000000e+00
	0.000000000000000e+00,0.000000000000000e+00
	2.248425186801682e-05,9.584676017520599e-14
	2.248425186077328e-05,9.496624112699061e-14
	-8.836957625571378e-08,-8.278855360162947e-14
	2.614537416552604e-05,7.868697257375836e-12
	-1.199160100196653e-05,-5.072165042596455e-14
	-1.406540358730380e-05,-7.735187053348241e-12
	8.836957625571399e-08,8.278855360163018e-14
	-2.614537416550933e-05,-7.868697257375832e-12
	8.836957625571399e-08,8.278855360163018e-14
9		1.230268770812381e+00,0.000000000000000e+00
	8.836957625571399e-04,8.471694674160773e-10
	1.000000000000000e+00,0.000000000000000e+00
	0.000000000000000e+00,0.000000000000000e+00
	2.248425186801682e-05,9.807931802010237e-14
	2.248425186077328e-05,9.717828904849385e-14
	-8.836957625571378e-08,-8.471694674160745e-14
	2.614537416552604e-05,8.051982761851482e-12
	-1.199160100196653e-05,-5.190310943780365e-14
	-1.406540358730380e-05,-7.915362705672070e-12
	8.836957625571399e-08,8.471694674160773e-14
	-2.614537416550933e-05,-8.051982761851480e-12
	8.836957625571399e-08,8.471694674160773e-14
10		1.258925411794167e+00,0.000000000000000e+00
	8.836957625571399e-04,8.669025792810906e-10
	1.000000000000000e+00,0.000000000000000e+00
	0.000000000000000e+00,0.000000000000000e+00
	2.248425186801681e-05,1.003638788176462e-13
	2.248425186077328e-05,9.944186218515731e-14
	-8.836957625571378e-08,-8.669025792810819e-14
	2.614537416552604e-05,8.239537534168052e-12
	-1.199160100196653e-05,-5.311208816528555e-14
	-1.406540358730380e-05,-8.099735188074659e-12
	8.836957625571399e-08,8.669025792810906e-14
	-2.614537416550933e-05,-8.239537534168051e-12
	8.836957625571399e-08,8.669025792810906e-14
11		1.288249551693134e+00,0.000000000000000e+00
	8.836957625571400e-04,8.870953343684510e-10
	1.000000000000000e+00,0.000000000000000e+00
	0.000000000000000e+00,0.000000000000000e+00
	2.248425186801681e-05,1.027016538722122e-13
	2.248425186077328e-05,1.017581607134200e-13
	-8.836957625571293e-08,-8.870953343684447e-14
	2.614537416552604e-05,8.431461018348416e-12
	-1.199160100196653e-05,-5.434922762493431e-14
	-1.406540358730380e-05,-8.288402257286635e-12
	8.836957625571401e-08,8.870953343684510e-14
	-2.614537416550933e-05,-8.431461018348412e-12
	8.836957625571401e-08,8.870953343684510e-14
12		1.318256738556407e+00,0.000000000000000e+00
	8.836957625571400e-04,9.077584391441881e-10
	1.000000000000000e+00,0.000000000000000e+00
	0.000000000000000e+00,0.000000000000000e+00
	2.248425186801681e-05,1.050938827030783e-13
	2.248425186077328e-05,1.041284127654214e-13
	-8.836957625571378e-08,-9.077584391441867e-14
	2.614537416552604e-05,8.627854974764283e-12
	-1.199160100196653e-05,-5.561518376446682e-14
	-1.406540358730380e-05,-8.481463947085396e-12
	8.836957625571401e-08,9.077584391441882e-14
	-2.614537416550933e-05,-8.627854974764281e-12
	8.836957625571401e-08,9.077584391441882e-14
13		1.348962882591653e+00,0.000000000000000e+00
	8.836957625571401e-04,9.289028494599633e-10
	1.000000000000000e+00,0.000000000000000e+00
	0.000000000000000e+00,0.000000000000000e+00
	2.248425186801681e-05,1.075418337016356e-13
	2.248425186077328e-05,1.065538750801736e-13
	-8.836957625571378e-08,-9.289028494599644e-14
	2.614537416552604e-05,8.828823534090933e-12
	-1.199160100196653e-05,-5.691062781058528e-14
	-1.406540358730380e-05,-8.679022621334352e-12
	8.836957625571402e-08,9.289028494599634e-14
	-2.614537416550933e-05,-8.828823534090932e-12
	8.836957625571402e-08,9.289028494599634e-14
14		1.380384264602885e+00,0.000000000000000e+00
	8.836957625571401e-04,9.505397763620048e-10
	1.000000000000000e+00,0.000000000000000e+00
	0.000000000000000e+00,0.000000000000000e+00
	2.248425186801681e-05,1.100468048039060e-13
	2.248425186077328e-05,1.090358336699005e-13
	-8.836957625571378e-08,-9.505397763619993e-14
	2.614537416552604e-05,9.034473252518654e-12
	-1.199160100196653e-05,-5.823624662487012e-14
	-1.406540358730380e-05,-8.881183028257586e-12
	8.836957625571402e-08,9.505397763620049e-14
	-2.614537416550933e-05,-9.034473252518654e-12
	8.836957625571402e-08,9.505397763620049e-14
15		1.412537544622754e+00,0.000000000000000e+00
	8.836957625571403e-04,9.726806920353546e-10
	1.000000000000000e+00,0.000000000000000e+00
	0.000000000000000e+00,0.000000000000000e+00
	2.248425186801681e-05,1.126101241787250e-13
	2.248425186077328e-05,1.115756045018991e-13
	-8.836957625571293e-08,-9.726806920353564e-14
	2.614537416552604e-05,9.244913168250252e-12
	-1.199160100196653e-05,-5.959274306796331e-14
	-1.406540358730380e-05,-9.088052355978753e-12
	8.836957625571403e-08,9.726806920353547e-14
	-2.614537416550933e-05,-9.244913168250248e-12
	8.836957625571403e-08,9.726806920353547e-14
16		1.445439770745927e+00,0.000000000000000e+00
	8.836957625571403e-04,9.953373358865726e-10
	1.000000000000000e+00,0.000000000000000e+00
	0.000000000000000e+00,0.000000000000000e+00
	2.248425186801681e-05,1.152331509319548e-13
	2.248425186077328e-05,1.141745341962823e-13
	-8.836957625571378e-08,-9.953373358865731e-14
	2.614537416552604e-05,9.460254859314547e-12
	-1.199160100196653e-05,-6.098083637223433e-14
	-1.406540358730380e-05,-9.299740289353654e-12
	8.836957625571403e-08,9.953373358865727e-14
	-2.614537416550933e-05,-9.460254859314544e-12
	8.836957625571403e-08,9.953373358865727e-14
17		1.479108388168207e+00,0.000000000000000e+00
	8.836957625571404e-04,1.018521720768125e-09
	1.000000000000000e+00,0.000000000000000e+00
	0.000000000000000e+00,0.000000000000000e+00
	2.248425186801681e-05,1.179172758270998e-13
	2.248425186077328e-05,1.168340007399749e-13
	-8.836957625571378e-08,-1.018521720768112e-13
	2.614537416552604e-05,9.680612502726524e-12
	-1.199160100196653e-05,-6.240126252312670e-14
	-1.406540358730380e-05,-9.516359068126587e-12
	8.836957625571405e-08,1.018521720768125e-13
	-2.614537416550933e-05,-9.680612502726520e-12
	8.836957625571405e-08,1.018521720768125e-13
18		1.513561248436208e+00,0.000000000000000e+00
	8.836957625571404e-04,1.042246139347757e-09
	1.000000000000000e+00,0.000000000000000e+00
	0.000000000000000e+00,0.000000000000000e+00
	2.248425186801681e-05,1.206639220227080e-13
	2.248425186077328e-05,1.195554142173408e-13
	-8.836957625571378e-08,-1.042246139347758e-13
	2.614537416552604e-05,9.906102935025506e-12
	-1.199160100196653e-05,-6.385477464938722e-14
	-1.406540358730380e-05,-9.738023546441343e-12
	8.836957625571405e-08,1.042246139347757e-13
	-2.614537416550933e-05,-9.906102935025505e-12
	8.836957625571405e-08,1.042246139347757e-13
19		1.548816618912481e+00,0.000000000000000e+00
	8.836957625571405e-04,1.066523170626230e-09
	1.000000000000000e+00,0.000000000000000e+00
	0.000000000000000e+00,0.000000000000000e+00
	2.248425186801681e-05,1.234745458269484e-13
	2.248425186077328e-05,1.223402175578277e-13
	-8.836957625571378e-08,-1.066523170626219e-13
	2.614537416552604e-05,1.013684571422341e-11
	-1.199160100196653e-05,-6.534214342238468e-14
	-1.406540358730380e-05,-9.964851253738403e-12
	8.836957625571405e-08,1.066523170626230e-13
	-2.614537416550933e-05,-1.013684571422341e-11
	8.836957625571405e-08,1.066523170626230e-13
20		1.584893192461113e+00,0.000000000000000e+00
	8.836957625571405e-04,1.091365686606872e-09
	1.000000000000000e+00,0.000000000000000e+00
	0.000000000000000e+00,0.000000000000000e+00
	2.248425186801681e-05,1.263506374697652e-13
	2.248425186077328e-05,1.251898873010280e-13
	-8.836957625571378e-08,-1.091365686606874e-13
	2.614537416552604e-05,1.037296318319601e-11
	-1.199160100196653e-05,-6.686415746473021e-14
	-1.406540358730380e-05,-1.019696245707059e-11
	8.836957625571405e-08,1.091365686606872e-13
	-2.614537416550933e-05,-1.037296318319601e-11
	8.836957625571405e-08,1.091365686606872e-13
21		1.621810097358929e+00,0.000000000000000e+00
	8.836957625571406e-04,1.116786859120486e-09
	1.000000000000000e+00,0.000000000000000e+00
	0.000000000000000e+00,0.000000000000000e+00
	2.248425186801681e-05,1.292937218930168e-13
	2.248425186077327e-05,1.281059343795593e-13
	-8.836957625571378e-08,-1.116786859120477e-13
	2.614537416552604e-05,1.061458053455074e-11
	-1.199160100196652e-05,-6.842162376841533e-14
	-1.406540358730380e-05,-1.043448022487028e-11
	8.836957625571406e-08,1.116786859120486e-13
	-2.614537416550933e-05,-1.061458053455074e-11
	8.836957625571406e-08,1.116786859120486e-13
22		1.659586907437560e+00,0.000000000000000e+00
	8.836957625571407e-04,1.142800166809227e-09
	1.000000000000000e+00,0.000000000000000e+00
	0.000000000000000e+00,0.000000000000000e+00
	2.248425186801681e-05,1.323053595590208e-13
	2.248425186077327e-05,1.310899049201811e-13
	-8.836957625571378e-08,-1.142800166809224e-13
	2.614537416552604e-05,1.086182587700548e-11
	-1.199160100196652e-05,-7.001536812268966e-14
	-1.406540358730380e-05,-1.067753049220186e-11
	8.836957625571407e-08,1.142800166809228e-13
	-2.614537416550933e-05,-1.086182587700548e-11
	8.836957625571407e-08,1.142800166809228e-13
23		1.698243652461743e+00,0.000000000000000e+00
	8.836957625571407e-04,1.169419402273159e-09
	1.000000000000000e+00,0.000000000000000e+00
	0.000000000000000e+00,0.000000000000000e+00
	2.248425186801681e-05,1.353871472779314e-13
	2.248425186077327e-05,1.341433810635717e-13
	-8.836957625571378e-08,-1.169419402273167e-13
	2.614537416552604e-05,1.111483030331346e-11
	-1.199160100196652e-05,-7.164623555190562e-14
	-1.406540358730380e-05,-1.092624212753424e-11
	8.836957625571407e-08,1.169419402273159e-13
	-2.614537416550933e-05,-1.111483030331346e-11
	8.836957625571407e-08,1.169419402273159e-13
24		1.737800828749374e+00,0.000000000000000e+00
	8.836957625571408e-04,1.196658679383272e-09
	1.000000000000000e+00,0.000000000000000e+00
	0.000000000000000e+00,0.000000000000000e+00
	2.248425186801681e-05,1.385407190543896e-13
	2.248425186077327e-05,1.372679818031998e-13
	-8.836957625571378e-08,-1.196658679383265e-13
	2.614537416552604e-05,1.137372795977043e-11
	-1.199160100196652e-05,-7.331509076356126e-14
	-1.406540358730380e-05,-1.118074700106854e-11
	8.836957625571409e-08,1.196658679383272e-13
	-2.614537416550933e-05,-1.137372795977043e-11
	8.836957625571409e-08,1.196658679383272e-13
25		1.778279410038922e+00,0.000000000000000e+00
	8.836957625571411e-04,1.224532440764844e-09
	1.000000000000000e+00,0.000000000000000e+00
	0.000000000000000e+00,0.000000000000000e+00
	2.248425186801681e-05,1.417677469538936e-13
	2.248425186077327e-05,1.404653638437364e-13
	-8.836957625571378e-08,-1.224532440764841e-13
	2.614537416552604e-05,1.163865611734076e-11
	-1.199160100196652e-05,-7.502281860677968e-14
	-1.406540358730381e-05,-1.144118005465750e-11
	8.836957625571411e-08,1.224532440764844e-13
	-2.614537416550933e-05,-1.163865611734076e-11
	8.836957625571411e-08,1.224532440764844e-13
26		1.819700858609982e+00,0.000000000000000e+00
	8.836957625571412e-04,1.253055465455112e-09
	1.000000000000000e+00,0.000000000000000e+00
	0.000000000000000e+00,0.000000000000000e+00
	2.248425186801681e-05,1.450699419893506e-13
	2.248425186077327e-05,1.437372224794619e-13
	-8.836957625571378e-08,-1.253055465455111e-13
	2.614537416552604e-05,1.190975524444033e-11
	-1.199160100196652e-05,-7.677032454146783e-14
	-1.406540358730381e-05,-1.170767937335335e-11
	8.836957625571413e-08,1.253055465455112e-13
	-2.614537416550933e-05,-1.190975524444033e-11
	8.836957625571413e-08,1.253055465455112e-13
27		1.862087136662866e+00,0.000000000000000e+00
	8.836957625571412e-04,1.282242876739315e-09
	1.000000000000000e+00,0.000000000000000e+00
	0.000000000000000e+00,0.000000000000000e+00
	2.248425186801681e-05,1.484490550282780e-13
	2.248425186077327e-05,1.470852924931330e-13
	-8.836957625571378e-08,-1.282242876739302e-13
	2.614537416552604e-05,1.218716908141475e-11
	-1.199160100196652e-05,-7.855853511840320e-14
	-1.406540358730381e-05,-1.198038625862242e-11
	8.836957625571413e-08,1.282242876739315e-13
	-2.614537416550933e-05,-1.218716908141475e-11
	8.836957625571413e-08,1.282242876739315e-13
28		1.905460717963246e+00,0.000000000000000e+00
	8.836957625571413e-04,1.312110150169256e-09
	1.000000000000000e+00,0.000000000000000e+00
	0.000000000000000e+00,0.000000000000000e+00
	2.248425186801680e-05,1.519068777211369e-13
	2.248425186077327e-05,1.505113490757880e-13
	-8.836957625571378e-08,-1.312110150169244e-13
	2.614537416552604e-05,1.247104471675239e-11
	-1.199160100196652e-05,-8.038839847050353e-14
	-1.406540358730381e-05,-1.225944530326496e-11
	8.836957625571414e-08,1.312110150169256e-13
	-2.614537416550933e-05,-1.247104471675239e-11
	8.836957625571414e-08,1.312110150169256e-13
29		1.949844599758044e+00,0.000000000000000e+00
	8.836957625571414e-04,1.342673121768647e-09
	1.000000000000000e+00,0.000000000000000e+00
	0.000000000000000e+00,0.000000000000000e+00
	2.248425186801680e-05,1.554452434512888e-13
	2.248425186077327e-05,1.540172087679762e-13
	-8.836957625571378e-08,-1.342673121768645e-13
	2.614537416552604e-05,1.276153266507264e-11
	-1.199160100196652e-05,-8.226088481553915e-14
	-1.406540358730381e-05,-1.254500446808024e-11
	8.836957625571415e-08,1.342673121768647e-13
	-2.614537416550933e-05,-1.276153266507264e-11
	8.836957625571415e-08,1.342673121768647e-13
30		1.995262314968878e+00,0.000000000000000e+00
	8.836957625571416e-04,1.373947996429581e-09
	1.000000000000000e+00,0.000000000000000e+00
	0.000000000000000e+00,0.000000000000000e+00
	2.248425186801680e-05,1.590660283070796e-13
	2.248425186077327e-05,1.576047304229120e-13
	-8.836957625571378e-08,-1.373947996429569e-13
	2.614537416552604e-05,1.305878694693077e-11
	-1.199160100196652e-05,-8.417698697055550e-14
	-1.406540358730381e-05,-1.283721516031726e-11
	8.836957625571416e-08,1.373947996429580e-13
	-2.614537416550933e-05,-1.305878694693077e-11
	8.836957625571416e-08,1.373947996429580e-13
31		2.041737944669527e+00,0.000000000000000e+00
	8.836957625571417e-04,1.405951356504572e-09
	1.000000000000000e+00,0.000000000000000e+00
	0.000000000000000e+00,0.000000000000000e+00
	2.248425186801680e-05,1.627711520765666e-13
	2.248425186077327e-05,1.612758161920632e-13
	-8.836957625571378e-08,-1.405951356504577e-13
	2.614537416552604e-05,1.336296517048164e-11
	-1.199160100196652e-05,-8.613772087827778e-14
	-1.406540358730381e-05,-1.313623231395290e-11
	8.836957625571416e-08,1.405951356504572e-13
	-2.614537416550933e-05,-1.336296517048163e-11
	8.836957625571416e-08,1.405951356504572e-13
32		2.089296130854037e+00,0.000000000000000e+00
	8.836957625571418e-04,1.438700170598749e-09
	1.000000000000000e+00,0.000000000000000e+00
	0.000000000000000e+00,0.000000000000000e+00
	2.248425186801680e-05,1.665625792654155e-13
	2.248425186077327e-05,1.650324125336972e-13
	-8.836957625571378e-08,-1.438700170598742e-13
