Title: * GA CMOS Amp | W=3.019187671260256e-05 L=9.278033488603798e-07 Vbias=0.5276533255217709
Date: Mon Sep  8 18:47:35 2025
Plotname: AC Analysis
Flags: complex forward log
No. Variables: 11
No. Points:          901
Offset:    0.0000000000000000e+00
Command: Linear Technology Corporation LTspice
Variables:
	0	frequency	frequency
	1	V(out)	voltage
	2	V(g)	voltage
	3	V(vdd)	voltage
	4	Id(M1)	device_current
	5	Ig(M1)	device_current
	6	Ib(M1)	device_current
	7	Is(M1)	device_current
	8	I(Rload)	device_current
	9	I(Vg)	device_current
	10	I(Vdd)	device_current
Values:
0		1.000000000000000e+00,0.000000000000000e+00
	-9.934464397077800e-03,3.831584284788585e-10
	1.000000000000000e+00,0.000000000000000e+00
	0.000000000000000e+00,0.000000000000000e+00
	9.934464397077802e-07,-3.831584284788585e-14
	1.453711937473255e-23,2.418772767911799e-13
	9.934464250112925e-15,-6.700308546897772e-15
	-9.934464496422444e-07,-1.968611253963962e-13
	-9.934464397077800e-07,3.831584284788585e-14
	-1.453711937473255e-23,-2.418772767911799e-13
	-9.934464397077800e-07,3.831584284788585e-14
1		1.023292992280754e+00,0.000000000000000e+00
	-9.934464397077800e-03,3.920833347957224e-10
	1.000000000000000e+00,0.000000000000000e+00
	0.000000000000000e+00,0.000000000000000e+00
	9.934464397077802e-07,-3.920833347957224e-14
	1.522223270370630e-23,2.475113223323666e-13
	9.934464250112925e-15,-6.856378782159327e-15
	-9.934464496422444e-07,-2.014466100706351e-13
	-9.934464397077800e-07,3.920833347957224e-14
	-1.522223270370630e-23,-2.475113223323666e-13
	-9.934464397077800e-07,3.920833347957224e-14
2		1.047128548050899e+00,0.000000000000000e+00
	-9.934464397077800e-03,4.012161288865315e-10
	1.000000000000000e+00,0.000000000000000e+00
	0.000000000000000e+00,0.000000000000000e+00
	9.934464397077802e-07,-4.012161288865314e-14
	1.593963442912489e-23,2.532766016528536e-13
	9.934464250112925e-15,-7.016084360206085e-15
	-9.934464496422444e-07,-2.061389044039944e-13
	-9.934464397077800e-07,4.012161288865315e-14
	-1.593963442912489e-23,-2.532766016528536e-13
	-9.934464397077800e-07,4.012161288865315e-14
3		1.071519305237606e+00,0.000000000000000e+00
	-9.934464397077800e-03,4.105616530795995e-10
	1.000000000000000e+00,0.000000000000000e+00
	0.000000000000000e+00,0.000000000000000e+00
	9.934464397077802e-07,-4.105616530795995e-14
	1.669084625623168e-23,2.591761715800492e-13
	9.934464250112925e-15,-7.179509959049480e-15
	-9.934464496422444e-07,-2.109404963130398e-13
	-9.934464397077800e-07,4.105616530795995e-14
	-1.669084625623168e-23,-2.591761715800492e-13
	-9.934464397077800e-07,4.105616530795995e-14
4		1.096478196143185e+00,0.000000000000000e+00
	-9.934464397077800e-03,4.201248624955561e-10
	1.000000000000000e+00,0.000000000000000e+00
	0.000000000000000e+00,0.000000000000000e+00
	9.934464397077802e-07,-4.201248624955562e-14
	1.747746160602865e-23,2.652131601440187e-13
	9.934464250112925e-15,-7.346742229105251e-15
	-9.934464496422444e-07,-2.158539316653578e-13
	-9.934464397077800e-07,4.201248624955561e-14
	-1.747746160602865e-23,-2.652131601440187e-13
	-9.934464397077800e-07,4.201248624955561e-14
5		1.122018454301963e+00,0.000000000000000e+00
	-9.934464397077800e-03,4.299108276746182e-10
	1.000000000000000e+00,0.000000000000000e+00
	0.000000000000000e+00,0.000000000000000e+00
	9.934464397077802e-07,-4.299108276746182e-14
	1.830114899513614e-23,2.713907682360077e-13
	9.934464250112925e-15,-7.517869839136463e-15
	-9.934464496422444e-07,-2.208818156294094e-13
	-9.934464397077800e-07,4.299108276746182e-14
	-1.830114899513614e-23,-2.713907682360077e-13
	-9.934464397077800e-07,4.299108276746182e-14
6		1.148153621496882e+00,0.000000000000000e+00
	-9.934464397077800e-03,4.399247372650556e-10
	1.000000000000000e+00,0.000000000000000e+00
	0.000000000000000e+00,0.000000000000000e+00
	9.934464397077802e-07,-4.399247372650556e-14
	1.916365557494008e-23,2.777122713055970e-13
	9.934464250112925e-15,-7.692983523267199e-15
	-9.934464496422444e-07,-2.260268140558242e-13
	-9.934464397077800e-07,4.399247372650557e-14
	-1.916365557494008e-23,-2.777122713055970e-13
	-9.934464397077800e-07,4.399247372650557e-14
7		1.174897554939529e+00,0.000000000000000e+00
	-9.934464397077800e-03,4.501719007742833e-10
	1.000000000000000e+00,0.000000000000000e+00
	0.000000000000000e+00,0.000000000000000e+00
	9.934464397077802e-07,-4.501719007742833e-14
	2.006681083753453e-23,2.841810210973889e-13
	9.934464250112925e-15,-7.872176129090620e-15
	-9.934464496422444e-07,-2.312916548908700e-13
	-9.934464397077800e-07,4.501719007742833e-14
	-2.006681083753453e-23,-2.841810210973889e-13
	-9.934464397077800e-07,4.501719007742833e-14
8		1.202264434617413e+00,0.000000000000000e+00
	-9.934464397077800e-03,4.606577513840311e-10
	1.000000000000000e+00,0.000000000000000e+00
	0.000000000000000e+00,0.000000000000000e+00
	9.934464397077802e-07,-4.606577513840312e-14
	2.101253049631959e-23,2.908004474281473e-13
	9.934464250112925e-15,-8.055542666898289e-15
	-9.934464496422444e-07,-2.366791296228459e-13
	-9.934464397077800e-07,4.606577513840311e-14
	-2.101253049631959e-23,-2.908004474281473e-13
	-9.934464397077800e-07,4.606577513840311e-14
9		1.230268770812381e+00,0.000000000000000e+00
	-9.934464397077800e-03,4.713878488310888e-10
	1.000000000000000e+00,0.000000000000000e+00
	0.000000000000000e+00,0.000000000000000e+00
	9.934464397077802e-07,-4.713878488310889e-14
	2.200282054948637e-23,2.975740600053309e-13
	9.934464250112925e-15,-8.243180360055561e-15
	-9.934464496422444e-07,-2.421920947621664e-13
	-9.934464397077800e-07,4.713878488310889e-14
	-2.200282054948637e-23,-2.975740600053309e-13
	-9.934464397077800e-07,4.713878488310889e-14
10		1.258925411794167e+00,0.000000000000000e+00
	-9.934464397077800e-03,4.823678823551528e-10
	1.000000000000000e+00,0.000000000000000e+00
	0.000000000000000e+00,0.000000000000000e+00
	9.934464397077802e-07,-4.823678823551528e-14
	2.303978153500817e-23,3.045054502879878e-13
	9.934464250112925e-15,-8.435188696551218e-15
	-9.934464496422444e-07,-2.478334733559213e-13
	-9.934464397077800e-07,4.823678823551528e-14
	-2.303978153500817e-23,-3.045054502879878e-13
	-9.934464397077800e-07,4.823678823551528e-14
11		1.288249551693134e+00,0.000000000000000e+00
	-9.934464397077800e-03,4.936036737153351e-10
	1.000000000000000e+00,0.000000000000000e+00
	0.000000000000000e+00,0.000000000000000e+00
	9.934464397077802e-07,-4.936036737153351e-14
	2.412561298616303e-23,3.115982933909935e-13
	9.934464250112925e-15,-8.631669481746758e-15
	-9.934464496422444e-07,-2.536062565377132e-13
	-9.934464397077800e-07,4.936036737153351e-14
	-2.412561298616303e-23,-3.115982933909935e-13
	-9.934464397077800e-07,4.936036737153351e-14
12		1.318256738556407e+00,0.000000000000000e+00
	-9.934464397077800e-03,5.051011802769382e-10
	1.000000000000000e+00,0.000000000000000e+00
	0.000000000000000e+00,0.000000000000000e+00
	9.934464397077802e-07,-5.051011802769383e-14
	2.526261809703882e-23,3.188563500336460e-13
	9.934464250112925e-15,-8.832726892355121e-15
	-9.934464496422444e-07,-2.595135051135971e-13
	-9.934464397077800e-07,5.051011802769383e-14
	-2.526261809703882e-23,-3.188563500336460e-13
	-9.934464397077800e-07,5.051011802769383e-14
13		1.348962882591653e+00,0.000000000000000e+00
	-9.934464397077800e-03,5.168664981701287e-10
	1.000000000000000e+00,0.000000000000000e+00
	0.000000000000000e+00,0.000000000000000e+00
	9.934464397077802e-07,-5.168664981701288e-14
	2.645320860791664e-23,3.262834685336492e-13
	9.934464250112925e-15,-9.038467531676716e-15
	-9.934464496422444e-07,-2.655583511849596e-13
	-9.934464397077800e-07,5.168664981701288e-14
	-2.645320860791664e-23,-3.262834685336492e-13
	-9.934464397077800e-07,5.168664981701288e-14
14		1.380384264602885e+00,0.000000000000000e+00
	-9.934464397077800e-03,5.289058655221861e-10
	1.000000000000000e+00,0.000000000000000e+00
	0.000000000000000e+00,0.000000000000000e+00
	9.934464397077802e-07,-5.289058655221860e-14
	2.769990992089531e-23,3.338835868475412e-13
	9.934464250112925e-15,-9.249000486121909e-15
	-9.934464496422444e-07,-2.717439998092007e-13
	-9.934464397077800e-07,5.289058655221861e-14
	-2.769990992089531e-23,-3.338835868475412e-13
	-9.934464397077800e-07,5.289058655221861e-14
15		1.412537544622754e+00,0.000000000000000e+00
	-9.934464397077800e-03,5.412256657650398e-10
	1.000000000000000e+00,0.000000000000000e+00
	0.000000000000000e+00,0.000000000000000e+00
	9.934464397077802e-07,-5.412256657650399e-14
	2.900536645660781e-23,3.416607346586515e-13
	9.934464250112925e-15,-9.464437383049829e-15
	-9.934464496422444e-07,-2.780737306990976e-13
	-9.934464397077800e-07,5.412256657650399e-14
	-2.900536645660781e-23,-3.416607346586515e-13
	-9.934464397077800e-07,5.412256657650399e-14
16		1.445439770745927e+00,0.000000000000000e+00
	-9.934464397077800e-03,5.538324310198508e-10
	1.000000000000000e+00,0.000000000000000e+00
	0.000000000000000e+00,0.000000000000000e+00
	9.934464397077802e-07,-5.538324310198509e-14
	3.037234726339199e-23,3.496190355136921e-13
	9.934464250112925e-15,-9.684892449954868e-15
	-9.934464496422444e-07,-2.845508999617522e-13
	-9.934464397077800e-07,5.538324310198509e-14
	-3.037234726339199e-23,-3.496190355136921e-13
	-9.934464397077800e-07,5.538324310198509e-14
17		1.479108388168207e+00,0.000000000000000e+00
	-9.934464397077800e-03,5.667328455604275e-10
	1.000000000000000e+00,0.000000000000000e+00
	0.000000000000000e+00,0.000000000000000e+00
	9.934464397077802e-07,-5.667328455604275e-14
	3.180375189081336e-23,3.577627090091172e-13
	9.934464250112925e-15,-9.910482575031612e-15
	-9.934464496422444e-07,-2.911789418780428e-13
	-9.934464397077800e-07,5.667328455604275e-14
	-3.180375189081336e-23,-3.577627090091172e-13
	-9.934464397077800e-07,5.667328455604275e-14
18		1.513561248436208e+00,0.000000000000000e+00
	-9.934464397077800e-03,5.799337493573164e-10
	1.000000000000000e+00,0.000000000000000e+00
	0.000000000000000e+00,0.000000000000000e+00
	9.934464397077802e-07,-5.799337493573165e-14
	3.330261653999845e-23,3.660960730284083e-13
	9.934464250112925e-15,-1.014132736915035e-14
	-9.934464496422444e-07,-2.979613707235263e-13
	-9.934464397077800e-07,5.799337493573165e-14
	-3.330261653999845e-23,-3.660960730284083e-13
	-9.934464397077800e-07,5.799337493573165e-14
19		1.548816618912481e+00,0.000000000000000e+00
	-9.934464397077800e-03,5.934421417044451e-10
	1.000000000000000e+00,0.000000000000000e+00
	0.000000000000000e+00,0.000000000000000e+00
	9.934464397077802e-07,-5.934421417044452e-14
	3.487212050382445e-23,3.746235460314734e-13
	9.934464250112925e-15,-1.037754922927655e-14
	-9.934464496422444e-07,-3.049017826317523e-13
	-9.934464397077800e-07,5.934421417044452e-14
	-3.487212050382445e-23,-3.746235460314734e-13
	-9.934464397077800e-07,5.934421417044452e-14
20		1.584893192461113e+00,0.000000000000000e+00
	-9.934464397077800e-03,6.072651849302409e-10
	1.000000000000000e+00,0.000000000000000e+00
	0.000000000000000e+00,0.000000000000000e+00
	9.934464397077802e-07,-6.072651849302410e-14
	3.651559291062569e-23,3.833496493973733e-13
	9.934464250112925e-15,-1.061927340336728e-14
	-9.934464496422444e-07,-3.120038575009819e-13
	-9.934464397077800e-07,6.072651849302410e-14
	-3.651559291062569e-23,-3.833496493973733e-13
	-9.934464397077800e-07,6.072651849302410e-14
21		1.621810097358929e+00,0.000000000000000e+00
	-9.934464397077800e-03,6.214102081951917e-10
	1.000000000000000e+00,0.000000000000000e+00
	0.000000000000000e+00,0.000000000000000e+00
	9.934464397077802e-07,-6.214102081951919e-14
	3.823651978572119e-23,3.922790098216160e-13
	9.934464250112925e-15,-1.086662805677914e-14
	-9.934464496422444e-07,-3.192713609453177e-13
	-9.934464397077800e-07,6.214102081951918e-14
	-3.823651978572119e-23,-3.922790098216160e-13
	-9.934464397077800e-07,6.214102081951918e-14
22		1.659586907437560e+00,0.000000000000000e+00
	-9.934464397077800e-03,6.358847113778642e-10
	1.000000000000000e+00,0.000000000000000e+00
	0.000000000000000e+00,0.000000000000000e+00
	9.934464397077802e-07,-6.358847113778642e-14
	4.003855144574173e-23,4.014163617692929e-13
	9.934464250112925e-15,-1.111974434022354e-14
	-9.934464496422444e-07,-3.267081462912829e-13
	-9.934464397077800e-07,6.358847113778642e-14
	-4.003855144574173e-23,-4.014163617692929e-13
	-9.934464397077800e-07,6.358847113778642e-14
23		1.698243652461743e+00,0.000000000000000e+00
	-9.934464397077800e-03,6.506963690514384e-10
	1.000000000000000e+00,0.000000000000000e+00
	0.000000000000000e+00,0.000000000000000e+00
	9.934464397077802e-07,-6.506963690514383e-14
	4.192551024144079e-23,4.107665499853534e-13
	9.934464250112925e-15,-1.137875645930430e-14
	-9.934464496422444e-07,-3.343181566209053e-13
	-9.934464397077800e-07,6.506963690514385e-14
	-4.192551024144079e-23,-4.107665499853534e-13
	-9.934464397077800e-07,6.506963690514385e-14
24		1.737800828749374e+00,0.000000000000000e+00
	-9.934464397077800e-03,6.658530345528681e-10
	1.000000000000000e+00,0.000000000000000e+00
	0.000000000000000e+00,0.000000000000000e+00
	9.934464397077802e-07,-6.658530345528681e-14
	4.390139866541299e-23,4.203345320633542e-13
	9.934464250112925e-15,-1.164380174567551e-14
	-9.934464496422444e-07,-3.421054268623919e-13
	-9.934464397077800e-07,6.658530345528682e-14
	-4.390139866541299e-23,-4.203345320633542e-13
	-9.934464397077800e-07,6.658530345528682e-14
25		1.778279410038922e+00,0.000000000000000e+00
	-9.934464397077800e-03,6.813627441468249e-10
	1.000000000000000e+00,0.000000000000000e+00
	0.000000000000000e+00,0.000000000000000e+00
	9.934464397077802e-07,-6.813627441468250e-14
	4.597040784191761e-23,4.301253810740403e-13
	9.934464250112925e-15,-1.191502072985611e-14
	-9.934464496422444e-07,-3.500740859295017e-13
	-9.934464397077800e-07,6.813627441468248e-14
	-4.597040784191761e-23,-4.301253810740403e-13
	-9.934464397077800e-07,6.813627441468248e-14
26		1.819700858609982e+00,0.000000000000000e+00
	-9.934464397077800e-03,6.972337212866302e-10
	1.000000000000000e+00,0.000000000000000e+00
	0.000000000000000e+00,0.000000000000000e+00
	9.934464397077802e-07,-6.972337212866303e-14
	4.813692641681487e-23,4.401442882551543e-13
	9.934464250112925e-15,-1.219255721574169e-14
	-9.934464496422444e-07,-3.582283589107496e-13
	-9.934464397077800e-07,6.972337212866303e-14
	-4.813692641681487e-23,-4.401442882551543e-13
	-9.934464397077800e-07,6.972337212866303e-14
27		1.862087136662866e+00,0.000000000000000e+00
	-9.934464397077800e-03,7.134743809744412e-10
	1.000000000000000e+00,0.000000000000000e+00
	0.000000000000000e+00,0.000000000000000e+00
	9.934464397077802e-07,-7.134743809744411e-14
	5.040554986647234e-23,4.503965657638996e-13
	9.934464250112925e-15,-1.247655835685056e-14
	-9.934464496422444e-07,-3.665725693096049e-13
	-9.934464397077800e-07,7.134743809744413e-14
	-5.040554986647234e-23,-4.503965657638996e-13
	-9.934464397077800e-07,7.134743809744413e-14
28		1.905460717963246e+00,0.000000000000000e+00
	-9.934464397077800e-03,7.300933342229946e-10
	1.000000000000000e+00,0.000000000000000e+00
	0.000000000000000e+00,0.000000000000000e+00
	9.934464397077802e-07,-7.300933342229947e-14
	5.278109024538638e-23,4.608876494935162e-13
	9.934464250112925e-15,-1.276717473434702e-14
	-9.934464496422444e-07,-3.751111413368697e-13
	-9.934464397077800e-07,7.300933342229947e-14
	-5.278109024538638e-23,-4.608876494935162e-13
	-9.934464397077800e-07,7.300933342229947e-14
29		1.949844599758044e+00,0.000000000000000e+00
	-9.934464397077800e-03,7.470993926212810e-10
	1.000000000000000e+00,0.000000000000000e+00
	0.000000000000000e+00,0.000000000000000e+00
	9.934464397077802e-07,-7.470993926212810e-14
	5.526858639319495e-23,4.716231019554637e-13
	9.934464250112925e-15,-1.306456043688131e-14
	-9.934464496422444e-07,-3.838486022564543e-13
	-9.934464397077800e-07,7.470993926212810e-14
	-5.526858639319495e-23,-4.716231019554637e-13
	-9.934464397077800e-07,7.470993926212810e-14
30		1.995262314968878e+00,0.000000000000000e+00
	-9.934464397077800e-03,7.645015730065644e-10
	1.000000000000000e+00,0.000000000000000e+00
	0.000000000000000e+00,0.000000000000000e+00
	9.934464397077802e-07,-7.645015730065646e-14
	5.787331462273192e-23,4.826086152287376e-13
	9.934464250112925e-15,-1.336887314228902e-14
	-9.934464496422444e-07,-3.927895847857921e-13
	-9.934464397077800e-07,7.645015730065644e-14
	-5.787331462273192e-23,-4.826086152287376e-13
	-9.934464397077800e-07,7.645015730065644e-14
31		2.041737944669527e+00,0.000000000000000e+00
	-9.934464397077800e-03,7.823091022452306e-10
	1.000000000000000e+00,0.000000000000000e+00
	0.000000000000000e+00,0.000000000000000e+00
	9.934464397077802e-07,-7.823091022452307e-14
	6.060079991179414e-23,4.938500139778859e-13
	9.934464250112925e-15,-1.368027420119469e-14
	-9.934464496422444e-07,-4.019388295521681e-13
	-9.934464397077800e-07,7.823091022452307e-14
	-6.060079991179414e-23,-4.938500139778859e-13
	-9.934464397077800e-07,7.823091022452307e-14
32		2.089296130854037e+00,0.000000000000000e+00
	-9.934464397077800e-03,8.005314221249925e-10
	1.000000000000000e+00,0.000000000000000e+00
	0.000000000000000e+00,0.000000000000000e+00
	9.934464397077802e-07,-8.005314221249926e-14
	6.345682762236009e-23,5.053532585413231e-13
	9.934464250112925e-15,-1.399892872256171e-14
	-9.934464496422444e-07,-4.113011876062622e-13
	-9.934464397077800e-07,8.005314221249925e-14
	-6.345682762236009e-23,-5.053532585413231e-13
	-9.934464397077800e-07,8.005314221249925e-14
33		2.137962089502230e+00,0.000000000000000e+00
	-9.934464397077800e-03,8.191781943610510e-10
	1.000000000000000e+00,0.000000000000000e+00
	0.000000000000000e+00,0.000000000000000e+00
	9.934464397077802e-07,-8.191781943610510e-14
	6.644745577211813e-23,5.171244480915802e-13
	9.934464250112925e-15,-1.432500566123525e-14
	-9.934464496422444e-07,-4.208816229942398e-13
	-9.934464397077800e-07,8.191781943610510e-14
	-6.644745577211813e-23,-5.171244480915802e-13
	-9.934464397077800e-07,8.191781943610510e-14
34		2.187761623949550e+00,0.000000000000000e+00
	-9.934464397077800e-03,8.382593057188650e-10
	1.000000000000000e+00,0.000000000000000e+00
	0.000000000000000e+00,0.000000000000000e+00
	9.934464397077802e-07,-8.382593057188651e-14
	6.957902788433440e-23,5.291698238691665e-13
	9.934464250112925e-15,-1.465867790752410e-14
	-9.934464496422444e-07,-4.306852153897559e-13
	-9.934464397077800e-07,8.382593057188650e-14
	-6.957902788433440e-23,-5.291698238691665e-13
	-9.934464397077800e-07,8.382593057188650e-14
35		2.238721138568337e+00,0.000000000000000e+00
	-9.934464397077800e-03,8.577848732562449e-10
	1.000000000000000e+00,0.000000000000000e+00
	0.000000000000000e+00,0.000000000000000e+00
	9.934464397077802e-07,-8.577848732562448e-14
	7.285818644331614e-23,5.414957724917590e-13
	9.934464250112925e-15,-1.500012237887013e-14
	-9.934464496422444e-07,-4.407171627872644e-13
	-9.934464397077800e-07,8.577848732562449e-14
	-7.285818644331614e-23,-5.414957724917590e-13
	-9.934464397077800e-07,8.577848732562449e-14
36		2.290867652767770e+00,0.000000000000000e+00
	-9.934464397077800e-03,8.777652496875502e-10
	1.000000000000000e+00,0.000000000000000e+00
	0.000000000000000e+00,0.000000000000000e+00
	9.934464397077802e-07,-8.777652496875503e-14
	7.629188698401135e-23,5.541088293404706e-13
	9.934464250112925e-15,-1.534952011365161e-14
	-9.934464496422444e-07,-4.509827842580640e-13
	-9.934464397077800e-07,8.777652496875502e-14
	-7.629188698401135e-23,-5.541088293404706e-13
	-9.934464397077800e-07,8.777652496875502e-14
37		2.344228815319919e+00,0.000000000000000e+00
	-9.934464397077800e-03,8.982110288728365e-10
	1.000000000000000e+00,0.000000000000000e+00
	0.000000000000000e+00,0.000000000000000e+00
	9.934464397077802e-07,-8.982110288728367e-14
	7.988741284563113e-23,5.670156820249958e-13
	9.934464250112925e-15,-1.570705636717203e-14
	-9.934464496422444e-07,-4.614875227705401e-13
	-9.934464397077800e-07,8.982110288728365e-14
	-7.988741284563113e-23,-5.670156820249958e-13
	-9.934464397077800e-07,8.982110288728365e-14
38		2.398832919019488e+00,0.000000000000000e+00
	-9.934464397077800e-03,9.191330514348597e-10
	1.000000000000000e+00,0.000000000000000e+00
