LTspice 24.0.9 for Windows
Circuit: * GA CMOS Amp | W=2.09573517127885e-06 L=6.430818569684183e-07 Vbias=1.0564184457584471
Start Time: Mon Sep  8 18:46:53 2025
solver = Normal
Maximum thread count: 2
tnom = 27
temp = 27
method = modified trap
AsciiRawFile = 1
Instance "m1": Length shorter than recommended for a level 3 MOSFET.
Direct Newton iteration for .op point succeeded.
Semiconductor Device Operating Points:
                        --- MOSFET Transistors ---
Name:          m1
Model:        n_1u
Id:          1.37e-05
Vgs:         1.06e+00
Vds:         1.66e+00
Vbs:         0.00e+00
Vth:         8.53e-01
Vdsat:       1.78e-01
Gm:          9.10e-05
Gds:         4.88e-06
Gmb:         2.83e-05
Cbd:         0.00e+00
Cbs:         0.00e+00
Cgsov:       4.19e-16
Cgdov:       4.19e-16
Cgbov:       4.43e-17
Cgs:         1.07e-15
Cgd:         0.00e+00
Cgb:         0.00e+00



gain_db: MAX(db(v(out)/v(g)))=(28.7282dB,92.5909°) FROM 1 TO 1e+09
gain_lin: MAX(mag(v(out)/v(g)))=(-1.23388dB,0°) FROM 1 TO 1e+09

Measurement "fc" FAIL'ed

Total elapsed time: 0.416 seconds.

