LTspice 24.0.9 for Windows
Circuit: * GA CMOS Amp | W=1.544990670290672e-05 L=1e-06 Vbias=1.4734496039917877
Start Time: Sat Sep  6 22:09:49 2025
solver = Normal
Maximum thread count: 2
tnom = 27
temp = 27
method = modified trap
AsciiRawFile = 1
Direct Newton iteration for .op point succeeded.
Semiconductor Device Operating Points:
                        --- BSIM4 MOSFETS ---
Name:      m1
Model:      n
Id:      1.67e-04
Vgs:     1.47e+00
Vds:     1.25e-01
Vbs:     0.00e+00
Vth:     2.36e-01
Vdsat:   8.53e-01
Gm:     -2.26e-05
Gds:     1.27e-03
Gmb      8.24e-05
Cbd:     7.43e-15
Cbs:     1.24e-14


.measure op idd find i(vdd)
  Error: FIND can not be evaluated over an interval.

gain_db: MAX(db(v(out)/v(g)))=(29.5348dB,180°) FROM 1 TO 1e+09
gain_lin: MAX(mag(v(out)/v(g)))=(-2.6098dB,0°) FROM 1 TO 1e+09

Measurement "fc" FAIL'ed

Total elapsed time: 0.522 seconds.

