LTspice 24.0.9 for Windows
Circuit: * Amplificador CMOS – W=1.0445986384175726e-05 L=9.468638967553738e-07 Vbias=0.6783289533698027
Start Time: Wed Jul 30 16:06:18 2025
solver = Normal
Maximum thread count: 2
tnom = 27
temp = 27
method = modified trap
AsciiRawFile = 1
Instance "m1": Length shorter than recommended for a level 1 MOSFET.
Direct Newton iteration for .op point succeeded.
Semiconductor Device Operating Points:
                        --- MOSFET Transistors ---
Name:          m1
Model:        nmos
Id:          2.93e-12
Vgs:        -6.78e-01
Vds:         1.12e+00
Vbs:        -6.78e-01
Vth:         0.00e+00
Vdsat:       0.00e+00
Gm:          0.00e+00
Gds:         0.00e+00
Gmb:         0.00e+00
Cbd:         0.00e+00
Cbs:         0.00e+00
Cgsov:       0.00e+00
Cgdov:       0.00e+00
Cgbov:       0.00e+00
Cgs:         0.00e+00
Cgd:         0.00e+00
Cgb:         0.00e+00


.measure op idd find i(vdd)
  Error: FIND can not be evaluated over an interval.

gain_lin: MAX(mag(v(out)/v(in)))=(-infdB,0°) FROM 1 TO 1e+09

Measurement "gain_db" FAIL'ed

Measurement "fc" FAIL'ed

Total elapsed time: 0.298 seconds.

