LTspice 24.0.9 for Windows
Circuit: * GA CMOS Amp | W=2.4820888676894923e-06 L=9.045742674560075e-07 Vbias=1.4549690766287047
Start Time: Sat Sep  6 22:11:25 2025
solver = Normal
Maximum thread count: 2
tnom = 27
temp = 27
method = modified trap
AsciiRawFile = 1
Direct Newton iteration for .op point succeeded.
Semiconductor Device Operating Points:
                        --- BSIM4 MOSFETS ---
Name:      m1
Model:      n
Id:      1.08e-04
Vgs:     1.45e+00
Vds:     7.16e-01
Vbs:     0.00e+00
Vth:     2.37e-01
Vdsat:   8.41e-01
Gm:      3.87e-05
Gds:     4.39e-05
Gmb      5.88e-05
Cbd:     1.04e-15
Cbs:     1.99e-15


.measure op idd find i(vdd)
  Error: FIND can not be evaluated over an interval.

gain_db: MAX(db(v(out)/v(g)))=(29.4714dB,113.502°) FROM 1 TO 1e+09
gain_lin: MAX(mag(v(out)/v(g)))=(1.53235dB,0°) FROM 1 TO 1e+09
fc: mag(v(out)/v(g))=1 AT 8.20068e+08

Total elapsed time: 4.527 seconds.

