LTspice 24.0.9 for Windows
Circuit: * GA CMOS Amp | W=2.0573221639193533e-06 L=1e-06 Vbias=1.4844476838012908
Start Time: Sat Sep  6 22:14:38 2025
solver = Normal
Maximum thread count: 2
tnom = 27
temp = 27
method = modified trap
AsciiRawFile = 1
Direct Newton iteration for .op point succeeded.
Semiconductor Device Operating Points:
                        --- BSIM4 MOSFETS ---
Name:      m1
Model:      n
Id:      8.63e-05
Vgs:     1.48e+00
Vds:     9.37e-01
Vbs:     0.00e+00
Vth:     2.35e-01
Vdsat:   8.60e-01
Gm:      4.08e-05
Gds:     9.33e-06
Gmb      4.72e-05
Cbd:     8.27e-16
Cbs:     1.65e-15


.measure op idd find i(vdd)
  Error: FIND can not be evaluated over an interval.

gain_db: MAX(db(v(out)/v(g)))=(29.1636dB,108.171°) FROM 1 TO 1e+09
gain_lin: MAX(mag(v(out)/v(g)))=(2.961dB,0°) FROM 1 TO 1e+09
fc: mag(v(out)/v(g))=1 AT 6.79984e+08

Total elapsed time: 6.447 seconds.

