Title: * GA CMOS Amp | W=2.2151616570289072e-06 L=6.087609379541877e-07 Vbias=1.5
Date: Sat Sep  6 22:05:55 2025
Plotname: AC Analysis
Flags: complex forward log
No. Variables: 13
No. Points:          901
Offset:    0.0000000000000000e+00
Command: Linear Technology Corporation LTspice
Variables:
	0	frequency	frequency
	1	V(out)	voltage
	2	V(g)	voltage
	3	V(vdd)	voltage
	4	V(m1#dbody)	voltage
	5	V(m1#sbody)	voltage
	6	Id(M1)	device_current
	7	Ig(M1)	device_current
	8	Ib(M1)	device_current
	9	Is(M1)	device_current
	10	I(Rload)	device_current
	11	I(Vg)	device_current
	12	I(Vdd)	device_current
Values:
0		1.000000000000000e+00,0.000000000000000e+00
	-7.278521767988376e-02,5.664307657913364e-10
	1.000000000000000e+00,0.000000000000000e+00
	0.000000000000000e+00,0.000000000000000e+00
	4.697177838663902e-05,6.345987772838175e-14
	4.697177893252484e-05,6.675658944385101e-14
	7.278521767988377e-06,-5.664307657913364e-14
	2.839371173378091e-05,3.228398911752281e-13
	-2.505161541321848e-05,-3.538530265700744e-14
	-1.062061808855081e-05,-2.308115119390870e-13
	-7.278521767988376e-06,5.664307657913364e-14
	-2.839371173379845e-05,-3.228398911752281e-13
	-7.278521767988376e-06,5.664307657913364e-14
1		1.023292992280754e+00,0.000000000000000e+00
	-7.278521767988376e-02,5.796246332464957e-10
	1.000000000000000e+00,0.000000000000000e+00
	0.000000000000000e+00,0.000000000000000e+00
	4.697177838663902e-05,6.493804817044657e-14
	4.697177893252484e-05,6.831155016645613e-14
	7.278521767988377e-06,-5.796246332464958e-14
	2.839371173378091e-05,3.303597982682922e-13
	-2.505161541321848e-05,-3.620953223864927e-14
	-1.062061808855081e-05,-2.361878027049934e-13
	-7.278521767988376e-06,5.796246332464958e-14
	-2.839371173379845e-05,-3.303597982682923e-13
	-7.278521767988376e-06,5.796246332464958e-14
2		1.047128548050899e+00,0.000000000000000e+00
	-7.278521767988376e-02,5.931258253544410e-10
	1.000000000000000e+00,0.000000000000000e+00
	0.000000000000000e+00,0.000000000000000e+00
	4.697177838663902e-05,6.645064962520802e-14
	4.697177893252484e-05,6.990273057716973e-14
	7.278521767988377e-06,-5.931258253544414e-14
	2.839371173378091e-05,3.380548664992270e-13
	-2.505161541321848e-05,-3.705296059357385e-14
	-1.062061808855081e-05,-2.416893233702090e-13
	-7.278521767988376e-06,5.931258253544410e-14
	-2.839371173379845e-05,-3.380548664992270e-13
	-7.278521767988376e-06,5.931258253544410e-14
3		1.071519305237606e+00,0.000000000000000e+00
	-7.278521767988376e-02,6.069415006259377e-10
	1.000000000000000e+00,0.000000000000000e+00
	0.000000000000000e+00,0.000000000000000e+00
	4.697177838663902e-05,6.799848409397908e-14
	4.697177893252484e-05,7.153097434090736e-14
	7.278521767988377e-06,-6.069415006259383e-14
	2.839371173378091e-05,3.459291758950648e-13
	-2.505161541321848e-05,-3.791603491865904e-14
	-1.062061808855081e-05,-2.473189909138119e-13
	-7.278521767988376e-06,6.069415006259378e-14
	-2.839371173379845e-05,-3.459291758950649e-13
	-7.278521767988376e-06,6.069415006259378e-14
4		1.096478196143185e+00,0.000000000000000e+00
	-7.278521767988376e-02,6.210789843148872e-10
	1.000000000000000e+00,0.000000000000000e+00
	0.000000000000000e+00,0.000000000000000e+00
	4.697177838663902e-05,6.958237225908309e-14
	4.697177893252484e-05,7.319714477406491e-14
	7.278521767988377e-06,-6.210789843148871e-14
	2.839371173378091e-05,3.539869015188761e-13
	-2.505161541321848e-05,-3.879921282733615e-14
	-1.062061808855081e-05,-2.530797902600512e-13
	-7.278521767988376e-06,6.210789843148871e-14
	-2.839371173379845e-05,-3.539869015188761e-13
	-7.278521767988376e-06,6.210789843148871e-14
5		1.122018454301963e+00,0.000000000000000e+00
	-7.278521767988376e-02,6.355457723022727e-10
	1.000000000000000e+00,0.000000000000000e+00
	0.000000000000000e+00,0.000000000000000e+00
	4.697177838663902e-05,7.120315391899047e-14
	4.697177893252484e-05,7.490212530226047e-14
	7.278521767988377e-06,-6.355457723022726e-14
	2.839371173378091e-05,3.622323156834434e-13
	-2.505161541321848e-05,-3.970296259222263e-14
	-1.062061808855081e-05,-2.589747758609935e-13
	-7.278521767988376e-06,6.355457723022727e-14
	-2.839371173379845e-05,-3.622323156834435e-13
	-7.278521767988376e-06,6.355457723022727e-14
6		1.148153621496882e+00,0.000000000000000e+00
	-7.278521767988376e-02,6.503495350705752e-10
	1.000000000000000e+00,0.000000000000000e+00
	0.000000000000000e+00,0.000000000000000e+00
	4.697177838663902e-05,7.286168843359090e-14
	4.697177893252484e-05,7.664681992873812e-14
	7.278521767988377e-06,-6.503495350705755e-14
	2.839371173378091e-05,3.706697902164976e-13
	-2.505161541321848e-05,-4.062776339340637e-14
	-1.062061808855081e-05,-2.650070733160337e-13
	-7.278521767988376e-06,6.503495350705752e-14
	-2.839371173379845e-05,-3.706697902164976e-13
	-7.278521767988376e-06,6.503495350705752e-14
7		1.174897554939529e+00,0.000000000000000e+00
	-7.278521767988376e-02,6.654981217707661e-10
	1.000000000000000e+00,0.000000000000000e+00
	0.000000000000000e+00,0.000000000000000e+00
	4.697177838663902e-05,7.455885517983721e-14
	4.697177893252484e-05,7.843215371368255e-14
	7.278521767988377e-06,-6.654981217707659e-14
	2.839371173378091e-05,3.793037987787192e-13
	-2.505161541321848e-05,-4.157410557251328e-14
	-1.062061808855081e-05,-2.711798810291293e-13
	-7.278521767988376e-06,6.654981217707662e-14
	-2.839371173379845e-05,-3.793037987787192e-13
	-7.278521767988376e-06,6.654981217707662e-14
8		1.202264434617413e+00,0.000000000000000e+00
	-7.278521767988376e-02,6.809995643840293e-10
	1.000000000000000e+00,0.000000000000000e+00
	0.000000000000000e+00,0.000000000000000e+00
	4.697177838663902e-05,7.629555401800302e-14
	4.697177893252484e-05,8.025907326469828e-14
	7.278521767988377e-06,-6.809995643840290e-14
	2.839371173378091e-05,3.881389192357326e-13
	-2.505161541321848e-05,-4.254249089269308e-14
	-1.062061808855081e-05,-2.774964719046366e-13
	-7.278521767988376e-06,6.809995643840293e-14
	-2.839371173379845e-05,-3.881389192357327e-13
	-7.278521767988376e-06,6.809995643840293e-14
9		1.230268770812381e+00,0.000000000000000e+00
	-7.278521767988376e-02,6.968620819804232e-10
	1.000000000000000e+00,0.000000000000000e+00
	0.000000000000000e+00,0.000000000000000e+00
	4.697177838663902e-05,7.807270576880024e-14
	4.697177893252484e-05,8.212854723871338e-14
	7.278521767988377e-06,-6.968620819804232e-14
	2.839371173378091e-05,3.971798360853508e-13
	-2.505161541321848e-05,-4.353343280466064e-14
	-1.062061808855081e-05,-2.839601950826478e-13
	-7.278521767988376e-06,6.968620819804232e-14
	-2.839371173379845e-05,-3.971798360853507e-13
	-7.278521767988376e-06,6.968620819804232e-14
10		1.258925411794167e+00,0.000000000000000e+00
	-7.278521767988376e-02,7.130940850767434e-10
	1.000000000000000e+00,0.000000000000000e+00
	0.000000000000000e+00,0.000000000000000e+00
	4.697177838663902e-05,7.989125270161051e-14
	4.697177893252484e-05,8.404156685557428e-14
	7.278521767988377e-06,-7.130940850767437e-14
	2.839371173378091e-05,4.064313429413580e-13
	-2.505161541321848e-05,-4.454745671893433e-14
	-1.062061808855081e-05,-2.905744777147494e-13
	-7.278521767988376e-06,7.130940850767435e-14
	-2.839371173379845e-05,-4.064313429413581e-13
	-7.278521767988376e-06,7.130940850767435e-14
11		1.288249551693134e+00,0.000000000000000e+00
	-7.278521767988376e-02,7.297041800958875e-10
	1.000000000000000e+00,0.000000000000000e+00
	0.000000000000000e+00,0.000000000000000e+00
	4.697177838663902e-05,8.175215903408888e-14
	4.697177893252484e-05,8.599914642360365e-14
	7.278521767988377e-06,-7.297041800958875e-14
	2.839371173378091e-05,4.158983450751477e-13
	-2.505161541321848e-05,-4.558510028441569e-14
	-1.062061808855081e-05,-2.973428267811433e-13
	-7.278521767988376e-06,7.297041800958875e-14
	-2.839371173379845e-05,-4.158983450751476e-13
	-7.278521767988376e-06,7.297041800958875e-14
12		1.318256738556407e+00,0.000000000000000e+00
	-7.278521767988376e-02,7.467011739300950e-10
	1.000000000000000e+00,0.000000000000000e+00
	0.000000000000000e+00,0.000000000000000e+00
	4.697177838663902e-05,8.365641144340491e-14
	4.697177893252484e-05,8.800232387740010e-14
	7.278521767988377e-06,-7.467011739300952e-14
	2.839371173378091e-05,4.255858620165615e-13
	-2.505161541321848e-05,-4.664691367345800e-14
	-1.062061808855081e-05,-3.042688309500940e-13
	-7.278521767988376e-06,7.467011739300950e-14
	-2.839371173379845e-05,-4.255858620165616e-13
	-7.278521767988376e-06,7.467011739300950e-14
13		1.348962882591653e+00,0.000000000000000e+00
	-7.278521767988376e-02,7.640940786104787e-10
	1.000000000000000e+00,0.000000000000000e+00
	0.000000000000000e+00,0.000000000000000e+00
	4.697177838663902e-05,8.560501958939172e-14
	4.697177893252484e-05,9.005216132816480e-14
	7.278521767988377e-06,-7.640940786104790e-14
	2.839371173378091e-05,4.354990302153113e-13
	-2.505161541321848e-05,-4.773345987357485e-14
	-1.062061808855081e-05,-3.113561624806886e-13
	-7.278521767988376e-06,7.640940786104787e-14
	-2.839371173379845e-05,-4.354990302153114e-13
	-7.278521767988376e-06,7.640940786104787e-14
14		1.380384264602885e+00,0.000000000000000e+00
	-7.278521767988376e-02,7.818921160853227e-10
	1.000000000000000e+00,0.000000000000000e+00
	0.000000000000000e+00,0.000000000000000e+00
	4.697177838663902e-05,8.759901664988123e-14
	4.697177893252484e-05,9.214974562684699e-14
	7.278521767988377e-06,-7.818921160853232e-14
	2.839371173378091e-05,4.456431057643926e-13
	-2.505161541321848e-05,-4.884531498594373e-14
	-1.062061808855081e-05,-3.186085791699166e-13
	-7.278521767988376e-06,7.818921160853228e-14
	-2.839371173379845e-05,-4.456431057643926e-13
	-7.278521767988376e-06,7.818921160853228e-14
15		1.412537544622754e+00,0.000000000000000e+00
	-7.278521767988376e-02,8.001047231096805e-10
	1.000000000000000e+00,0.000000000000000e+00
	0.000000000000000e+00,0.000000000000000e+00
	4.697177838663902e-05,8.963945986850857e-14
	4.697177893252484e-05,9.429618894040658e-14
	7.278521767988377e-06,-8.001047231096811e-14
	2.839371173378091e-05,4.560234671869339e-13
	-2.505161541321848e-05,-4.998306853086231e-14
	-1.062061808855081e-05,-3.260299263451034e-13
	-7.278521767988376e-06,8.001047231096806e-14
	-2.839371173379845e-05,-4.560234671869339e-13
	-7.278521767988376e-06,8.001047231096806e-14
16		1.445439770745927e+00,0.000000000000000e+00
	-7.278521767988376e-02,8.187415562488690e-10
	1.000000000000000e+00,0.000000000000000e+00
	0.000000000000000e+00,0.000000000000000e+00
	4.697177838663902e-05,9.172743111527670e-14
	4.697177893252484e-05,9.649262934149999e-14
	7.278521767988377e-06,-8.187415562488695e-14
	2.839371173378091e-05,4.666456182879618e-13
	-2.505161541321848e-05,-5.114732376032009e-14
	-1.062061808855081e-05,-3.336241389027547e-13
	-7.278521767988376e-06,8.187415562488690e-14
	-2.839371173379845e-05,-4.666456182879617e-13
	-7.278521767988376e-06,8.187415562488690e-14
17		1.479108388168207e+00,0.000000000000000e+00
	-7.278521767988376e-02,8.378124969985066e-10
	1.000000000000000e+00,0.000000000000000e+00
	0.000000000000000e+00,0.000000000000000e+00
	4.697177838663902e-05,9.386403746017824e-14
	4.697177893252484e-05,9.874023141190122e-14
	7.278521767988377e-06,-8.378124969985068e-14
	2.839371173378091e-05,4.775151910725910e-13
	-2.505161541321848e-05,-5.233869797785045e-14
	-1.062061808855081e-05,-3.413952433948898e-13
	-7.278521767988376e-06,8.378124969985067e-14
	-2.839371173379845e-05,-4.775151910725910e-13
	-7.278521767988376e-06,8.378124969985067e-14
18		1.513561248436208e+00,0.000000000000000e+00
	-7.278521767988376e-02,8.573276570238122e-10
	1.000000000000000e+00,0.000000000000000e+00
	0.000000000000000e+00,0.000000000000000e+00
	4.697177838663902e-05,9.605041176017859e-14
	4.697177893252484e-05,1.010401868599785e-13
	7.278521767988377e-06,-8.573276570238124e-14
	2.839371173378091e-05,4.886379487321876e-13
	-2.505161541321848e-05,-5.355782286583325e-14
	-1.062061808855081e-05,-3.493473601639732e-13
	-7.278521767988376e-06,8.573276570238122e-14
	-2.839371173379845e-05,-4.886379487321877e-13
	-7.278521767988376e-06,8.573276570238122e-14
19		1.548816618912481e+00,0.000000000000000e+00
	-7.278521767988376e-02,8.772973835209448e-10
	1.000000000000000e+00,0.000000000000000e+00
	0.000000000000000e+00,0.000000000000000e+00
	4.697177838663902e-05,9.828771325987169e-14
	4.697177893252484e-05,1.033937151525539e-13
	7.278521767988377e-06,-8.772973835209448e-14
	2.839371173378091e-05,5.000197887000899e-13
	-2.505161541321848e-05,-5.480534482042110e-14
	-1.062061808855081e-05,-3.574847055275744e-13
	-7.278521767988376e-06,8.772973835209449e-14
	-2.839371173379845e-05,-5.000197887000900e-13
	-7.278521767988376e-06,8.772973835209449e-14
20		1.584893192461113e+00,0.000000000000000e+00
	-7.278521767988376e-02,8.977322647032238e-10
	1.000000000000000e+00,0.000000000000000e+00
	0.000000000000000e+00,0.000000000000000e+00
	4.697177838663902e-05,1.005771282061268e-13
	4.697177893252484e-05,1.058020641614808e-13
	7.278521767988377e-06,-8.977322647032242e-14
	2.839371173378091e-05,5.116667457785055e-13
	-2.505161541321848e-05,-5.608192529426722e-14
	-1.062061808855081e-05,-3.658115940139159e-13
	-7.278521767988376e-06,8.977322647032239e-14
	-2.839371173379845e-05,-5.116667457785056e-13
	-7.278521767988376e-06,8.977322647032239e-14
21		1.621810097358929e+00,0.000000000000000e+00
	-7.278521767988376e-02,9.186431354151399e-10
	1.000000000000000e+00,0.000000000000000e+00
	0.000000000000000e+00,0.000000000000000e+00
	4.697177838663902e-05,1.029198704770526e-13
	4.697177893252484e-05,1.082665108252821e-13
	7.278521767988377e-06,-9.186431354151406e-14
	2.839371173378091e-05,5.235849953382428e-13
	-2.505161541321848e-05,-5.738824114723642e-14
	-1.062061808855081e-05,-3.743324406494924e-13
	-7.278521767988376e-06,9.186431354151400e-14
	-2.839371173379845e-05,-5.235849953382427e-13
	-7.278521767988376e-06,9.186431354151400e-14
22		1.659586907437560e+00,0.000000000000000e+00
	-7.278521767988376e-02,9.400410828771327e-10
	1.000000000000000e+00,0.000000000000000e+00
	0.000000000000000e+00,0.000000000000000e+00
	4.697177838663902e-05,1.053171822256108e-13
	4.697177893252484e-05,1.107883618261996e-13
	7.278521767988377e-06,-9.400410828771332e-14
	2.839371173378091e-05,5.357808565929753e-13
	-2.505161541321848e-05,-5.872498500528505e-14
	-1.062061808855081e-05,-3.830517632999769e-13
	-7.278521767988376e-06,9.400410828771328e-14
	-2.839371173379845e-05,-5.357808565929753e-13
	-7.278521767988376e-06,9.400410828771328e-14
23		1.698243652461743e+00,0.000000000000000e+00
	-7.278521767988376e-02,9.619374525641816e-10
	1.000000000000000e+00,0.000000000000000e+00
	0.000000000000000e+00,0.000000000000000e+00
	4.697177838663902e-05,1.077703345382227e-13
	4.697177893252484e-05,1.133689542830146e-13
	7.278521767988377e-06,-9.619374525641818e-14
	2.839371173378091e-05,5.482607959497713e-13
	-2.505161541321848e-05,-6.009286562770057e-14
	-1.062061808855081e-05,-3.919741850656525e-13
	-7.278521767988376e-06,9.619374525641817e-14
	-2.839371173379845e-05,-5.482607959497713e-13
	-7.278521767988376e-06,9.619374525641817e-14
24		1.737800828749374e+00,0.000000000000000e+00
	-7.278521767988376e-02,9.843438542213272e-10
	1.000000000000000e+00,0.000000000000000e+00
	0.000000000000000e+00,0.000000000000000e+00
	4.697177838663902e-05,1.102806281087158e-13
	4.697177893252484e-05,1.160096564600060e-13
	7.278521767988377e-06,-9.843438542213273e-14
	2.839371173378091e-05,5.610314304376692e-13
	-2.505161541321848e-05,-6.149260828289498e-14
	-1.062061808855081e-05,-4.011044367326415e-13
	-7.278521767988376e-06,9.843438542213273e-14
	-2.839371173379845e-05,-5.610314304376692e-13
	-7.278521767988376e-06,9.843438542213273e-14
25		1.778279410038922e+00,0.000000000000000e+00
	-7.278521767988376e-02,1.007272168019312e-09
	1.000000000000000e+00,0.000000000000000e+00
	0.000000000000000e+00,0.000000000000000e+00
	4.697177838663902e-05,1.128493939279688e-13
	4.697177893252484e-05,1.187118684924219e-13
	7.278521767988377e-06,-1.007272168019313e-13
	2.839371173378091e-05,5.740995312161144e-13
	-2.505161541321848e-05,-6.292495513295190e-14
	-1.062061808855081e-05,-4.104473592812312e-13
	-7.278521767988376e-06,1.007272168019312e-13
	-2.839371173379845e-05,-5.740995312161141e-13
	-7.278521767988376e-06,1.007272168019312e-13
26		1.819700858609982e+00,0.000000000000000e+00
	-7.278521767988376e-02,1.030734550853604e-09
	1.000000000000000e+00,0.000000000000000e+00
	0.000000000000000e+00,0.000000000000000e+00
	4.697177838663902e-05,1.154779939896208e-13
	4.697177893252484e-05,1.214770231288498e-13
	7.278521767988377e-06,-1.030734550853605e-13
	2.839371173378091e-05,5.874720271651157e-13
	-2.505161541321848e-05,-6.439066562713055e-14
	-1.062061808855081e-05,-4.200079064526248e-13
	-7.278521767988376e-06,1.030734550853604e-13
	-2.839371173379845e-05,-5.874720271651159e-13
	-7.278521767988376e-06,1.030734550853604e-13
27		1.862087136662866e+00,0.000000000000000e+00
	-7.278521767988376e-02,1.054743442790144e-09
	1.000000000000000e+00,0.000000000000000e+00
	0.000000000000000e+00,0.000000000000000e+00
	4.697177838663902e-05,1.181678220122180e-13
	4.697177893252484e-05,1.243065864908791e-13
	7.278521767988377e-06,-1.054743442790144e-13
	2.839371173378091e-05,6.011560085590319e-13
	-2.505161541321848e-05,-6.589051690453591e-14
	-1.062061808855081e-05,-4.297911473754815e-13
	-7.278521767988376e-06,1.054743442790144e-13
	-2.839371173379845e-05,-6.011560085590317e-13
	-7.278521767988376e-06,1.054743442790144e-13
28		1.905460717963246e+00,0.000000000000000e+00
	-7.278521767988376e-02,1.079311573661231e-09
	1.000000000000000e+00,0.000000000000000e+00
	0.000000000000000e+00,0.000000000000000e+00
	4.697177838663902e-05,1.209203041781821e-13
	4.697177893252484e-05,1.272020588504580e-13
	7.278521767988377e-06,-1.079311573661231e-13
	2.839371173378091e-05,6.151587308259262e-13
	-2.505161541321848e-05,-6.742530420616816e-14
	-1.062061808855081e-05,-4.398022692536350e-13
	-7.278521767988376e-06,1.079311573661231e-13
	-2.839371173379845e-05,-6.151587308259263e-13
	-7.278521767988376e-06,1.079311573661231e-13
29		1.949844599758044e+00,0.000000000000000e+00
	-7.278521767988376e-02,1.104451969815050e-09
	1.000000000000000e+00,0.000000000000000e+00
	0.000000000000000e+00,0.000000000000000e+00
	4.697177838663902e-05,1.237368998899910e-13
	4.697177893252484e-05,1.301649754253578e-13
	7.278521767988377e-06,-1.104451969815051e-13
	2.839371173378091e-05,6.294876183944930e-13
	-2.505161541321848e-05,-6.899584129656994e-14
	-1.062061808855081e-05,-4.500465801164180e-13
	-7.278521767988376e-06,1.104451969815050e-13
	-2.839371173379845e-05,-6.294876183944931e-13
	-7.278521767988376e-06,1.104451969815050e-13
30		1.995262314968878e+00,0.000000000000000e+00
	-7.278521767988376e-02,1.130177961022416e-09
	1.000000000000000e+00,0.000000000000000e+00
	0.000000000000000e+00,0.000000000000000e+00
	4.697177838663902e-05,1.266191025439729e-13
	4.697177893252484e-05,1.331969071931652e-13
	7.278521767988377e-06,-1.130177961022416e-13
	2.839371173378091e-05,6.441502686305863e-13
	-2.505161541321848e-05,-7.060296089529506e-14
	-1.062061808855081e-05,-4.605295116330496e-13
	-7.278521767988376e-06,1.130177961022416e-13
	-2.839371173379845e-05,-6.441502686305864e-13
	-7.278521767988376e-06,1.130177961022416e-13
31		2.041737944669527e+00,0.000000000000000e+00
	-7.278521767988376e-02,1.156503187544389e-09
	1.000000000000000e+00,0.000000000000000e+00
	0.000000000000000e+00,0.000000000000000e+00
	4.697177838663902e-05,1.295684403221257e-13
	4.697177893252484e-05,1.362994617242359e-13
	7.278521767988377e-06,-1.156503187544390e-13
	2.839371173378091e-05,6.591544558654442e-13
	-2.505161541321848e-05,-7.224751511842755e-14
	-1.062061808855081e-05,-4.712566219925776e-13
	-7.278521767988376e-06,1.156503187544390e-13
	-2.839371173379845e-05,-6.591544558654440e-13
	-7.278521767988376e-06,1.156503187544390e-13
32		2.089296130854037e+00,0.000000000000000e+00
	-7.278521767988376e-02,1.183441607364529e-09
	1.000000000000000e+00,0.000000000000000e+00
	0.000000000000000e+00,0.000000000000000e+00
	4.697177838663902e-05,1.325864770023783e-13
