LTspice 24.0.9 for Windows
Circuit: * GA CMOS Amp | W=1.4205705598949554e-05 L=7.063113841913477e-07 Vbias=0.6360464014387269
Start Time: Mon Sep  8 18:42:36 2025
solver = Normal
Maximum thread count: 2
tnom = 27
temp = 27
method = modified trap
AsciiRawFile = 1
Instance "m1": Length shorter than recommended for a level 3 MOSFET.
Direct Newton iteration for .op point succeeded.
Semiconductor Device Operating Points:
                        --- MOSFET Transistors ---
Name:          m1
Model:        n_1u
Id:          3.50e-07
Vgs:         6.36e-01
Vds:         1.80e+00
Vbs:         0.00e+00
Vth:         7.83e-01
Vdsat:       4.79e-02
Gm:          6.51e-06
Gds:         4.09e-08
Gmb:         1.43e-06
Cbd:         0.00e+00
Cbs:         0.00e+00
Cgsov:       2.84e-15
Cgdov:       2.84e-15
Cgbov:       5.06e-17
Cgs:         4.79e-15
Cgd:         0.00e+00
Cgb:         2.62e-15



gain_db: MAX(db(v(out)/v(g)))=(31.1655dB,131.014°) FROM 1 TO 1e+09
gain_lin: MAX(mag(v(out)/v(g)))=(-14.564dB,0°) FROM 1 TO 1e+09

Measurement "fc" FAIL'ed

Total elapsed time: 1.130 seconds.

