LTspice 24.0.9 for Windows
Circuit: * Amplificador CMOS - W=9.137284986131403e-06 L=7.071426385912604e-07 Vbias=1.3851551427654338
Start Time: Wed Jul 30 15:49:58 2025
solver = Normal
Maximum thread count: 2
tnom = 27
temp = 27
method = modified trap
AsciiRawFile = 1
Instance "m1": Length shorter than recommended for a level 1 MOSFET.
Instance "m1": Width narrower than recommended for a level 1 MOSFET.
Direct Newton iteration for .op point succeeded.
Semiconductor Device Operating Points:
                        --- MOSFET Transistors ---
Name:          m1
Model:        nmos
Id:          2.22e-12
Vgs:        -1.39e+00
Vds:         4.15e-01
Vbs:        -1.39e+00
Vth:         0.00e+00
Vdsat:       0.00e+00
Gm:          0.00e+00
Gds:         0.00e+00
Gmb:         0.00e+00
Cbd:         0.00e+00
Cbs:         0.00e+00
Cgsov:       0.00e+00
Cgdov:       0.00e+00
Cgbov:       0.00e+00
Cgs:         0.00e+00
Cgd:         0.00e+00
Cgb:         0.00e+00


.measure op idd find i(vdd)
  Error: FIND can not be evaluated over an interval.

gain_lin: MAX(mag(v(out)/v(in)))=(-infdB,0°) FROM 1 TO 1e+09
gain_db: MAX(db(v(out)/v(in)))=(-nan(ind)dB,-nan(ind)°) FROM 1 TO 1e+09

Measurement "fc" FAIL'ed

Total elapsed time: 0.369 seconds.

