Title: * GA CMOS Amp | W=4.199095112161807e-05 L=8.299788518753425e-07 Vbias=1.258407835226035
Date: Sat Sep  6 22:06:22 2025
Plotname: AC Analysis
Flags: complex forward log
No. Variables: 13
No. Points:          901
Offset:    0.0000000000000000e+00
Command: Linear Technology Corporation LTspice
Variables:
	0	frequency	frequency
	1	V(out)	voltage
	2	V(g)	voltage
	3	V(vdd)	voltage
	4	V(m1#dbody)	voltage
	5	V(m1#sbody)	voltage
	6	Id(M1)	device_current
	7	Ig(M1)	device_current
	8	Ib(M1)	device_current
	9	Is(M1)	device_current
	10	I(Rload)	device_current
	11	I(Vg)	device_current
	12	I(Vdd)	device_current
Values:
0		1.000000000000000e+00,0.000000000000000e+00
	8.369788748327844e-03,9.258174401377650e-10
	1.000000000000000e+00,0.000000000000000e+00
	0.000000000000000e+00,0.000000000000000e+00
	2.018481608885363e-04,1.316048301931682e-13
	2.018481608198290e-04,1.233003557359789e-13
	-8.369788748327774e-07,-9.258174401377610e-14
	1.510140671024948e-04,9.111824578437637e-12
	-1.076523525232757e-04,-6.644163427165852e-14
	-4.252473570438637e-05,-8.952801200152202e-12
	8.369788748327844e-07,9.258174401377650e-14
	-1.510140671025229e-04,-9.111824578437635e-12
	8.369788748327844e-07,9.258174401377650e-14
1		1.023292992280754e+00,0.000000000000000e+00
	8.369788748327844e-03,9.473824986242815e-10
	1.000000000000000e+00,0.000000000000000e+00
	0.000000000000000e+00,0.000000000000000e+00
	2.018481608885363e-04,1.346703004869676e-13
	2.018481608198290e-04,1.261723899703513e-13
	-8.369788748327774e-07,-9.473824986242777e-14
	1.510140671024948e-04,9.324066238006768e-12
	-1.076523525232757e-04,-6.798925874586895e-14
	-4.252473570438637e-05,-9.161338729398472e-12
	8.369788748327844e-07,9.473824986242814e-14
	-1.510140671025229e-04,-9.324066238006769e-12
	8.369788748327844e-07,9.473824986242814e-14
2		1.047128548050899e+00,0.000000000000000e+00
	8.369788748327844e-03,9.694498718516581e-10
	1.000000000000000e+00,0.000000000000000e+00
	0.000000000000000e+00,0.000000000000000e+00
	2.018481608885363e-04,1.378071747566573e-13
	2.018481608198290e-04,1.291113224759750e-13
	-8.369788748327774e-07,-9.694498718516512e-14
	1.510140671024948e-04,9.541251640913896e-12
	-1.076523525232757e-04,-6.957293202501064e-14
	-4.252473570438637e-05,-9.374733721703721e-12
	8.369788748327844e-07,9.694498718516582e-14
	-1.510140671025229e-04,-9.541251640913900e-12
	8.369788748327844e-07,9.694498718516582e-14
3		1.071519305237606e+00,0.000000000000000e+00
	8.369788748327844e-03,9.920312602332771e-10
	1.000000000000000e+00,0.000000000000000e+00
	0.000000000000000e+00,0.000000000000000e+00
	2.018481608885363e-04,1.410171162144967e-13
	2.018481608198290e-04,1.321187115137658e-13
	-8.369788748327774e-07,-9.920312602332704e-14
	1.510140671024948e-04,9.763495941734439e-12
	-1.076523525232757e-04,-7.119349379361864e-14
	-4.252473570438637e-05,-9.593099321917493e-12
	8.369788748327844e-07,9.920312602332772e-14
	-1.510140671025229e-04,-9.763495941734440e-12
	8.369788748327844e-07,9.920312602332772e-14
4		1.096478196143185e+00,0.000000000000000e+00
	8.369788748327844e-03,1.015138636720157e-09
	1.000000000000000e+00,0.000000000000000e+00
	0.000000000000000e+00,0.000000000000000e+00
	2.018481608885363e-04,1.443018268139351e-13
	2.018481608198290e-04,1.351961516411991e-13
	-8.369788748327774e-07,-1.015138636720158e-13
	1.510140671024948e-04,9.990916977338429e-12
	-1.076523525232757e-04,-7.285180329499331e-14
	-4.252473570438637e-05,-9.816551310371421e-12
	8.369788748327844e-07,1.015138636720157e-13
	-1.510140671025229e-04,-9.990916977338429e-12
	8.369788748327844e-07,1.015138636720157e-13
5		1.122018454301963e+00,0.000000000000000e+00
	8.369788748327844e-03,1.038784253149175e-09
	1.000000000000000e+00,0.000000000000000e+00
	0.000000000000000e+00,0.000000000000000e+00
	2.018481608885363e-04,1.476630481520109e-13
	2.018481608198290e-04,1.383452745577652e-13
	-8.369788748327774e-07,-1.038784253149164e-13
	1.510140671024948e-04,1.022363532936923e-11
	-1.076523525232757e-04,-7.454873978678261e-14
	-4.252473570438637e-05,-1.004520816426753e-11
	8.369788748327844e-07,1.038784253149175e-13
	-1.510140671025229e-04,-1.022363532936923e-11
	8.369788748327844e-07,1.038784253149175e-13
6		1.148153621496882e+00,0.000000000000000e+00
	8.369788748327844e-03,1.062980646739148e-09
	1.000000000000000e+00,0.000000000000000e+00
	0.000000000000000e+00,0.000000000000000e+00
	2.018481608885363e-04,1.511025623927683e-13
	2.018481608198290e-04,1.415677499701181e-13
	-8.369788748327774e-07,-1.062980646739140e-13
	1.510140671024948e-04,1.046177438817747e-11
	-1.076523525232757e-04,-7.628520300717609e-14
	-4.252473570438637e-05,-1.027919112049638e-11
	8.369788748327844e-07,1.062980646739148e-13
	-1.510140671025229e-04,-1.046177438817747e-11
	8.369788748327844e-07,1.062980646739148e-13
7		1.174897554939529e+00,0.000000000000000e+00
	8.369788748327844e-03,1.087740646738234e-09
	1.000000000000000e+00,0.000000000000000e+00
	0.000000000000000e+00,0.000000000000000e+00
	2.018481608885363e-04,1.546221932121852e-13
	2.018481608198290e-04,1.448652864773758e-13
	-8.369788748327774e-07,-1.087740646738222e-13
	1.510140671024948e-04,1.070546041824428e-11
	-1.076523525232757e-04,-7.806211365195802e-14
	-4.252473570438637e-05,-1.051862423991850e-11
	8.369788748327844e-07,1.087740646738234e-13
	-1.510140671025229e-04,-1.070546041824428e-11
	8.369788748327844e-07,1.087740646738234e-13
8		1.202264434617413e+00,0.000000000000000e+00
	8.369788748327844e-03,1.113077381226170e-09
	1.000000000000000e+00,0.000000000000000e+00
	0.000000000000000e+00,0.000000000000000e+00
	2.018481608885363e-04,1.582238067651099e-13
	2.018481608198290e-04,1.482396324770425e-13
	-8.369788748327774e-07,-1.113077381226176e-13
	1.510140671024948e-04,1.095482262512837e-11
	-1.076523525232757e-04,-7.988041386267242e-14
	-4.252473570438637e-05,-1.076363447314308e-11
	8.369788748327844e-07,1.113077381226170e-13
	-1.510140671025229e-04,-1.095482262512837e-11
	8.369788748327844e-07,1.113077381226170e-13
9		1.230268770812381e+00,0.000000000000000e+00
	8.369788748327844e-03,1.139004284074953e-09
	1.000000000000000e+00,0.000000000000000e+00
	0.000000000000000e+00,0.000000000000000e+00
	2.018481608885363e-04,1.619093126747212e-13
	2.018481608198290e-04,1.516925770920321e-13
	-8.369788748327774e-07,-1.139004284074966e-13
	1.510140671024948e-04,1.120999322397251e-11
	-1.076523525232757e-04,-8.174106772615909e-14
	-4.252473570438638e-05,-1.101435172783886e-11
	8.369788748327844e-07,1.139004284074953e-13
	-1.510140671025229e-04,-1.120999322397251e-11
	8.369788748327844e-07,1.139004284074953e-13
10		1.258925411794167e+00,0.000000000000000e+00
	8.369788748327844e-03,1.165535102071657e-09
	1.000000000000000e+00,0.000000000000000e+00
	0.000000000000000e+00,0.000000000000000e+00
	2.018481608885363e-04,1.656806650450356e-13
	2.018481608198290e-04,1.552259511192845e-13
	-8.369788748327774e-07,-1.165535102071668e-13
	1.510140671024948e-04,1.147110750960581e-11
	-1.076523525232757e-04,-8.364506178572510e-14
	-4.252473570438638e-05,-1.127090893761292e-11
	8.369788748327844e-07,1.165535102071657e-13
	-1.510140671025229e-04,-1.147110750960581e-11
	8.369788748327844e-07,1.165535102071657e-13
11		1.288249551693134e+00,0.000000000000000e+00
	8.369788748327844e-03,1.192683902207160e-09
	1.000000000000000e+00,0.000000000000000e+00
	0.000000000000000e+00,0.000000000000000e+00
	2.018481608885363e-04,1.695398634969998e-13
	2.018481608198290e-04,1.588416280004787e-13
	-8.369788748327774e-07,-1.192683902207158e-13
	1.510140671024948e-04,1.173830392827876e-11
	-1.076523525232757e-04,-8.559340556422321e-14
	-4.252473570438638e-05,-1.153344213249382e-11
	8.369788748327844e-07,1.192683902207160e-13
	-1.510140671025229e-04,-1.173830392827876e-11
	8.369788748327844e-07,1.192683902207160e-13
12		1.318256738556407e+00,0.000000000000000e+00
	8.369788748327844e-03,1.220465079134651e-09
	1.000000000000000e+00,0.000000000000000e+00
	0.000000000000000e+00,0.000000000000000e+00
	2.018481608885363e-04,1.734889542287156e-13
	2.018481608198290e-04,1.625415248153563e-13
	-8.369788748327774e-07,-1.220465079134639e-13
	1.510140671024948e-04,1.201172415106930e-11
	-1.076523525232757e-04,-8.758713209931412e-14
	-4.252473570438638e-05,-1.180209051105652e-11
	8.369788748327844e-07,1.220465079134652e-13
	-1.510140671025229e-04,-1.201172415106931e-11
	8.369788748327844e-07,1.220465079134652e-13
13		1.348962882591653e+00,0.000000000000000e+00
	8.369788748327844e-03,1.248893362801865e-09
	1.000000000000000e+00,0.000000000000000e+00
	0.000000000000000e+00,0.000000000000000e+00
	2.018481608885363e-04,1.775300311003612e-13
	2.018481608198290e-04,1.663276032981824e-13
	-8.369788748327774e-07,-1.248893362801856e-13
	1.510140671024948e-04,1.229151314899871e-11
	-1.076523525232757e-04,-8.962729849119685e-14
	-4.252473570438638e-05,-1.207699651422733e-11
	8.369788748327844e-07,1.248893362801865e-13
	-1.510140671025229e-04,-1.229151314899871e-11
	8.369788748327844e-07,1.248893362801865e-13
14		1.380384264602885e+00,0.000000000000000e+00
	8.369788748327844e-03,1.277983826261094e-09
	1.000000000000000e+00,0.000000000000000e+00
	0.000000000000000e+00,0.000000000000000e+00
	2.018481608885363e-04,1.816652367443840e-13
	2.018481608198290e-04,1.702018708778833e-13
	-8.369788748327774e-07,-1.277983826261086e-13
	1.510140671024948e-04,1.257781926989712e-11
	-1.076523525232757e-04,-9.171498646309717e-14
	-4.252473570438638e-05,-1.235830590080792e-11
	8.369788748327844e-07,1.277983826261094e-13
	-1.510140671025229e-04,-1.257781926989713e-11
	8.369788748327844e-07,1.277983826261094e-13
15		1.412537544622754e+00,0.000000000000000e+00
	8.369788748327844e-03,1.307751893661122e-09
	1.000000000000000e+00,0.000000000000000e+00
	0.000000000000000e+00,0.000000000000000e+00
	2.018481608885363e-04,1.858967637015522e-13
	2.018481608198290e-04,1.741663817424118e-13
	-8.369788748327842e-07,-1.307751893661122e-13
	1.510140671024949e-04,1.287079431705956e-11
	-1.076523525232757e-04,-9.385130293481154e-14
	-4.252473570438638e-05,-1.264616782475863e-11
	8.369788748327844e-07,1.307751893661122e-13
	-1.510140671025229e-04,-1.287079431705956e-11
	8.369788748327844e-07,1.307751893661122e-13
16		1.445439770745927e+00,0.000000000000000e+00
	8.369788748327844e-03,1.338213348425312e-09
	1.000000000000000e+00,0.000000000000000e+00
	0.000000000000000e+00,0.000000000000000e+00
	2.018481608885363e-04,1.902268555834696e-13
	2.018481608198290e-04,1.782232379279046e-13
	-8.369788748327842e-07,-1.338213348425303e-13
	1.510140671024949e-04,1.317059362973400e-11
	-1.076523525232757e-04,-9.603738060961079e-14
	-4.252473570438638e-05,-1.294073491428186e-11
	8.369788748327844e-07,1.338213348425312e-13
	-1.510140671025229e-04,-1.317059362973400e-11
	8.369788748327844e-07,1.338213348425312e-13
17		1.479108388168207e+00,0.000000000000000e+00
	8.369788748327844e-03,1.369384341620185e-09
	1.000000000000000e+00,0.000000000000000e+00
	0.000000000000000e+00,0.000000000000000e+00
	2.018481608885362e-04,1.946578082621676e-13
	2.018481608198290e-04,1.823745904332103e-13
	-8.369788748327842e-07,-1.369384341620172e-13
	1.510140671024948e-04,1.347737616548434e-11
	-1.076523525232757e-04,-9.827437857481432e-14
	-4.252473570438638e-05,-1.324216335274751e-11
	8.369788748327844e-07,1.369384341620185e-13
	-1.510140671025229e-04,-1.347737616548434e-11
	8.369788748327844e-07,1.369384341620185e-13
18		1.513561248436208e+00,0.000000000000000e+00
	8.369788748327844e-03,1.401281400518929e-09
	1.000000000000000e+00,0.000000000000000e+00
	0.000000000000000e+00,0.000000000000000e+00
	2.018481608885362e-04,1.991919710874067e-13
	2.018481608198290e-04,1.866226403603767e-13
	-8.369788748327842e-07,-1.401281400518916e-13
	1.510140671024948e-04,1.379130458447179e-11
	-1.076523525232757e-04,-1.005634829163533e-13
	-4.252473570438638e-05,-1.355061296150354e-11
	8.369788748327844e-07,1.401281400518929e-13
	-1.510140671025229e-04,-1.379130458447179e-11
	8.369788748327844e-07,1.401281400518929e-13
19		1.548816618912481e+00,0.000000000000000e+00
	8.369788748327844e-03,1.433921437364381e-09
	1.000000000000000e+00,0.000000000000000e+00
	0.000000000000000e+00,0.000000000000000e+00
	2.018481608885362e-04,2.038317481323339e-13
	2.018481608198290e-04,1.909696400817049e-13
	-8.369788748327842e-07,-1.433921437364380e-13
	1.510140671024948e-04,1.411254533569942e-11
	-1.076523525232757e-04,-1.029059073476497e-13
	-4.252473570438638e-05,-1.386624728461533e-11
	8.369788748327844e-07,1.433921437364381e-13
	-1.510140671025229e-04,-1.411254533569942e-11
	8.369788748327844e-07,1.433921437364381e-13
20		1.584893192461113e+00,0.000000000000000e+00
	8.369788748327845e-03,1.467321758336118e-09
	1.000000000000000e+00,0.000000000000000e+00
	0.000000000000000e+00,0.000000000000000e+00
	2.018481608885362e-04,2.085795994681530e-13
	2.018481608198290e-04,1.954178944339865e-13
	-8.369788748327774e-07,-1.467321758336104e-13
	1.510140671024948e-04,1.444126874526566e-11
	-1.076523525232757e-04,-1.053028938531425e-13
	-4.252473570438638e-05,-1.418923367557890e-11
	8.369788748327846e-07,1.467321758336118e-13
	-1.510140671025229e-04,-1.444126874526566e-11
	8.369788748327846e-07,1.467321758336118e-13
21		1.621810097358929e+00,0.000000000000000e+00
	8.369788748327845e-03,1.501500072726423e-09
	1.000000000000000e+00,0.000000000000000e+00
	0.000000000000000e+00,0.000000000000000e+00
	2.018481608885362e-04,2.134380424684874e-13
	2.018481608198290e-04,1.999697619405586e-13
	-8.369788748327774e-07,-1.501500072726423e-13
	1.510140671024948e-04,1.477764910667342e-11
	-1.076523525232757e-04,-1.077557133468049e-13
	-4.252473570438638e-05,-1.451974338605398e-11
	8.369788748327846e-07,1.501500072726423e-13
	-1.510140671025229e-04,-1.477764910667342e-11
	8.369788748327846e-07,1.501500072726423e-13
22		1.659586907437560e+00,0.000000000000000e+00
	8.369788748327845e-03,1.536474502329992e-09
	1.000000000000000e+00,0.000000000000000e+00
	0.000000000000000e+00,0.000000000000000e+00
	2.018481608885362e-04,2.184096531441252e-13
	2.018481608198290e-04,2.046276560618242e-13
	-8.369788748327774e-07,-1.536474502329980e-13
	1.510140671024948e-04,1.512186477324286e-11
	-1.076523525232757e-04,-1.102656663459991e-13
	-4.252473570438638e-05,-1.485795165666386e-11
	8.369788748327846e-07,1.536474502329992e-13
	-1.510140671025229e-04,-1.512186477324286e-11
	8.369788748327846e-07,1.536474502329992e-13
23		1.698243652461743e+00,0.000000000000000e+00
	8.369788748327845e-03,1.572263591052340e-09
	1.000000000000000e+00,0.000000000000000e+00
	0.000000000000000e+00,0.000000000000000e+00
	2.018481608885362e-04,2.234970675088535e-13
	2.018481608198290e-04,2.093940464749011e-13
	-8.369788748327774e-07,-1.572263591052351e-13
	1.510140671024948e-04,1.547409825267662e-11
	-1.076523525232757e-04,-1.128340836610287e-13
	-4.252473570438638e-05,-1.520403780991036e-11
	8.369788748327846e-07,1.572263591052340e-13
	-1.510140671025229e-04,-1.547409825267661e-11
	8.369788748327846e-07,1.572263591052340e-13
24		1.737800828749374e+00,0.000000000000000e+00
	8.369788748327845e-03,1.608886314742033e-09
	1.000000000000000e+00,0.000000000000000e+00
	0.000000000000000e+00,0.000000000000000e+00
	2.018481608885362e-04,2.287029829771084e-13
	2.018481608198290e-04,2.142714603830768e-13
	-8.369788748327774e-07,-1.608886314741998e-13
	1.510140671024948e-04,1.583453630382784e-11
	-1.076523525232757e-04,-1.154623271007510e-13
	-4.252473570438638e-05,-1.555818534525289e-11
	8.369788748327846e-07,1.608886314742033e-13
	-1.510140671025229e-04,-1.583453630382784e-11
	8.369788748327846e-07,1.608886314742033e-13
25		1.778279410038922e+00,0.000000000000000e+00
	8.369788748327845e-03,1.646362091251929e-09
	1.000000000000000e+00,0.000000000000000e+00
	0.000000000000000e+00,0.000000000000000e+00
	2.018481608885362e-04,2.340301597941796e-13
	2.018481608198290e-04,2.192624838557658e-13
	-8.369788748327774e-07,-1.646362091251918e-13
	1.510140671024948e-04,1.620337003572222e-11
	-1.076523525232757e-04,-1.181517901946267e-13
	-4.252473570438638e-05,-1.592058203640240e-11
	8.369788748327846e-07,1.646362091251929e-13
	-1.510140671025229e-04,-1.620337003572222e-11
	8.369788748327846e-07,1.646362091251929e-13
26		1.819700858609982e+00,0.000000000000000e+00
	8.369788748327845e-03,1.684710790734787e-09
	1.000000000000000e+00,0.000000000000000e+00
	0.000000000000000e+00,0.000000000000000e+00
	2.018481608885362e-04,2.394814224997290e-13
	2.018481608198290e-04,2.243697631996770e-13
	-8.369788748327774e-07,-1.684710790734782e-13
	1.510140671024948e-04,1.658079500888650e-11
	-1.076523525232757e-04,-1.209038989315874e-13
	-4.252473570438638e-05,-1.629142003088144e-11
	8.369788748327846e-07,1.684710790734787e-13
	-1.510140671025229e-04,-1.658079500888650e-11
	8.369788748327846e-07,1.684710790734787e-13
27		1.862087136662866e+00,0.000000000000000e+00
	8.369788748327845e-03,1.723952746178675e-09
	1.000000000000000e+00,0.000000000000000e+00
	0.000000000000000e+00,0.000000000000000e+00
	2.018481608885362e-04,2.450596614253992e-13
	2.018481608198290e-04,2.295960063619217e-13
	-8.369788748327842e-07,-1.723952746178652e-13
	1.510140671024948e-04,1.696701133903726e-11
	-1.076523525232757e-04,-1.237201125161139e-13
	-4.252473570438638e-05,-1.667089595190329e-11
	8.369788748327846e-07,1.723952746178675e-13
	-1.510140671025229e-04,-1.696701133903726e-11
	8.369788748327846e-07,1.723952746178675e-13
28		1.905460717963246e+00,0.000000000000000e+00
	8.369788748327845e-03,1.764108764187800e-09
	1.000000000000000e+00,0.000000000000000e+00
	0.000000000000000e+00,0.000000000000000e+00
	2.018481608885362e-04,2.507678342273053e-13
	2.018481608198290e-04,2.349439843658019e-13
	-8.369788748327842e-07,-1.764108764187793e-13
	1.510140671024948e-04,1.736222380318492e-11
	-1.076523525232757e-04,-1.266019241419258e-13
	-4.252473570438638e-05,-1.705921100262421e-11
	8.369788748327846e-07,1.764108764187800e-13
	-1.510140671025229e-04,-1.736222380318492e-11
	8.369788748327846e-07,1.764108764187800e-13
29		1.949844599758044e+00,0.000000000000000e+00
	8.369788748327845e-03,1.805200136014437e-09
	1.000000000000000e+00,0.000000000000000e+00
	0.000000000000000e+00,0.000000000000000e+00
	2.018481608885362e-04,2.566089674542233e-13
	2.018481608198290e-04,2.404165327800442e-13
	-8.369788748327842e-07,-1.805200136014432e-13
	1.510140671024948e-04,1.776664194820924e-11
	-1.076523525232757e-04,-1.295508617836923e-13
	-4.252473570438638e-05,-1.745657107282410e-11
	8.369788748327846e-07,1.805200136014437e-13
	-1.510140671025229e-04,-1.776664194820924e-11
	8.369788748327846e-07,1.805200136014437e-13
30		1.995262314968878e+00,0.000000000000000e+00
	8.369788748327845e-03,1.847248648847837e-09
	1.000000000000000e+00,0.000000000000000e+00
	0.000000000000000e+00,0.000000000000000e+00
	2.018481608885362e-04,2.625861581523068e-13
	2.018481608198290e-04,2.460165532222554e-13
	-8.369788748327842e-07,-1.847248648847856e-13
	1.510140671024948e-04,1.818048020196380e-11
	-1.076523525232757e-04,-1.325684890071849e-13
	-4.252473570438638e-05,-1.786318684807183e-11
	8.369788748327846e-07,1.847248648847837e-13
	-1.510140671025229e-04,-1.818048020196380e-11
	8.369788748327846e-07,1.847248648847837e-13
31		2.041737944669527e+00,0.000000000000000e+00
	8.369788748327847e-03,1.890276597366084e-09
	1.000000000000000e+00,0.000000000000000e+00
	0.000000000000000e+00,0.000000000000000e+00
	2.018481608885362e-04,2.687025755071814e-13
	2.018481608198290e-04,2.517470148973991e-13
	-8.369788748327706e-07,-1.890276597366080e-13
	1.510140671024948e-04,1.860395798696854e-11
	-1.076523525232757e-04,-1.356564057983005e-13
	-4.252473570438639e-05,-1.827927392143363e-11
	8.369788748327847e-07,1.890276597366084e-13
	-1.510140671025229e-04,-1.860395798696854e-11
	8.369788748327847e-07,1.890276597366084e-13
32		2.089296130854037e+00,0.000000000000000e+00
	8.369788748327847e-03,1.934306795557022e-09
	1.000000000000000e+00,0.000000000000000e+00
	0.000000000000000e+00,0.000000000000000e+00
	2.018481608885362e-04,2.749614625242889e-13
	2.018481608198290e-04,2.576109561721071e-13
	-8.369788748327706e-07,-1.934306795556975e-13
