Title: * GA CMOS Amp | W=1.103996304075014e-05 L=5.711807386847685e-07 Vbias=1.2801430438429615
Date: Sat Sep  6 22:07:17 2025
Plotname: AC Analysis
Flags: complex forward log
No. Variables: 13
No. Points:          901
Offset:    0.0000000000000000e+00
Command: Linear Technology Corporation LTspice
Variables:
	0	frequency	frequency
	1	V(out)	voltage
	2	V(g)	voltage
	3	V(vdd)	voltage
	4	V(m1#dbody)	voltage
	5	V(m1#sbody)	voltage
	6	Id(M1)	device_current
	7	Ig(M1)	device_current
	8	Ib(M1)	device_current
	9	Is(M1)	device_current
	10	I(Rload)	device_current
	11	I(Vg)	device_current
	12	I(Vdd)	device_current
Values:
0		1.000000000000000e+00,0.000000000000000e+00
	8.069442046320090e-03,4.700270688781323e-10
	1.000000000000000e+00,0.000000000000000e+00
	0.000000000000000e+00,0.000000000000000e+00
	4.057535498275877e-05,4.353512660923516e-14
	4.057535492168179e-05,4.149274156720933e-14
	-8.069442046320108e-07,-4.700270688781325e-14
	2.973578796888139e-05,1.664210390370983e-12
	-2.164018931199300e-05,-2.227237613147978e-14
	-7.288654452256375e-06,-1.594935307351690e-12
	8.069442046320090e-07,4.700270688781323e-14
	-2.973578796888754e-05,-1.664210390370983e-12
	8.069442046320090e-07,4.700270688781323e-14
1		1.023292992280754e+00,0.000000000000000e+00
	8.069442046320090e-03,4.809754057652561e-10
	1.000000000000000e+00,0.000000000000000e+00
	0.000000000000000e+00,0.000000000000000e+00
	4.057535498275877e-05,4.454918997728573e-14
	4.057535492168179e-05,4.245923167624166e-14
	-8.069442046320108e-07,-4.809754057652568e-14
	2.973578796888139e-05,1.702974830147445e-12
	-2.164018931199300e-05,-2.279116641678439e-14
	-7.288654452256375e-06,-1.632086123154135e-12
	8.069442046320090e-07,4.809754057652562e-14
	-2.973578796888754e-05,-1.702974830147445e-12
	8.069442046320090e-07,4.809754057652562e-14
2		1.047128548050899e+00,0.000000000000000e+00
	8.069442046320090e-03,4.921787621789788e-10
	1.000000000000000e+00,0.000000000000000e+00
	0.000000000000000e+00,0.000000000000000e+00
	4.057535498275877e-05,4.558687391554048e-14
	4.057535492168179e-05,4.344823423192310e-14
	-8.069442046320108e-07,-4.921787621789779e-14
	2.973578796888139e-05,1.742642209720388e-12
	-2.164018931199300e-05,-2.332204088019993e-14
	-7.288654452256375e-06,-1.670102292622291e-12
	8.069442046320090e-07,4.921787621789789e-14
	-2.973578796888754e-05,-1.742642209720388e-12
	8.069442046320090e-07,4.921787621789789e-14
3		1.071519305237606e+00,0.000000000000000e+00
	8.069442046320090e-03,5.036430782871648e-10
	1.000000000000000e+00,0.000000000000000e+00
	0.000000000000000e+00,0.000000000000000e+00
	4.057535498275877e-05,4.664872861775887e-14
	4.057535492168179e-05,4.446027361649968e-14
	-8.069442046320108e-07,-5.036430782871657e-14
	2.973578796888139e-05,1.783233561259521e-12
	-2.164018931199300e-05,-2.386528099839385e-14
	-7.288654452256375e-06,-1.709003972432411e-12
	8.069442046320090e-07,5.036430782871648e-14
	-2.973578796888754e-05,-1.783233561259521e-12
	8.069442046320090e-07,5.036430782871648e-14
4		1.096478196143185e+00,0.000000000000000e+00
	8.069442046320090e-03,5.153744326219628e-10
	1.000000000000000e+00,0.000000000000000e+00
	0.000000000000000e+00,0.000000000000000e+00
	4.057535498275877e-05,4.773531709335933e-14
	4.057535492168179e-05,4.549588642664903e-14
	-8.069442046320108e-07,-5.153744326219643e-14
	2.973578796888139e-05,1.824770406836721e-12
	-2.164018931199300e-05,-2.442117480446747e-14
	-7.288654452256375e-06,-1.748811788770057e-12
	8.069442046320090e-07,5.153744326219629e-14
	-2.973578796888754e-05,-1.824770406836721e-12
	8.069442046320090e-07,5.153744326219629e-14
5		1.122018454301963e+00,0.000000000000000e+00
	8.069442046320090e-03,5.273790453027244e-10
	1.000000000000000e+00,0.000000000000000e+00
	0.000000000000000e+00,0.000000000000000e+00
	4.057535498275877e-05,4.884721546593430e-14
	4.057535492168179e-05,4.655562175799103e-14
	-8.069442046320108e-07,-5.273790453027246e-14
	2.973578796888139e-05,1.867274769837317e-12
	-2.164018931199300e-05,-2.499001704067488e-14
	-7.288654452256375e-06,-1.789546848266370e-12
	8.069442046320090e-07,5.273790453027244e-14
	-2.973578796888754e-05,-1.867274769837317e-12
	8.069442046320090e-07,5.273790453027244e-14
6		1.148153621496882e+00,0.000000000000000e+00
	8.069442046320090e-03,5.396632813339920e-10
	1.000000000000000e+00,0.000000000000000e+00
	0.000000000000000e+00,0.000000000000000e+00
	4.057535498275877e-05,4.998501327871864e-14
	4.057535492168179e-05,4.764004149622562e-14
	-8.069442046320108e-07,-5.396632813339966e-14
	2.973578796888139e-05,1.910769186637185e-12
	-2.164018931199300e-05,-2.557210931469923e-14
	-7.288654452256375e-06,-1.831230749189086e-12
	8.069442046320090e-07,5.396632813339920e-14
	-2.973578796888754e-05,-1.910769186637185e-12
	8.069442046320090e-07,5.396632813339920e-14
7		1.174897554939529e+00,0.000000000000000e+00
	8.069442046320090e-03,5.522336539803113e-10
	1.000000000000000e+00,0.000000000000000e+00
	0.000000000000000e+00,0.000000000000000e+00
	4.057535498275877e-05,5.114931380717322e-14
	4.057535492168179e-05,4.874972061505201e-14
	-8.069442046320108e-07,-5.522336539803108e-14
	2.973578796888139e-05,1.955276718551827e-12
	-2.164018931199300e-05,-2.616776025956912e-14
	-7.288654452256375e-06,-1.873885592894227e-12
	8.069442046320090e-07,5.522336539803113e-14
	-2.973578796888754e-05,-1.955276718551827e-12
	8.069442046320090e-07,5.522336539803113e-14
8		1.202264434617413e+00,0.000000000000000e+00
	8.069442046320090e-03,5.650968282196472e-10
	1.000000000000000e+00,0.000000000000000e+00
	0.000000000000000e+00,0.000000000000000e+00
	4.057535498275877e-05,5.234073437884958e-14
	4.057535492168179e-05,4.988524748102734e-14
	-8.069442046320108e-07,-5.650968282196522e-14
	2.973578796888139e-05,2.000820964063794e-12
	-2.164018931199300e-05,-2.677728569729989e-14
	-7.288654452256375e-06,-1.917533995544529e-12
	8.069442046320090e-07,5.650968282196472e-14
	-2.973578796888754e-05,-2.000820964063794e-12
	8.069442046320090e-07,5.650968282196472e-14
9		1.230268770812381e+00,0.000000000000000e+00
	8.069442046320090e-03,5.782596242772461e-10
	1.000000000000000e+00,0.000000000000000e+00
	0.000000000000000e+00,0.000000000000000e+00
	4.057535498275877e-05,5.355990670070512e-14
	4.057535492168179e-05,5.104722416552641e-14
	-8.069442046320108e-07,-5.782596242772495e-14
	2.973578796888139e-05,2.047426071334903e-12
	-2.164018931199300e-05,-2.740100880634664e-14
	-7.288654452256375e-06,-1.962199100100831e-12
	8.069442046320090e-07,5.782596242772461e-14
	-2.973578796888754e-05,-2.047426071334902e-12
	8.069442046320090e-07,5.782596242772461e-14
10		1.258925411794167e+00,0.000000000000000e+00
	8.069442046320090e-03,5.917290212418080e-10
	1.000000000000000e+00,0.000000000000000e+00
	0.000000000000000e+00,0.000000000000000e+00
	4.057535498275877e-05,5.480747719404255e-14
	4.057535492168179e-05,5.223626676396794e-14
	-8.069442046320108e-07,-5.917290212418073e-14
	2.973578796888139e-05,2.095116751009921e-12
	-2.164018931199300e-05,-2.803926029295775e-14
	-7.288654452256375e-06,-2.007904588592783e-12
	8.069442046320090e-07,5.917290212418080e-14
	-2.973578796888754e-05,-2.095116751009921e-12
	8.069442046320090e-07,5.917290212418080e-14
11		1.288249551693134e+00,0.000000000000000e+00
	8.069442046320090e-03,6.055121607658915e-10
	1.000000000000000e+00,0.000000000000000e+00
	0.000000000000000e+00,0.000000000000000e+00
	4.057535498275877e-05,5.608410733725100e-14
	4.057535492168179e-05,5.345300572247647e-14
	-8.069442046320108e-07,-6.055121607658950e-14
	2.973578796888139e-05,2.143918289318474e-12
	-2.164018931199300e-05,-2.869237856651967e-14
	-7.288654452256375e-06,-2.054674694675365e-12
	8.069442046320090e-07,6.055121607658915e-14
	-2.973578796888754e-05,-2.143918289318474e-12
	8.069442046320090e-07,6.055121607658915e-14
12		1.318256738556407e+00,0.000000000000000e+00
	8.069442046320090e-03,6.196163508525142e-10
	1.000000000000000e+00,0.000000000000000e+00
	0.000000000000000e+00,0.000000000000000e+00
	4.057535498275877e-05,5.739047401653057e-14
	4.057535492168179e-05,5.469808617215322e-14
	-8.069442046320108e-07,-6.196163508525159e-14
	2.973578796888139e-05,2.193856561482137e-12
	-2.164018931199300e-05,-2.936070991898609e-14
	-7.288654452256375e-06,-2.102534216477899e-12
	8.069442046320090e-07,6.196163508525143e-14
	-2.973578796888754e-05,-2.193856561482137e-12
	8.069442046320090e-07,6.196163508525143e-14
13		1.348962882591653e+00,0.000000000000000e+00
	8.069442046320090e-03,6.340490697299510e-10
	1.000000000000000e+00,0.000000000000000e+00
	0.000000000000000e+00,0.000000000000000e+00
	4.057535498275877e-05,5.872726988478644e-14
	4.057535492168179e-05,5.597216827113321e-14
	-8.069442046320125e-07,-6.340490697299535e-14
	2.973578796888139e-05,2.244958045433822e-12
	-2.164018931199300e-05,-3.004460870848650e-14
	-7.288654452256375e-06,-2.151508529752340e-12
	8.069442046320090e-07,6.340490697299510e-14
	-2.973578796888754e-05,-2.244958045433822e-12
	8.069442046320090e-07,6.340490697299510e-14
14		1.380384264602885e+00,0.000000000000000e+00
	8.069442046320090e-03,6.488179698167900e-10
	1.000000000000000e+00,0.000000000000000e+00
	0.000000000000000e+00,0.000000000000000e+00
	4.057535498275877e-05,6.009520372888255e-14
	4.057535492168179e-05,5.727592755460980e-14
	-8.069442046320125e-07,-6.488179698167898e-14
	2.973578796888139e-05,2.297249835856729e-12
	-2.164018931199300e-05,-3.074443754721155e-14
	-7.288654452256375e-06,-2.201623601327839e-12
	8.069442046320090e-07,6.488179698167901e-14
	-2.973578796888754e-05,-2.297249835856729e-12
	8.069442046320090e-07,6.488179698167901e-14
15		1.412537544622754e+00,0.000000000000000e+00
	8.069442046320090e-03,6.639308817793471e-10
	1.000000000000000e+00,0.000000000000000e+00
	0.000000000000000e+00,0.000000000000000e+00
	4.057535498275877e-05,6.149500084544975e-14
	4.057535492168179e-05,5.861005529301236e-14
	-8.069442046320125e-07,-6.639308817793494e-14
	2.973578796888139e-05,2.350759658550304e-12
	-2.164018931199300e-05,-3.146056749367488e-14
	-7.288654452256375e-06,-2.252906002878694e-12
	8.069442046320090e-07,6.639308817793472e-14
	-2.973578796888754e-05,-2.350759658550303e-12
	8.069442046320090e-07,6.639308817793472e-14
16		1.445439770745927e+00,0.000000000000000e+00
	8.069442046320090e-03,6.793958186835875e-10
	1.000000000000000e+00,0.000000000000000e+00
	0.000000000000000e+00,0.000000000000000e+00
	4.057535498275877e-05,6.292740342544777e-14
	4.057535492168179e-05,5.997525885852704e-14
	-8.069442046320125e-07,-6.793958186835908e-14
	2.973578796888139e-05,2.405515885130824e-12
	-2.164018931199300e-05,-3.219337824945319e-14
	-7.288654452256375e-06,-2.305382925013011e-12
	8.069442046320090e-07,6.793958186835875e-14
	-2.973578796888754e-05,-2.405515885130823e-12
	8.069442046320090e-07,6.793958186835875e-14
17		1.479108388168207e+00,0.000000000000000e+00
	8.069442046320090e-03,6.952209802437610e-10
	1.000000000000000e+00,0.000000000000000e+00
	0.000000000000000e+00,0.000000000000000e+00
	4.057535498275877e-05,6.439317094768462e-14
	4.057535492168179e-05,6.137226210015495e-14
	-8.069442046320125e-07,-6.952209802437634e-14
	2.973578796888139e-05,2.461547548074407e-12
	-2.164018931199300e-05,-3.294325836050910e-14
	-7.288654452256375e-06,-2.359082191689522e-12
	8.069442046320090e-07,6.952209802437610e-14
	-2.973578796888754e-05,-2.461547548074406e-12
	8.069442046320090e-07,6.952209802437610e-14
18		1.513561248436208e+00,0.000000000000000e+00
	8.069442046320090e-03,7.114147571699972e-10
	1.000000000000000e+00,0.000000000000000e+00
	0.000000000000000e+00,0.000000000000000e+00
	4.057535498275877e-05,6.589308058150230e-14
	4.057535492168179e-05,6.280180572750626e-14
	-8.069442046320125e-07,-7.114147571699967e-14
	2.973578796888139e-05,2.518884356110413e-12
	-2.164018931199300e-05,-3.371060542320332e-14
	-7.288654452256375e-06,-2.414032274970210e-12
	8.069442046320090e-07,7.114147571699972e-14
	-2.973578796888754e-05,-2.518884356110413e-12
	8.069442046320090e-07,7.114147571699972e-14
19		1.548816618912481e+00,0.000000000000000e+00
	8.069442046320090e-03,7.279857356171724e-10
	1.000000000000000e+00,0.000000000000000e+00
	0.000000000000000e+00,0.000000000000000e+00
	4.057535498275877e-05,6.742792759884236e-14
	4.057535492168179e-05,6.426464770353449e-14
	-8.069442046320125e-07,-7.279857356171733e-14
	2.973578796888139e-05,2.577556709973405e-12
	-2.164018931199300e-05,-3.449582629510555e-14
	-7.288654452256375e-06,-2.470262310116583e-12
	8.069442046320090e-07,7.279857356171724e-14
	-2.973578796888754e-05,-2.577556709973406e-12
	8.069442046320090e-07,7.279857356171724e-14
20		1.584893192461113e+00,0.000000000000000e+00
	8.069442046320090e-03,7.449427017374022e-10
	1.000000000000000e+00,0.000000000000000e+00
	0.000000000000000e+00,0.000000000000000e+00
	4.057535498275877e-05,6.899852579590945e-14
	4.057535492168179e-05,6.576156364641830e-14
	-8.069442046320125e-07,-7.449427017374066e-14
	2.973578796888139e-05,2.637595718522023e-12
	-2.164018931199300e-05,-3.529933731071568e-14
	-7.288654452256375e-06,-2.527802111037566e-12
	8.069442046320090e-07,7.449427017374022e-14
	-2.973578796888754e-05,-2.637595718522022e-12
	8.069442046320090e-07,7.449427017374022e-14
21		1.621810097358929e+00,0.000000000000000e+00
	8.069442046320090e-03,7.622946463385757e-10
	1.000000000000000e+00,0.000000000000000e+00
	0.000000000000000e+00,0.000000000000000e+00
	4.057535498275877e-05,7.060570792465697e-14
	4.057535492168179e-05,6.729334724080464e-14
	-8.069442046320125e-07,-7.622946463385765e-14
	2.973578796888139e-05,2.699033215233305e-12
	-2.164018931199300e-05,-3.612156450220990e-14
	-7.288654452256375e-06,-2.586682186097238e-12
	8.069442046320090e-07,7.622946463385758e-14
	-2.973578796888754e-05,-2.699033215233306e-12
	8.069442046320090e-07,7.622946463385758e-14
22		1.659586907437560e+00,0.000000000000000e+00
	8.069442046320090e-03,7.800507696514004e-10
	1.000000000000000e+00,0.000000000000000e+00
	0.000000000000000e+00,0.000000000000000e+00
	4.057535498275877e-05,7.225032613432320e-14
	4.057535492168179e-05,6.886081065863081e-14
	-8.069442046320125e-07,-7.800507696514018e-14
	2.973578796888139e-05,2.761901775081234e-12
	-2.164018931199300e-05,-3.696294382532865e-14
	-7.288654452256375e-06,-2.646933754290765e-12
	8.069442046320090e-07,7.800507696514004e-14
	-2.973578796888754e-05,-2.761901775081234e-12
	8.069442046320090e-07,7.800507696514004e-14
23		1.698243652461743e+00,0.000000000000000e+00
	8.069442046320090e-03,7.982204862074868e-10
	1.000000000000000e+00,0.000000000000000e+00
	0.000000000000000e+00,0.000000000000000e+00
	4.057535498275877e-05,7.393325242325195e-14
	4.057535492168179e-05,7.046478498974878e-14
	-8.069442046320125e-07,-7.982204862074896e-14
	2.973578796888139e-05,2.826234731808403e-12
	-2.164018931199300e-05,-3.782392139052597e-14
	-7.288654452256375e-06,-2.708588761797128e-12
	8.069442046320090e-07,7.982204862074868e-14
	-2.973578796888754e-05,-2.826234731808402e-12
	8.069442046320090e-07,7.982204862074868e-14
24		1.737800828749374e+00,0.000000000000000e+00
	8.069442046320090e-03,8.168134298310575e-10
	1.000000000000000e+00,0.000000000000000e+00
	0.000000000000000e+00,0.000000000000000e+00
	4.057535498275877e-05,7.565537910123781e-14
	4.057535492168179e-05,7.210612068257998e-14
	-8.069442046320125e-07,-8.168134298310571e-14
	2.973578796888139e-05,2.892066195600014e-12
	-2.164018931199300e-05,-3.870495369950335e-14
	-7.288654452256375e-06,-2.771679898917405e-12
	8.069442046320090e-07,8.168134298310576e-14
	-2.973578796888754e-05,-2.892066195600015e-12
	8.069442046320090e-07,8.168134298310576e-14
25		1.778279410038922e+00,0.000000000000000e+00
	8.069442046320091e-03,8.358394587469285e-10
	1.000000000000000e+00,0.000000000000000e+00
	0.000000000000000e+00,0.000000000000000e+00
	4.057535498275877e-05,7.741761926264045e-14
	4.057535492168179e-05,7.378568799503444e-14
	-8.069442046320091e-07,-8.358394587469336e-14
	2.973578796888139e-05,2.959431071169555e-12
	-2.164018931199300e-05,-3.960650788725282e-14
	-7.288654452256379e-06,-2.836240617407609e-12
	8.069442046320092e-07,8.358394587469286e-14
	-2.973578796888754e-05,-2.959431071169555e-12
	8.069442046320092e-07,8.358394587469286e-14
26		1.819700858609982e+00,0.000000000000000e+00
	8.069442046320091e-03,8.553086608074704e-10
	1.000000000000000e+00,0.000000000000000e+00
	0.000000000000000e+00,0.000000000000000e+00
	4.057535498275877e-05,7.922090727051950e-14
	4.057535492168179e-05,7.550437745593291e-14
	-8.069442046320091e-07,-8.553086608074737e-14
	2.973578796888139e-05,3.028365076265732e-12
	-2.164018931199300e-05,-4.052906196973823e-14
	-7.288654452256379e-06,-2.902305148215246e-12
	8.069442046320092e-07,8.553086608074704e-14
	-2.973578796888754e-05,-3.028365076265731e-12
	8.069442046320092e-07,8.553086608074704e-14
27		1.862087136662866e+00,0.000000000000000e+00
	8.069442046320091e-03,8.752313588413208e-10
	1.000000000000000e+00,0.000000000000000e+00
	0.000000000000000e+00,0.000000000000000e+00
	4.057535498275877e-05,8.106619925204604e-14
	4.057535492168179e-05,7.726310033717711e-14
	-8.069442046320091e-07,-8.752313588413257e-14
	2.973578796888139e-05,3.098904760610494e-12
	-2.164018931199300e-05,-4.147310509734555e-14
	-7.288654452256379e-06,-2.969908519629016e-12
	8.069442046320092e-07,8.752313588413209e-14
	-2.973578796888754e-05,-3.098904760610494e-12
	8.069442046320092e-07,8.752313588413209e-14
28		1.905460717963246e+00,0.000000000000000e+00
	8.069442046320091e-03,8.956181161266857e-10
	1.000000000000000e+00,0.000000000000000e+00
	0.000000000000000e+00,0.000000000000000e+00
	4.057535498275877e-05,8.295447360545403e-14
	4.057535492168179e-05,7.906278913691810e-14
	-8.069442046320091e-07,-8.956181161266897e-14
	2.973578796888139e-05,3.171087525278187e-12
	-2.164018931199300e-05,-4.243913781423692e-14
	-7.288654452256379e-06,-3.039086575851281e-12
	8.069442046320092e-07,8.956181161266858e-14
	-2.973578796888754e-05,-3.171087525278186e-12
	8.069442046320092e-07,8.956181161266858e-14
29		1.949844599758044e+00,0.000000000000000e+00
	8.069442046320091e-03,9.164797419921284e-10
	1.000000000000000e+00,0.000000000000000e+00
	0.000000000000000e+00,0.000000000000000e+00
	4.057535498275877e-05,8.488673151879988e-14
	4.057535492168179e-05,8.090439807397923e-14
	-8.069442046320091e-07,-9.164797419921279e-14
	2.973578796888139e-05,3.244951642526088e-12
	-2.164018931199300e-05,-4.342767232374580e-14
	-7.288654452256379e-06,-3.109875996003129e-12
	8.069442046320092e-07,9.164797419921285e-14
	-2.973578796888754e-05,-3.244951642526088e-12
	8.069442046320092e-07,9.164797419921285e-14
30		1.995262314968878e+00,0.000000000000000e+00
	8.069442046320091e-03,9.378272975478183e-10
	1.000000000000000e+00,0.000000000000000e+00
	0.000000000000000e+00,0.000000000000000e+00
	4.057535498275877e-05,8.686399750080575e-14
	4.057535492168179e-05,8.278890359379548e-14
	-8.069442046320091e-07,-9.378272975478198e-14
	2.973578796888139e-05,3.320536276086868e-12
	-2.164018931199300e-05,-4.443923275995393e-14
	-7.288654452256379e-06,-3.182314313572132e-12
	8.069442046320092e-07,9.378272975478184e-14
	-2.973578796888754e-05,-3.320536276086867e-12
	8.069442046320092e-07,9.378272975478184e-14
31		2.041737944669527e+00,0.000000000000000e+00
	8.069442046320091e-03,9.596721015502803e-10
	1.000000000000000e+00,0.000000000000000e+00
	0.000000000000000e+00,0.000000000000000e+00
	4.057535498275877e-05,8.888731992406743e-14
	4.057535492168179e-05,8.471730488613784e-14
	-8.069442046320091e-07,-9.596721015502803e-14
	2.973578796888139e-05,3.397881501933723e-12
	-2.164018931199300e-05,-4.547435546559416e-14
	-7.288654452256379e-06,-3.256439936313101e-12
	8.069442046320092e-07,9.596721015502803e-14
	-2.973578796888754e-05,-3.397881501933723e-12
	8.069442046320092e-07,9.596721015502803e-14
32		2.089296130854037e+00,0.000000000000000e+00
	8.069442046320091e-03,9.820257364037459e-10
	1.000000000000000e+00,0.000000000000000e+00
	0.000000000000000e+00,0.000000000000000e+00
	4.057535498275877e-05,9.095777158091567e-14
	4.057535492168179e-05,8.669062441489695e-14
