LTspice 24.0.9 for Windows
Circuit: * GA CMOS Amp | W=1.6795402339803253e-05 L=7.734046752164566e-07 Vbias=0.7203640681916454
Start Time: Mon Sep  8 18:47:29 2025
solver = Normal
Maximum thread count: 2
tnom = 27
temp = 27
method = modified trap
AsciiRawFile = 1
Instance "m1": Length shorter than recommended for a level 3 MOSFET.
Direct Newton iteration for .op point succeeded.
Semiconductor Device Operating Points:
                        --- MOSFET Transistors ---
Name:          m1
Model:        n_1u
Id:          1.41e-06
Vgs:         7.20e-01
Vds:         1.79e+00
Vbs:         0.00e+00
Vth:         7.92e-01
Vdsat:       4.81e-02
Gm:          2.61e-05
Gds:         1.33e-07
Gmb:         5.82e-06
Cbd:         0.00e+00
Cbs:         0.00e+00
Cgsov:       3.36e-15
Cgdov:       3.36e-15
Cgbov:       5.73e-17
Cgs:         8.83e-15
Cgd:         0.00e+00
Cgb:         1.69e-15



gain_db: MAX(db(v(out)/v(g)))=(29.4511dB,113.191°) FROM 1 TO 1e+09
gain_lin: MAX(mag(v(out)/v(g)))=(-9.68939dB,0°) FROM 1 TO 1e+09

Measurement "fc" FAIL'ed

Total elapsed time: 0.431 seconds.

