Title: * GA CMOS Amp | W=3.359497975531785e-05 L=6.949864943104594e-07 Vbias=0.9383918019780921
Date: Sat Sep  6 22:08:19 2025
Plotname: AC Analysis
Flags: complex forward log
No. Variables: 13
No. Points:          901
Offset:    0.0000000000000000e+00
Command: Linear Technology Corporation LTspice
Variables:
	0	frequency	frequency
	1	V(out)	voltage
	2	V(g)	voltage
	3	V(vdd)	voltage
	4	V(m1#dbody)	voltage
	5	V(m1#sbody)	voltage
	6	Id(M1)	device_current
	7	Ig(M1)	device_current
	8	Ib(M1)	device_current
	9	Is(M1)	device_current
	10	I(Rload)	device_current
	11	I(Vg)	device_current
	12	I(Vdd)	device_current
Values:
0		1.000000000000000e+00,0.000000000000000e+00
	-5.858428762340500e-03,6.626013413137900e-10
	1.000000000000000e+00,0.000000000000000e+00
	0.000000000000000e+00,0.000000000000000e+00
	3.282985544937440e-06,5.861909877191700e-14
	3.282985592751080e-06,6.319778111445497e-14
	5.858428762340577e-07,-6.626013413137828e-14
	9.079917483710942e-06,6.059623026973700e-12
	-1.750925647604117e-06,-3.340190095836453e-14
	-7.914834712340882e-06,-5.959960991883957e-12
	-5.858428762340501e-07,6.626013413137900e-14
	-9.079917483723055e-06,-6.059623026973700e-12
	-5.858428762340501e-07,6.626013413137900e-14
1		1.023292992280754e+00,0.000000000000000e+00
	-5.858428762340500e-03,6.780353092422293e-10
	1.000000000000000e+00,0.000000000000000e+00
	0.000000000000000e+00,0.000000000000000e+00
	3.282985544937440e-06,5.998451298711601e-14
	3.282985592751080e-06,6.466984654211476e-14
	5.858428762340577e-07,-6.780353092422371e-14
	9.079917483710942e-06,6.200769779365278e-12
	-1.750925647604117e-06,-3.417993117955022e-14
	-7.914834712340882e-06,-6.098786317261504e-12
	-5.858428762340501e-07,6.780353092422293e-14
	-9.079917483723055e-06,-6.200769779365278e-12
	-5.858428762340501e-07,6.780353092422293e-14
2		1.047128548050899e+00,0.000000000000000e+00
	-5.858428762340500e-03,6.938287804664873e-10
	1.000000000000000e+00,0.000000000000000e+00
	0.000000000000000e+00,0.000000000000000e+00
	3.282985544937440e-06,6.138173178508971e-14
	3.282985592751080e-06,6.617620077841780e-14
	5.858428762340577e-07,-6.938287804664907e-14
	9.079917483710942e-06,6.345204261970767e-12
	-1.750925647604117e-06,-3.497608405267219e-14
	-7.914834712340882e-06,-6.240845299871445e-12
	-5.858428762340501e-07,6.938287804664873e-14
	-9.079917483723055e-06,-6.345204261970767e-12
	-5.858428762340501e-07,6.938287804664873e-14
3		1.071519305237606e+00,0.000000000000000e+00
	-5.858428762340500e-03,7.099901288940582e-10
	1.000000000000000e+00,0.000000000000000e+00
	0.000000000000000e+00,0.000000000000000e+00
	3.282985544937439e-06,6.281149598973911e-14
	3.282985592751079e-06,6.771764251231912e-14
	5.858428762340577e-07,-7.099901288940601e-14
	9.079917483710942e-06,6.493003055864659e-12
	-1.750925647604117e-06,-3.579078170852210e-14
	-7.914834712340882e-06,-6.386213261266731e-12
	-5.858428762340501e-07,7.099901288940582e-14
	-9.079917483723055e-06,-6.493003055864660e-12
	-5.858428762340501e-07,7.099901288940582e-14
4		1.096478196143185e+00,0.000000000000000e+00
	-5.858428762340500e-03,7.265279234857989e-10
	1.000000000000000e+00,0.000000000000000e+00
	0.000000000000000e+00,0.000000000000000e+00
	3.282985544937439e-06,6.427456368097074e-14
	3.282985592751079e-06,6.929498903662943e-14
	5.858428762340577e-07,-7.265279234858105e-14
	9.079917483710942e-06,6.644244525923827e-12
	-1.750925647604117e-06,-3.662445611058085e-14
	-7.914834712340882e-06,-6.534967277464665e-12
	-5.858428762340501e-07,7.265279234857989e-14
	-9.079917483723055e-06,-6.644244525923827e-12
	-5.858428762340501e-07,7.265279234857989e-14
5		1.122018454301963e+00,0.000000000000000e+00
	-5.858428762340500e-03,7.434509327993061e-10
	1.000000000000000e+00,0.000000000000000e+00
	0.000000000000000e+00,0.000000000000000e+00
	3.282985544937438e-06,6.577171059664042e-14
	3.282985592751079e-06,7.090907668135458e-14
	5.858428762340577e-07,-7.434509327993097e-14
	9.079917483710940e-06,6.799008862377613e-12
	-1.750925647604116e-06,-3.747754928405143e-14
	-7.914834712340882e-06,-6.687186219813631e-12
	-5.858428762340501e-07,7.434509327993061e-14
	-9.079917483723055e-06,-6.799008862377616e-12
	-5.858428762340501e-07,7.434509327993061e-14
6		1.148153621496882e+00,0.000000000000000e+00
	-5.858428762340500e-03,7.607681296381197e-10
	1.000000000000000e+00,0.000000000000000e+00
	0.000000000000000e+00,0.000000000000000e+00
	3.282985544937438e-06,6.730373054385998e-14
	3.282985592751079e-06,7.256076125712879e-14
	5.858428762340577e-07,-7.607681296381244e-14
	9.079917483710940e-06,6.957378123325755e-12
	-1.750925647604116e-06,-3.835051355022643e-14
	-7.914834712340882e-06,-6.842950796811716e-12
	-5.858428762340501e-07,7.607681296381197e-14
	-9.079917483723055e-06,-6.957378123325755e-12
	-5.858428762340501e-07,7.607681296381197e-14
7		1.174897554939529e+00,0.000000000000000e+00
	-5.858428762340500e-03,7.784886958092242e-10
	1.000000000000000e+00,0.000000000000000e+00
	0.000000000000000e+00,0.000000000000000e+00
	3.282985544937438e-06,6.887143581988403e-14
	3.282985592751079e-06,7.425091850897671e-14
	5.858428762340577e-07,-7.784886958092279e-14
	9.079917483710940e-06,7.119436278246668e-12
	-1.750925647604116e-06,-3.924381176631480e-14
	-7.914834712340882e-06,-7.002343596899430e-12
	-5.858428762340501e-07,7.784886958092242e-14
	-9.079917483723055e-06,-7.119436278246669e-12
	-5.858428762340501e-07,7.784886958092242e-14
8		1.202264434617413e+00,0.000000000000000e+00
	-5.858428762340500e-03,7.966220269913629e-10
	1.000000000000000e+00,0.000000000000000e+00
	0.000000000000000e+00,0.000000000000000e+00
	3.282985544937438e-06,7.047565764280104e-14
	3.282985592751079e-06,7.598044458064520e-14
	5.858428762340577e-07,-7.966220269913693e-14
	9.079917483710940e-06,7.285269252519191e-12
	-1.750925647604116e-06,-4.015791757085493e-14
	-7.914834712340882e-06,-7.165449132249198e-12
	-5.858428762340501e-07,7.966220269913629e-14
	-9.079917483723055e-06,-7.285269252519189e-12
	-5.858428762340501e-07,7.966220269913629e-14
9		1.230268770812381e+00,0.000000000000000e+00
	-5.858428762340500e-03,8.151777377167512e-10
	1.000000000000000e+00,0.000000000000000e+00
	0.000000000000000e+00,0.000000000000000e+00
	3.282985544937438e-06,7.211724659225587e-14
	3.282985592751079e-06,7.775025648975044e-14
	5.858428762340577e-07,-8.151777377167533e-14
	9.079917483710940e-06,7.454964972981334e-12
	-1.750925647604116e-06,-4.109331563484402e-14
	-7.914834712340882e-06,-7.332353883574814e-12
	-5.858428762340501e-07,8.151777377167512e-14
	-9.079917483723055e-06,-7.454964972981334e-12
	-5.858428762340501e-07,8.151777377167512e-14
10		1.258925411794167e+00,0.000000000000000e+00
	-5.858428762340500e-03,8.341656664688304e-10
	1.000000000000000e+00,0.000000000000000e+00
	0.000000000000000e+00,0.000000000000000e+00
	3.282985544937437e-06,7.379707306043855e-14
	3.282985592751078e-06,7.956129261399284e-14
	5.858428762340577e-07,-8.341656664688309e-14
	9.079917483710940e-06,7.628613414550280e-12
	-1.750925647604116e-06,-4.205050191871704e-14
	-7.914834712340882e-06,-7.503146345984680e-12
	-5.858428762340501e-07,8.341656664688304e-14
	-9.079917483723055e-06,-7.628613414550281e-12
	-5.858428762340501e-07,8.341656664688304e-14
11		1.288249551693134e+00,0.000000000000000e+00
	-5.858428762340500e-03,8.535958808987589e-10
	1.000000000000000e+00,0.000000000000000e+00
	0.000000000000000e+00,0.000000000000000e+00
	3.282985544937437e-06,7.551602771357759e-14
	3.282985592751078e-06,8.141451318869743e-14
	5.858428762340577e-07,-8.535958808987602e-14
	9.079917483710944e-06,7.806306647928257e-12
	-1.750925647604116e-06,-4.302998393531155e-14
	-7.914834712340886e-06,-7.677917075903071e-12
	-5.858428762340501e-07,8.535958808987590e-14
	-9.079917483723055e-06,-7.806306647928262e-12
	-5.858428762340501e-07,8.535958808987590e-14
12		1.318256738556407e+00,0.000000000000000e+00
	-5.858428762340500e-03,8.734786831634174e-10
	1.000000000000000e+00,0.000000000000000e+00
	0.000000000000000e+00,0.000000000000000e+00
	3.282985544937437e-06,7.727502196418317e-14
	3.282985592751078e-06,8.331090081594311e-14
	5.858428762340577e-07,-8.734786831634229e-14
	9.079917483710944e-06,7.988138888419652e-12
	-1.750925647604116e-06,-4.403228101895774e-14
	-7.914834712340886e-06,-7.856758739084352e-12
	-5.858428762340501e-07,8.734786831634175e-14
	-9.079917483723055e-06,-7.988138888419652e-12
	-5.858428762340501e-07,8.734786831634175e-14
13		1.348962882591653e+00,0.000000000000000e+00
	-5.858428762340500e-03,8.938246153877461e-10
	1.000000000000000e+00,0.000000000000000e+00
	0.000000000000000e+00,0.000000000000000e+00
	3.282985544937437e-06,7.907498845429000e-14
	3.282985592751078e-06,8.525146098555155e-14
	5.858428762340577e-07,-8.938246153877410e-14
	9.079917483710944e-06,8.174206545885202e-12
	-1.750925647604116e-06,-4.505792460083633e-14
	-7.914834712340886e-06,-8.039766159745591e-12
	-5.858428762340501e-07,8.938246153877462e-14
	-9.079917483723055e-06,-8.174206545885202e-12
	-5.858428762340501e-07,8.938246153877462e-14
14		1.380384264602885e+00,0.000000000000000e+00
	-5.858428762340500e-03,9.146444652543210e-10
	1.000000000000000e+00,0.000000000000000e+00
	0.000000000000000e+00,0.000000000000000e+00
	3.282985544937437e-06,8.091688154995650e-14
	3.282985592751077e-06,8.723722260821100e-14
	5.858428762340577e-07,-9.146444652543212e-14
	9.079917483710944e-06,8.364608275859795e-12
	-1.750925647604116e-06,-4.610745849075040e-14
	-7.914834712340886e-06,-8.227036370843614e-12
	-5.858428762340501e-07,9.146444652543211e-14
	-9.079917483723055e-06,-8.364608275859795e-12
	-5.858428762340501e-07,9.146444652543211e-14
15		1.412537544622754e+00,0.000000000000000e+00
	-5.858428762340500e-03,9.359492717231242e-10
	1.000000000000000e+00,0.000000000000000e+00
	0.000000000000000e+00,0.000000000000000e+00
	3.282985544937436e-06,8.280167784728232e-14
	3.282985592751077e-06,8.926923856101848e-14
	5.858428762340577e-07,-9.359492717231263e-14
	9.079917483710944e-06,8.559445031860933e-12
	-1.750925647604115e-06,-4.718143916546064e-14
	-7.914834712340886e-06,-8.418668665523158e-12
	-5.858428762340501e-07,9.359492717231243e-14
	-9.079917483723055e-06,-8.559445031860933e-12
	-5.858428762340501e-07,9.359492717231243e-14
16		1.445439770745927e+00,0.000000000000000e+00
	-5.858428762340500e-03,9.577503308845482e-10
	1.000000000000000e+00,0.000000000000000e+00
	0.000000000000000e+00,0.000000000000000e+00
	3.282985544937436e-06,8.473037669021253e-14
	3.282985592751077e-06,9.134858624572906e-14
	5.858428762340577e-07,-9.577503308845534e-14
	9.079917483710944e-06,8.758820118915604e-12
	-1.750925647604115e-06,-4.828043606373657e-14
	-7.914834712340886e-06,-8.614764649763412e-12
	-5.858428762340501e-07,9.577503308845482e-14
	-9.079917483723055e-06,-8.758820118915607e-12
	-5.858428762340501e-07,9.577503308845482e-14
17		1.479108388168207e+00,0.000000000000000e+00
	-5.858428762340500e-03,9.800592019487314e-10
	1.000000000000000e+00,0.000000000000000e+00
	0.000000000000000e+00,0.000000000000000e+00
	3.282985544937435e-06,8.670400070040304e-14
	3.282985592751076e-06,9.347636816000864e-14
	5.858428762340543e-07,-9.800592019487387e-14
	9.079917483710945e-06,8.962839248334019e-12
	-1.750925647604115e-06,-4.940503188828063e-14
	-7.914834712340886e-06,-8.815428296250864e-12
	-5.858428762340501e-07,9.800592019487315e-14
	-9.079917483723055e-06,-8.962839248334021e-12
	-5.858428762340501e-07,9.800592019487315e-14
18		1.513561248436208e+00,0.000000000000000e+00
	-5.858428762340500e-03,1.002887713374406e-09
	1.000000000000000e+00,0.000000000000000e+00
	0.000000000000000e+00,0.000000000000000e+00
	3.282985544937435e-06,8.872359631942804e-14
	3.282985592751076e-06,9.565371248199264e-14
	5.858428762340543e-07,-1.002887713374400e-13
	9.079917483710945e-06,9.171610593759103e-12
	-1.750925647604115e-06,-5.055582291468475e-14
	-7.914834712340886e-06,-9.020765999506979e-12
	-5.858428762340501e-07,1.002887713374406e-13
	-9.079917483723055e-06,-9.171610593759106e-12
	-5.858428762340501e-07,1.002887713374406e-13
19		1.548816618912481e+00,0.000000000000000e+00
	-5.858428762340500e-03,1.026247969140499e-09
	1.000000000000000e+00,0.000000000000000e+00
	0.000000000000000e+00,0.000000000000000e+00
	3.282985544937435e-06,9.079023436361721e-14
	3.282985592751076e-06,9.788177366846118e-14
	5.858428762340543e-07,-1.026247969140514e-13
	9.079917483710945e-06,9.385244848521619e-12
	-1.750925647604115e-06,-5.173341930758368e-14
	-7.914834712340886e-06,-9.230886632299983e-12
	-5.858428762340501e-07,1.026247969140499e-13
	-9.079917483723055e-06,-9.385244848521619e-12
	-5.858428762340501e-07,1.026247969140499e-13
20		1.584893192461113e+00,0.000000000000000e+00
	-5.858428762340500e-03,1.050152355163828e-09
	1.000000000000000e+00,0.000000000000000e+00
	0.000000000000000e+00,0.000000000000000e+00
	3.282985544937434e-06,9.290501059181684e-14
	3.282985592751076e-06,1.001617330669472e-13
	5.858428762340543e-07,-1.050152355163833e-13
	9.079917483710945e-06,9.603855284331220e-12
	-1.750925647604115e-06,-5.293844544417226e-14
	-7.914834712340886e-06,-9.445901603370665e-12
	-5.858428762340501e-07,1.050152355163828e-13
	-9.079917483723055e-06,-9.603855284331220e-12
	-5.858428762340501e-07,1.050152355163828e-13
21		1.621810097358929e+00,0.000000000000000e+00
	-5.858428762340499e-03,1.074613545866275e-09
	1.000000000000000e+00,0.000000000000000e+00
	0.000000000000000e+00,0.000000000000000e+00
	3.282985544937434e-06,9.506904628637539e-14
	3.282985592751075e-06,1.024947995421025e-13
	5.858428762340577e-07,-1.074613545866268e-13
	9.079917483710945e-06,9.827557811334622e-12
	-1.750925647604114e-06,-5.417154024525848e-14
	-7.914834712340889e-06,-9.665924916502738e-12
	-5.858428762340500e-07,1.074613545866275e-13
	-9.079917483723055e-06,-9.827557811334624e-12
	-5.858428762340500e-07,1.074613545866275e-13
22		1.659586907437560e+00,0.000000000000000e+00
	-5.858428762340499e-03,1.099644510894932e-09
	1.000000000000000e+00,0.000000000000000e+00
	0.000000000000000e+00,0.000000000000000e+00
	3.282985544937434e-06,9.728348884766255e-14
	3.282985592751075e-06,1.048822101166541e-13
	5.858428762340577e-07,-1.099644510894936e-13
	9.079917483710945e-06,1.005647103957271e-11
	-1.750925647604114e-06,-5.543335751402783e-14
	-7.914834712340889e-06,-9.891073230969187e-12
	-5.858428762340500e-07,1.099644510894932e-13
	-9.079917483723055e-06,-1.005647103957271e-11
	-5.858428762340500e-07,1.099644510894932e-13
23		1.698243652461743e+00,0.000000000000000e+00
	-5.858428762340499e-03,1.125258521998781e-09
	1.000000000000000e+00,0.000000000000000e+00
	0.000000000000000e+00,0.000000000000000e+00
	3.282985544937433e-06,9.954951240243602e-14
	3.282985592751074e-06,1.073252306272898e-13
	5.858428762340577e-07,-1.125258521998781e-13
	9.079917483710945e-06,1.029071634186910e-11
	-1.750925647604114e-06,-5.672456628269839e-14
	-7.914834712340889e-06,-1.012146592338652e-11
	-5.858428762340500e-07,1.125258521998781e-13
	-9.079917483723055e-06,-1.029071634186910e-11
	-5.858428762340500e-07,1.125258521998781e-13
24		1.737800828749374e+00,0.000000000000000e+00
	-5.858428762340499e-03,1.151469160065552e-09
	1.000000000000000e+00,0.000000000000000e+00
	0.000000000000000e+00,0.000000000000000e+00
	3.282985544937432e-06,1.018683184263788e-13
	3.282985592751074e-06,1.098251563958214e-13
	5.858428762340577e-07,-1.151469160065541e-13
	9.079917483710945e-06,1.053041791818369e-11
	-1.750925647604114e-06,-5.804585116725041e-14
	-7.914834712340889e-06,-1.035722515100988e-11
	-5.858428762340500e-07,1.151469160065552e-13
	-9.079917483723055e-06,-1.053041791818369e-11
	-5.858428762340500e-07,1.151469160065552e-13
25		1.778279410038922e+00,0.000000000000000e+00
	-5.858428762340499e-03,1.178290322322485e-09
	1.000000000000000e+00,0.000000000000000e+00
	0.000000000000000e+00,0.000000000000000e+00
	3.282985544937432e-06,1.042411363811378e-13
	3.282985592751073e-06,1.123833129159819e-13
	5.858428762340577e-07,-1.178290322322493e-13
	9.079917483710945e-06,1.077570286146506e-11
	-1.750925647604113e-06,-5.939791273041896e-14
	-7.914834712340889e-06,-1.059847591650239e-11
	-5.858428762340500e-07,1.178290322322485e-13
	-9.079917483723055e-06,-1.077570286146506e-11
	-5.858428762340500e-07,1.178290322322485e-13
26		1.819700858609982e+00,0.000000000000000e+00
	-5.858428762340499e-03,1.205736229704829e-09
	1.000000000000000e+00,0.000000000000000e+00
	0.000000000000000e+00,0.000000000000000e+00
	3.282985544937432e-06,1.066692243662007e-13
	3.282985592751073e-06,1.150010565562194e-13
	5.858428762340577e-07,-1.205736229704827e-13
	9.079917483710945e-06,1.102670122503686e-11
	-1.750925647604113e-06,-6.078146785314150e-14
	-7.914834712340889e-06,-1.084534613421324e-11
	-5.858428762340500e-07,1.205736229704829e-13
	-9.079917483723055e-06,-1.102670122503686e-11
	-5.858428762340500e-07,1.205736229704829e-13
27		1.862087136662866e+00,0.000000000000000e+00
	-5.858428762340499e-03,1.233821434395969e-09
	1.000000000000000e+00,0.000000000000000e+00
	0.000000000000000e+00,0.000000000000000e+00
	3.282985544937431e-06,1.091538697859566e-13
	3.282985592751073e-06,1.176797752788620e-13
	5.858428762340577e-07,-1.233821434395977e-13
	9.079917483710944e-06,1.128354609155383e-11
	-1.750925647604113e-06,-6.219725011465764e-14
	-7.914834712340889e-06,-1.109796669799957e-11
	-5.858428762340500e-07,1.233821434395969e-13
	-9.079917483723055e-06,-1.128354609155383e-11
	-5.858428762340500e-07,1.233821434395969e-13
28		1.905460717963246e+00,0.000000000000000e+00
	-5.858428762340499e-03,1.262560827543184e-09
	1.000000000000000e+00,0.000000000000000e+00
	0.000000000000000e+00,0.000000000000000e+00
	3.282985544937431e-06,1.116963900322954e-13
	3.282985592751072e-06,1.204208893760334e-13
	5.858428762340543e-07,-1.262560827543199e-13
	9.079917483710947e-06,1.154637364356392e-11
	-1.750925647604113e-06,-6.364601018146249e-14
	-7.914834712340889e-06,-1.135647155062814e-11
	-5.858428762340500e-07,1.262560827543184e-13
	-9.079917483723055e-06,-1.154637364356392e-11
	-5.858428762340500e-07,1.262560827543184e-13
29		1.949844599758044e+00,0.000000000000000e+00
	-5.858428762340499e-03,1.291969647153130e-09
	1.000000000000000e+00,0.000000000000000e+00
	0.000000000000000e+00,0.000000000000000e+00
	3.282985544937430e-06,1.142981331831057e-13
	3.282985592751072e-06,1.232258522227109e-13
	5.858428762340543e-07,-1.291969647153150e-13
	9.079917483710947e-06,1.181532323571416e-11
	-1.750925647604112e-06,-6.512851620532010e-14
	-7.914834712340889e-06,-1.162099775479353e-11
	-5.858428762340500e-07,1.291969647153130e-13
	-9.079917483723055e-06,-1.181532323571416e-11
	-5.858428762340500e-07,1.291969647153130e-13
30		1.995262314968878e+00,0.000000000000000e+00
	-5.858428762340499e-03,1.322063486171236e-09
	1.000000000000000e+00,0.000000000000000e+00
	0.000000000000000e+00,0.000000000000000e+00
	3.282985544937429e-06,1.169604787170444e-13
	3.282985592751071e-06,1.260961510473239e-13
	5.858428762340543e-07,-1.322063486171231e-13
	9.079917483710947e-06,1.209053746863826e-11
	-1.750925647604112e-06,-6.664555423054759e-14
	-7.914834712340889e-06,-1.189168556579059e-11
	-5.858428762340500e-07,1.322063486171236e-13
	-9.079917483723055e-06,-1.209053746863827e-11
	-5.858428762340500e-07,1.322063486171236e-13
31		2.041737944669527e+00,0.000000000000000e+00
	-5.858428762340499e-03,1.352858300749289e-09
	1.000000000000000e+00,0.000000000000000e+00
	0.000000000000000e+00,0.000000000000000e+00
	3.282985544937429e-06,1.196848382449538e-13
	3.282985592751071e-06,1.290333077203020e-13
	5.858428762340543e-07,-1.352858300749299e-13
	9.079917483710947e-06,1.237216226456542e-11
	-1.750925647604112e-06,-6.819792861078629e-14
	-7.914834712340889e-06,-1.216867850587971e-11
	-5.858428762340500e-07,1.352858300749289e-13
	-9.079917483723055e-06,-1.237216226456542e-11
	-5.858428762340500e-07,1.352858300749289e-13
32		2.089296130854037e+00,0.000000000000000e+00
	-5.858428762340499e-03,1.384370418705597e-09
	1.000000000000000e+00,0.000000000000000e+00
	0.000000000000000e+00,0.000000000000000e+00
	3.282985544937428e-06,1.224726562583169e-13
