Title: * GA CMOS Amp | W=1.466006365143243e-05 L=4.36996831327402e-07 Vbias=1.4488321728910403
Date: Mon Sep  8 18:43:13 2025
Plotname: AC Analysis
Flags: complex forward log
No. Variables: 11
No. Points:          901
Offset:    0.0000000000000000e+00
Command: Linear Technology Corporation LTspice
Variables:
	0	frequency	frequency
	1	V(out)	voltage
	2	V(g)	voltage
	3	V(vdd)	voltage
	4	Id(M1)	device_current
	5	Ig(M1)	device_current
	6	Ib(M1)	device_current
	7	Is(M1)	device_current
	8	I(Rload)	device_current
	9	I(Vg)	device_current
	10	I(Vdd)	device_current
Values:
0		1.000000000000000e+00,0.000000000000000e+00
	-4.446276049886682e-02,8.541451966847142e-12
	1.000000000000000e+00,0.000000000000000e+00
	0.000000000000000e+00,0.000000000000000e+00
	4.446276049886689e-06,-8.541451966847229e-16
	3.169768897653791e-25,7.633335643644343e-14
	4.891280522972830e-14,-7.821239499215764e-17
	-4.446276098799495e-06,-7.540099884476655e-14
	-4.446276049886682e-06,8.541451966847143e-16
	-3.169768897653791e-25,-7.633335643644343e-14
	-4.446276049886682e-06,8.541451966847143e-16
1		1.023292992280754e+00,0.000000000000000e+00
	-4.446276049886682e-02,8.740407941577346e-12
	1.000000000000000e+00,0.000000000000000e+00
	0.000000000000000e+00,0.000000000000000e+00
	4.446276049886689e-06,-8.740407941577326e-16
	3.319155503457115e-25,7.811138871868156e-14
	4.891280522972830e-14,-8.003419570496621e-17
	-4.446276098799495e-06,-7.715731372881887e-14
	-4.446276049886682e-06,8.740407941577346e-16
	-3.319155503457115e-25,-7.811138871868156e-14
	-4.446276049886682e-06,8.740407941577346e-16
2		1.047128548050899e+00,0.000000000000000e+00
	-4.446276049886682e-02,8.943998196291148e-12
	1.000000000000000e+00,0.000000000000000e+00
	0.000000000000000e+00,0.000000000000000e+00
	4.446276049886689e-06,-8.943998196291184e-16
	3.475582483090200e-25,7.993083669314480e-14
	4.891280522972830e-14,-8.189843160772879e-17
	-4.446276098799495e-06,-7.895453844190795e-14
	-4.446276049886682e-06,8.943998196291148e-16
	-3.475582483090200e-25,-7.993083669314480e-14
	-4.446276049886682e-06,8.943998196291148e-16
3		1.071519305237606e+00,0.000000000000000e+00
	-4.446276049886682e-02,9.152330677236435e-12
	1.000000000000000e+00,0.000000000000000e+00
	0.000000000000000e+00,0.000000000000000e+00
	4.446276049886689e-06,-9.152330677236495e-16
	3.639381639149380e-25,8.179266505523242e-14
	4.891280522972830e-14,-8.380609114296399e-17
	-4.446276098799495e-06,-8.079362589636581e-14
	-4.446276049886682e-06,9.152330677236436e-16
	-3.639381639149380e-25,-8.179266505523242e-14
	-4.446276049886682e-06,9.152330677236436e-16
4		1.096478196143185e+00,0.000000000000000e+00
	-4.446276049886682e-02,9.365515845052211e-12
	1.000000000000000e+00,0.000000000000000e+00
	0.000000000000000e+00,0.000000000000000e+00
	4.446276049886689e-06,-9.365515845052220e-16
	3.810900411605592e-25,8.369786097098625e-14
	4.891280522972830e-14,-8.575818577703624e-17
	-4.446276098799495e-06,-8.267555120070399e-14
	-4.446276049886682e-06,9.365515845052212e-16
	-3.810900411605592e-25,-8.369786097098625e-14
	-4.446276049886682e-06,9.365515845052212e-16
5		1.122018454301963e+00,0.000000000000000e+00
	-4.446276049886682e-02,9.583666733336294e-12
	1.000000000000000e+00,0.000000000000000e+00
	0.000000000000000e+00,0.000000000000000e+00
	4.446276049886689e-06,-9.583666733336335e-16
	3.990502614771140e-25,8.564743460049907e-14
	4.891280522972830e-14,-8.775575053634776e-17
	-4.446276098799495e-06,-8.460131217662909e-14
	-4.446276049886682e-06,9.583666733336294e-16
	-3.990502614771140e-25,-8.564743460049907e-14
	-4.446276049886682e-06,9.583666733336294e-16
6		1.148153621496882e+00,0.000000000000000e+00
	-4.446276049886682e-02,9.806899008577216e-12
	1.000000000000000e+00,0.000000000000000e+00
	0.000000000000000e+00,0.000000000000000e+00
	4.446276049886689e-06,-9.806899008577235e-16
	4.178569208998622e-25,8.764241963351490e-14
	4.891280522972830e-14,-8.979984455620266e-17
	-4.446276098799495e-06,-8.657192988810097e-14
	-4.446276049886682e-06,9.806899008577217e-16
	-4.178569208998622e-25,-8.764241963351490e-14
	-4.446276049886682e-06,9.806899008577217e-16
7		1.174897554939529e+00,0.000000000000000e+00
	-4.446276049886682e-02,1.003533103148214e-11
	1.000000000000000e+00,0.000000000000000e+00
	0.000000000000000e+00,0.000000000000000e+00
	4.446276049886689e-06,-1.003533103148212e-15
	4.375499108748922e-25,8.968387383750495e-14
	4.891280522972830e-14,-9.189155164224247e-17
	-4.446276098799495e-06,-8.858844918271450e-14
	-4.446276049886682e-06,1.003533103148214e-15
	-4.375499108748922e-25,-8.968387383750495e-14
	-4.446276049886682e-06,1.003533103148214e-15
8		1.202264434617413e+00,0.000000000000000e+00
	-4.446276049886682e-02,1.026908391973327e-11
	1.000000000000000e+00,0.000000000000000e+00
	0.000000000000000e+00,0.000000000000000e+00
	4.446276049886689e-06,-1.026908391973332e-15
	4.581710028742264e-25,9.177287961851009e-14
	4.891280522972830e-14,-9.403198084530480e-17
	-4.446276098799495e-06,-9.065193924569146e-14
	-4.446276049886682e-06,1.026908391973327e-15
	-4.581710028742264e-25,-9.177287961851009e-14
	-4.446276049886682e-06,1.026908391973327e-15
9		1.230268770812381e+00,0.000000000000000e+00
	-4.446276049886682e-02,1.050828161220603e-11
	1.000000000000000e+00,0.000000000000000e+00
	0.000000000000000e+00,0.000000000000000e+00
	4.446276049886689e-06,-1.050828161220603e-15
	4.797639369987132e-25,9.391054459504662e-14
	4.891280522972830e-14,-9.622226704929517e-17
	-4.446276098799495e-06,-9.276349416677672e-14
	-4.446276049886682e-06,1.050828161220603e-15
	-4.797639369987132e-25,-9.391054459504662e-14
	-4.446276049886682e-06,1.050828161220603e-15
10		1.258925411794167e+00,0.000000000000000e+00
	-4.446276049886682e-02,1.075305093468314e-11
	1.000000000000000e+00,0.000000000000000e+00
	0.000000000000000e+00,0.000000000000000e+00
	4.446276049886689e-06,-1.075305093468317e-15
	5.023745147566459e-25,9.609800218538047e-14
	4.891280522972830e-14,-9.846357157290480e-17
	-4.446276098799495e-06,-9.492423352033924e-14
	-4.446276049886682e-06,1.075305093468314e-15
	-5.023745147566459e-25,-9.609800218538047e-14
	-4.446276049886682e-06,1.075305093468314e-15
11		1.288249551693134e+00,0.000000000000000e+00
	-4.446276049886682e-02,1.100352166709927e-11
	1.000000000000000e+00,0.000000000000000e+00
	0.000000000000000e+00,0.000000000000000e+00
	4.446276049886689e-06,-1.100352166709934e-15
	5.260506962149019e-25,9.833641220848044e-14
	4.891280522972830e-14,-1.007570827854838e-16
	-4.446276098799495e-06,-9.713530295898502e-14
	-4.446276049886682e-06,1.100352166709927e-15
	-5.260506962149019e-25,-9.833641220848044e-14
	-4.446276049886682e-06,1.100352166709927e-15
12		1.318256738556407e+00,0.000000000000000e+00
	-4.446276049886682e-02,1.125982661235212e-11
	1.000000000000000e+00,0.000000000000000e+00
	0.000000000000000e+00,0.000000000000000e+00
	4.446276049886689e-06,-1.125982661235209e-15
	5.508427017286750e-25,1.006269614989696e-13
	4.891280522972830e-14,-1.031040167370572e-16
	-4.446276098799495e-06,-9.939787482099736e-14
	-4.446276049886682e-06,1.125982661235212e-15
	-5.508427017286750e-25,-1.006269614989696e-13
	-4.446276049886682e-06,1.125982661235212e-15
13		1.348962882591653e+00,0.000000000000000e+00
	-4.446276049886682e-02,1.152210166671627e-11
	1.000000000000000e+00,0.000000000000000e+00
	0.000000000000000e+00,0.000000000000000e+00
	4.446276049886689e-06,-1.152210166671630e-15
	5.768031184655822e-25,1.029708645364009e-13
	4.891280522972830e-14,-1.055056178030070e-16
	-4.446276098799495e-06,-1.017131487519262e-13
	-4.446276049886682e-06,1.152210166671627e-15
	-5.768031184655822e-25,-1.029708645364009e-13
	-4.446276049886682e-06,1.152210166671627e-15
14		1.380384264602885e+00,0.000000000000000e+00
	-4.446276049886682e-02,1.179048589189716e-11
	1.000000000000000e+00,0.000000000000000e+00
	0.000000000000000e+00,0.000000000000000e+00
	4.446276049886689e-06,-1.179048589189723e-15
	6.039870119500962e-25,1.053693640891898e-13
	4.891280522972830e-14,-1.079631593440713e-16
	-4.446276098799495e-06,-1.040823523406560e-13
	-4.446276049886682e-06,1.179048589189716e-15
	-6.039870119500962e-25,-1.053693640891898e-13
	-4.446276049886682e-06,1.179048589189716e-15
15		1.412537544622754e+00,0.000000000000000e+00
	-4.446276049886682e-02,1.206512158876346e-11
	1.000000000000000e+00,0.000000000000000e+00
	0.000000000000000e+00,0.000000000000000e+00
	4.446276049886689e-06,-1.206512158876352e-15
	6.324520428649054e-25,1.078237318735473e-13
	4.891280522972830e-14,-1.104779443812875e-16
	-4.446276098799495e-06,-1.065067417702897e-13
	-4.446276049886682e-06,1.206512158876346e-15
	-6.324520428649054e-25,-1.078237318735473e-13
	-4.446276049886682e-06,1.206512158876346e-15
16		1.445439770745927e+00,0.000000000000000e+00
	-4.446276049886682e-02,1.234615437279688e-11
	1.000000000000000e+00,0.000000000000000e+00
	0.000000000000000e+00,0.000000000000000e+00
	4.446276049886689e-06,-1.234615437279699e-15
	6.622585893569535e-25,1.103352692277599e-13
	4.891280522972830e-14,-1.130513062869393e-16
	-4.446276098799495e-06,-1.089876024841933e-13
	-4.446276049886682e-06,1.234615437279688e-15
	-6.622585893569535e-25,-1.103352692277599e-13
	-4.446276049886682e-06,1.234615437279688e-15
17		1.479108388168207e+00,0.000000000000000e+00
	-4.446276049886682e-02,1.263373325129944e-11
	1.000000000000000e+00,0.000000000000000e+00
	0.000000000000000e+00,0.000000000000000e+00
	4.446276049886689e-06,-1.263373325129960e-15
	6.934698751075835e-25,1.129053078021771e-13
	4.891280522972830e-14,-1.156846094916039e-16
	-4.446276098799495e-06,-1.115262498675555e-13
	-4.446276049886682e-06,1.263373325129944e-15
	-6.934698751075835e-25,-1.129053078021771e-13
	-4.446276049886682e-06,1.263373325129944e-15
18		1.513561248436208e+00,0.000000000000000e+00
	-4.446276049886682e-02,1.292801070239906e-11
	1.000000000000000e+00,0.000000000000000e+00
	0.000000000000000e+00,0.000000000000000e+00
	4.446276049886689e-06,-1.292801070239904e-15
	7.261521034384427e-25,1.155352102652693e-13
	4.891280522972830e-14,-1.183792502075180e-16
	-4.446276098799495e-06,-1.141240299448219e-13
	-4.446276049886682e-06,1.292801070239906e-15
	-7.261521034384427e-25,-1.155352102652693e-13
	-4.446276049886682e-06,1.292801070239906e-15
19		1.548816618912481e+00,0.000000000000000e+00
	-4.446276049886682e-02,1.322914275589555e-11
	1.000000000000000e+00,0.000000000000000e+00
	0.000000000000000e+00,0.000000000000000e+00
	4.446276049886689e-06,-1.322914275589561e-15
	7.603745977376029e-25,1.182263710261336e-13
	4.891280522972830e-14,-1.211366571687948e-16
	-4.446276098799495e-06,-1.167823200933752e-13
	-4.446276049886682e-06,1.322914275589555e-15
	-7.603745977376029e-25,-1.182263710261336e-13
	-4.446276049886682e-06,1.322914275589555e-15
20		1.584893192461113e+00,0.000000000000000e+00
	-4.446276049886682e-02,1.353728907598962e-11
	1.000000000000000e+00,0.000000000000000e+00
	0.000000000000000e+00,0.000000000000000e+00
	4.446276049886689e-06,-1.353728907598961e-15
	7.962099485037629e-25,1.209802169738269e-13
	4.891280522972830e-14,-1.239582923891718e-16
	-4.446276098799495e-06,-1.195025297738387e-13
	-4.446276049886682e-06,1.353728907598962e-15
	-7.962099485037629e-25,-1.209802169738269e-13
	-4.446276049886682e-06,1.353728907598962e-15
21		1.621810097358929e+00,0.000000000000000e+00
	-4.446276049886682e-02,1.385261304593898e-11
	1.000000000000000e+00,0.000000000000000e+00
	0.000000000000000e+00,0.000000000000000e+00
	4.446276049886689e-06,-1.385261304593908e-15
	8.337341673204266e-25,1.237982082339222e-13
	4.891280522972830e-14,-1.268456519368934e-16
	-4.446276098799495e-06,-1.222861012773914e-13
	-4.446276049886682e-06,1.385261304593898e-15
	-8.337341673204266e-25,-1.237982082339222e-13
	-4.446276049886682e-06,1.385261304593898e-15
22		1.659586907437560e+00,0.000000000000000e+00
	-4.446276049886682e-02,1.417528185468631e-11
	1.000000000000000e+00,0.000000000000000e+00
	0.000000000000000e+00,0.000000000000000e+00
	4.446276049886689e-06,-1.417528185468632e-15
	8.730268480866641e-25,1.266818389426861e-13
	4.891280522972830e-14,-1.298002667283302e-16
	-4.446276098799495e-06,-1.251345104904892e-13
	-4.446276049886682e-06,1.417528185468631e-15
	-8.730268480866641e-25,-1.266818389426861e-13
	-4.446276049886682e-06,1.417528185468631e-15
23		1.698243652461743e+00,0.000000000000000e+00
	-4.446276049886682e-02,1.450546658550504e-11
	1.000000000000000e+00,0.000000000000000e+00
	0.000000000000000e+00,0.000000000000000e+00
	4.446276049886689e-06,-1.450546658550499e-15
	9.141713358464418e-25,1.296326380392898e-13
	4.891280522972830e-14,-1.328237033392685e-16
	-4.446276098799495e-06,-1.280492676774001e-13
	-4.446276049886682e-06,1.450546658550504e-15
	-9.141713358464418e-25,-1.296326380392898e-13
	-4.446276049886682e-06,1.450546658550504e-15
24		1.737800828749374e+00,0.000000000000000e+00
	-4.446276049886682e-02,1.484334230670994e-11
	1.000000000000000e+00,0.000000000000000e+00
	0.000000000000000e+00,0.000000000000000e+00
	4.446276049886689e-06,-1.484334230671006e-15
	9.572549035746355e-25,1.326521700764728e-13
	4.891280522972830e-14,-1.359175648358022e-16
	-4.446276098799495e-06,-1.310319182809660e-13
	-4.446276049886682e-06,1.484334230670994e-15
	-9.572549035746355e-25,-1.326521700764728e-13
	-4.446276049886682e-06,1.484334230670994e-15
25		1.778279410038922e+00,0.000000000000000e+00
	-4.446276049886682e-02,1.518908816448073e-11
	1.000000000000000e+00,0.000000000000000e+00
	0.000000000000000e+00,0.000000000000000e+00
	4.446276049886689e-06,-1.518908816448075e-15
	1.002368937294712e-24,1.357420360500894e-13
	4.891280522972830e-14,-1.390834916243711e-16
	-4.446276098799495e-06,-1.340840437420169e-13
	-4.446276049886682e-06,1.518908816448073e-15
	-1.002368937294712e-24,-1.357420360500894e-13
	-4.446276049886682e-06,1.518908816448073e-15
26		1.819700858609982e+00,0.000000000000000e+00
	-4.446276049886682e-02,1.554288747784767e-11
	1.000000000000000e+00,0.000000000000000e+00
	0.000000000000000e+00,0.000000000000000e+00
	4.446276049886689e-06,-1.554288747784780e-15
	1.049609129920735e-24,1.389038742479779e-13
	4.891280522972830e-14,-1.423231623211614e-16
	-4.446276098799495e-06,-1.372072623378720e-13
	-4.446276049886682e-06,1.554288747784767e-15
	-1.049609129920735e-24,-1.389038742479779e-13
	-4.446276049886682e-06,1.554288747784767e-15
27		1.862087136662866e+00,0.000000000000000e+00
	-4.446276049886682e-02,1.590492783588980e-11
	1.000000000000000e+00,0.000000000000000e+00
	0.000000000000000e+00,0.000000000000000e+00
	4.446276049886689e-06,-1.590492783588988e-15
	1.099075684234867e-24,1.421393611186029e-13
	4.891280522972830e-14,-1.456382946424836e-16
	-4.446276098799495e-06,-1.404032300403714e-13
	-4.446276049886682e-06,1.590492783588980e-15
	-1.099075684234867e-24,-1.421393611186029e-13
	-4.446276049886682e-06,1.590492783588980e-15
28		1.905460717963246e+00,0.000000000000000e+00
	-4.446276049886682e-02,1.627540119719714e-11
	1.000000000000000e+00,0.000000000000000e+00
	0.000000000000000e+00,0.000000000000000e+00
	4.446276049886689e-06,-1.627540119719717e-15
	1.150873525430905e-24,1.454502121599299e-13
	4.891280522972830e-14,-1.490306463154081e-16
	-4.446276098799495e-06,-1.436736413938947e-13
	-4.446276049886682e-06,1.627540119719714e-15
	-1.150873525430905e-24,-1.454502121599299e-13
	-4.446276049886682e-06,1.627540119719714e-15
29		1.949844599758044e+00,0.000000000000000e+00
	-4.446276049886682e-02,1.665450399164963e-11
	1.000000000000000e+00,0.000000000000000e+00
	0.000000000000000e+00,0.000000000000000e+00
	4.446276049886689e-06,-1.665450399164962e-15
	1.205112523674684e-24,1.488381828290052e-13
	4.891280522972830e-14,-1.525020160095807e-16
	-4.446276098799495e-06,-1.470202304138306e-13
	-4.446276049886682e-06,1.665450399164963e-15
	-1.205112523674684e-24,-1.488381828290052e-13
	-4.446276049886682e-06,1.665450399164963e-15
30		1.995262314968878e+00,0.000000000000000e+00
	-4.446276049886682e-02,1.704243722456691e-11
	1.000000000000000e+00,0.000000000000000e+00
	0.000000000000000e+00,0.000000000000000e+00
	4.446276049886689e-06,-1.704243722456697e-15
	1.261907727153427e-24,1.523050694727226e-13
	4.891280522972830e-14,-1.560542442912770e-16
	-4.446276098799495e-06,-1.504447715059746e-13
	-4.446276049886682e-06,1.704243722456691e-15
	-1.261907727153427e-24,-1.523050694727226e-13
	-4.446276049886682e-06,1.704243722456691e-15
31		2.041737944669527e+00,0.000000000000000e+00
	-4.446276049886682e-02,1.743940658328398e-11
	1.000000000000000e+00,0.000000000000000e+00
	0.000000000000000e+00,0.000000000000000e+00
	4.446276049886689e-06,-1.743940658328405e-15
	1.321379606108378e-24,1.558527102802704e-13
	4.891280522972830e-14,-1.596892145989393e-16
	-4.446276098799495e-06,-1.539490804073431e-13
	-4.446276049886682e-06,1.743940658328398e-15
	-1.321379606108378e-24,-1.558527102802704e-13
	-4.446276049886682e-06,1.743940658328398e-15
32		2.089296130854037e+00,0.000000000000000e+00
	-4.446276049886682e-02,1.784562254620935e-11
	1.000000000000000e+00,0.000000000000000e+00
	0.000000000000000e+00,0.000000000000000e+00
	4.446276049886689e-06,-1.784562254620930e-15
	1.383654308368336e-24,1.594829862577634e-13
	4.891280522972830e-14,-1.634088542419254e-16
	-4.446276098799495e-06,-1.575350151489006e-13
	-4.446276049886682e-06,1.784562254620935e-15
	-1.383654308368336e-24,-1.594829862577634e-13
	-4.446276049886682e-06,1.784562254620935e-15
33		2.137962089502230e+00,0.000000000000000e+00
	-4.446276049886682e-02,1.826130049442345e-11
	1.000000000000000e+00,0.000000000000000e+00
	0.000000000000000e+00,0.000000000000000e+00
	4.446276049886689e-06,-1.826130049442349e-15
	1.448863926926106e-24,1.631978222255771e-13
	4.891280522972830e-14,-1.672151354224173e-16
	-4.446276098799495e-06,-1.612044770407123e-13
	-4.446276049886682e-06,1.826130049442345e-15
	-1.448863926926106e-24,-1.631978222255771e-13
	-4.446276049886682e-06,1.826130049442345e-15
34		2.187761623949550e+00,0.000000000000000e+00
	-4.446276049886682e-02,1.868666082587659e-11
	1.000000000000000e+00,0.000000000000000e+00
	0.000000000000000e+00,0.000000000000000e+00
	4.446276049886689e-06,-1.868666082587662e-15
	1.517146780125459e-24,1.669991878389134e-13
	4.891280522972830e-14,-1.711100762810223e-16
	-4.446276098799495e-06,-1.649594116800447e-13
	-4.446276049886682e-06,1.868666082587659e-15
	-1.517146780125459e-24,-1.669991878389134e-13
	-4.446276049886682e-06,1.868666082587659e-15
35		2.238721138568337e+00,0.000000000000000e+00
	-4.446276049886682e-02,1.912192907224680e-11
	1.000000000000000e+00,0.000000000000000e+00
	0.000000000000000e+00,0.000000000000000e+00
	4.446276049886689e-06,-1.912192907224673e-15
	1.588647705052869e-24,1.708890986321374e-13
	4.891280522972830e-14,-1.750957419670105e-16
	-4.446276098799495e-06,-1.688018099829457e-13
	-4.446276049886682e-06,1.912192907224680e-15
	-1.588647705052869e-24,-1.708890986321374e-13
	-4.446276049886682e-06,1.912192907224680e-15
36		2.290867652767770e+00,0.000000000000000e+00
	-4.446276049886682e-02,1.956733601851978e-11
	1.000000000000000e+00,0.000000000000000e+00
	0.000000000000000e+00,0.000000000000000e+00
	4.446276049886689e-06,-1.956733601851974e-15
	1.663518364756404e-24,1.748696170874408e-13
	4.891280522972830e-14,-1.791742457330144e-16
	-4.446276098799495e-06,-1.727337092398558e-13
	-4.446276049886682e-06,1.956733601851978e-15
	-1.663518364756404e-24,-1.748696170874408e-13
	-4.446276049886682e-06,1.956733601851978e-15
37		2.344228815319919e+00,0.000000000000000e+00
	-4.446276049886682e-02,2.002311782535407e-11
	1.000000000000000e+00,0.000000000000000e+00
	0.000000000000000e+00,0.000000000000000e+00
	4.446276049886689e-06,-2.002311782535413e-15
	1.741917569943380e-24,1.789428537283969e-13
	4.891280522972830e-14,-1.833477500558045e-16
	-4.446276098799495e-06,-1.767571941958057e-13
	-4.446276049886682e-06,2.002311782535407e-15
	-1.741917569943380e-24,-1.789428537283969e-13
	-4.446276049886682e-06,2.002311782535407e-15
38		2.398832919019488e+00,0.000000000000000e+00
	-4.446276049886682e-02,2.048951615429668e-11
	1.000000000000000e+00,0.000000000000000e+00
