LTspice 24.0.9 for Windows
Circuit: * GA CMOS Amp | W=1.8716846753565585e-05 L=8.556394949111987e-07 Vbias=1.5
Start Time: Sat Sep  6 22:09:02 2025
solver = Normal
Maximum thread count: 2
tnom = 27
temp = 27
method = modified trap
AsciiRawFile = 1
Direct Newton iteration for .op point succeeded.
Semiconductor Device Operating Points:
                        --- BSIM4 MOSFETS ---
Name:      m1
Model:      n
Id:      1.71e-04
Vgs:     1.50e+00
Vds:     8.94e-02
Vbs:     0.00e+00
Vth:     2.38e-01
Vdsat:   8.69e-01
Gm:     -2.67e-05
Gds:     1.87e-03
Gmb      8.25e-05
Cbd:     9.10e-15
Cbs:     1.50e-14


.measure op idd find i(vdd)
  Error: FIND can not be evaluated over an interval.

gain_db: MAX(db(v(out)/v(g)))=(30.0342dB,180°) FROM 1 TO 1e+09
gain_lin: MAX(mag(v(out)/v(g)))=(-3.74079dB,0°) FROM 1 TO 1e+09

Measurement "fc" FAIL'ed

Total elapsed time: 10.711 seconds.

