Title: * GA CMOS Amp | W=1.3815496238362734e-05 L=8.615903853294979e-07 Vbias=0.5
Date: Mon Sep  8 18:46:35 2025
Plotname: AC Analysis
Flags: complex forward log
No. Variables: 11
No. Points:          901
Offset:    0.0000000000000000e+00
Command: Linear Technology Corporation LTspice
Variables:
	0	frequency	frequency
	1	V(out)	voltage
	2	V(g)	voltage
	3	V(vdd)	voltage
	4	Id(M1)	device_current
	5	Ig(M1)	device_current
	6	Ib(M1)	device_current
	7	Is(M1)	device_current
	8	I(Rload)	device_current
	9	I(Vg)	device_current
	10	I(Vdd)	device_current
Values:
0		1.000000000000000e+00,0.000000000000000e+00
	-2.986018834525319e-03,1.741269609283748e-10
	1.000000000000000e+00,0.000000000000000e+00
	0.000000000000000e+00,0.000000000000000e+00
	2.986018834525318e-07,-1.741269609283748e-14
	3.023029416452978e-24,1.038906881852892e-13
	2.986018832115542e-15,-3.012534213308578e-15
	-2.986018864385507e-07,-8.346545787914313e-14
	-2.986018834525319e-07,1.741269609283748e-14
	-3.023029416452978e-24,-1.038906881852892e-13
	-2.986018834525319e-07,1.741269609283748e-14
1		1.023292992280754e+00,0.000000000000000e+00
	-2.986018834525319e-03,1.781828988851506e-10
	1.000000000000000e+00,0.000000000000000e+00
	0.000000000000000e+00,0.000000000000000e+00
	2.986018834525318e-07,-1.781828988851506e-14
	3.165500403565565e-24,1.063106131832314e-13
	2.986018832115542e-15,-3.082705149484670e-15
	-2.986018864385507e-07,-8.540961814523163e-14
	-2.986018834525319e-07,1.781828988851506e-14
	-3.165500403565565e-24,-1.063106131832314e-13
	-2.986018834525319e-07,1.781828988851506e-14
2		1.047128548050899e+00,0.000000000000000e+00
	-2.986018834525319e-03,1.823333117734448e-10
	1.000000000000000e+00,0.000000000000000e+00
	0.000000000000000e+00,0.000000000000000e+00
	2.986018834525318e-07,-1.823333117734448e-14
	3.314685841440146e-24,1.087869054754706e-13
	2.986018832115542e-15,-3.154510576735451e-15
	-2.986018864385507e-07,-8.739906372139066e-14
	-2.986018834525319e-07,1.823333117734448e-14
	-3.314685841440146e-24,-1.087869054754706e-13
	-2.986018834525319e-07,1.823333117734448e-14
3		1.071519305237606e+00,0.000000000000000e+00
	-2.986018834525319e-03,1.865804001971080e-10
	1.000000000000000e+00,0.000000000000000e+00
	0.000000000000000e+00,0.000000000000000e+00
	2.986018834525318e-07,-1.865804001971080e-14
	3.470902172392094e-24,1.113208780249579e-13
	2.986018832115542e-15,-3.227988567248927e-15
	-2.986018864385507e-07,-8.943484943799814e-14
	-2.986018834525319e-07,1.865804001971080e-14
	-3.470902172392094e-24,-1.113208780249579e-13
	-2.986018834525319e-07,1.865804001971080e-14
4		1.096478196143185e+00,0.000000000000000e+00
	-2.986018834525319e-03,1.909264160186392e-10
	1.000000000000000e+00,0.000000000000000e+00
	0.000000000000000e+00,0.000000000000000e+00
	2.986018834525318e-07,-1.909264160186392e-14
	3.634480752203645e-24,1.139138743774800e-13
	2.986018832115542e-15,-3.303178080028217e-15
	-2.986018864385507e-07,-9.151805469558782e-14
	-2.986018834525319e-07,1.909264160186392e-14
	-3.634480752203645e-24,-1.139138743774800e-13
	-2.986018834525319e-07,1.909264160186392e-14
5		1.122018454301963e+00,0.000000000000000e+00
	-2.986018834525319e-03,1.953736635531534e-10
	1.000000000000000e+00,0.000000000000000e+00
	0.000000000000000e+00,0.000000000000000e+00
	2.986018834525318e-07,-1.953736635531534e-14
	3.805768552973944e-24,1.165672693740254e-13
	2.986018832115542e-15,-3.380118981548267e-15
	-2.986018864385507e-07,-9.364978403716181e-14
	-2.986018834525319e-07,1.953736635531534e-14
	-3.805768552973944e-24,-1.165672693740254e-13
	-2.986018834525319e-07,1.953736635531534e-14
6		1.148153621496882e+00,0.000000000000000e+00
	-2.986018834525319e-03,1.999245007901597e-10
	1.000000000000000e+00,0.000000000000000e+00
	0.000000000000000e+00,0.000000000000000e+00
	2.986018834525318e-07,-1.999245007901597e-14
	3.985128899093380e-24,1.192824698797432e-13
	2.986018832115542e-15,-3.458852066893496e-15
	-2.986018864385507e-07,-9.583116773383370e-14
	-2.986018834525319e-07,1.999245007901597e-14
	-3.985128899093380e-24,-1.192824698797432e-13
	-2.986018834525319e-07,1.999245007901597e-14
7		1.174897554939529e+00,0.000000000000000e+00
	-2.986018834525319e-03,2.045813406437985e-10
	1.000000000000000e+00,0.000000000000000e+00
	0.000000000000000e+00,0.000000000000000e+00
	2.986018834525318e-07,-2.045813406437984e-14
	4.172942237903329e-24,1.220609155298813e-13
	2.986018832115542e-15,-3.539419081387910e-15
	-2.986018864385507e-07,-9.806336238411353e-14
	-2.986018834525319e-07,2.045813406437985e-14
	-4.172942237903329e-24,-1.220609155298813e-13
	-2.986018834525319e-07,2.045813406437985e-14
8		1.202264434617413e+00,0.000000000000000e+00
	-2.986018834525319e-03,2.093466522322008e-10
	1.000000000000000e+00,0.000000000000000e+00
	0.000000000000000e+00,0.000000000000000e+00
	2.986018834525318e-07,-2.093466522322008e-14
	4.369606946675985e-24,1.249040794931006e-13
	2.986018832115542e-15,-3.621862742729030e-15
	-2.986018864385507e-07,-1.003475515271515e-13
	-2.986018834525319e-07,2.093466522322008e-14
	-4.369606946675985e-24,-1.249040794931006e-13
	-2.986018834525319e-07,2.093466522322008e-14
9		1.230268770812381e+00,0.000000000000000e+00
	-2.986018834525319e-03,2.142229621866472e-10
	1.000000000000000e+00,0.000000000000000e+00
	0.000000000000000e+00,0.000000000000000e+00
	2.986018834525318e-07,-2.142229621866472e-14
	4.575540177625949e-24,1.278134692525681e-13
	2.986018832115542e-15,-3.706226763637392e-15
	-2.986018864385507e-07,-1.026849462702660e-13
	-2.986018834525319e-07,2.142229621866472e-14
	-4.575540177625949e-24,-1.278134692525681e-13
	-2.986018834525319e-07,2.142229621866472e-14
10		1.258925411794167e+00,0.000000000000000e+00
	-2.986018834525319e-03,2.192128559912210e-10
	1.000000000000000e+00,0.000000000000000e+00
	0.000000000000000e+00,0.000000000000000e+00
	2.986018834525318e-07,-2.192128559912210e-14
	4.791178742746015e-24,1.307906274052446e-13
	2.986018832115542e-15,-3.792555875033505e-15
	-2.986018864385507e-07,-1.050767859310890e-13
	-2.986018834525319e-07,2.192128559912210e-14
	-4.791178742746015e-24,-1.307906274052446e-13
	-2.986018834525319e-07,2.192128559912210e-14
11		1.288249551693134e+00,0.000000000000000e+00
	-2.986018834525319e-03,2.243189793536667e-10
	1.000000000000000e+00,0.000000000000000e+00
	0.000000000000000e+00,0.000000000000000e+00
	2.986018834525318e-07,-2.243189793536666e-14
	5.016980040343971e-24,1.338371324797899e-13
	2.986018832115542e-15,-3.880895849755001e-15
	-2.986018864385507e-07,-1.075243386946683e-13
	-2.986018834525319e-07,2.243189793536667e-14
	-5.016980040343971e-24,-1.338371324797899e-13
	-2.986018834525319e-07,2.243189793536667e-14
12		1.318256738556407e+00,0.000000000000000e+00
	-2.986018834525319e-03,2.295440396081782e-10
	1.000000000000000e+00,0.000000000000000e+00
	0.000000000000000e+00,0.000000000000000e+00
	2.986018834525318e-07,-2.295440396081782e-14
	5.253423025245724e-24,1.369545997735199e-13
	2.986018832115542e-15,-3.971293526825737e-15
	-2.986018864385507e-07,-1.100289022858764e-13
	-2.986018834525319e-07,2.295440396081783e-14
	-5.253423025245724e-24,-1.369545997735199e-13
	-2.986018834525319e-07,2.295440396081783e-14
13		1.348962882591653e+00,0.000000000000000e+00
	-2.986018834525319e-03,2.348908071508647e-10
	1.000000000000000e+00,0.000000000000000e+00
	0.000000000000000e+00,0.000000000000000e+00
	2.986018834525318e-07,-2.348908071508647e-14
	5.501009224722720e-24,1.401446822088583e-13
	2.986018832115542e-15,-4.063796836290689e-15
	-2.986018864385507e-07,-1.125918046574812e-13
	-2.986018834525319e-07,2.348908071508647e-14
	-5.501009224722720e-24,-1.401446822088583e-13
	-2.986018834525319e-07,2.348908071508647e-14
14		1.380384264602885e+00,0.000000000000000e+00
	-2.986018834525319e-03,2.403621169086499e-10
	1.000000000000000e+00,0.000000000000000e+00
	0.000000000000000e+00,0.000000000000000e+00
	2.986018834525318e-07,-2.403621169086499e-14
	5.760263802298506e-24,1.434090712097380e-13
	2.986018832115542e-15,-4.158454824628968e-15
	-2.986018864385507e-07,-1.152144046942441e-13
	-2.986018834525319e-07,2.403621169086499e-14
	-5.760263802298506e-24,-1.434090712097380e-13
	-2.986018834525319e-07,2.403621169086499e-14
15		1.412537544622754e+00,0.000000000000000e+00
	-2.986018834525319e-03,2.459608698423888e-10
	1.000000000000000e+00,0.000000000000000e+00
	0.000000000000000e+00,0.000000000000000e+00
	2.986018834525318e-07,-2.459608698423888e-14
	6.031736671690989e-24,1.467494975984166e-13
	2.986018832115542e-15,-4.255317680758950e-15
	-2.986018864385507e-07,-1.178980929334187e-13
	-2.986018834525319e-07,2.459608698423888e-14
	-6.031736671690989e-24,-1.467494975984166e-13
	-2.986018834525319e-07,2.459608698423888e-14
16		1.445439770745927e+00,0.000000000000000e+00
	-2.986018834525319e-03,2.516900344849950e-10
	1.000000000000000e+00,0.000000000000000e+00
	0.000000000000000e+00,0.000000000000000e+00
	2.986018834525318e-07,-2.516900344849950e-14
	6.316003663253146e-24,1.501677325131810e-13
	2.986018832115542e-15,-4.354436762648996e-15
	-2.986018864385507e-07,-1.206442923020325e-13
	-2.986018834525319e-07,2.516900344849950e-14
	-6.316003663253146e-24,-1.501677325131810e-13
	-2.986018834525319e-07,2.516900344849950e-14
17		1.479108388168207e+00,0.000000000000000e+00
	-2.986018834525319e-03,2.575526485153968e-10
	1.000000000000000e+00,0.000000000000000e+00
	0.000000000000000e+00,0.000000000000000e+00
	2.986018834525318e-07,-2.575526485153967e-14
	6.613667745386431e-24,1.536655883474288e-13
	2.986018832115542e-15,-4.455864624548405e-15
	-2.986018864385507e-07,-1.234544588713408e-13
	-2.986018834525319e-07,2.575526485153968e-14
	-6.613667745386431e-24,-1.536655883474288e-13
	-2.986018834525319e-07,2.575526485153968e-14
18		1.513561248436208e+00,0.000000000000000e+00
	-2.986018834525319e-03,2.635518203691537e-10
	1.000000000000000e+00,0.000000000000000e+00
	0.000000000000000e+00,0.000000000000000e+00
	2.986018834525318e-07,-2.635518203691537e-14
	6.925360303517558e-24,1.572449197106231e-13
	2.986018832115542e-15,-4.559655044852120e-15
	-2.986018864385507e-07,-1.263300826288556e-13
	-2.986018834525319e-07,2.635518203691537e-14
	-6.925360303517558e-24,-1.572449197106231e-13
	-2.986018834525319e-07,2.635518203691537e-14
19		1.548816618912481e+00,0.000000000000000e+00
	-2.986018834525319e-03,2.696907308865911e-10
	1.000000000000000e+00,0.000000000000000e+00
	0.000000000000000e+00,0.000000000000000e+00
	2.986018834525318e-07,-2.696907308865911e-14
	7.251742479351679e-24,1.609076244116304e-13
	2.986018832115542e-15,-4.665863054614753e-15
	-2.986018864385507e-07,-1.292726882683565e-13
	-2.986018834525319e-07,2.696907308865911e-14
	-7.251742479351679e-24,-1.609076244116304e-13
	-2.986018834525319e-07,2.696907308865911e-14
20		1.584893192461113e+00,0.000000000000000e+00
	-2.986018834525319e-03,2.759726349993233e-10
	1.000000000000000e+00,0.000000000000000e+00
	0.000000000000000e+00,0.000000000000000e+00
	2.986018834525318e-07,-2.759726349993234e-14
	7.593506573242552e-24,1.646556444649650e-13
	2.986018832115542e-15,-4.774544966728940e-15
	-2.986018864385507e-07,-1.322838359983037e-13
	-2.986018834525319e-07,2.759726349993234e-14
	-7.593506573242552e-24,-1.646556444649650e-13
	-2.986018834525319e-07,2.759726349993234e-14
21		1.621810097358929e+00,0.000000000000000e+00
	-2.986018834525319e-03,2.824008634560620e-10
	1.000000000000000e+00,0.000000000000000e+00
	0.000000000000000e+00,0.000000000000000e+00
	2.986018834525318e-07,-2.824008634560620e-14
	7.951377512654435e-24,1.684909671204700e-13
	2.986018832115542e-15,-4.885758405783056e-15
	-2.986018864385507e-07,-1.353651223690807e-13
	-2.986018834525319e-07,2.824008634560620e-14
	-7.951377512654435e-24,-1.684909671204700e-13
	-2.986018834525319e-07,2.824008634560620e-14
22		1.659586907437560e+00,0.000000000000000e+00
	-2.986018834525319e-03,2.889788245886224e-10
	1.000000000000000e+00,0.000000000000000e+00
	0.000000000000000e+00,0.000000000000000e+00
	2.986018834525318e-07,-2.889788245886223e-14
	8.326114389830412e-24,1.724156259169839e-13
	2.986018832115542e-15,-4.999562338614619e-15
	-2.986018864385507e-07,-1.385181811195071e-13
	-2.986018834525319e-07,2.889788245886224e-14
	-8.326114389830412e-24,-1.724156259169839e-13
	-2.986018834525319e-07,2.889788245886224e-14
23		1.698243652461743e+00,0.000000000000000e+00
	-2.986018834525319e-03,2.957100061190666e-10
	1.000000000000000e+00,0.000000000000000e+00
	0.000000000000000e+00,0.000000000000000e+00
	2.986018834525318e-07,-2.957100061190665e-14
	8.718512071928822e-24,1.764317017605496e-13
	2.986018832115542e-15,-5.116017105575090e-15
	-2.986018864385507e-07,-1.417446840430679e-13
	-2.986018834525319e-07,2.957100061190666e-14
	-8.718512071928822e-24,-1.764317017605496e-13
	-2.986018834525319e-07,2.957100061190666e-14
24		1.737800828749374e+00,0.000000000000000e+00
	-2.986018834525319e-03,3.025979770089397e-10
	1.000000000000000e+00,0.000000000000000e+00
	0.000000000000000e+00,0.000000000000000e+00
	2.986018834525318e-07,-3.025979770089396e-14
	9.129402887043065e-24,1.805413240277384e-13
	2.986018832115542e-15,-5.235184452523464e-15
	-2.986018864385507e-07,-1.450463418743209e-13
	-2.986018834525319e-07,3.025979770089397e-14
	-9.129402887043065e-24,-1.805413240277384e-13
	-2.986018834525319e-07,3.025979770089397e-14
25		1.778279410038922e+00,0.000000000000000e+00
	-2.986018834525319e-03,3.096463893515807e-10
	1.000000000000000e+00,0.000000000000000e+00
	0.000000000000000e+00,0.000000000000000e+00
	2.986018834525318e-07,-3.096463893515807e-14
	9.559658389681093e-24,1.847466716946736e-13
	2.986018832115542e-15,-5.357127563564429e-15
	-2.986018864385507e-07,-1.484249051959511e-13
	-2.986018834525319e-07,3.096463893515808e-14
	-9.559658389681093e-24,-1.847466716946736e-13
	-2.986018834525319e-07,3.096463893515808e-14
26		1.819700858609982e+00,0.000000000000000e+00
	-2.986018834525319e-03,3.168589803085104e-10
	1.000000000000000e+00,0.000000000000000e+00
	0.000000000000000e+00,0.000000000000000e+00
	2.986018834525318e-07,-3.168589803085104e-14
	1.001019120944936e-23,1.890499744923527e-13
	2.986018832115542e-15,-5.481911094549563e-15
	-2.986018864385507e-07,-1.518821653669521e-13
	-2.986018834525319e-07,3.168589803085104e-14
	-1.001019120944936e-23,-1.890499744923527e-13
	-2.986018834525319e-07,3.168589803085104e-14
27		1.862087136662866e+00,0.000000000000000e+00
	-2.986018834525319e-03,3.242395740909242e-10
	1.000000000000000e+00,0.000000000000000e+00
	0.000000000000000e+00,0.000000000000000e+00
	2.986018834525318e-07,-3.242395740909242e-14
	1.048195698686259e-23,1.934535140888798e-13
	2.986018832115542e-15,-5.609601207358674e-15
	-2.986018864385507e-07,-1.554199554724287e-13
	-2.986018834525319e-07,3.242395740909242e-14
	-1.048195698686259e-23,-1.934535140888798e-13
	-2.986018834525319e-07,3.242395740909242e-14
28		1.905460717963246e+00,0.000000000000000e+00
	-2.986018834525319e-03,3.317920839873391e-10
	1.000000000000000e+00,0.000000000000000e+00
	0.000000000000000e+00,0.000000000000000e+00
	2.986018834525318e-07,-3.317920839873390e-14
	1.097595640038540e-23,1.979596252992368e-13
	2.986018832115542e-15,-5.740265604979781e-15
	-2.986018864385507e-07,-1.590401512955231e-13
	-2.986018834525319e-07,3.317920839873390e-14
	-1.097595640038540e-23,-1.979596252992368e-13
	-2.986018834525319e-07,3.317920839873390e-14
29		1.949844599758044e+00,0.000000000000000e+00
	-2.986018834525319e-03,3.395205144384715e-10
	1.000000000000000e+00,0.000000000000000e+00
	0.000000000000000e+00,0.000000000000000e+00
	2.986018834525318e-07,-3.395205144384715e-14
	1.149323728900555e-23,2.025706973232329e-13
	2.986018832115542e-15,-5.873973567406093e-15
	-2.986018864385507e-07,-1.627446723119797e-13
	-2.986018834525319e-07,3.395205144384715e-14
	-1.149323728900555e-23,-2.025706973232329e-13
	-2.986018834525319e-07,3.395205144384715e-14
30		1.995262314968878e+00,0.000000000000000e+00
	-2.986018834525319e-03,3.474289631604445e-10
	1.000000000000000e+00,0.000000000000000e+00
	0.000000000000000e+00,0.000000000000000e+00
	2.986018834525318e-07,-3.474289631604444e-14
	1.203489687484083e-23,2.072891750122899e-13
	2.986018832115542e-15,-6.010795988368971e-15
	-2.986018864385507e-07,-1.665354827078765e-13
	-2.986018834525319e-07,3.474289631604445e-14
	-1.203489687484083e-23,-2.072891750122899e-13
	-2.986018834525319e-07,3.474289631604445e-14
31		2.041737944669527e+00,0.000000000000000e+00
	-2.986018834525319e-03,3.555216233174510e-10
	1.000000000000000e+00,0.000000000000000e+00
	0.000000000000000e+00,0.000000000000000e+00
	2.986018834525318e-07,-3.555216233174510e-14
	1.260208409049438e-23,2.121175601657351e-13
	2.986018832115542e-15,-6.150805412927270e-15
	-2.986018864385507e-07,-1.704145924210627e-13
	-2.986018834525319e-07,3.555216233174510e-14
	-1.260208409049438e-23,-2.121175601657351e-13
	-2.986018834525319e-07,3.555216233174510e-14
32		2.089296130854037e+00,0.000000000000000e+00
	-2.986018834525319e-03,3.638027857450256e-10
	1.000000000000000e+00,0.000000000000000e+00
	0.000000000000000e+00,0.000000000000000e+00
	2.986018834525318e-07,-3.638027857450256e-14
	1.319600201609473e-23,2.170584128572880e-13
	2.986018832115542e-15,-6.294076075930995e-15
	-2.986018864385507e-07,-1.743840582068544e-13
	-2.986018834525319e-07,3.638027857450256e-14
	-1.319600201609473e-23,-2.170584128572880e-13
	-2.986018834525319e-07,3.638027857450256e-14
33		2.137962089502230e+00,0.000000000000000e+00
	-2.986018834525319e-03,3.722768412251013e-10
	1.000000000000000e+00,0.000000000000000e+00
	0.000000000000000e+00,0.000000000000000e+00
	2.986018834525318e-07,-3.722768412251013e-14
	1.381791043119001e-23,2.221143527924455e-13
	2.986018832115542e-15,-6.440683941382149e-15
	-2.986018864385507e-07,-1.784459847285532e-13
	-2.986018834525319e-07,3.722768412251013e-14
	-1.381791043119001e-23,-2.221143527924455e-13
	-2.986018834525319e-07,3.722768412251013e-14
34		2.187761623949550e+00,0.000000000000000e+00
	-2.986018834525319e-03,3.809482828140612e-10
	1.000000000000000e+00,0.000000000000000e+00
	0.000000000000000e+00,0.000000000000000e+00
	2.986018834525318e-07,-3.809482828140612e-14
	1.446912848690938e-23,2.272880606974846e-13
	2.986018832115542e-15,-6.590706742711532e-15
	-2.986018864385507e-07,-1.826025256733670e-13
	-2.986018834525319e-07,3.809482828140612e-14
	-1.446912848690938e-23,-2.272880606974846e-13
	-2.986018834525319e-07,3.809482828140612e-14
35		2.238721138568337e+00,0.000000000000000e+00
	-2.986018834525319e-03,3.898217082250156e-10
	1.000000000000000e+00,0.000000000000000e+00
	0.000000000000000e+00,0.000000000000000e+00
	2.986018834525318e-07,-3.898217082250156e-14
	1.515103750405932e-23,2.325822797408187e-13
	2.986018832115542e-15,-6.744224023994235e-15
	-2.986018864385507e-07,-1.868558848943229e-13
	-2.986018834525319e-07,3.898217082250156e-14
	-1.515103750405932e-23,-2.325822797408187e-13
	-2.986018834525319e-07,3.898217082250156e-14
36		2.290867652767770e+00,0.000000000000000e+00
	-2.986018834525319e-03,3.989018222655713e-10
	1.000000000000000e+00,0.000000000000000e+00
	0.000000000000000e+00,0.000000000000000e+00
	2.986018834525318e-07,-3.989018222655713e-14
	1.586508390309036e-23,2.379998169874618e-13
	2.986018832115542e-15,-6.901317182124781e-15
	-2.986018864385507e-07,-1.912083175787799e-13
	-2.986018834525319e-07,3.989018222655713e-14
	-1.586508390309036e-23,-2.379998169874618e-13
	-2.986018834525319e-07,3.989018222655713e-14
37		2.344228815319919e+00,0.000000000000000e+00
	-2.986018834525319e-03,4.081934393323820e-10
	1.000000000000000e+00,0.000000000000000e+00
	0.000000000000000e+00,0.000000000000000e+00
	2.986018834525318e-07,-4.081934393323820e-14
	1.661278227214871e-23,2.435435448873716e-13
	2.986018832115542e-15,-7.062069509975096e-15
	-2.986018864385507e-07,-1.956621314441583e-13
	-2.986018834525319e-07,4.081934393323820e-14
	-1.661278227214871e-23,-2.435435448873716e-13
	-2.986018834525319e-07,4.081934393323820e-14
38		2.398832919019488e+00,0.000000000000000e+00
	-2.986018834525319e-03,4.177014859638056e-10
	1.000000000000000e+00,0.000000000000000e+00
	0.000000000000000e+00,0.000000000000000e+00
