Title: * GA CMOS Amp | W=3.998536586291071e-06 L=7.13718950935459e-07 Vbias=0.866434106201622
Date: Mon Sep  8 18:42:53 2025
Plotname: AC Analysis
Flags: complex forward log
No. Variables: 11
No. Points:          901
Offset:    0.0000000000000000e+00
Command: Linear Technology Corporation LTspice
Variables:
	0	frequency	frequency
	1	V(out)	voltage
	2	V(g)	voltage
	3	V(vdd)	voltage
	4	Id(M1)	device_current
	5	Ig(M1)	device_current
	6	Ib(M1)	device_current
	7	Is(M1)	device_current
	8	I(Rload)	device_current
	9	I(Vg)	device_current
	10	I(Vdd)	device_current
Values:
0		1.000000000000000e+00,0.000000000000000e+00
	-7.689106056836441e-01,8.828295856810698e-11
	1.000000000000000e+00,0.000000000000000e+00
	0.000000000000000e+00,0.000000000000000e+00
	7.689106056836442e-05,-8.828295856810698e-15
	4.435961999330079e-25,2.967528537040420e-14
	7.689106106380586e-13,-9.063814490935981e-16
	-7.689106133727503e-05,-1.994060806449990e-14
	-7.689106056836442e-05,8.828295856810698e-15
	-4.435961999330079e-25,-2.967528537040420e-14
	-7.689106056836442e-05,8.828295856810698e-15
1		1.023292992280754e+00,0.000000000000000e+00
	-7.689106056836441e-01,9.033933284055604e-11
	1.000000000000000e+00,0.000000000000000e+00
	0.000000000000000e+00,0.000000000000000e+00
	7.689106056836442e-05,-9.033933284055604e-15
	4.645022447567472e-25,3.036651156346620e-14
	7.689106106380586e-13,-9.274937851907526e-16
	-7.689106133727503e-05,-2.040508449421985e-14
	-7.689106056836442e-05,9.033933284055604e-15
	-4.645022447567472e-25,-3.036651156346620e-14
	-7.689106056836442e-05,9.033933284055604e-15
2		1.047128548050899e+00,0.000000000000000e+00
	-7.689106056836441e-01,9.244360622305956e-11
	1.000000000000000e+00,0.000000000000000e+00
	0.000000000000000e+00,0.000000000000000e+00
	7.689106056836442e-05,-9.244360622305956e-15
	4.863935611185159e-25,3.107383848290745e-14
	7.689106106380586e-13,-9.490978907696537e-16
	-7.689106133727503e-05,-2.088037996983184e-14
	-7.689106056836442e-05,9.244360622305956e-15
	-4.863935611185159e-25,-3.107383848290745e-14
	-7.689106056836442e-05,9.244360622305956e-15
3		1.071519305237606e+00,0.000000000000000e+00
	-7.689106056836441e-01,9.459689442921835e-11
	1.000000000000000e+00,0.000000000000000e+00
	0.000000000000000e+00,0.000000000000000e+00
	7.689106056836442e-05,-9.459689442921836e-15
	5.093165834353380e-25,3.179764116282321e-14
	7.689106106380586e-13,-9.712052206130273e-16
	-7.689106133727503e-05,-2.136674649928835e-14
	-7.689106056836442e-05,9.459689442921836e-15
	-5.093165834353380e-25,-3.179764116282321e-14
	-7.689106056836442e-05,9.459689442921836e-15
4		1.096478196143185e+00,0.000000000000000e+00
	-7.689106056836441e-01,9.680033916094143e-11
	1.000000000000000e+00,0.000000000000000e+00
	0.000000000000000e+00,0.000000000000000e+00
	7.689106056836442e-05,-9.680033916094144e-15
	5.333199345108901e-25,3.253830337297503e-14
	7.689106106380586e-13,-9.938274963197930e-16
	-7.689106133727503e-05,-2.186444196056110e-14
	-7.689106056836442e-05,9.680033916094143e-15
	-5.333199345108901e-25,-3.253830337297503e-14
	-7.689106056836442e-05,9.680033916094143e-15
5		1.122018454301963e+00,0.000000000000000e+00
	-7.689106056836441e-01,9.905510871379164e-11
	1.000000000000000e+00,0.000000000000000e+00
	0.000000000000000e+00,0.000000000000000e+00
	7.689106056836442e-05,-9.905510871379163e-15
	5.584545286709893e-25,3.329621782227058e-14
	7.689106106380586e-13,-1.016976712519977e-15
	-7.689106133727503e-05,-2.237373023837144e-14
	-7.689106056836442e-05,9.905510871379163e-15
	-5.584545286709893e-25,-3.329621782227058e-14
	-7.689106056836442e-05,9.905510871379163e-15
6		1.148153621496882e+00,0.000000000000000e+00
	-7.689106056836441e-01,1.013623985964313e-10
	1.000000000000000e+00,0.000000000000000e+00
	0.000000000000000e+00,0.000000000000000e+00
	7.689106056836442e-05,-1.013623985964313e-14
	5.847736797597026e-25,3.407178636698304e-14
	7.689106106380586e-13,-1.040665143234410e-15
	-7.689106133727503e-05,-2.289488136410551e-14
	-7.689106056836442e-05,1.013623985964313e-14
	-5.847736797597026e-25,-3.407178636698304e-14
	-7.689106056836442e-05,1.013623985964313e-14
7		1.174897554939529e+00,0.000000000000000e+00
	-7.689106056836441e-01,1.037234321644966e-10
	1.000000000000000e+00,0.000000000000000e+00
	0.000000000000000e+00,0.000000000000000e+00
	7.689106056836442e-05,-1.037234321644966e-14
	6.123332142251590e-25,3.486542022382068e-14
	7.689106106380586e-13,-1.064905348382617e-15
	-7.689106133727503e-05,-2.342817165898840e-14
	-7.689106056836442e-05,1.037234321644967e-14
	-6.123332142251590e-25,-3.486542022382068e-14
	-7.689106056836442e-05,1.037234321644967e-14
8		1.202264434617413e+00,0.000000000000000e+00
	-7.689106056836441e-01,1.061394612692376e-10
	1.000000000000000e+00,0.000000000000000e+00
	0.000000000000000e+00,0.000000000000000e+00
	7.689106056836442e-05,-1.061394612692376e-14
	6.411915895349313e-25,3.567754018795938e-14
	7.689106106380586e-13,-1.089710180442228e-15
	-7.689106133727503e-05,-2.397388388059340e-14
	-7.689106056836442e-05,1.061394612692376e-14
	-6.411915895349313e-25,-3.567754018795938e-14
	-7.689106056836442e-05,1.061394612692376e-14
9		1.230268770812381e+00,0.000000000000000e+00
	-7.689106056836441e-01,1.086117669212653e-10
	1.000000000000000e+00,0.000000000000000e+00
	0.000000000000000e+00,0.000000000000000e+00
	7.689106056836442e-05,-1.086117669212653e-14
	6.714100181721607e-25,3.650857685615381e-14
	7.689106106380586e-13,-1.115092791263526e-15
	-7.689106133727503e-05,-2.453230737276375e-14
	-7.689106056836442e-05,1.086117669212653e-14
	-6.714100181721607e-25,-3.650857685615381e-14
	-7.689106056836442e-05,1.086117669212653e-14
10		1.258925411794167e+00,0.000000000000000e+00
	-7.689106056836441e-01,1.111416599697614e-10
	1.000000000000000e+00,0.000000000000000e+00
	0.000000000000000e+00,0.000000000000000e+00
	7.689106056836442e-05,-1.111416599697614e-14
	7.030525974754428e-25,3.735897085504552e-14
	7.689106106380586e-13,-1.141066639042750e-15
	-7.689106133727503e-05,-2.510373821902663e-14
	-7.689106056836442e-05,1.111416599697614e-14
	-7.030525974754428e-25,-3.735897085504552e-14
	-7.689106056836442e-05,1.111416599697614e-14
11		1.288249551693134e+00,0.000000000000000e+00
	-7.689106056836441e-01,1.137304817975073e-10
	1.000000000000000e+00,0.000000000000000e+00
	0.000000000000000e+00,0.000000000000000e+00
	7.689106056836442e-05,-1.137304817975073e-14
	7.361864455978741e-25,3.822917307478903e-14
	7.689106106380586e-13,-1.167645495457804e-15
	-7.689106133727503e-05,-2.568847939958049e-14
	-7.689106056836442e-05,1.137304817975073e-14
	-7.361864455978741e-25,-3.822917307478903e-14
	-7.689106056836442e-05,1.137304817975073e-14
12		1.318256738556407e+00,0.000000000000000e+00
	-7.689106056836441e-01,1.163796050321031e-10
	1.000000000000000e+00,0.000000000000000e+00
	0.000000000000000e+00,0.000000000000000e+00
	7.689106056836442e-05,-1.163796050321031e-14
	7.708818438736544e-25,3.911964490811969e-14
	7.689106106380586e-13,-1.194843452970157e-15
	-7.689106133727503e-05,-2.628684095193923e-14
	-7.689106056836442e-05,1.163796050321031e-14
	-7.708818438736544e-25,-3.911964490811969e-14
	-7.689106056836442e-05,1.163796050321031e-14
13		1.348962882591653e+00,0.000000000000000e+00
	-7.689106056836441e-01,1.190904342737531e-10
	1.000000000000000e+00,0.000000000000000e+00
	0.000000000000000e+00,0.000000000000000e+00
	7.689106056836442e-05,-1.190904342737531e-14
	8.072123858942200e-25,4.003085849499037e-14
	7.689106106380586e-13,-1.222674932296904e-15
	-7.689106133727503e-05,-2.689914013531816e-14
	-7.689106056836442e-05,1.190904342737531e-14
	-8.072123858942200e-25,-4.003085849499037e-14
	-7.689106056836442e-05,1.190904342737531e-14
14		1.380384264602885e+00,0.000000000000000e+00
	-7.689106056836441e-01,1.218644068400033e-10
	1.000000000000000e+00,0.000000000000000e+00
	0.000000000000000e+00,0.000000000000000e+00
	7.689106056836442e-05,-1.218644068400033e-14
	8.452551336101172e-25,4.096329697290615e-14
	7.689106106380586e-13,-1.251154690056765e-15
	-7.689106133727503e-05,-2.752570159884905e-14
	-7.689106056836442e-05,1.218644068400033e-14
	-8.452551336101172e-25,-4.096329697290615e-14
	-7.689106056836442e-05,1.218644068400033e-14
15		1.412537544622754e+00,0.000000000000000e+00
	-7.689106056836441e-01,1.247029935278262e-10
	1.000000000000000e+00,0.000000000000000e+00
	0.000000000000000e+00,0.000000000000000e+00
	7.689106056836442e-05,-1.247029935278262e-14
	8.850907807897313e-25,4.191745473309029e-14
	7.689106106380586e-13,-1.280297826594286e-15
	-7.689106133727503e-05,-2.816685755371338e-14
	-7.689106056836442e-05,1.247029935278262e-14
	-8.850907807897313e-25,-4.191745473309029e-14
	-7.689106056836442e-05,1.247029935278262e-14
16		1.445439770745927e+00,0.000000000000000e+00
	-7.689106056836441e-01,1.276076993934567e-10
	1.000000000000000e+00,0.000000000000000e+00
	0.000000000000000e+00,0.000000000000000e+00
	7.689106056836442e-05,-1.276076993934567e-14
	9.268038241815874e-25,4.289383768261701e-14
	7.689106106380586e-13,-1.310119793986212e-15
	-7.689106133727503e-05,-2.882294794928513e-14
	-7.689106056836442e-05,1.276076993934567e-14
	-9.268038241815874e-25,-4.289383768261701e-14
	-7.689106056836442e-05,1.276076993934567e-14
17		1.479108388168207e+00,0.000000000000000e+00
	-7.689106056836441e-01,1.305800645503933e-10
	1.000000000000000e+00,0.000000000000000e+00
	0.000000000000000e+00,0.000000000000000e+00
	7.689106056836442e-05,-1.305800645503933e-14
	9.704827427432871e-25,4.389296351265013e-14
	7.689106106380586e-13,-1.340636404234397e-15
	-7.689106133727503e-05,-2.949432065337640e-14
	-7.689106056836442e-05,1.305800645503933e-14
	-9.704827427432871e-25,-4.389296351265013e-14
	-7.689106056836442e-05,1.305800645503933e-14
18		1.513561248436208e+00,0.000000000000000e+00
	-7.689106056836441e-01,1.336216649859860e-10
	1.000000000000000e+00,0.000000000000000e+00
	0.000000000000000e+00,0.000000000000000e+00
	7.689106056836442e-05,-1.336216649859860e-14
	1.016220185317233e-24,4.491536197292972e-14
	7.689106106380586e-13,-1.371863837649536e-15
	-7.689106133727503e-05,-3.018133163668158e-14
	-7.689106056836442e-05,1.336216649859860e-14
	-1.016220185317233e-24,-4.491536197292972e-14
	-7.689106056836442e-05,1.336216649859860e-14
19		1.548816618912481e+00,0.000000000000000e+00
	-7.689106056836441e-01,1.367341133970461e-10
	1.000000000000000e+00,0.000000000000000e+00
	0.000000000000000e+00,0.000000000000000e+00
	7.689106056836442e-05,-1.367341133970461e-14
	1.064113167151250e-24,4.596157515265244e-14
	7.689106106380586e-13,-1.403818651430146e-15
	-7.689106133727503e-05,-3.088434516151768e-14
	-7.689106056836442e-05,1.367341133970461e-14
	-1.064113167151250e-24,-4.596157515265244e-14
	-7.689106056836442e-05,1.367341133970461e-14
20		1.584893192461113e+00,0.000000000000000e+00
	-7.689106056836441e-01,1.399190600449192e-10
	1.000000000000000e+00,0.000000000000000e+00
	0.000000000000000e+00,0.000000000000000e+00
	7.689106056836442e-05,-1.399190600449192e-14
	1.114263275680933e-24,4.703215776789448e-14
	7.689106106380586e-13,-1.436517788441490e-15
	-7.689106133727503e-05,-3.160373397496106e-14
	-7.689106056836442e-05,1.399190600449192e-14
	-1.114263275680933e-24,-4.703215776789448e-14
	-7.689106056836442e-05,1.399190600449192e-14
21		1.621810097358929e+00,0.000000000000000e+00
	-7.689106056836441e-01,1.431781936304759e-10
	1.000000000000000e+00,0.000000000000000e+00
	0.000000000000000e+00,0.000000000000000e+00
	7.689106056836442e-05,-1.431781936304759e-14
	1.166776886010214e-24,4.812767745572925e-14
	7.689106106380586e-13,-1.469978586198821e-15
	-7.689106133727503e-05,-3.233987950648284e-14
	-7.689106056836442e-05,1.431781936304759e-14
	-1.166776886010214e-24,-4.812767745572925e-14
	-7.689106056836442e-05,1.431781936304759e-14
22		1.659586907437560e+00,0.000000000000000e+00
	-7.689106056836441e-01,1.465132421894829e-10
	1.000000000000000e+00,0.000000000000000e+00
	0.000000000000000e+00,0.000000000000000e+00
	7.689106056836442e-05,-1.465132421894829e-14
	1.221765386547225e-24,4.924871507519617e-14
	7.689106106380586e-13,-1.504218786060024e-15
	-7.689106133727503e-05,-3.309317207018786e-14
	-7.689106056836442e-05,1.465132421894829e-14
	-1.221765386547225e-24,-4.924871507519617e-14
	-7.689106056836442e-05,1.465132421894829e-14
23		1.698243652461743e+00,0.000000000000000e+00
	-7.689106056836441e-01,1.499259740088308e-10
	1.000000000000000e+00,0.000000000000000e+00
	0.000000000000000e+00,0.000000000000000e+00
	7.689106056836442e-05,-1.499259740088307e-14
	1.279345415274042e-24,5.039586501527978e-14
	7.689106106380586e-13,-1.539256542632290e-15
	-7.689106133727503e-05,-3.386401107176442e-14
	-7.689106056836442e-05,1.499259740088308e-14
	-1.279345415274042e-24,-5.039586501527978e-14
	-7.689106056836442e-05,1.499259740088308e-14
24		1.737800828749374e+00,0.000000000000000e+00
	-7.689106056836441e-01,1.534181985641030e-10
	1.000000000000000e+00,0.000000000000000e+00
	0.000000000000000e+00,0.000000000000000e+00
	7.689106056836442e-05,-1.534181985641030e-14
	1.339639107151482e-24,5.156973551006261e-14
	7.689106106380586e-13,-1.575110433397920e-15
	-7.689106133727503e-05,-3.465280522025439e-14
	-7.689106056836442e-05,1.534181985641030e-14
	-1.339639107151482e-24,-5.156973551006261e-14
	-7.689106056836442e-05,1.534181985641030e-14
25		1.778279410038922e+00,0.000000000000000e+00
	-7.689106056836441e-01,1.569917674789838e-10
	1.000000000000000e+00,0.000000000000000e+00
	0.000000000000000e+00,0.000000000000000e+00
	7.689106056836442e-05,-1.569917674789839e-14
	1.402774353183735e-24,5.277094896121903e-14
	7.689106106380586e-13,-1.611799468564388e-15
	-7.689106133727503e-05,-3.545997274475625e-14
	-7.689106056836442e-05,1.569917674789838e-14
	-1.402774353183735e-24,-5.277094896121903e-14
	-7.689106056836442e-05,1.569917674789838e-14
26		1.819700858609982e+00,0.000000000000000e+00
	-7.689106056836441e-01,1.606485755070137e-10
	1.000000000000000e+00,0.000000000000000e+00
	0.000000000000000e+00,0.000000000000000e+00
	7.689106056836442e-05,-1.606485755070137e-14
	1.468885071692324e-24,5.400014226802077e-14
	7.689106106380586e-13,-1.649343101143785e-15
	-7.689106133727503e-05,-3.628594161617561e-14
	-7.689106056836442e-05,1.606485755070137e-14
	-1.468885071692324e-24,-5.400014226802077e-14
	-7.689106056836442e-05,1.606485755070137e-14
27		1.862087136662866e+00,0.000000000000000e+00
	-7.689106056836441e-01,1.643905615362128e-10
	1.000000000000000e+00,0.000000000000000e+00
	0.000000000000000e+00,0.000000000000000e+00
	7.689106056836442e-05,-1.643905615362127e-14
	1.538111492374825e-24,5.525796716502940e-14
	7.689106106380586e-13,-1.687761237267041e-15
	-7.689106133727503e-05,-3.713114977414109e-14
	-7.689106056836442e-05,1.643905615362128e-14
	-1.538111492374825e-24,-5.525796716502940e-14
	-7.689106056836442e-05,1.643905615362128e-14
28		1.905460717963246e+00,0.000000000000000e+00
	-7.689106056836441e-01,1.682197096171046e-10
	1.000000000000000e+00,0.000000000000000e+00
	0.000000000000000e+00,0.000000000000000e+00
	7.689106056836442e-05,-1.682197096171046e-14
	1.610600453750852e-24,5.654509056765459e-14
	7.689106106380586e-13,-1.727074246738455e-15
	-7.689106133727503e-05,-3.799604535920567e-14
	-7.689106056836442e-05,1.682197096171046e-14
	-1.610600453750852e-24,-5.654509056765459e-14
	-7.689106056836442e-05,1.682197096171046e-14
29		1.949844599758044e+00,0.000000000000000e+00
	-7.689106056836441e-01,1.721380500146865e-10
	1.000000000000000e+00,0.000000000000000e+00
	0.000000000000000e+00,0.000000000000000e+00
	7.689106056836442e-05,-1.721380500146865e-14
	1.686505714626250e-24,5.786219492576152e-14
	7.689106106380586e-13,-1.767302973836028e-15
	-7.689106133727503e-05,-3.888108695045684e-14
	-7.689106056836442e-05,1.721380500146865e-14
	-1.686505714626250e-24,-5.786219492576152e-14
	-7.689106056836442e-05,1.721380500146865e-14
30		1.995262314968878e+00,0.000000000000000e+00
	-7.689106056836441e-01,1.761476602849026e-10
	1.000000000000000e+00,0.000000000000000e+00
	0.000000000000000e+00,0.000000000000000e+00
	7.689106056836442e-05,-1.761476602849026e-14
	1.765988280236129e-24,5.920997858551476e-14
	7.689106106380586e-13,-1.808468748363338e-15
	-7.689106133727503e-05,-3.978674380866116e-14
	-7.689106056836442e-05,1.761476602849026e-14
	-1.765988280236129e-24,-5.920997858551476e-14
	-7.689106056836442e-05,1.761476602849026e-14
31		2.041737944669527e+00,0.000000000000000e+00
	-7.689106056836441e-01,1.802506663761917e-10
	1.000000000000000e+00,0.000000000000000e+00
	0.000000000000000e+00,0.000000000000000e+00
	7.689106056836442e-05,-1.802506663761918e-14
	1.849216743758562e-24,6.058915615965077e-14
	7.689106106380586e-13,-1.850593396958948e-15
	-7.689106133727503e-05,-4.071349612507264e-14
	-7.689106056836442e-05,1.802506663761918e-14
	-1.849216743758562e-24,-6.058915615965077e-14
	-7.689106056836442e-05,1.802506663761918e-14
32		2.089296130854037e+00,0.000000000000000e+00
	-7.689106056836441e-01,1.844492437566932e-10
	1.000000000000000e+00,0.000000000000000e+00
	0.000000000000000e+00,0.000000000000000e+00
	7.689106056836442e-05,-1.844492437566932e-14
	1.936367643923317e-24,6.200045890637492e-14
	7.689106106380586e-13,-1.893699254669126e-15
	-7.689106133727503e-05,-4.166183527603647e-14
	-7.689106056836442e-05,1.844492437566932e-14
	-1.936367643923317e-24,-6.200045890637492e-14
	-7.689106056836442e-05,1.844492437566932e-14
33		2.137962089502230e+00,0.000000000000000e+00
	-7.689106056836441e-01,1.887456185677088e-10
	1.000000000000000e+00,0.000000000000000e+00
	0.000000000000000e+00,0.000000000000000e+00
	7.689106056836442e-05,-1.887456185677088e-14
	2.027625839474164e-24,6.344463511708432e-14
	7.689106106380586e-13,-1.937809176790209e-15
	-7.689106133727503e-05,-4.263226408352324e-14
	-7.689106056836442e-05,1.887456185677088e-14
	-2.027625839474164e-24,-6.344463511708432e-14
	-7.689106056836442e-05,1.887456185677088e-14
34		2.187761623949550e+00,0.000000000000000e+00
	-7.689106056836441e-01,1.931420688040326e-10
	1.000000000000000e+00,0.000000000000000e+00
	0.000000000000000e+00,0.000000000000000e+00
	7.689106056836442e-05,-1.931420688040326e-14
	2.123184901279067e-24,6.492245051312184e-14
	7.689106106380586e-13,-1.982946550986770e-15
	-7.689106133727503e-05,-4.362529708173181e-14
	-7.689106056836442e-05,1.931420688040326e-14
	-2.123184901279067e-24,-6.492245051312184e-14
	-7.689106056836442e-05,1.931420688040326e-14
35		2.238721138568337e+00,0.000000000000000e+00
	-7.689106056836441e-01,1.976409255217738e-10
	1.000000000000000e+00,0.000000000000000e+00
	0.000000000000000e+00,0.000000000000000e+00
	7.689106056836442e-05,-1.976409255217738e-14
	2.223247522919941e-24,6.643468865177162e-14
	7.689106106380586e-13,-2.029135309692049e-15
	-7.689106133727503e-05,-4.464146078990220e-14
	-7.689106056836442e-05,1.976409255217738e-14
	-2.223247522919941e-24,-6.643468865177162e-14
	-7.689106056836442e-05,1.976409255217738e-14
36		2.290867652767770e+00,0.000000000000000e+00
	-7.689106056836441e-01,2.022445740743136e-10
	1.000000000000000e+00,0.000000000000000e+00
	0.000000000000000e+00,0.000000000000000e+00
	7.689106056836442e-05,-2.022445740743136e-14
	2.328025950632917e-24,6.798215134171164e-14
	7.689106106380586e-13,-2.076399942797307e-15
	-7.689106133727503e-05,-4.568129399148297e-14
	-7.689106056836442e-05,2.022445740743136e-14
	-2.328025950632917e-24,-6.798215134171164e-14
	-7.689106056836442e-05,2.022445740743136e-14
37		2.344228815319919e+00,0.000000000000000e+00
	-7.689106056836441e-01,2.069554553770509e-10
	1.000000000000000e+00,0.000000000000000e+00
	0.000000000000000e+00,0.000000000000000e+00
	7.689106056836442e-05,-2.069554553770510e-14
	2.437742433511062e-24,6.956565906814319e-14
	7.689106106380586e-13,-2.124765510636645e-15
	-7.689106133727503e-05,-4.674534801980144e-14
	-7.689106056836442e-05,2.069554553770510e-14
	-2.437742433511062e-24,-6.956565906814319e-14
	-7.689106056836442e-05,2.069554553770510e-14
38		2.398832919019488e+00,0.000000000000000e+00
	-7.689106056836441e-01,2.117760672016086e-10
	1.000000000000000e+00,0.000000000000000e+00
