Title: * GA CMOS Amp | W=1e-06 L=6.183538425907534e-07 Vbias=0.9964411476741829
Date: Mon Sep  8 18:47:15 2025
Plotname: AC Analysis
Flags: complex forward log
No. Variables: 11
No. Points:          901
Offset:    0.0000000000000000e+00
Command: Linear Technology Corporation LTspice
Variables:
	0	frequency	frequency
	1	V(out)	voltage
	2	V(g)	voltage
	3	V(vdd)	voltage
	4	Id(M1)	device_current
	5	Ig(M1)	device_current
	6	Ib(M1)	device_current
	7	Is(M1)	device_current
	8	I(Rload)	device_current
	9	I(Vg)	device_current
	10	I(Vdd)	device_current
Values:
0		1.000000000000000e+00,0.000000000000000e+00
	-2.103447933479765e-01,1.517333125096657e-11
	1.000000000000000e+00,0.000000000000000e+00
	0.000000000000000e+00,0.000000000000000e+00
	2.103447933479765e-05,-1.517333125096657e-15
	1.906737039540839e-26,6.184958712344927e-15
	2.103447929344918e-13,-3.817190253795697e-16
	-2.103447954514244e-05,-4.285906561868701e-15
	-2.103447933479765e-05,1.517333125096657e-15
	-1.906737039540839e-26,-6.184958712344927e-15
	-2.103447933479765e-05,1.517333125096657e-15
1		1.023292992280754e+00,0.000000000000000e+00
	-2.103447933479765e-01,1.552676353866866e-11
	1.000000000000000e+00,0.000000000000000e+00
	0.000000000000000e+00,0.000000000000000e+00
	2.103447933479765e-05,-1.552676353866866e-15
	1.996598787729270e-26,6.329024907888361e-15
	2.103447929344918e-13,-3.906104036911529e-16
	-2.103447954514244e-05,-4.385738150330342e-15
	-2.103447933479765e-05,1.552676353866866e-15
	-1.996598787729270e-26,-6.329024907888361e-15
	-2.103447933479765e-05,1.552676353866866e-15
2		1.047128548050899e+00,0.000000000000000e+00
	-2.103447933479765e-01,1.588842832191996e-11
	1.000000000000000e+00,0.000000000000000e+00
	0.000000000000000e+00,0.000000000000000e+00
	2.103447933479765e-05,-1.588842832191996e-15
	2.090695589635136e-26,6.476446836212504e-15
	2.103447929344918e-13,-3.997088888091128e-16
	-2.103447954514244e-05,-4.487895115211395e-15
	-2.103447933479765e-05,1.588842832191996e-15
	-2.090695589635136e-26,-6.476446836212504e-15
	-2.103447933479765e-05,1.588842832191996e-15
3		1.071519305237606e+00,0.000000000000000e+00
	-2.103447933479765e-01,1.625851736017575e-11
	1.000000000000000e+00,0.000000000000000e+00
	0.000000000000000e+00,0.000000000000000e+00
	2.103447933479765e-05,-1.625851736017575e-15
	2.189227037191059e-26,6.627302662375116e-15
	2.103447929344918e-13,-4.090193048706921e-16
	-2.103447954514244e-05,-4.592431621486848e-15
	-2.103447933479765e-05,1.625851736017575e-15
	-2.189227037191059e-26,-6.627302662375116e-15
	-2.103447933479765e-05,1.625851736017575e-15
4		1.096478196143185e+00,0.000000000000000e+00
	-2.103447933479765e-01,1.663722687954283e-11
	1.000000000000000e+00,0.000000000000000e+00
	0.000000000000000e+00,0.000000000000000e+00
	2.103447933479765e-05,-1.663722687954283e-15
	2.292402128807646e-26,6.781672372132040e-15
	2.103447929344918e-13,-4.185465883817253e-16
	-2.103447954514244e-05,-4.699403095796032e-15
	-2.103447933479765e-05,1.663722687954283e-15
	-2.292402128807646e-26,-6.781672372132040e-15
	-2.103447933479765e-05,1.663722687954283e-15
5		1.122018454301963e+00,0.000000000000000e+00
	-2.103447933479765e-01,1.702475767682118e-11
	1.000000000000000e+00,0.000000000000000e+00
	0.000000000000000e+00,0.000000000000000e+00
	2.103447933479765e-05,-1.702475767682118e-15
	2.400439712687142e-26,6.939637814346716e-15
	2.103447929344918e-13,-4.282957908340363e-16
	-2.103447954514244e-05,-4.808866255830561e-15
	-2.103447933479765e-05,1.702475767682118e-15
	-2.400439712687142e-26,-6.939637814346716e-15
	-2.103447933479765e-05,1.702475767682118e-15
6		1.148153621496882e+00,0.000000000000000e+00
	-2.103447933479765e-01,1.742131522596909e-11
	1.000000000000000e+00,0.000000000000000e+00
	0.000000000000000e+00,0.000000000000000e+00
	2.103447933479765e-05,-1.742131522596909e-15
	2.513568951029805e-26,7.101282744387523e-15
	2.103447929344918e-13,-4.382720813838134e-16
	-2.103447954514244e-05,-4.920879140406801e-15
	-2.103447933479765e-05,1.742131522596909e-15
	-2.513568951029805e-26,-7.101282744387523e-15
	-2.103447933479765e-05,1.742131522596909e-15
7		1.174897554939529e+00,0.000000000000000e+00
	-2.103447933479765e-01,1.782710978704817e-11
	1.000000000000000e+00,0.000000000000000e+00
	0.000000000000000e+00,0.000000000000000e+00
	2.103447933479765e-05,-1.782710978704817e-15
	2.632029806117662e-26,7.266692868535993e-15
	2.103447929344918e-13,-4.484807495923557e-16
	-2.103447954514244e-05,-5.035501140238821e-15
	-2.103447933479765e-05,1.782710978704817e-15
	-2.632029806117662e-26,-7.266692868535993e-15
	-2.103447933479765e-05,1.782710978704817e-15
8		1.202264434617413e+00,0.000000000000000e+00
	-2.103447933479765e-01,1.824235651770604e-11
	1.000000000000000e+00,0.000000000000000e+00
	0.000000000000000e+00,0.000000000000000e+00
	2.103447933479765e-05,-1.824235651770604e-15
	2.756073549306678e-26,7.435955889429414e-15
	2.103447929344918e-13,-4.589272082306775e-16
	-2.103447954514244e-05,-5.152793029428133e-15
	-2.103447933479765e-05,1.824235651770604e-15
	-2.756073549306678e-26,-7.435955889429414e-15
	-2.103447933479765e-05,1.824235651770604e-15
9		1.230268770812381e+00,0.000000000000000e+00
	-2.103447933479765e-01,1.866727558725573e-11
	1.000000000000000e+00,0.000000000000000e+00
	0.000000000000000e+00,0.000000000000000e+00
	2.103447933479765e-05,-1.866727558725573e-15
	2.885963294006991e-26,7.609161552561922e-15
	2.103447929344918e-13,-4.696169961494229e-16
	-2.103447954514244e-05,-5.272816997686926e-15
	-2.103447933479765e-05,1.866727558725573e-15
	-2.885963294006991e-26,-7.609161552561922e-15
	-2.103447933479765e-05,1.866727558725573e-15
10		1.258925411794167e+00,0.000000000000000e+00
	-2.103447933479765e-01,1.910209229341239e-11
	1.000000000000000e+00,0.000000000000000e+00
	0.000000000000000e+00,0.000000000000000e+00
	2.103447933479765e-05,-1.910209229341239e-15
	3.021974553781732e-26,7.786401693868757e-15
	2.103447929344918e-13,-4.805557812156422e-16
	-2.103447954514244e-05,-5.395636683311876e-15
	-2.103447933479765e-05,1.910209229341239e-15
	-3.021974553781732e-26,-7.786401693868757e-15
	-2.103447933479765e-05,1.910209229341239e-15
11		1.288249551693134e+00,0.000000000000000e+00
	-2.103447933479765e-01,1.954703718174910e-11
	1.000000000000000e+00,0.000000000000000e+00
	0.000000000000000e+00,0.000000000000000e+00
	2.103447933479765e-05,-1.954703718174910e-15
	3.164395826748230e-26,7.967770288418894e-15
	2.103447929344918e-13,-4.917493633179705e-16
	-2.103447954514244e-05,-5.521317206926014e-15
	-2.103447933479765e-05,1.954703718174910e-15
	-3.164395826748230e-26,-7.967770288418894e-15
	-2.103447933479765e-05,1.954703718174910e-15
12		1.318256738556407e+00,0.000000000000000e+00
	-2.103447933479765e-01,2.000234616793519e-11
	1.000000000000000e+00,0.000000000000000e+00
	0.000000000000000e+00,0.000000000000000e+00
	2.103447933479765e-05,-2.000234616793519e-15
	3.313529207521200e-26,8.153363500241857e-15
	2.103447929344918e-13,-5.032036774418015e-16
	-2.103447954514244e-05,-5.649925206006537e-15
	-2.103447933479765e-05,2.000234616793519e-15
	-3.313529207521200e-26,-8.153363500241857e-15
	-2.103447933479765e-05,2.000234616793519e-15
13		1.348962882591653e+00,0.000000000000000e+00
	-2.103447933479765e-01,2.046826066282188e-11
	1.000000000000000e+00,0.000000000000000e+00
	0.000000000000000e+00,0.000000000000000e+00
	2.103447933479765e-05,-2.046826066282187e-15
	3.469691027995923e-26,8.343279733315174e-15
	2.103447929344918e-13,-5.149247968161018e-16
	-2.103447954514244e-05,-5.781528870216885e-15
	-2.103447933479765e-05,2.046826066282188e-15
	-3.469691027995923e-26,-8.343279733315174e-15
	-2.103447933479765e-05,2.046826066282188e-15
14		1.380384264602885e+00,0.000000000000000e+00
	-2.103447933479765e-01,2.094502770044145e-11
	1.000000000000000e+00,0.000000000000000e+00
	0.000000000000000e+00,0.000000000000000e+00
	2.103447933479765e-05,-2.094502770044145e-15
	3.633212528330603e-26,8.537619683739458e-15
	2.103447929344918e-13,-5.269189361335076e-16
	-2.103447954514244e-05,-5.916197977561805e-15
	-2.103447933479765e-05,2.094502770044145e-15
	-3.633212528330603e-26,-8.537619683739458e-15
	-2.103447933479765e-05,2.094502770044145e-15
15		1.412537544622754e+00,0.000000000000000e+00
	-2.103447933479765e-01,2.143290006898802e-11
	1.000000000000000e+00,0.000000000000000e+00
	0.000000000000000e+00,0.000000000000000e+00
	2.103447933479765e-05,-2.143290006898802e-15
	3.804440559551163e-26,8.736486393128814e-15
	2.103447929344918e-13,-5.391924548454467e-16
	-2.103447954514244e-05,-6.054003931384566e-15
	-2.103447933479765e-05,2.143290006898802e-15
	-3.804440559551163e-26,-8.736486393128814e-15
	-2.103447933479765e-05,2.143290006898802e-15
16		1.445439770745927e+00,0.000000000000000e+00
	-2.103447933479765e-01,2.193213644484912e-11
	1.000000000000000e+00,0.000000000000000e+00
	0.000000000000000e+00,0.000000000000000e+00
	2.103447933479765e-05,-2.193213644484912e-15
	3.983738319268759e-26,8.939985303244876e-15
	2.103447929344918e-13,-5.517518605340040e-16
	-2.103447954514244e-05,-6.195019798225959e-15
	-2.103447933479765e-05,2.193213644484913e-15
	-3.983738319268759e-26,-8.939985303244876e-15
	-2.103447933479765e-05,2.193213644484913e-15
17		1.479108388168207e+00,0.000000000000000e+00
	-2.103447933479765e-01,2.244300152975944e-11
	1.000000000000000e+00,0.000000000000000e+00
	0.000000000000000e+00,0.000000000000000e+00
	2.103447933479765e-05,-2.244300152975944e-15
	4.171486122070625e-26,9.148224311903413e-15
	2.103447929344918e-13,-5.646038123623140e-16
	-2.103447954514244e-05,-6.339320346565155e-15
	-2.103447933479765e-05,2.244300152975944e-15
	-4.171486122070625e-26,-9.148224311903413e-15
	-2.103447933479765e-05,2.244300152975944e-15
18		1.513561248436208e+00,0.000000000000000e+00
	-2.103447933479765e-01,2.296576619114908e-11
	1.000000000000000e+00,0.000000000000000e+00
	0.000000000000000e+00,0.000000000000000e+00
	2.103447933479765e-05,-2.296576619114908e-15
	4.368082206218293e-26,9.361313830183187e-15
	2.103447929344918e-13,-5.777551246053528e-16
	-2.103447954514244e-05,-6.486982086462926e-15
	-2.103447933479765e-05,2.296576619114908e-15
	-4.368082206218293e-26,-9.361313830183187e-15
	-2.103447933479765e-05,2.296576619114908e-15
19		1.548816618912481e+00,0.000000000000000e+00
	-2.103447933479765e-01,2.350070760576112e-11
	1.000000000000000e+00,0.000000000000000e+00
	0.000000000000000e+00,0.000000000000000e+00
	2.103447933479765e-05,-2.350070760576112e-15
	4.573943578364329e-26,9.579366840967360e-15
	2.103447929344918e-13,-5.912127702629517e-16
	-2.103447954514244e-05,-6.638083310128297e-15
	-2.103447933479765e-05,2.350070760576112e-15
	-4.573943578364329e-26,-9.579366840967360e-15
	-2.103447933479765e-05,2.350070760576112e-15
20		1.584893192461113e+00,0.000000000000000e+00
	-2.103447933479765e-01,2.404810940661437e-11
	1.000000000000000e+00,0.000000000000000e+00
	0.000000000000000e+00,0.000000000000000e+00
	2.103447933479765e-05,-2.404810940661437e-15
	4.789506898079377e-26,9.802498958848525e-15
	2.103447929344918e-13,-6.049838847569700e-16
	-2.103447954514244e-05,-6.792704133430117e-15
	-2.103447933479765e-05,2.404810940661437e-15
	-4.789506898079377e-26,-9.802498958848525e-15
	-2.103447933479765e-05,2.404810940661437e-15
21		1.621810097358929e+00,0.000000000000000e+00
	-2.103447933479765e-01,2.460826183338937e-11
	1.000000000000000e+00,0.000000000000000e+00
	0.000000000000000e+00,0.000000000000000e+00
	2.103447933479765e-05,-2.460826183338937e-15
	5.015229404065624e-26,1.003082849142908e-14
	2.103447929344918e-13,-6.190757697145946e-16
	-2.103447954514244e-05,-6.950926538375552e-15
	-2.103447933479765e-05,2.460826183338937e-15
	-5.015229404065624e-26,-1.003082849142908e-14
	-2.103447933479765e-05,2.460826183338937e-15
22		1.659586907437560e+00,0.000000000000000e+00
	-2.103447933479765e-01,2.518146188631729e-11
	1.000000000000000e+00,0.000000000000000e+00
	0.000000000000000e+00,0.000000000000000e+00
	2.103447933479765e-05,-2.518146188631728e-15
	5.251589884021416e-26,1.026447650204951e-14
	2.103447929344918e-13,-6.334958968397594e-16
	-2.103447954514244e-05,-7.112834416578022e-15
	-2.103447933479765e-05,2.518146188631729e-15
	-5.251589884021416e-26,-1.026447650204951e-14
	-2.103447933479765e-05,2.518146188631729e-15
23		1.698243652461743e+00,0.000000000000000e+00
	-2.103447933479765e-01,2.576801348365338e-11
	1.000000000000000e+00,0.000000000000000e+00
	0.000000000000000e+00,0.000000000000000e+00
	2.103447933479765e-05,-2.576801348365338e-15
	5.499089690214136e-26,1.050356687397773e-14
	2.103447929344918e-13,-6.482519118747365e-16
	-2.103447954514244e-05,-7.278513613737657e-15
	-2.103447933479765e-05,2.576801348365338e-15
	-5.499089690214136e-26,-1.050356687397773e-14
	-2.103447933479765e-05,2.576801348365338e-15
24		1.737800828749374e+00,0.000000000000000e+00
	-2.103447933479765e-01,2.636822762281848e-11
	1.000000000000000e+00,0.000000000000000e+00
	0.000000000000000e+00,0.000000000000000e+00
	2.103447933479765e-05,-2.636822762281848e-15
	5.758253802915599e-26,1.074822637609368e-14
	2.103447929344918e-13,-6.633516386540192e-16
	-2.103447954514244e-05,-7.448051975157810e-15
	-2.103447933479765e-05,2.636822762281848e-15
	-5.758253802915599e-26,-1.074822637609368e-14
	-2.103447933479765e-05,2.636822762281848e-15
25		1.778279410038922e+00,0.000000000000000e+00
	-2.103447933479765e-01,2.698242254529396e-11
	1.000000000000000e+00,0.000000000000000e+00
	0.000000000000000e+00,0.000000000000000e+00
	2.103447933479765e-05,-2.698242254529396e-15
	6.029631943955583e-26,1.099858473010383e-14
	2.103447929344918e-13,-6.788030832526117e-16
	-2.103447954514244e-05,-7.621539392321819e-15
	-2.103447933479765e-05,2.698242254529397e-15
	-6.029631943955583e-26,-1.099858473010383e-14
	-2.103447933479765e-05,2.698242254529397e-15
26		1.819700858609982e+00,0.000000000000000e+00
	-2.103447933479765e-01,2.761092390535754e-11
	1.000000000000000e+00,0.000000000000000e+00
	0.000000000000000e+00,0.000000000000000e+00
	2.103447933479765e-05,-2.761092390535753e-15
	6.313799742755530e-26,1.125477467932135e-14
	2.103447929344918e-13,-6.946144382309684e-16
	-2.103447954514244e-05,-7.799067850554632e-15
	-2.103447933479765e-05,2.761092390535754e-15
	-6.313799742755530e-26,-1.125477467932135e-14
	-2.103447933479765e-05,2.761092390535754e-15
27		1.862087136662866e+00,0.000000000000000e+00
	-2.103447933479765e-01,2.825406494274952e-11
	1.000000000000000e+00,0.000000000000000e+00
	0.000000000000000e+00,0.000000000000000e+00
	2.103447933479765e-05,-2.825406494274952e-15
	6.611359957315742e-26,1.151693205904841e-14
	2.103447929344918e-13,-7.107940869787806e-16
	-2.103447954514244e-05,-7.980731477794680e-15
	-2.103447933479765e-05,2.825406494274952e-15
	-6.611359957315742e-26,-1.151693205904841e-14
	-2.103447933479765e-05,2.825406494274952e-15
28		1.905460717963246e+00,0.000000000000000e+00
	-2.103447933479765e-01,2.891218665936090e-11
	1.000000000000000e+00,0.000000000000000e+00
	0.000000000000000e+00,0.000000000000000e+00
	2.103447933479765e-05,-2.891218665936091e-15
	6.922943752745886e-26,1.178519586859780e-14
	2.103447929344918e-13,-7.273506081599845e-16
	-2.103447954514244e-05,-8.166626594501721e-15
	-2.103447933479765e-05,2.891218665936090e-15
	-6.922943752745886e-26,-1.178519586859780e-14
	-2.103447933479765e-05,2.891218665936090e-15
29		1.949844599758044e+00,0.000000000000000e+00
	-2.103447933479765e-01,2.958563800003713e-11
	1.000000000000000e+00,0.000000000000000e+00
	0.000000000000000e+00,0.000000000000000e+00
	2.103447933479765e-05,-2.958563800003713e-15
	7.249212040050848e-26,1.205970834499222e-14
	2.103447929344918e-13,-7.442927802612573e-16
	-2.103447954514244e-05,-8.356851764727251e-15
	-2.103447933479765e-05,2.958563800003713e-15
	-7.249212040050848e-26,-1.205970834499222e-14
	-2.103447933479765e-05,2.958563800003713e-15
30		1.995262314968878e+00,0.000000000000000e+00
	-2.103447933479765e-01,3.027477603759317e-11
	1.000000000000000e+00,0.000000000000000e+00
	0.000000000000000e+00,0.000000000000000e+00
	2.103447933479765e-05,-3.027477603759317e-15
	7.590856878011542e-26,1.234061503838027e-14
	2.103447929344918e-13,-7.616295862465034e-16
	-2.103447954514244e-05,-8.551507848374450e-15
	-2.103447933479765e-05,3.027477603759318e-15
	-7.590856878011542e-26,-1.234061503838027e-14
	-2.103447933479765e-05,3.027477603759318e-15
31		2.041737944669527e+00,0.000000000000000e+00
	-2.103447933479765e-01,3.097996616213839e-11
	1.000000000000000e+00,0.000000000000000e+00
	0.000000000000000e+00,0.000000000000000e+00
	2.103447933479765e-05,-3.097996616213838e-15
	7.948602941134407e-26,1.262806488920902e-14
	2.103447929344918e-13,-7.793702183197364e-16
	-2.103447954514244e-05,-8.750698054675442e-15
	-2.103447933479765e-05,3.097996616213838e-15
	-7.948602941134407e-26,-1.262806488920902e-14
	-2.103447933479765e-05,3.097996616213838e-15
32		2.089296130854037e+00,0.000000000000000e+00
	-2.103447933479765e-01,3.170158227481111e-11
	1.000000000000000e+00,0.000000000000000e+00
	0.000000000000000e+00,0.000000000000000e+00
	2.103447933479765e-05,-3.170158227481110e-15
	8.323209056783185e-26,1.292221030719423e-14
	2.103447929344918e-13,-7.975240827989069e-16
	-2.103447954514244e-05,-8.954527996914209e-15
	-2.103447933479765e-05,3.170158227481111e-15
	-8.323209056783185e-26,-1.292221030719423e-14
	-2.103447933479765e-05,3.170158227481111e-15
33		2.137962089502230e+00,0.000000000000000e+00
	-2.103447933479765e-01,3.244000698602597e-11
	1.000000000000000e+00,0.000000000000000e+00
	0.000000000000000e+00,0.000000000000000e+00
	2.103447933479765e-05,-3.244000698602597e-15
	8.715469814753471e-26,1.322320725212998e-14
	2.103447929344918e-13,-8.161008051032582e-16
	-2.103447954514244e-05,-9.163105748424127e-15
	-2.103447933479765e-05,3.244000698602597e-15
	-8.715469814753471e-26,-1.322320725212998e-14
	-2.103447933479765e-05,3.244000698602597e-15
34		2.187761623949550e+00,0.000000000000000e+00
	-2.103447933479765e-01,3.319563181833908e-11
	1.000000000000000e+00,0.000000000000000e+00
	0.000000000000000e+00,0.000000000000000e+00
	2.103447933479765e-05,-3.319563181833908e-15
	9.126217252704242e-26,1.353121531658066e-14
	2.103447929344918e-13,-8.351102348568472e-16
	-2.103447954514244e-05,-9.376541899889903e-15
	-2.103447933479765e-05,3.319563181833908e-15
	-9.126217252704242e-26,-1.353121531658066e-14
	-2.103447933479765e-05,3.319563181833908e-15
35		2.238721138568337e+00,0.000000000000000e+00
	-2.103447933479765e-01,3.396885741403840e-11
	1.000000000000000e+00,0.000000000000000e+00
	0.000000000000000e+00,0.000000000000000e+00
	2.103447933479765e-05,-3.396885741403841e-15
	9.556322621021262e-26,1.384639781049899e-14
	2.103447929344918e-13,-8.545624511109459e-16
	-2.103447954514244e-05,-9.594949617984207e-15
	-2.103447933479765e-05,3.396885741403841e-15
	-9.556322621021262e-26,-1.384639781049899e-14
	-2.103447933479765e-05,3.396885741403841e-15
36		2.290867652767770e+00,0.000000000000000e+00
	-2.103447933479765e-01,3.476009374756964e-11
	1.000000000000000e+00,0.000000000000000e+00
	0.000000000000000e+00,0.000000000000000e+00
	2.103447933479765e-05,-3.476009374756964e-15
	1.000669823085596e-25,1.416892184781520e-14
	2.103447929344918e-13,-8.744677676880970e-16
	-2.103447954514244e-05,-9.818444705370136e-15
	-2.103447933479765e-05,3.476009374756965e-15
	-1.000669823085596e-25,-1.416892184781520e-14
	-2.103447933479765e-05,3.476009374756965e-15
37		2.344228815319919e+00,0.000000000000000e+00
	-2.103447933479765e-01,3.556976034291007e-11
	1.000000000000000e+00,0.000000000000000e+00
	0.000000000000000e+00,0.000000000000000e+00
	2.103447933479765e-05,-3.556976034291007e-15
	1.047829938925971e-25,1.449895843504296e-14
	2.103447929344918e-13,-8.948367386506202e-16
	-2.103447954514244e-05,-1.004714566210133e-14
	-2.103447933479765e-05,3.556976034291007e-15
	-1.047829938925971e-25,-1.449895843504296e-14
	-2.103447933479765e-05,3.556976034291007e-15
38		2.398832919019488e+00,0.000000000000000e+00
	-2.103447933479765e-01,3.639828649600575e-11
	1.000000000000000e+00,0.000000000000000e+00
	0.000000000000000e+00,0.000000000000000e+00
