LTspice 24.0.9 for Windows
Circuit: * GA CMOS Amp | W=2.6899931358682662e-05 L=7.121127554491364e-07 Vbias=0.978931495781205
Start Time: Mon Sep  8 18:46:43 2025
solver = Normal
Maximum thread count: 2
tnom = 27
temp = 27
method = modified trap
AsciiRawFile = 1
Instance "m1": Length shorter than recommended for a level 3 MOSFET.
Direct Newton iteration for .op point succeeded.
Semiconductor Device Operating Points:
                        --- MOSFET Transistors ---
Name:          m1
Model:        n_1u
Id:          1.46e-04
Vgs:         9.79e-01
Vds:         3.42e-01
Vbs:         0.00e+00
Vth:         7.78e-01
Vdsat:       1.96e-01
Gm:          9.76e-04
Gds:         5.52e-05
Gmb:         1.96e-04
Cbd:         0.00e+00
Cbs:         0.00e+00
Cgsov:       5.38e-15
Cgdov:       5.38e-15
Cgbov:       5.12e-17
Cgs:         1.59e-14
Cgd:         0.00e+00
Cgb:         0.00e+00



gain_db: MAX(db(v(out)/v(g)))=(29.9994dB,59.6515°) FROM 1 TO 1e+09
gain_lin: MAX(mag(v(out)/v(g)))=(15.9765dB,0°) FROM 1 TO 1e+09

Measurement "fc" FAIL'ed

Total elapsed time: 0.427 seconds.

