Title: * GA CMOS Amp | W=1.0790134607209642e-05 L=6.929057962337064e-07 Vbias=1.4426397206337098
Date: Sat Sep  6 22:34:38 2025
Plotname: AC Analysis
Flags: complex forward log
No. Variables: 13
No. Points:          901
Offset:    0.0000000000000000e+00
Command: Linear Technology Corporation LTspice
Variables:
	0	frequency	frequency
	1	V(out)	voltage
	2	V(g)	voltage
	3	V(vdd)	voltage
	4	V(m1#dbody)	voltage
	5	V(m1#sbody)	voltage
	6	Id(M1)	device_current
	7	Ig(M1)	device_current
	8	Ib(M1)	device_current
	9	Is(M1)	device_current
	10	I(Rload)	device_current
	11	I(Vg)	device_current
	12	I(Vdd)	device_current
Values:
0		1.000000000000000e+00,0.000000000000000e+00
	2.042832482932112e-02,6.899314066813300e-10
	1.000000000000000e+00,0.000000000000000e+00
	0.000000000000000e+00,0.000000000000000e+00
	1.766986749636479e-04,6.951431385955151e-14
	1.766986748098655e-04,6.448681563869088e-14
	-2.042832482932112e-06,-6.899314066813293e-14
	1.123991748393697e-04,1.951877517474482e-12
	-9.423929331341436e-05,-3.475688600993710e-14
	-1.611704904302321e-05,-1.848127490796412e-12
	2.042832482932112e-06,6.899314066813300e-14
	-1.123991748392950e-04,-1.951877517474483e-12
	2.042832482932112e-06,6.899314066813300e-14
1		1.023292992280754e+00,0.000000000000000e+00
	2.042832482932112e-02,7.060019736114079e-10
	1.000000000000000e+00,0.000000000000000e+00
	0.000000000000000e+00,0.000000000000000e+00
	1.766986749636479e-04,7.113351023568394e-14
	1.766986748098655e-04,6.598890653757332e-14
	-2.042832482932112e-06,-7.060019736114081e-14
	1.123991748393697e-04,1.997342585421994e-12
	-9.423929331341436e-05,-3.556647788746962e-14
	-1.611704904302321e-05,-1.891175910173383e-12
	2.042832482932112e-06,7.060019736114079e-14
	-1.123991748392950e-04,-1.997342585421993e-12
	2.042832482932112e-06,7.060019736114079e-14
2		1.047128548050899e+00,0.000000000000000e+00
	2.042832482932112e-02,7.224468721329355e-10
	1.000000000000000e+00,0.000000000000000e+00
	0.000000000000000e+00,0.000000000000000e+00
	1.766986749636479e-04,7.279042254050666e-14
	1.766986748098655e-04,6.752598562816841e-14
	-2.042832482932112e-06,-7.224468721329385e-14
	1.123991748393697e-04,2.043866670846249e-12
	-9.423929331341436e-05,-3.639492758235606e-14
	-1.611704904302321e-05,-1.935227056050599e-12
	2.042832482932112e-06,7.224468721329355e-14
	-1.123991748392950e-04,-2.043866670846249e-12
	2.042832482932112e-06,7.224468721329355e-14
3		1.071519305237606e+00,0.000000000000000e+00
	2.042832482932112e-02,7.392748215487830e-10
	1.000000000000000e+00,0.000000000000000e+00
	0.000000000000000e+00,0.000000000000000e+00
	1.766986749636479e-04,7.448592929085552e-14
	1.766986748098655e-04,6.909886789015564e-14
	-2.042832482932112e-06,-7.392748215487827e-14
	1.123991748393697e-04,2.091474441433161e-12
	-9.423929331341436e-05,-3.724267434959048e-14
	-1.611704904302321e-05,-1.980304284928693e-12
	2.042832482932112e-06,7.392748215487830e-14
	-1.123991748392950e-04,-2.091474441433161e-12
	2.042832482932112e-06,7.392748215487830e-14
4		1.096478196143185e+00,0.000000000000000e+00
	2.042832482932112e-02,7.564947442604746e-10
	1.000000000000000e+00,0.000000000000000e+00
	0.000000000000000e+00,0.000000000000000e+00
	1.766986749636479e-04,7.622092946685218e-14
	1.766986748098655e-04,7.070838728652987e-14
	-2.042832482932112e-06,-7.564947442604741e-14
	1.123991748393697e-04,2.140191139452859e-12
	-9.423929331341436e-05,-3.811016767573012e-14
	-1.611704904302321e-05,-2.026431497351081e-12
	2.042832482932112e-06,7.564947442604746e-14
	-1.123991748392950e-04,-2.140191139452858e-12
	2.042832482932112e-06,7.564947442604746e-14
5		1.122018454301963e+00,0.000000000000000e+00
	2.042832482932112e-02,7.741157704989649e-10
	1.000000000000000e+00,0.000000000000000e+00
	0.000000000000000e+00,0.000000000000000e+00
	1.766986749636479e-04,7.799634298855551e-14
	1.766986748098655e-04,7.235539720577961e-14
	-2.042832482932112e-06,-7.741157704989661e-14
	1.123991748393697e-04,2.190042595143472e-12
	-9.423929331341436e-05,-3.899786751721917e-14
	-1.611704904302321e-05,-2.073633150576357e-12
	2.042832482932112e-06,7.741157704989650e-14
	-1.123991748392950e-04,-2.190042595143472e-12
	2.042832482932112e-06,7.741157704989650e-14
6		1.148153621496882e+00,0.000000000000000e+00
	2.042832482932112e-02,7.921472431656073e-10
	1.000000000000000e+00,0.000000000000000e+00
	0.000000000000000e+00,0.000000000000000e+00
	1.766986749636479e-04,7.981311120371499e-14
	1.766986748098655e-04,7.404077091436473e-14
	-2.042832482932112e-06,-7.921472431656072e-14
	1.123991748393697e-04,2.241055240406672e-12
	-9.423929331341436e-05,-3.990624454426362e-14
	-1.611704904302321e-05,-2.121934271545847e-12
	2.042832482932112e-06,7.921472431656074e-14
	-1.123991748392950e-04,-2.241055240406672e-12
	2.042832482932112e-06,7.921472431656074e-14
7		1.174897554939529e+00,0.000000000000000e+00
	2.042832482932112e-02,8.105987227858845e-10
	1.000000000000000e+00,0.000000000000000e+00
	0.000000000000000e+00,0.000000000000000e+00
	1.766986749636479e-04,8.167219738688607e-14
	1.766986748098655e-04,7.576540201973410e-14
	-2.042832482932112e-06,-8.105987227858829e-14
	1.123991748393697e-04,2.293256122822208e-12
	-9.423929331341436e-05,-4.083578039038702e-14
	-1.611704904302321e-05,-2.171360470153232e-12
	2.042832482932112e-06,8.105987227858846e-14
	-1.123991748392950e-04,-2.293256122822208e-12
	2.042832482932112e-06,8.105987227858846e-14
8		1.202264434617413e+00,0.000000000000000e+00
	2.042832482932112e-02,8.294799925785253e-10
	1.000000000000000e+00,0.000000000000000e+00
	0.000000000000000e+00,0.000000000000000e+00
	1.766986749636479e-04,8.357458725017103e-14
	1.766986748098655e-04,7.753020494412800e-14
	-2.042832482932112e-06,-8.294799925785261e-14
	1.123991748393697e-04,2.346672919988898e-12
	-9.423929331341436e-05,-4.178696790779889e-14
	-1.611704904302321e-05,-2.221937952823246e-12
	2.042832482932112e-06,8.294799925785253e-14
	-1.123991748392950e-04,-2.346672919988898e-12
	2.042832482932112e-06,8.294799925785253e-14
9		1.230268770812381e+00,0.000000000000000e+00
	2.042832482932112e-02,8.488010636426968e-10
	1.000000000000000e+00,0.000000000000000e+00
	0.000000000000000e+00,0.000000000000000e+00
	1.766986749636479e-04,8.552128946585647e-14
	1.766986748098655e-04,7.933611540941686e-14
	-2.042832482932112e-06,-8.488010636426926e-14
	1.123991748393697e-04,2.401333954199653e-12
	-9.423929331341436e-05,-4.276031142871136e-14
	-1.611704904302321e-05,-2.273693536406673e-12
	2.042832482932112e-06,8.488010636426968e-14
	-1.123991748392950e-04,-2.401333954199654e-12
	2.042832482932112e-06,8.488010636426968e-14
10		1.258925411794167e+00,0.000000000000000e+00
	2.042832482932112e-02,8.685721802660219e-10
	1.000000000000000e+00,0.000000000000000e+00
	0.000000000000000e+00,0.000000000000000e+00
	1.766986749636479e-04,8.751333620122483e-14
	1.766986748098655e-04,8.118409093323344e-14
	-2.042832482932112e-06,-8.685721802660259e-14
	1.123991748393697e-04,2.457268207458340e-12
	-9.423929331341436e-05,-4.375632703274298e-14
	-1.611704904302321e-05,-2.326654662398994e-12
	2.042832482932112e-06,8.685721802660220e-14
	-1.123991748392950e-04,-2.457268207458339e-12
	2.042832482932112e-06,8.685721802660220e-14
11		1.288249551693134e+00,0.000000000000000e+00
	2.042832482932112e-02,8.888038253562364e-10
	1.000000000000000e+00,0.000000000000000e+00
	0.000000000000000e+00,0.000000000000000e+00
	1.766986749636479e-04,8.955178366582301e-14
	1.766986748098655e-04,8.307511133666129e-14
	-2.042832482932112e-06,-8.888038253562380e-14
	1.123991748393697e-04,2.514505336846410e-12
	-9.423929331341436e-05,-4.477554282055083e-14
	-1.611704904302321e-05,-2.380849411490235e-12
	2.042832482932112e-06,8.888038253562365e-14
	-1.123991748392950e-04,-2.514505336846409e-12
	2.042832482932112e-06,8.888038253562365e-14
12		1.318256738556407e+00,0.000000000000000e+00
	2.042832482932112e-02,9.095067259993640e-10
	1.000000000000000e+00,0.000000000000000e+00
	0.000000000000000e+00,0.000000000000000e+00
	1.766986749636479e-04,9.163771267147878e-14
	1.766986748098655e-04,8.501017926374892e-14
	-2.042832482932112e-06,-9.095067259993618e-14
	1.123991748393697e-04,2.573075690247488e-12
	-9.423929331341436e-05,-4.581849919383649e-14
	-1.611704904302321e-05,-2.436306518453715e-12
	2.042832482932112e-06,9.095067259993640e-14
	-1.123991748392950e-04,-2.573075690247487e-12
	2.042832482932112e-06,9.095067259993640e-14
13		1.348962882591653e+00,0.000000000000000e+00
	2.042832482932112e-02,9.306918591473610e-10
	1.000000000000000e+00,0.000000000000000e+00
	0.000000000000000e+00,0.000000000000000e+00
	1.766986749636479e-04,9.377222920536149e-14
	1.766986748098655e-04,8.699032071312495e-14
	-2.042832482932112e-06,-9.306918591473629e-14
	1.123991748393697e-04,2.633010322438218e-12
	-9.423929331341436e-05,-4.688574914187426e-14
	-1.611704904302321e-05,-2.493055387381607e-12
	2.042832482932112e-06,9.306918591473610e-14
	-1.123991748392950e-04,-2.633010322438219e-12
	2.042832482932112e-06,9.306918591473610e-14
14		1.380384264602885e+00,0.000000000000000e+00
	2.042832482932112e-02,9.523704574382414e-10
	1.000000000000000e+00,0.000000000000000e+00
	0.000000000000000e+00,0.000000000000000e+00
	1.766986749636479e-04,9.595646501639110e-14
	1.766986748098655e-04,8.901658558199612e-14
	-2.042832482932112e-06,-9.523704574382417e-14
	1.123991748393697e-04,2.694341011553918e-12
	-9.423929331341436e-05,-4.797785853471332e-14
	-1.611704904302321e-05,-2.551126107275381e-12
	2.042832482932112e-06,9.523704574382414e-14
	-1.123991748392950e-04,-2.694341011553918e-12
	2.042832482932112e-06,9.523704574382414e-14
15		1.412537544622754e+00,0.000000000000000e+00
	2.042832482932112e-02,9.745540151517685e-10
	1.000000000000000e+00,0.000000000000000e+00
	0.000000000000000e+00,0.000000000000000e+00
	1.766986749636479e-04,9.819157821530633e-14
	1.766986748098655e-04,9.109004822281661e-14
	-2.042832482932112e-06,-9.745540151517702e-14
	1.123991748393697e-04,2.757100275937762e-12
	-9.423929331341436e-05,-4.909540642320951e-14
	-1.611704904302321e-05,-2.610549467999376e-12
	2.042832482932112e-06,9.745540151517686e-14
	-1.123991748392950e-04,-2.757100275937762e-12
	2.042832482932112e-06,9.745540151517686e-14
16		1.445439770745927e+00,0.000000000000000e+00
	2.042832482932112e-02,9.972542943038765e-10
	1.000000000000000e+00,0.000000000000000e+00
	0.000000000000000e+00,0.000000000000000e+00
	1.766986749636479e-04,1.004787538887105e-13
	1.766986748098655e-04,9.321180801292420e-14
	-2.042832482932112e-06,-9.972542943038744e-14
	1.123991748393697e-04,2.821321391382445e-12
	-9.423929331341436e-05,-5.023898534604580e-14
	-1.611704904302321e-05,-2.671356976606012e-12
	2.042832482932112e-06,9.972542943038766e-14
	-1.123991748392950e-04,-2.821321391382445e-12
	2.042832482932112e-06,9.972542943038766e-14
17		1.479108388168207e+00,0.000000000000000e+00
	2.042832482932112e-02,1.020483330883045e-09
	1.000000000000000e+00,0.000000000000000e+00
	0.000000000000000e+00,0.000000000000000e+00
	1.766986749636479e-04,1.028192047274201e-13
	1.766986748098655e-04,9.538298993744438e-14
	-2.042832482932116e-06,-1.020483330883043e-13
	1.123991748393697e-04,2.887038408773442e-12
	-9.423929331341436e-05,-5.140920164390417e-14
	-1.611704904302321e-05,-2.733580874041234e-12
	2.042832482932112e-06,1.020483330883045e-13
	-1.123991748392950e-04,-2.887038408773443e-12
	2.042832482932112e-06,1.020483330883045e-13
18		1.513561248436208e+00,0.000000000000000e+00
	2.042832482932112e-02,1.044253441231942e-09
	1.000000000000000e+00,0.000000000000000e+00
	0.000000000000000e+00,0.000000000000000e+00
	1.766986749636479e-04,1.052141716694491e-13
	1.766986748098655e-04,9.760474518577251e-14
	-2.042832482932116e-06,-1.044253441231945e-13
	1.123991748393697e-04,2.954286172143244e-12
	-9.423929331341436e-05,-5.260667578095536e-14
	-1.611704904302321e-05,-2.797254152239094e-12
	2.042832482932112e-06,1.044253441231942e-13
	-1.123991748392950e-04,-2.954286172143244e-12
	2.042832482932112e-06,1.044253441231942e-13
19		1.548816618912481e+00,0.000000000000000e+00
	2.042832482932112e-02,1.068577228577709e-09
	1.000000000000000e+00,0.000000000000000e+00
	0.000000000000000e+00,0.000000000000000e+00
	1.766986749636479e-04,1.076649245579716e-13
	1.766986748098655e-04,9.987825176194970e-14
	-2.042832482932116e-06,-1.068577228577712e-13
	1.123991748393697e-04,3.023100337146115e-12
	-9.423929331341436e-05,-5.383204267383730e-14
	-1.611704904302321e-05,-2.862410571614506e-12
	2.042832482932112e-06,1.068577228577709e-13
	-1.123991748392950e-04,-3.023100337146115e-12
	2.042832482932112e-06,1.068577228577709e-13
20		1.584893192461113e+00,0.000000000000000e+00
	2.042832482932112e-02,1.093467589714359e-09
	1.000000000000000e+00,0.000000000000000e+00
	0.000000000000000e+00,0.000000000000000e+00
	1.766986749636479e-04,1.101727628146084e-13
	1.766986748098655e-04,1.022047151092560e-13
	-2.042832482932116e-06,-1.093467589714362e-13
	1.123991748393697e-04,3.093517389963205e-12
	-9.423929331341436e-05,-5.508595202829621e-14
	-1.611704904302321e-05,-2.929084678963472e-12
	2.042832482932112e-06,1.093467589714359e-13
	-1.123991748392950e-04,-3.093517389963205e-12
	2.042832482932112e-06,1.093467589714359e-13
21		1.621810097358929e+00,0.000000000000000e+00
	2.042832482932112e-02,1.118937721840831e-09
	1.000000000000000e+00,0.000000000000000e+00
	0.000000000000000e+00,0.000000000000000e+00
	1.766986749636479e-04,1.127390161283984e-13
	1.766986748098655e-04,1.045853687493526e-13
	-2.042832482932116e-06,-1.118937721840831e-13
	1.123991748393697e-04,3.165574666647995e-12
	-9.423929331341436e-05,-5.636906868366930e-14
	-1.611704904302321e-05,-2.997311825780243e-12
	2.042832482932112e-06,1.118937721840831e-13
	-1.123991748392950e-04,-3.165574666647995e-12
	2.042832482932112e-06,1.118937721840831e-13
22		1.659586907437560e+00,0.000000000000000e+00
	2.042832482932112e-02,1.145001129558314e-09
	1.000000000000000e+00,0.000000000000000e+00
	0.000000000000000e+00,0.000000000000000e+00
	1.766986749636479e-04,1.153650451608170e-13
	1.766986748098655e-04,1.070214749363110e-13
	-2.042832482932116e-06,-1.145001129558313e-13
	1.123991748393697e-04,3.239310372922378e-12
	-9.423929331341436e-05,-5.768207296539131e-14
	-1.611704904302321e-05,-3.067128187001155e-12
	2.042832482932112e-06,1.145001129558314e-13
	-1.123991748392950e-04,-3.239310372922378e-12
	2.042832482932112e-06,1.145001129558314e-13
23		1.698243652461743e+00,0.000000000000000e+00
	2.042832482932113e-02,1.171671632030570e-09
	1.000000000000000e+00,0.000000000000000e+00
	0.000000000000000e+00,0.000000000000000e+00
	1.766986749636479e-04,1.180522422672167e-13
	1.766986748098655e-04,1.095143253258775e-13
	-2.042832482932112e-06,-1.171671632030572e-13
	1.123991748393697e-04,3.314763604433826e-12
	-9.423929331341436e-05,-5.902566104571207e-14
	-1.611704904302321e-05,-3.138570780185057e-12
	2.042832482932113e-06,1.171671632030570e-13
	-1.123991748392950e-04,-3.314763604433826e-12
	2.042832482932113e-06,1.171671632030570e-13
24		1.737800828749374e+00,0.000000000000000e+00
	2.042832482932113e-02,1.198963370311037e-09
	1.000000000000000e+00,0.000000000000000e+00
	0.000000000000000e+00,0.000000000000000e+00
	1.766986749636479e-04,1.208020322350727e-13
	1.766986748098655e-04,1.120652416603251e-13
	-2.042832482932112e-06,-1.198963370311035e-13
	1.123991748393697e-04,3.391974367484427e-12
	-9.423929331341436e-05,-6.040054531281624e-14
	-1.611704904302321e-05,-3.211677485140507e-12
	2.042832482932113e-06,1.198963370311037e-13
	-1.123991748392950e-04,-3.391974367484427e-12
	2.042832482932113e-06,1.198963370311037e-13
25		1.778279410038922e+00,0.000000000000000e+00
	2.042832482932113e-02,1.226890814840599e-09
	1.000000000000000e+00,0.000000000000000e+00
	0.000000000000000e+00,0.000000000000000e+00
	1.766986749636479e-04,1.236158730394237e-13
	1.766986748098655e-04,1.146755764692599e-13
	-2.042832482932112e-06,-1.226890814840600e-13
	1.123991748393697e-04,3.470983600242758e-12
	-9.423929331341436e-05,-6.180745474854101e-14
	-1.611704904302321e-05,-3.286487064010157e-12
	2.042832482932113e-06,1.226890814840599e-13
	-1.123991748392950e-04,-3.470983600242758e-12
	2.042832482932113e-06,1.226890814840599e-13
26		1.819700858609982e+00,0.000000000000000e+00
	2.042832482932113e-02,1.255468773120009e-09
	1.000000000000000e+00,0.000000000000000e+00
	0.000000000000000e+00,0.000000000000000e+00
	1.766986749636479e-04,1.264952566159096e-13
	1.766986748098655e-04,1.173467137867494e-13
	-2.042832482932112e-06,-1.255468773120013e-13
	1.123991748393697e-04,3.551833194449837e-12
	-9.423929331341436e-05,-6.324713531489183e-14
	-1.611704904302321e-05,-3.363039181822944e-12
	2.042832482932113e-06,1.255468773120009e-13
	-1.123991748392950e-04,-3.551833194449837e-12
	2.042832482932113e-06,1.255468773120009e-13
27		1.862087136662866e+00,0.000000000000000e+00
	2.042832482932113e-02,1.284712397561021e-09
	1.000000000000000e+00,0.000000000000000e+00
	0.000000000000000e+00,0.000000000000000e+00
	1.766986749636479e-04,1.294417096518160e-13
	1.766986748098655e-04,1.200800698851560e-13
	-2.042832482932112e-06,-1.284712397561025e-13
	1.123991748393697e-04,3.634566017630683e-12
	-9.423929331341436e-05,-6.472035034956141e-14
	-1.611704904302321e-05,-3.441374427525019e-12
	2.042832482932113e-06,1.284712397561021e-13
	-1.123991748392950e-04,-3.634566017630683e-12
	2.042832482932113e-06,1.284712397561021e-13
28		1.905460717963246e+00,0.000000000000000e+00
	2.042832482932113e-02,1.314637193520399e-09
	1.000000000000000e+00,0.000000000000000e+00
	0.000000000000000e+00,0.000000000000000e+00
	1.766986749636479e-04,1.324567943955434e-13
	1.766986748098655e-04,1.228770940260634e-13
	-2.042832482932112e-06,-1.314637193520399e-13
	1.123991748393697e-04,3.719225935823246e-12
	-9.423929331341436e-05,-6.622788097066144e-14
	-1.611704904302321e-05,-3.521534335500544e-12
	2.042832482932113e-06,1.314637193520399e-13
	-1.123991748392950e-04,-3.719225935823246e-12
	2.042832482932113e-06,1.314637193520399e-13
29		1.949844599758044e+00,0.000000000000000e+00
	2.042832482932113e-02,1.345259027521061e-09
	1.000000000000000e+00,0.000000000000000e+00
	0.000000000000000e+00,0.000000000000000e+00
	1.766986749636479e-04,1.355421094849322e-13
	1.766986748098655e-04,1.257392692286940e-13
	-2.042832482932112e-06,-1.345259027521063e-13
	1.123991748393697e-04,3.805857836836757e-12
	-9.423929331341436e-05,-6.777052649088178e-14
	-1.611704904302321e-05,-3.603561407593768e-12
	2.042832482932113e-06,1.345259027521061e-13
	-1.123991748392950e-04,-3.805857836836758e-12
	2.042832482932113e-06,1.345259027521061e-13
30		1.995262314968878e+00,0.000000000000000e+00
	2.042832482932113e-02,1.376594135664725e-09
	1.000000000000000e+00,0.000000000000000e+00
	0.000000000000000e+00,0.000000000000000e+00
	1.766986749636479e-04,1.386992907948819e-13
	1.766986748098655e-04,1.286681130562256e-13
	-2.042832482932112e-06,-1.376594135664728e-13
	1.123991748393697e-04,3.894507654051843e-12
	-9.423929331341436e-05,-6.934910484129653e-14
	-1.611704904302321e-05,-3.687499135644073e-12
	2.042832482932113e-06,1.376594135664725e-13
	-1.123991748392950e-04,-3.894507654051843e-12
	2.042832482932113e-06,1.376594135664725e-13
31		2.041737944669527e+00,0.000000000000000e+00
	2.042832482932113e-02,1.408659132240495e-09
	1.000000000000000e+00,0.000000000000000e+00
	0.000000000000000e+00,0.000000000000000e+00
	1.766986749636479e-04,1.419300123047131e-13
	1.766986748098655e-04,1.316651784204234e-13
	-2.042832482932112e-06,-1.408659132240497e-13
	1.123991748393697e-04,3.985222390775010e-12
	-9.423929331341436e-05,-7.096445300504203e-14
	-1.611704904302321e-05,-3.773392024545919e-12
	2.042832482932113e-06,1.408659132240495e-13
	-1.123991748392950e-04,-3.985222390775009e-12
	2.042832482932113e-06,1.408659132240495e-13
32		2.089296130854037e+00,0.000000000000000e+00
	2.042832482932113e-02,1.441471018533986e-09
	1.000000000000000e+00,0.000000000000000e+00
	0.000000000000000e+00,0.000000000000000e+00
	1.766986749636479e-04,1.452359869857341e-13
	1.766986748098655e-04,1.347320544050145e-13
