LTspice 24.0.9 for Windows
Circuit: * GA CMOS Amp | W=2.5128277741563886e-05 L=1e-06 Vbias=0.993945080362981
Start Time: Sat Sep  6 22:38:46 2025
solver = Normal
Maximum thread count: 2
tnom = 27
temp = 27
method = modified trap
AsciiRawFile = 1
Direct Newton iteration for .op point succeeded.
Semiconductor Device Operating Points:
                        --- BSIM4 MOSFETS ---
Name:      m1
Model:      n
Id:      1.73e-04
Vgs:     9.94e-01
Vds:     7.30e-02
Vbs:     0.00e+00
Vth:     2.36e-01
Vdsat:   5.44e-01
Gm:      2.11e-05
Gds:     2.21e-03
Gmb      1.21e-04
Cbd:     1.23e-14
Cbs:     2.01e-14


.measure op idd find i(vdd)
  Error: FIND can not be evaluated over an interval.

gain_db: MAX(db(v(out)/v(g)))=(34.1572dB,147.677°) FROM 1 TO 1e+09
gain_lin: MAX(mag(v(out)/v(g)))=(-2.4996dB,0°) FROM 1 TO 1e+09

Measurement "fc" FAIL'ed

Total elapsed time: 1.336 seconds.

