LTspice 24.0.9 for Windows
Circuit: * GA CMOS Amp | W=2.6689501818766033e-05 L=5.809138848192157e-07 Vbias=0.7870072240750832
Start Time: Sat Sep  6 22:02:06 2025
solver = Normal
Maximum thread count: 2
tnom = 27
temp = 27
method = modified trap
AsciiRawFile = 1
Direct Newton iteration for .op point succeeded.
Semiconductor Device Operating Points:
                        --- BSIM4 MOSFETS ---
Name:      m1
Model:      n
Id:      1.76e-04
Vgs:     7.87e-01
Vds:     4.27e-02
Vbs:     0.00e+00
Vth:     2.47e-01
Vdsat:   4.01e-01
Gm:      9.23e-05
Gds:     3.88e-03
Gmb      1.54e-04
Cbd:     1.32e-14
Cbs:     2.14e-14


.measure op idd find i(vdd)
  Error: FIND can not be evaluated over an interval.

gain_db: MAX(db(v(out)/v(g)))=(32.603dB,140.249°) FROM 1 TO 1e+09
gain_lin: MAX(mag(v(out)/v(g)))=(-7.49862dB,0°) FROM 1 TO 1e+09

Measurement "fc" FAIL'ed

Total elapsed time: 0.618 seconds.

