LTspice 24.0.9 for Windows
Circuit: * GA CMOS Amp | W=2.5441806359306396e-06 L=9.248577712794287e-07 Vbias=1.4411135588498674
Start Time: Sat Sep  6 22:14:01 2025
solver = Normal
Maximum thread count: 2
tnom = 27
temp = 27
method = modified trap
AsciiRawFile = 1
Direct Newton iteration for .op point succeeded.
Semiconductor Device Operating Points:
                        --- BSIM4 MOSFETS ---
Name:      m1
Model:      n
Id:      1.08e-04
Vgs:     1.44e+00
Vds:     7.18e-01
Vbs:     0.00e+00
Vth:     2.37e-01
Vdsat:   8.32e-01
Gm:      4.05e-05
Gds:     4.19e-05
Gmb      5.94e-05
Cbd:     1.06e-15
Cbs:     2.04e-15


.measure op idd find i(vdd)
  Error: FIND can not be evaluated over an interval.

gain_db: MAX(db(v(out)/v(g)))=(29.408dB,112.516°) FROM 1 TO 1e+09
gain_lin: MAX(mag(v(out)/v(g)))=(2.01485dB,0°) FROM 1 TO 1e+09
fc: mag(v(out)/v(g))=1 AT 7.69703e+08

Total elapsed time: 6.249 seconds.

