LTspice 24.0.9 for Windows
Circuit: * GA CMOS Amp | W=4.459016234840827e-05 L=6.828177677525382e-07 Vbias=1.2686904847806457
Start Time: Sat Sep  6 22:06:37 2025
solver = Normal
Maximum thread count: 2
tnom = 27
temp = 27
method = modified trap
AsciiRawFile = 1
Direct Newton iteration for .op point succeeded.
Semiconductor Device Operating Points:
                        --- BSIM4 MOSFETS ---
Name:      m1
Model:      n
Id:      1.77e-04
Vgs:     1.27e+00
Vds:     2.88e-02
Vbs:     0.00e+00
Vth:     2.43e-01
Vdsat:   7.19e-01
Gm:     -1.97e-05
Gds:     6.17e-03
Gmb      9.79e-05
Cbd:     2.21e-14
Cbs:     3.57e-14


.measure op idd find i(vdd)
  Error: FIND can not be evaluated over an interval.

gain_db: MAX(db(v(out)/v(g)))=(32.8886dB,180°) FROM 1 TO 1e+09
gain_lin: MAX(mag(v(out)/v(g)))=(-6.17352dB,0°) FROM 1 TO 1e+09

Measurement "fc" FAIL'ed

Total elapsed time: 0.844 seconds.

