LTspice 24.0.9 for Windows
Circuit: * GA CMOS Amp | W=6.92114201703108e-06 L=1e-07 Vbias=1.0293235504753881
Start Time: Sat Sep  6 22:04:26 2025
solver = Normal
Maximum thread count: 2
tnom = 27
temp = 27
method = modified trap
AsciiRawFile = 1
Direct Newton iteration for .op point succeeded.
Semiconductor Device Operating Points:
                        --- BSIM4 MOSFETS ---
Name:      m1
Model:      n
Id:      1.77e-04
Vgs:     1.03e+00
Vds:     3.29e-02
Vbs:     0.00e+00
Vth:     3.62e-01
Vdsat:   4.97e-01
Gm:      6.66e-05
Gds:     5.20e-03
Gmb      1.05e-04
Cbd:     3.42e-15
Cbs:     5.54e-15


.measure op idd find i(vdd)
  Error: FIND can not be evaluated over an interval.

gain_db: MAX(db(v(out)/v(g)))=(33.4059dB,144.338°) FROM 1 TO 1e+09
gain_lin: MAX(mag(v(out)/v(g)))=(-32.5017dB,0°) FROM 1 TO 1e+09

Measurement "fc" FAIL'ed

Total elapsed time: 2.919 seconds.

