LTspice 24.0.9 for Windows
Circuit: * GA CMOS Amp | W=1.4724320483210626e-05 L=9.082689514684641e-07 Vbias=1.4236177854222876
Start Time: Sat Sep  6 22:12:11 2025
solver = Normal
Maximum thread count: 2
tnom = 27
temp = 27
method = modified trap
AsciiRawFile = 1
Direct Newton iteration for .op point succeeded.
Semiconductor Device Operating Points:
                        --- BSIM4 MOSFETS ---
Name:      m1
Model:      n
Id:      1.68e-04
Vgs:     1.42e+00
Vds:     1.18e-01
Vbs:     0.00e+00
Vth:     2.37e-01
Vdsat:   8.21e-01
Gm:     -2.04e-05
Gds:     1.35e-03
Gmb      8.46e-05
Cbd:     7.10e-15
Cbs:     1.18e-14


.measure op idd find i(vdd)
  Error: FIND can not be evaluated over an interval.

gain_db: MAX(db(v(out)/v(g)))=(30.1704dB,180°) FROM 1 TO 1e+09
gain_lin: MAX(mag(v(out)/v(g)))=(-3.16643dB,0°) FROM 1 TO 1e+09

Measurement "fc" FAIL'ed

Total elapsed time: 0.989 seconds.

