Title: * GA CMOS Amp | W=1.4389425704091665e-05 L=6.566156531725625e-07 Vbias=0.848705067901113
Date: Sat Sep  6 22:05:24 2025
Plotname: AC Analysis
Flags: complex forward log
No. Variables: 13
No. Points:          901
Offset:    0.0000000000000000e+00
Command: Linear Technology Corporation LTspice
Variables:
	0	frequency	frequency
	1	V(out)	voltage
	2	V(g)	voltage
	3	V(vdd)	voltage
	4	V(m1#dbody)	voltage
	5	V(m1#sbody)	voltage
	6	Id(M1)	device_current
	7	Ig(M1)	device_current
	8	Ib(M1)	device_current
	9	Is(M1)	device_current
	10	I(Rload)	device_current
	11	I(Vg)	device_current
	12	I(Vdd)	device_current
Values:
0		1.000000000000000e+00,0.000000000000000e+00
	-4.142027545563827e-02,6.698904887630426e-10
	1.000000000000000e+00,0.000000000000000e+00
	0.000000000000000e+00,0.000000000000000e+00
	2.855706953110386e-07,1.996551369995191e-14
	2.855710097865080e-07,3.361842446860810e-14
	4.142027545563827e-06,-6.698904887630377e-14
	2.049867130585068e-06,2.428528762269896e-12
	-1.523045177029105e-07,-1.701969430952208e-14
	-6.039590158445985e-06,-2.344520019084070e-12
	-4.142027545563827e-06,6.698904887630426e-14
	-2.049867130538008e-06,-2.428528762269896e-12
	-4.142027545563827e-06,6.698904887630426e-14
1		1.023292992280754e+00,0.000000000000000e+00
	-4.142027545563827e-02,6.854942427467505e-10
	1.000000000000000e+00,0.000000000000000e+00
	0.000000000000000e+00,0.000000000000000e+00
	2.855706953110385e-07,2.043057025644615e-14
	2.855710097865079e-07,3.440149817024647e-14
	4.142027545563827e-06,-6.854942427467531e-14
	2.049867130585068e-06,2.485096463983038e-12
	-1.523045177029105e-07,-1.741613391769456e-14
	-6.039590158445985e-06,-2.399130905790668e-12
	-4.142027545563827e-06,6.854942427467505e-14
	-2.049867130538008e-06,-2.485096463983038e-12
	-4.142027545563827e-06,6.854942427467505e-14
2		1.047128548050899e+00,0.000000000000000e+00
	-4.142027545563827e-02,7.014614548515520e-10
	1.000000000000000e+00,0.000000000000000e+00
	0.000000000000000e+00,0.000000000000000e+00
	2.855706953110384e-07,2.090645937172096e-14
	2.855710097865079e-07,3.520281200157240e-14
	4.142027545563827e-06,-7.014614548515538e-14
	2.049867130585068e-06,2.542981796735524e-12
	-1.523045177029104e-07,-1.782180779060000e-14
	-6.039590158445985e-06,-2.455013843459769e-12
	-4.142027545563827e-06,7.014614548515520e-14
	-2.049867130538008e-06,-2.542981796735525e-12
	-4.142027545563827e-06,7.014614548515520e-14
3		1.071519305237606e+00,0.000000000000000e+00
	-4.142027545563827e-02,7.178005911046557e-10
	1.000000000000000e+00,0.000000000000000e+00
	0.000000000000000e+00,0.000000000000000e+00
	2.855706953110383e-07,2.139343336848435e-14
	2.855710097865078e-07,3.602279082978586e-14
	4.142027545563827e-06,-7.178005911046544e-14
	2.049867130585068e-06,2.602215452096983e-12
	-1.523045177029104e-07,-1.823693102189552e-14
	-6.039590158445985e-06,-2.512198461964622e-12
	-4.142027545563827e-06,7.178005911046557e-14
	-2.049867130538008e-06,-2.602215452096983e-12
	-4.142027545563827e-06,7.178005911046557e-14
4		1.096478196143185e+00,0.000000000000000e+00
	-4.142027545563827e-02,7.345203147323770e-10
	1.000000000000000e+00,0.000000000000000e+00
	0.000000000000000e+00,0.000000000000000e+00
	2.855706953110383e-07,2.189175044679528e-14
	2.855710097865078e-07,3.686186941851526e-14
	4.142027545563827e-06,-7.345203147323781e-14
	2.049867130585068e-06,2.662828836535536e-12
	-1.523045177029104e-07,-1.866172371541317e-14
	-6.039590158445985e-06,-2.570715081346886e-12
	-4.142027545563827e-06,7.345203147323771e-14
	-2.049867130538008e-06,-2.662828836535537e-12
	-4.142027545563827e-06,7.345203147323771e-14
5		1.122018454301963e+00,0.000000000000000e+00
	-4.142027545563827e-02,7.516294907534954e-10
	1.000000000000000e+00,0.000000000000000e+00
	0.000000000000000e+00,0.000000000000000e+00
	2.855706953110382e-07,2.240167482096471e-14
	2.855710097865077e-07,3.772049265833496e-14
	4.142027545563827e-06,-7.516294907534974e-14
	2.049867130585068e-06,2.724854088069928e-12
	-1.523045177029103e-07,-1.909641110186189e-14
	-6.039590158445985e-06,-2.630594727892717e-12
	-4.142027545563827e-06,7.516294907534954e-14
	-2.049867130538008e-06,-2.724854088069929e-12
	-4.142027545563827e-06,7.516294907534954e-14
6		1.148153621496882e+00,0.000000000000000e+00
	-4.142027545563827e-02,7.691371906796038e-10
	1.000000000000000e+00,0.000000000000000e+00
	0.000000000000000e+00,0.000000000000000e+00
	2.855706953110382e-07,2.292347685964538e-14
	2.855710097865077e-07,3.859911580265176e-14
	4.142027545563827e-06,-7.691371906796032e-14
	2.049867130585068e-06,2.788324093309523e-12
	-1.523045177029103e-07,-1.954122365824764e-14
	-6.039590158445985e-06,-2.691869150583315e-12
	-4.142027545563827e-06,7.691371906796038e-14
	-2.049867130538008e-06,-2.788324093309523e-12
	-4.142027545563827e-06,7.691371906796038e-14
7		1.174897554939529e+00,0.000000000000000e+00
	-4.142027545563827e-02,7.870526973249446e-10
	1.000000000000000e+00,0.000000000000000e+00
	0.000000000000000e+00,0.000000000000000e+00
	2.855706953110381e-07,2.345743322918516e-14
	2.855710097865076e-07,3.949820470908688e-14
	4.142027545563827e-06,-7.870526973249455e-14
	2.049867130585068e-06,2.853272504891222e-12
	-1.523045177029103e-07,-1.999639723007570e-14
	-6.039590158445985e-06,-2.754570837928652e-12
	-4.142027545563827e-06,7.870526973249446e-14
	-2.049867130538008e-06,-2.853272504891223e-12
	-4.142027545563827e-06,7.870526973249446e-14
8		1.202264434617413e+00,0.000000000000000e+00
	-4.142027545563827e-02,8.053855097282813e-10
	1.000000000000000e+00,0.000000000000000e+00
	0.000000000000000e+00,0.000000000000000e+00
	2.855706953110380e-07,2.400382704031889e-14
	2.855710097865075e-07,4.041823608647929e-14
	4.142027545563827e-06,-8.053855097282816e-14
	2.049867130585068e-06,2.919733759322541e-12
	-1.523045177029102e-07,-2.046217315639875e-14
	-6.039590158445985e-06,-2.818733035193315e-12
	-4.142027545563827e-06,8.053855097282814e-14
	-2.049867130538008e-06,-2.919733759322542e-12
	-4.142027545563827e-06,8.053855097282814e-14
9		1.230268770812381e+00,0.000000000000000e+00
	-4.142027545563827e-02,8.241453481894136e-10
	1.000000000000000e+00,0.000000000000000e+00
	0.000000000000000e+00,0.000000000000000e+00
	2.855706953110379e-07,2.456294799827755e-14
	2.855710097865075e-07,4.135969774764332e-14
	4.142027545563827e-06,-8.241453481894107e-14
	2.049867130585068e-06,2.987743095240298e-12
	-1.523045177029102e-07,-2.093879839777818e-14
	-6.039590158445985e-06,-2.884389762023579e-12
	-4.142027545563827e-06,8.241453481894136e-14
	-2.049867130538008e-06,-2.987743095240298e-12
	-4.142027545563827e-06,8.241453481894136e-14
10		1.258925411794167e+00,0.000000000000000e+00
	-4.142027545563827e-02,8.433421594230090e-10
	1.000000000000000e+00,0.000000000000000e+00
	0.000000000000000e+00,0.000000000000000e+00
	2.855706953110378e-07,2.513509255639403e-14
	2.855710097865074e-07,4.232308886801353e-14
	4.142027545563827e-06,-8.433421594230092e-14
	2.049867130585068e-06,3.057336572094607e-12
	-1.523045177029102e-07,-2.142652566722592e-14
	-6.039590158445985e-06,-2.951575830485081e-12
	-4.142027545563827e-06,8.433421594230090e-14
	-2.049867130538008e-06,-3.057336572094607e-12
	-4.142027545563827e-06,8.433421594230090e-14
11		1.288249551693134e+00,0.000000000000000e+00
	-4.142027545563827e-02,8.629861218324835e-10
	1.000000000000000e+00,0.000000000000000e+00
	0.000000000000000e+00,0.000000000000000e+00
	2.855706953110377e-07,2.572056407328612e-14
	2.855710097865073e-07,4.330892025031381e-14
	4.142027545563827e-06,-8.629861218324895e-14
	2.049867130585068e-06,3.128551089268075e-12
	-1.523045177029101e-07,-2.192561356419597e-14
	-6.039590158445985e-06,-3.020326863520630e-12
	-4.142027545563827e-06,8.629861218324836e-14
	-2.049867130538008e-06,-3.128551089268075e-12
	-4.142027545563827e-06,8.629861218324836e-14
12		1.318256738556407e+00,0.000000000000000e+00
	-4.142027545563827e-02,8.830876509067256e-10
	1.000000000000000e+00,0.000000000000000e+00
	0.000000000000000e+00,0.000000000000000e+00
	2.855706953110377e-07,2.631967297370185e-14
	2.855710097865072e-07,4.431771459539218e-14
	4.142027545563827e-06,-8.830876509067288e-14
	2.049867130585068e-06,3.201424405640341e-12
	-1.523045177029101e-07,-2.243632671169759e-14
	-6.039590158445985e-06,-3.090679313837970e-12
	-4.142027545563827e-06,8.830876509067256e-14
	-2.049867130538008e-06,-3.201424405640341e-12
	-4.142027545563827e-06,8.830876509067256e-14
13		1.348962882591653e+00,0.000000000000000e+00
	-4.142027545563827e-02,9.036574047425252e-10
	1.000000000000000e+00,0.000000000000000e+00
	0.000000000000000e+00,0.000000000000000e+00
	2.855706953110375e-07,2.693273691311023e-14
	2.855710097865071e-07,4.535000677936330e-14
	4.142027545563827e-06,-9.036574047425281e-14
	2.049867130585067e-06,3.275995159608339e-12
	-1.523045177029100e-07,-2.295893589660163e-14
	-6.039590158445985e-06,-3.162670483237484e-12
	-4.142027545563827e-06,9.036574047425253e-14
	-2.049867130538008e-06,-3.275995159608340e-12
	-4.142027545563827e-06,9.036574047425253e-14
14		1.380384264602885e+00,0.000000000000000e+00
	-4.142027545563827e-02,9.247062896956392e-10
	1.000000000000000e+00,0.000000000000000e+00
	0.000000000000000e+00,0.000000000000000e+00
	2.855706953110374e-07,2.756008094612690e-14
	2.855710097865071e-07,4.640634413720717e-14
	4.142027545563827e-06,-9.247062896956410e-14
	2.049867130585067e-06,3.352302889572884e-12
	-1.523045177029100e-07,-2.349371821321551e-14
	-6.039590158445985e-06,-3.236338542390105e-12
	-4.142027545563827e-06,9.247062896956393e-14
	-2.049867130538008e-06,-3.352302889572884e-12
	-4.142027545563827e-06,9.247062896956393e-14
15		1.412537544622754e+00,0.000000000000000e+00
	-4.142027545563827e-02,9.462454661634846e-10
	1.000000000000000e+00,0.000000000000000e+00
	0.000000000000000e+00,0.000000000000000e+00
	2.855706953110373e-07,2.820203769886203e-14
	2.855710097865070e-07,4.748728675297318e-14
	4.142027545563827e-06,-9.462454661634869e-14
	2.049867130585067e-06,3.430388054902456e-12
	-1.523045177029099e-07,-2.404095721020217e-14
	-6.039590158445985e-06,-3.311722551075904e-12
	-4.142027545563827e-06,9.462454661634847e-14
	-2.049867130538008e-06,-3.430388054902456e-12
	-4.142027545563827e-06,9.462454661634847e-14
16		1.445439770745927e+00,0.000000000000000e+00
	-4.142027545563827e-02,9.682863545025290e-10
	1.000000000000000e+00,0.000000000000000e+00
	0.000000000000000e+00,0.000000000000000e+00
	2.855706953110372e-07,2.885894754528311e-14
	2.855710097865069e-07,4.859340775674410e-14
	4.142027545563827e-06,-9.682863545025303e-14
	2.049867130585067e-06,3.510292057385289e-12
	-1.523045177029099e-07,-2.460094304092133e-14
	-6.039590158445985e-06,-3.388862478894114e-12
	-4.142027545563827e-06,9.682863545025290e-14
	-2.049867130538008e-06,-3.510292057385289e-12
	-4.142027545563827e-06,9.682863545025290e-14
17		1.479108388168207e+00,0.000000000000000e+00
	-4.142027545563827e-02,9.908406410835158e-10
	1.000000000000000e+00,0.000000000000000e+00
	0.000000000000000e+00,0.000000000000000e+00
	2.855706953110371e-07,2.953115878768613e-14
	2.855710097865068e-07,4.972529362851753e-14
	4.142027545563827e-06,-9.908406410835187e-14
	2.049867130585067e-06,3.592057263181156e-12
	-1.523045177029098e-07,-2.517397261727281e-14
	-6.039590158445985e-06,-3.467799226455532e-12
	-4.142027545563827e-06,9.908406410835159e-14
	-2.049867130538008e-06,-3.592057263181157e-12
	-4.142027545563827e-06,9.908406410835159e-14
18		1.513561248436208e+00,0.000000000000000e+00
	-4.142027545563827e-02,1.013920284487732e-09
	1.000000000000000e+00,0.000000000000000e+00
	0.000000000000000e+00,0.000000000000000e+00
	2.855706953110369e-07,3.021902784136944e-14
	2.855710097865067e-07,5.088354450916484e-14
	4.142027545563827e-06,-1.013920284487735e-13
	2.049867130585067e-06,3.675727025284462e-12
	-1.523045177029097e-07,-2.576034976712286e-14
	-6.039590158445985e-06,-3.548574647068566e-12
	-4.142027545563827e-06,1.013920284487732e-13
	-2.049867130538008e-06,-3.675727025284462e-12
	-4.142027545563827e-06,1.013920284487732e-13
19		1.548816618912481e+00,0.000000000000000e+00
	-4.142027545563827e-02,1.037537521847605e-09
	1.000000000000000e+00,0.000000000000000e+00
	0.000000000000000e+00,0.000000000000000e+00
	2.855706953110368e-07,3.092291942361031e-14
	2.855710097865066e-07,5.206877451863418e-14
	4.142027545563827e-06,-1.037537521847607e-13
	2.049867130585067e-06,3.761345706510572e-12
	-1.523045177029097e-07,-2.636038539539796e-14
	-6.039590158445985e-06,-3.631231568930413e-12
	-4.142027545563827e-06,1.037537521847605e-13
	-2.049867130538008e-06,-3.761345706510571e-12
	-4.142027545563827e-06,1.037537521847605e-13
20		1.584893192461113e+00,0.000000000000000e+00
	-4.142027545563827e-02,1.061704875334994e-09
	1.000000000000000e+00,0.000000000000000e+00
	0.000000000000000e+00,0.000000000000000e+00
	2.855706953110367e-07,3.164320674704283e-14
	2.855710097865065e-07,5.328161208156503e-14
	4.142027545563827e-06,-1.061704875334992e-13
	2.049867130585067e-06,3.848958703017571e-12
	-1.523045177029097e-07,-2.697439764893066e-14
	-6.039590158445985e-06,-3.715813817835141e-12
	-4.142027545563827e-06,1.061704875334994e-13
	-2.049867130538008e-06,-3.848958703017570e-12
	-4.142027545563827e-06,1.061704875334994e-13
21		1.621810097358929e+00,0.000000000000000e+00
	-4.142027545563827e-02,1.086435158800610e-09
	1.000000000000000e+00,0.000000000000000e+00
	0.000000000000000e+00,0.000000000000000e+00
	2.855706953110365e-07,3.238027171754006e-14
	2.855710097865063e-07,5.452270026048711e-14
	4.142027545563827e-06,-1.086435158800612e-13
	2.049867130585067e-06,3.938612468375901e-12
	-1.523045177029096e-07,-2.760271208514522e-14
	-6.039590158445985e-06,-3.802366240410694e-12
	-4.142027545563827e-06,1.086435158800610e-13
	-2.049867130538008e-06,-3.938612468375900e-12
	-4.142027545563827e-06,1.086435158800610e-13
22		1.659586907437560e+00,0.000000000000000e+00
	-4.142027545563827e-02,1.111741484568093e-09
	1.000000000000000e+00,0.000000000000000e+00
	0.000000000000000e+00,0.000000000000000e+00
	2.855706953110364e-07,3.313450513670538e-14
	2.855710097865062e-07,5.579269709678045e-14
	4.142027545563827e-06,-1.111741484568097e-13
	2.049867130585067e-06,4.030354538198663e-12
	-1.523045177029095e-07,-2.824566184467235e-14
	-6.039590158445985e-06,-3.890934727897180e-12
	-4.142027545563827e-06,1.111741484568093e-13
	-2.049867130538008e-06,-4.030354538198662e-12
	-4.142027545563827e-06,1.111741484568093e-13
23		1.698243652461743e+00,0.000000000000000e+00
	-4.142027545563827e-02,1.137637270386332e-09
	1.000000000000000e+00,0.000000000000000e+00
	0.000000000000000e+00,0.000000000000000e+00
	2.855706953110362e-07,3.390630690908132e-14
	2.855710097865061e-07,5.709227595957827e-14
	4.142027545563827e-06,-1.137637270386337e-13
	2.049867130585067e-06,4.124233555345626e-12
	-1.523045177029094e-07,-2.890358782798513e-14
	-6.039590158445985e-06,-3.981566240479007e-12
	-4.142027545563827e-06,1.137637270386332e-13
	-2.049867130538008e-06,-4.124233555345626e-12
	-4.142027545563827e-06,1.137637270386332e-13
24		1.737800828749374e+00,0.000000000000000e+00
	-4.142027545563827e-02,1.164136246543738e-09
	1.000000000000000e+00,0.000000000000000e+00
	0.000000000000000e+00,0.000000000000000e+00
	2.855706953110360e-07,3.469608625418342e-14
	2.855710097865059e-07,5.842212590279537e-14
	4.142027545563827e-06,-1.164136246543746e-13
	2.049867130585067e-06,4.220299295714318e-12
	-1.523045177029093e-07,-2.957683887614847e-14
	-6.039590158445985e-06,-4.074308832183795e-12
	-4.142027545563827e-06,1.164136246543738e-13
	-2.049867130538008e-06,-4.220299295714318e-12
	-4.142027545563827e-06,1.164136246543738e-13
25		1.778279410038922e+00,0.000000000000000e+00
	-4.142027545563827e-02,1.191252463148228e-09
	1.000000000000000e+00,0.000000000000000e+00
	0.000000000000000e+00,0.000000000000000e+00
	2.855706953110359e-07,3.550426192347449e-14
	2.855710097865058e-07,5.978295203047444e-14
	4.142027545563827e-06,-1.191252463148233e-13
	2.049867130585067e-06,4.318602694631863e-12
	-1.523045177029093e-07,-3.026577195577971e-14
	-6.039590158445985e-06,-4.169211676361260e-12
	-4.142027545563827e-06,1.191252463148228e-13
	-2.049867130538008e-06,-4.318602694631863e-12
	-4.142027545563827e-06,1.191252463148228e-13
26		1.819700858609982e+00,0.000000000000000e+00
	-4.142027545563827e-02,1.219000297576769e-09
	1.000000000000000e+00,0.000000000000000e+00
	0.000000000000000e+00,0.000000000000000e+00
	2.855706953110357e-07,3.633126242239187e-14
	2.855710097865057e-07,6.117547587064099e-14
	4.142027545563827e-06,-1.219000297576764e-13
	2.049867130585066e-06,4.419195873861566e-12
	-1.523045177029092e-07,-3.097075234831676e-14
	-6.039590158445985e-06,-4.266325091755573e-12
	-4.142027545563827e-06,1.219000297576769e-13
	-2.049867130538008e-06,-4.419195873861567e-12
	-4.142027545563827e-06,1.219000297576769e-13
27		1.862087136662866e+00,0.000000000000000e+00
	-4.142027545563827e-02,1.247394462098461e-09
	1.000000000000000e+00,0.000000000000000e+00
	0.000000000000000e+00,0.000000000000000e+00
	2.855706953110355e-07,3.717752623754668e-14
	2.855710097865055e-07,6.260043575786728e-14
	4.142027545563827e-06,-1.247394462098465e-13
	2.049867130585066e-06,4.522132169238564e-12
	-1.523045177029091e-07,-3.169215384369524e-14
	-6.039590158445985e-06,-4.365700569185023e-12
	-4.142027545563827e-06,1.247394462098462e-13
	-2.049867130538008e-06,-4.522132169238566e-12
	-4.142027545563827e-06,1.247394462098462e-13
28		1.905460717963246e+00,0.000000000000000e+00
	-4.142027545563827e-02,1.276450011675176e-09
	1.000000000000000e+00,0.000000000000000e+00
	0.000000000000000e+00,0.000000000000000e+00
	2.855706953110353e-07,3.804350206921534e-14
	2.855710097865053e-07,6.405858722474707e-14
	4.142027545563827e-06,-1.276450011675183e-13
	2.049867130585066e-06,4.627466158949189e-12
	-1.523045177029090e-07,-3.243035893853688e-14
	-6.039590158445985e-06,-4.467390798843134e-12
	-4.142027545563827e-06,1.276450011675176e-13
	-2.049867130538008e-06,-4.627466158949188e-12
	-4.142027545563827e-06,1.276450011675176e-13
29		1.949844599758044e+00,0.000000000000000e+00
	-4.142027545563827e-02,1.306182351943895e-09
	1.000000000000000e+00,0.000000000000000e+00
	0.000000000000000e+00,0.000000000000000e+00
	2.855706953110351e-07,3.892964906924649e-14
	2.855710097865052e-07,6.555070340248918e-14
	4.142027545563827e-06,-1.306182351943894e-13
	2.049867130585066e-06,4.735253692469044e-12
	-1.523045177029089e-07,-3.318575903895434e-14
	-6.039590158445985e-06,-4.571449698235700e-12
	-4.142027545563827e-06,1.306182351943895e-13
	-2.049867130538008e-06,-4.735253692469044e-12
	-4.142027545563827e-06,1.306182351943895e-13
30		1.995262314968878e+00,0.000000000000000e+00
	-4.142027545563827e-02,1.336607247384981e-09
	1.000000000000000e+00,0.000000000000000e+00
	0.000000000000000e+00,0.000000000000000e+00
	2.855706953110349e-07,3.983643708450888e-14
	2.855710097865050e-07,6.707757543084134e-14
	4.142027545563827e-06,-1.336607247384983e-13
	2.049867130585066e-06,4.845551920175137e-12
	-1.523045177029088e-07,-3.395875466807965e-14
	-6.039590158445985e-06,-4.677932440768559e-12
	-4.142027545563827e-06,1.336607247384981e-13
	-2.049867130538008e-06,-4.845551920175137e-12
	-4.142027545563827e-06,1.336607247384981e-13
31		2.041737944669527e+00,0.000000000000000e+00
	-4.142027545563827e-02,1.367740829680719e-09
	1.000000000000000e+00,0.000000000000000e+00
	0.000000000000000e+00,0.000000000000000e+00
	2.855706953110347e-07,4.076434690601104e-14
	2.855710097865048e-07,6.864001287756358e-14
	4.142027545563827e-06,-1.367740829680725e-13
	2.049867130585066e-06,4.958419323647769e-12
	-1.523045177029087e-07,-3.474975567842723e-14
	-6.039590158445985e-06,-4.786895485001269e-12
	-4.142027545563827e-06,1.367740829680719e-13
	-2.049867130538008e-06,-4.958419323647770e-12
	-4.142027545563827e-06,1.367740829680719e-13
32		2.089296130854037e+00,0.000000000000000e+00
	-4.142027545563827e-02,1.399599606268545e-09
	1.000000000000000e+00,0.000000000000000e+00
	0.000000000000000e+00,0.000000000000000e+00
	2.855706953110344e-07,4.171387052382279e-14
