LTspice 24.0.9 for Windows
Circuit: * GA CMOS Amp | W=1e-06 L=6.820642007189056e-07 Vbias=1.412609449468549
Start Time: Sat Sep  6 22:10:02 2025
solver = Normal
Maximum thread count: 2
tnom = 27
temp = 27
method = modified trap
AsciiRawFile = 1
Direct Newton iteration for .op point succeeded.
Semiconductor Device Operating Points:
                        --- BSIM4 MOSFETS ---
Name:      m1
Model:      n
Id:      6.02e-05
Vgs:     1.41e+00
Vds:     1.20e+00
Vbs:     0.00e+00
Vth:     2.42e-01
Vdsat:   8.12e-01
Gm:      3.27e-05
Gds:     5.05e-06
Gmb      3.46e-05
Cbd:     3.86e-16
Cbs:     8.00e-16


.measure op idd find i(vdd)
  Error: FIND can not be evaluated over an interval.

gain_db: MAX(db(v(out)/v(g)))=(29.2919dB,110.577°) FROM 1 TO 1e+09
gain_lin: MAX(mag(v(out)/v(g)))=(-4.87757dB,0°) FROM 1 TO 1e+09

Measurement "fc" FAIL'ed

Total elapsed time: 0.881 seconds.

