Title: * GA CMOS Amp | W=3.1770391542279314e-05 L=5.098548068830463e-07 Vbias=1.3593775193666486
Date: Sat Sep  6 22:12:14 2025
Plotname: AC Analysis
Flags: complex forward log
No. Variables: 13
No. Points:          901
Offset:    0.0000000000000000e+00
Command: Linear Technology Corporation LTspice
Variables:
	0	frequency	frequency
	1	V(out)	voltage
	2	V(g)	voltage
	3	V(vdd)	voltage
	4	V(m1#dbody)	voltage
	5	V(m1#sbody)	voltage
	6	Id(M1)	device_current
	7	Ig(M1)	device_current
	8	Ib(M1)	device_current
	9	Is(M1)	device_current
	10	I(Rload)	device_current
	11	I(Vg)	device_current
	12	I(Vdd)	device_current
Values:
0		1.000000000000000e+00,0.000000000000000e+00
	6.373647464338387e-03,3.657436801693345e-10
	1.000000000000000e+00,0.000000000000000e+00
	0.000000000000000e+00,0.000000000000000e+00
	1.905882254202839e-04,5.268591073388955e-14
	1.905882253668141e-04,4.787510364094859e-14
	-6.373647464338289e-07,-3.657436801693341e-14
	1.309513434921915e-04,4.325596821931107e-12
	-1.016470536094166e-04,-2.594541794686806e-14
	-2.866692513634114e-05,-4.263077035967306e-12
	6.373647464338387e-07,3.657436801693345e-14
	-1.309513434922110e-04,-4.325596821931106e-12
	6.373647464338387e-07,3.657436801693345e-14
1		1.023292992280754e+00,0.000000000000000e+00
	6.373647464338387e-03,3.742629448882534e-10
	1.000000000000000e+00,0.000000000000000e+00
	0.000000000000000e+00,0.000000000000000e+00
	1.905882254202839e-04,5.391312324591854e-14
	1.905882253668141e-04,4.899025806049752e-14
	-6.373647464338289e-07,-3.742629448882522e-14
	1.309513434921915e-04,4.426352915314002e-12
	-1.016470536094166e-04,-2.654976436682539e-14
	-2.866692513634114e-05,-4.362376856458352e-12
	6.373647464338387e-07,3.742629448882534e-14
	-1.309513434922110e-04,-4.426352915314003e-12
	6.373647464338387e-07,3.742629448882534e-14
2		1.047128548050899e+00,0.000000000000000e+00
	6.373647464338387e-03,3.829806487745078e-10
	1.000000000000000e+00,0.000000000000000e+00
	0.000000000000000e+00,0.000000000000000e+00
	1.905882254202839e-04,5.516892120951706e-14
	1.905882253668141e-04,5.013138776333283e-14
	-6.373647464338289e-07,-3.829806487745000e-14
	1.309513434921915e-04,4.529455919602304e-12
	-1.016470536094166e-04,-2.716818782327770e-14
	-2.866692513634114e-05,-4.463989666901577e-12
	6.373647464338387e-07,3.829806487745078e-14
	-1.309513434922110e-04,-4.529455919602304e-12
	6.373647464338387e-07,3.829806487745078e-14
3		1.071519305237606e+00,0.000000000000000e+00
	6.373647464338387e-03,3.919014140700904e-10
	1.000000000000000e+00,0.000000000000000e+00
	0.000000000000000e+00,0.000000000000000e+00
	1.905882254202839e-04,5.645397046538787e-14
	1.905882253668141e-04,5.129909779152763e-14
	-6.373647464338289e-07,-3.919014140700954e-14
	1.309513434921915e-04,4.634960501373618e-12
	-1.016470536094166e-04,-2.780101621252738e-14
	-2.866692513634114e-05,-4.567969343754080e-12
	6.373647464338387e-07,3.919014140700904e-14
	-1.309513434922110e-04,-4.634960501373615e-12
	6.373647464338387e-07,3.919014140700904e-14
4		1.096478196143185e+00,0.000000000000000e+00
	6.373647464338387e-03,4.010299706828417e-10
	1.000000000000000e+00,0.000000000000000e+00
	0.000000000000000e+00,0.000000000000000e+00
	1.905882254202839e-04,5.776895236365606e-14
	1.905882253668141e-04,5.249400728039532e-14
	-6.373647464338289e-07,-4.010299706828320e-14
	1.309513434921915e-04,4.742922600553710e-12
	-1.016470536094166e-04,-2.844858506856290e-14
	-2.866692513634114e-05,-4.674371018416864e-12
	6.373647464338387e-07,4.010299706828417e-14
	-1.309513434922110e-04,-4.742922600553712e-12
	6.373647464338387e-07,4.010299706828417e-14
5		1.122018454301963e+00,0.000000000000000e+00
	6.373647464338387e-03,4.103711586943082e-10
	1.000000000000000e+00,0.000000000000000e+00
	0.000000000000000e+00,0.000000000000000e+00
	1.905882254202839e-04,5.911456412512997e-14
	1.905882253668141e-04,5.371674978676345e-14
	-6.373647464338289e-07,-4.103711586943050e-14
	1.309513434921915e-04,4.853399460076625e-12
	-1.016470536094166e-04,-2.911123774096332e-14
	-2.866692513634114e-05,-4.783251106466230e-12
	6.373647464338387e-07,4.103711586943083e-14
	-1.309513434922110e-04,-4.853399460076625e-12
	6.373647464338387e-07,4.103711586943083e-14
6		1.148153621496882e+00,0.000000000000000e+00
	6.373647464338387e-03,4.199299309260189e-10
	1.000000000000000e+00,0.000000000000000e+00
	0.000000000000000e+00,0.000000000000000e+00
	1.905882254202839e-04,6.049151921097677e-14
	1.905882253668141e-04,5.496797362489373e-14
	-6.373647464338289e-07,-4.199299309260125e-14
	1.309513434921915e-04,4.966449656235605e-12
	-1.016470536094166e-04,-2.978932557694678e-14
	-2.866692513634114e-05,-4.894667337566058e-12
	6.373647464338387e-07,4.199299309260189e-14
	-1.309513434922110e-04,-4.966449656235606e-12
	6.373647464338387e-07,4.199299309260189e-14
7		1.174897554939529e+00,0.000000000000000e+00
	6.373647464338387e-03,4.297113555655361e-10
	1.000000000000000e+00,0.000000000000000e+00
	0.000000000000000e+00,0.000000000000000e+00
	1.905882254202839e-04,6.190054770100912e-14
	1.905882253668141e-04,5.624834221022706e-14
	-6.373647464338289e-07,-4.297113555655411e-14
	1.309513434921915e-04,5.082133129741056e-12
	-1.016470536094166e-04,-3.048320810765946e-14
	-2.866692513634114e-05,-5.008678786076842e-12
	6.373647464338387e-07,4.297113555655361e-14
	-1.309513434922110e-04,-5.082133129741055e-12
	6.373647464338387e-07,4.297113555655361e-14
8		1.202264434617413e+00,0.000000000000000e+00
	6.373647464338387e-03,4.397206188536766e-10
	1.000000000000000e+00,0.000000000000000e+00
	0.000000000000000e+00,0.000000000000000e+00
	1.905882254202839e-04,6.334239668078318e-14
	1.905882253668141e-04,5.755853441113509e-14
	-6.373647464338289e-07,-4.397206188536789e-14
	1.309513434921915e-04,5.200511217501880e-12
	-1.016470536094166e-04,-3.119325323880380e-14
	-2.866692513634114e-05,-5.125345902377707e-12
	6.373647464338387e-07,4.397206188536766e-14
	-1.309513434922110e-04,-5.200511217501879e-12
	6.373647464338387e-07,4.397206188536766e-14
9		1.230268770812381e+00,0.000000000000000e+00
	6.373647464338387e-03,4.499630278343238e-10
	1.000000000000000e+00,0.000000000000000e+00
	0.000000000000000e+00,0.000000000000000e+00
	1.905882254202839e-04,6.481783063771312e-14
	1.905882253668141e-04,5.889924490886517e-14
	-6.373647464338289e-07,-4.499630278343226e-14
	1.309513434921915e-04,5.321646685147125e-12
	-1.016470536094166e-04,-3.191983744570686e-14
	-2.866692513634114e-05,-5.244730544917986e-12
	6.373647464338387e-07,4.499630278343238e-14
	-1.309513434922110e-04,-5.321646685147124e-12
	6.373647464338387e-07,4.499630278343238e-14
10		1.258925411794167e+00,0.000000000000000e+00
	6.373647464338387e-03,4.604440131682934e-10
	1.000000000000000e+00,0.000000000000000e+00
	0.000000000000000e+00,0.000000000000000e+00
	1.905882254202839e-04,6.632763186641261e-14
	1.905882253668141e-04,6.027118456586962e-14
	-6.373647464338289e-07,-4.604440131682891e-14
	1.309513434921915e-04,5.445603760305158e-12
	-1.016470536094166e-04,-3.266334597293264e-14
	-2.866692513634114e-05,-5.366896013015397e-12
	6.373647464338387e-07,4.604440131682935e-14
	-1.309513434922110e-04,-5.445603760305158e-12
	6.373647464338387e-07,4.604440131682935e-14
11		1.288249551693134e+00,0.000000000000000e+00
	6.373647464338387e-03,4.711691320127421e-10
	1.000000000000000e+00,0.000000000000000e+00
	0.000000000000000e+00,0.000000000000000e+00
	1.905882254202839e-04,6.787260088347767e-14
	1.905882253668141e-04,6.167508080271435e-14
	-6.373647464338289e-07,-4.711691320127361e-14
	1.309513434921915e-04,5.572448166657992e-12
	-1.016470536094166e-04,-3.342417303854377e-14
	-2.866692513634114e-05,-5.491907080418175e-12
	6.373647464338387e-07,4.711691320127421e-14
	-1.309513434922110e-04,-5.572448166657993e-12
	6.373647464338387e-07,4.711691320127421e-14
12		1.318256738556407e+00,0.000000000000000e+00
	6.373647464338387e-03,4.821440709676443e-10
	1.000000000000000e+00,0.000000000000000e+00
	0.000000000000000e+00,0.000000000000000e+00
	1.905882254202839e-04,6.945355685193121e-14
	1.905882253668141e-04,6.311167798376684e-14
	-6.373647464338289e-07,-4.821440709676413e-14
	1.309513434921915e-04,5.702247158788859e-12
	-1.016470536094166e-04,-3.420272204312115e-14
	-2.866692513634114e-05,-5.619830029648973e-12
	6.373647464338387e-07,4.821440709676444e-14
	-1.309513434922110e-04,-5.702247158788859e-12
	6.373647464338387e-07,4.821440709676444e-14
13		1.348962882591653e+00,0.000000000000000e+00
	6.373647464338387e-03,4.933746490909051e-10
	1.000000000000000e+00,0.000000000000000e+00
	0.000000000000000e+00,0.000000000000000e+00
	1.905882254202839e-04,7.107133801555416e-14
	1.905882253668141e-04,6.458173781186818e-14
	-6.373647464338289e-07,-4.933746490909045e-14
	1.309513434921915e-04,5.835069557841480e-12
	-1.016470536094166e-04,-3.499940578365235e-14
	-2.866692513634114e-05,-5.750732687148737e-12
	6.373647464338387e-07,4.933746490909051e-14
	-1.309513434922110e-04,-5.835069557841481e-12
	6.373647464338387e-07,4.933746490909051e-14
14		1.380384264602885e+00,0.000000000000000e+00
	6.373647464338387e-03,5.048668209836994e-10
	1.000000000000000e+00,0.000000000000000e+00
	0.000000000000000e+00,0.000000000000000e+00
	1.905882254202839e-04,7.272680214333334e-14
	1.905882253668141e-04,6.608603973219771e-14
	-6.373647464338289e-07,-5.048668209836946e-14
	1.309513434921915e-04,5.970985788009945e-12
	-1.016470536094166e-04,-3.581464667240195e-14
	-2.866692513634114e-05,-5.884684459239174e-12
	6.373647464338387e-07,5.048668209836994e-14
	-1.309513434922110e-04,-5.970985788009945e-12
	6.373647464338387e-07,5.048668209836994e-14
15		1.412537544622754e+00,0.000000000000000e+00
	6.373647464338387e-03,5.166266799476816e-10
	1.000000000000000e+00,0.000000000000000e+00
	0.000000000000000e+00,0.000000000000000e+00
	1.905882254202839e-04,7.442082698426193e-14
	1.905882253668141e-04,6.762538134554540e-14
	-6.373647464338289e-07,-5.166266799476747e-14
	1.309513434921915e-04,6.110067913878553e-12
	-1.016470536094166e-04,-3.664887696088014e-14
	-2.866692513634114e-05,-6.021756368922905e-12
	6.373647464338387e-07,5.166266799476816e-14
	-1.309513434922110e-04,-6.110067913878553e-12
	6.373647464338387e-07,5.166266799476816e-14
16		1.445439770745927e+00,0.000000000000000e+00
	6.373647464338387e-03,5.286604612157344e-10
	1.000000000000000e+00,0.000000000000000e+00
	0.000000000000000e+00,0.000000000000000e+00
	1.905882254202839e-04,7.615431073273367e-14
	1.905882253668141e-04,6.920057883121022e-14
	-6.373647464338289e-07,-5.286604612157275e-14
	1.309513434921915e-04,6.252389678631409e-12
	-1.016470536094166e-04,-3.750253896902822e-14
	-2.866692513634114e-05,-6.162021093540808e-12
	6.373647464338387e-07,5.286604612157345e-14
	-1.309513434922110e-04,-6.252389678631409e-12
	6.373647464338387e-07,5.286604612157345e-14
17		1.479108388168207e+00,0.000000000000000e+00
	6.373647464338387e-03,5.409745452579724e-10
	1.000000000000000e+00,0.000000000000000e+00
	0.000000000000000e+00,0.000000000000000e+00
	1.905882254202839e-04,7.792817250477738e-14
	1.905882253668141e-04,7.081246737974933e-14
	-6.373647464338289e-07,-5.409745452579723e-14
	1.309513434921915e-04,6.398026543152037e-12
	-1.016470536094166e-04,-3.837608531974248e-14
	-2.866692513634114e-05,-6.305553003306497e-12
	6.373647464338387e-07,5.409745452579725e-14
	-1.309513434922110e-04,-6.398026543152037e-12
	6.373647464338387e-07,5.409745452579725e-14
18		1.513561248436208e+00,0.000000000000000e+00
	6.373647464338387e-03,5.535754611647509e-10
	1.000000000000000e+00,0.000000000000000e+00
	0.000000000000000e+00,0.000000000000000e+00
	1.905882254202839e-04,7.974335282538446e-14
	1.905882253668141e-04,7.246190163580699e-14
	-6.373647464338289e-07,-5.535754611647434e-14
	1.309513434921915e-04,6.547055726033736e-12
	-1.016470536094166e-04,-3.926997917886081e-14
	-2.866692513634114e-05,-6.452428200738401e-12
	6.373647464338387e-07,5.535754611647509e-14
	-1.309513434922110e-04,-6.547055726033738e-12
	6.373647464338387e-07,5.535754611647509e-14
19		1.548816618912481e+00,0.000000000000000e+00
	6.373647464338387e-03,5.664698901084762e-10
	1.000000000000000e+00,0.000000000000000e+00
	0.000000000000000e+00,0.000000000000000e+00
	1.905882254202839e-04,8.160081412718757e-14
	1.905882253668141e-04,7.414975615125860e-14
	-6.373647464338289e-07,-5.664698901084745e-14
	1.309513434921915e-04,6.699556244521908e-12
	-1.016470536094166e-04,-4.018469450073938e-14
	-2.866692513634114e-05,-6.602724561010321e-12
	6.373647464338387e-07,5.664698901084762e-14
	-1.309513434922110e-04,-6.699556244521908e-12
	6.373647464338387e-07,5.664698901084762e-14
20		1.584893192461113e+00,0.000000000000000e+00
	6.373647464338388e-03,5.796646688860527e-10
	1.000000000000000e+00,0.000000000000000e+00
	0.000000000000000e+00,0.000000000000000e+00
	1.905882254202839e-04,8.350154126075543e-14
	1.905882253668141e-04,7.587692584890967e-14
	-6.373647464338289e-07,-5.796646688860470e-14
	1.309513434921915e-04,6.855608956410036e-12
	-1.016470536094166e-04,-4.112071627954958e-14
	-2.866692513634115e-05,-6.756521773241882e-12
	6.373647464338388e-07,5.796646688860527e-14
	-1.309513434922110e-04,-6.855608956410035e-12
	6.373647464338388e-07,5.796646688860527e-14
21		1.621810097358929e+00,0.000000000000000e+00
	6.373647464338388e-03,5.931667935438413e-10
	1.000000000000000e+00,0.000000000000000e+00
	0.000000000000000e+00,0.000000000000000e+00
	1.905882254202839e-04,8.544654201677325e-14
	1.905882253668141e-04,7.764432649699566e-14
	-6.373647464338289e-07,-5.931667935438405e-14
	1.309513434921915e-04,7.015296602911563e-12
	-1.016470536094166e-04,-4.207854080642819e-14
	-2.866692513634115e-05,-6.913901382750751e-12
	6.373647464338388e-07,5.931667935438413e-14
	-1.309513434922110e-04,-7.015296602911563e-12
	6.373647464338388e-07,5.931667935438413e-14
22		1.659586907437560e+00,0.000000000000000e+00
	6.373647464338388e-03,6.069834230870577e-10
	1.000000000000000e+00,0.000000000000000e+00
	0.000000000000000e+00,0.000000000000000e+00
	1.905882254202839e-04,8.743684766038709e-14
	1.905882253668141e-04,7.945289519473454e-14
	-6.373647464338289e-07,-6.069834230870482e-14
	1.309513434921915e-04,7.178703852530383e-12
	-1.016470536094166e-04,-4.305867593261773e-14
	-2.866692513634115e-05,-7.074946834289060e-12
	6.373647464338388e-07,6.069834230870578e-14
	-1.309513434922110e-04,-7.178703852530383e-12
	6.373647464338388e-07,6.069834230870578e-14
23		1.698243652461743e+00,0.000000000000000e+00
	6.373647464338388e-03,6.211218832755704e-10
	1.000000000000000e+00,0.000000000000000e+00
	0.000000000000000e+00,0.000000000000000e+00
	1.905882254202839e-04,8.947351347799396e-14
	1.905882253668141e-04,8.130359086918907e-14
	-6.373647464338289e-07,-6.211218832755591e-14
	1.309513434921915e-04,7.345917345953191e-12
	-1.016470536094166e-04,-4.406164133873568e-14
	-2.866692513634115e-05,-7.239743516286901e-12
	6.373647464338388e-07,6.211218832755704e-14
	-1.309513434922110e-04,-7.345917345953194e-12
	6.373647464338388e-07,6.211218832755704e-14
24		1.737800828749374e+00,0.000000000000000e+00
	6.373647464338388e-03,6.355896705081155e-10
	1.000000000000000e+00,0.000000000000000e+00
	0.000000000000000e+00,0.000000000000000e+00
	1.905882254202839e-04,9.155761933676882e-14
	1.905882253668141e-04,8.319739478370267e-14
	-6.373647464338289e-07,-6.355896705081087e-14
	1.309513434921915e-04,7.517025741987535e-12
	-1.016470536094166e-04,-4.508796881031621e-14
	-2.866692513634115e-05,-7.408378806126410e-12
	6.373647464338388e-07,6.355896705081155e-14
	-1.309513434922110e-04,-7.517025741987537e-12
	6.373647464338388e-07,6.355896705081155e-14
25		1.778279410038922e+00,0.000000000000000e+00
	6.373647464338388e-03,6.503944557969881e-10
	1.000000000000000e+00,0.000000000000000e+00
	0.000000000000000e+00,0.000000000000000e+00
	1.905882254202839e-04,9.369027025722441e-14
	1.905882253668141e-04,8.513531105817832e-14
	-6.373647464338289e-07,-6.503944557969905e-14
	1.309513434921915e-04,7.692119764569884e-12
	-1.016470536094166e-04,-4.613820251976979e-14
	-2.866692513634115e-05,-7.580942116470415e-12
	6.373647464338388e-07,6.503944557969881e-14
	-1.309513434922110e-04,-7.692119764569882e-12
	6.373647464338388e-07,6.503944557969881e-14
26		1.819700858609982e+00,0.000000000000000e+00
	6.373647464338388e-03,6.655440888353128e-10
	1.000000000000000e+00,0.000000000000000e+00
	0.000000000000000e+00,0.000000000000000e+00
	1.905882254202839e-04,9.587259699910768e-14
	1.905882253668141e-04,8.711836720147604e-14
	-6.373647464338357e-07,-6.655440888353049e-14
	1.309513434921915e-04,7.871292250868647e-12
	-1.016470536094166e-04,-4.721289931491065e-14
	-2.866692513634115e-05,-7.757524942670206e-12
	6.373647464338388e-07,6.655440888353129e-14
	-1.309513434922110e-04,-7.871292250868645e-12
	6.373647464338388e-07,6.655440888353129e-14
27		1.862087136662866e+00,0.000000000000000e+00
	6.373647464338388e-03,6.810466021590550e-10
	1.000000000000000e+00,0.000000000000000e+00
	0.000000000000000e+00,0.000000000000000e+00
	1.905882254202839e-04,9.810575666094376e-14
	1.905882253668141e-04,8.914761465621194e-14
	-6.373647464338357e-07,-6.810466021590588e-14
	1.309513434921915e-04,8.054638200507688e-12
	-1.016470536094166e-04,-4.831262901420488e-14
	-2.866692513634115e-05,-7.938220911277578e-12
	6.373647464338388e-07,6.810466021590550e-14
	-1.309513434922110e-04,-8.054638200507686e-12
	6.373647464338388e-07,6.810466021590550e-14
28		1.905460717963246e+00,0.000000000000000e+00
	6.373647464338388e-03,6.969102154059797e-10
	1.000000000000000e+00,0.000000000000000e+00
	0.000000000000000e+00,0.000000000000000e+00
	1.905882254202839e-04,1.003909332935447e-13
	1.905882253668141e-04,9.122412935624673e-14
	-6.373647464338357e-07,-6.969102154059786e-14
	1.309513434921915e-04,8.242254825936380e-12
	-1.016470536094166e-04,-4.943797470889570e-14
	-2.866692513634115e-05,-8.123125829686887e-12
	6.373647464338388e-07,6.969102154059798e-14
	-1.309513434922110e-04,-8.242254825936380e-12
	6.373647464338388e-07,6.969102154059798e-14
29		1.949844599758044e+00,0.000000000000000e+00
	6.373647464338388e-03,7.131433396738099e-10
	1.000000000000000e+00,0.000000000000000e+00
	0.000000000000000e+00,0.000000000000000e+00
	1.905882254202839e-04,1.027293385278089e-13
	1.905882253668141e-04,9.334901229716030e-14
	-6.373647464338357e-07,-7.131433396738151e-14
	1.309513434921915e-04,8.434241603972927e-12
	-1.016470536094166e-04,-5.058953307216612e-14
	-2.866692513634115e-05,-8.312337736933379e-12
	6.373647464338388e-07,7.131433396738100e-14
	-1.309513434922110e-04,-8.434241603972925e-12
	6.373647464338388e-07,7.131433396738100e-14
30		1.995262314968878e+00,0.000000000000000e+00
	6.373647464338388e-03,7.297545819799032e-10
	1.000000000000000e+00,0.000000000000000e+00
	0.000000000000000e+00,0.000000000000000e+00
	1.905882254202839e-04,1.051222122171441e-13
	1.905882253668141e-04,9.552339012001406e-14
	-6.373647464338357e-07,-7.297545819798890e-14
	1.309513434921915e-04,8.630700328548280e-12
	-1.016470536094166e-04,-5.176791467550304e-14
	-2.866692513634115e-05,-8.505956955674787e-12
	6.373647464338388e-07,7.297545819799032e-14
	-1.309513434922110e-04,-8.630700328548280e-12
	6.373647464338388e-07,7.297545819799032e-14
31		2.041737944669527e+00,0.000000000000000e+00
	6.373647464338388e-03,7.467527498248059e-10
	1.000000000000000e+00,0.000000000000000e+00
	0.000000000000000e+00,0.000000000000000e+00
	1.905882254202839e-04,1.075708230948538e-13
	1.905882253668141e-04,9.774841570871100e-14
	-6.373647464338357e-07,-7.467527498248011e-14
	1.309513434921915e-04,8.831735164678658e-12
	-1.016470536094166e-04,-5.297374431243026e-14
	-2.866692513634115e-05,-8.704086145383747e-12
	6.373647464338388e-07,7.467527498248060e-14
	-1.309513434922110e-04,-8.831735164678658e-12
	6.373647464338388e-07,7.467527498248060e-14
32		2.089296130854037e+00,0.000000000000000e+00
	6.373647464338388e-03,7.641468558621072e-10
	1.000000000000000e+00,0.000000000000000e+00
	0.000000000000000e+00,0.000000000000000e+00
	1.905882254202839e-04,1.100764694468366e-13
	1.905882253668141e-04,1.000252688012699e-13
