LTspice 24.0.9 for Windows
Circuit: * GA CMOS Amp | W=2.5011789908262757e-06 L=1e-06 Vbias=0.8447063264805539
Start Time: Mon Sep  8 18:46:50 2025
solver = Normal
Maximum thread count: 2
tnom = 27
temp = 27
method = modified trap
AsciiRawFile = 1
Direct Newton iteration for .op point succeeded.
Semiconductor Device Operating Points:
                        --- MOSFET Transistors ---
Name:          m1
Model:        n_1u
Id:          2.66e-07
Vgs:         8.45e-01
Vds:         1.80e+00
Vbs:         0.00e+00
Vth:         8.82e-01
Vdsat:       4.58e-02
Gm:          4.72e-06
Gds:         1.34e-08
Gmb:         1.62e-06
Cbd:         0.00e+00
Cbs:         0.00e+00
Cgsov:       5.00e-16
Cgdov:       5.00e-16
Cgbov:       8.00e-17
Cgs:         2.06e-15
Cgd:         0.00e+00
Cgb:         1.86e-16



gain_db: MAX(db(v(out)/v(g)))=(31.6083dB,134.189°) FROM 1 TO 1e+09
gain_lin: MAX(mag(v(out)/v(g)))=(-24.9347dB,0°) FROM 1 TO 1e+09

Measurement "fc" FAIL'ed

Total elapsed time: 0.433 seconds.

