Title: * GA CMOS Amp | W=3.7107716489025766e-05 L=8.317019536781344e-07 Vbias=0.8130850546471771
Date: Mon Sep  8 18:42:59 2025
Plotname: AC Analysis
Flags: complex forward log
No. Variables: 11
No. Points:          901
Offset:    0.0000000000000000e+00
Command: Linear Technology Corporation LTspice
Variables:
	0	frequency	frequency
	1	V(out)	voltage
	2	V(g)	voltage
	3	V(vdd)	voltage
	4	Id(M1)	device_current
	5	Ig(M1)	device_current
	6	Ib(M1)	device_current
	7	Is(M1)	device_current
	8	I(Rload)	device_current
	9	I(Vg)	device_current
	10	I(Vdd)	device_current
Values:
0		1.000000000000000e+00,0.000000000000000e+00
	-4.607775907444219e+00,2.567077751900703e-09
	1.000000000000000e+00,0.000000000000000e+00
	0.000000000000000e+00,0.000000000000000e+00
	4.607775907444219e-04,-2.567077751900703e-13
	1.197052275879552e-22,4.847147784484184e-13
	4.607775912126438e-12,-7.056797567830195e-15
	-4.607775953521978e-04,-2.209502056905179e-13
	-4.607775907444219e-04,2.567077751900703e-13
	-1.197052275879552e-22,-4.847147784484184e-13
	-4.607775907444219e-04,2.567077751900703e-13
1		1.023292992280754e+00,0.000000000000000e+00
	-4.607775907444219e+00,2.626872674159822e-09
	1.000000000000000e+00,0.000000000000000e+00
	0.000000000000000e+00,0.000000000000000e+00
	4.607775907444219e-04,-2.626872674159822e-13
	1.253467611582780e-22,4.960052360411849e-13
	4.607775912126438e-12,-7.221171499104536e-15
	-4.607775953521978e-04,-2.260967971260982e-13
	-4.607775907444219e-04,2.626872674159822e-13
	-1.253467611582780e-22,-4.960052360411849e-13
	-4.607775907444219e-04,2.626872674159822e-13
2		1.047128548050899e+00,0.000000000000000e+00
	-4.607775907444219e+00,2.688060399081550e-09
	1.000000000000000e+00,0.000000000000000e+00
	0.000000000000000e+00,0.000000000000000e+00
	4.607775907444219e-04,-2.688060399081551e-13
	1.312541720145505e-22,5.075586821755058e-13
	4.607775912126438e-12,-7.389374191091147e-15
	-4.607775953521978e-04,-2.313632680762596e-13
	-4.607775907444219e-04,2.688060399081550e-13
	-1.312541720145505e-22,-5.075586821755058e-13
	-4.607775907444219e-04,2.688060399081550e-13
3		1.071519305237606e+00,0.000000000000000e+00
	-4.607775907444219e+00,2.750673369207557e-09
	1.000000000000000e+00,0.000000000000000e+00
	0.000000000000000e+00,0.000000000000000e+00
	4.607775907444219e-04,-2.750673369207558e-13
	1.374399905672192e-22,5.193812426414495e-13
	4.607775912126438e-12,-7.561494827083845e-15
	-4.607775953521978e-04,-2.367524108936099e-13
	-4.607775907444219e-04,2.750673369207557e-13
	-1.374399905672192e-22,-5.193812426414495e-13
	-4.607775907444219e-04,2.750673369207557e-13
4		1.096478196143185e+00,0.000000000000000e+00
	-4.607775907444219e+00,2.814744782763384e-09
	1.000000000000000e+00,0.000000000000000e+00
	0.000000000000000e+00,0.000000000000000e+00
	4.607775907444219e-04,-2.814744782763385e-13
	1.439173377667815e-22,5.314791859170652e-13
	4.607775912126438e-12,-7.737624667722010e-15
	-4.607775953521978e-04,-2.422670829730047e-13
	-4.607775907444219e-04,2.814744782763384e-13
	-1.439173377667815e-22,-5.314791859170652e-13
	-4.607775907444219e-04,2.814744782763384e-13
5		1.122018454301963e+00,0.000000000000000e+00
	-4.607775907444219e+00,2.880308611260585e-09
	1.000000000000000e+00,0.000000000000000e+00
	0.000000000000000e+00,0.000000000000000e+00
	4.607775907444219e-04,-2.880308611260586e-13
	1.506999529350809e-22,5.438589264920129e-13
	4.607775912126438e-12,-7.917857099378684e-15
	-4.607775953521978e-04,-2.479102082665757e-13
	-4.607775907444219e-04,2.880308611260585e-13
	-1.506999529350809e-22,-5.438589264920129e-13
	-4.607775907444219e-04,2.880308611260585e-13
6		1.148153621496882e+00,0.000000000000000e+00
	-4.607775907444219e+00,2.947399617508868e-09
	1.000000000000000e+00,0.000000000000000e+00
	0.000000000000000e+00,0.000000000000000e+00
	4.607775907444219e-04,-2.947399617508868e-13
	1.578022229082501e-22,5.565270282686106e-13
	4.607775912126438e-12,-8.102287683674631e-15
	-4.607775953521978e-04,-2.536847788340492e-13
	-4.607775907444219e-04,2.947399617508868e-13
	-1.578022229082501e-22,-5.565270282686106e-13
	-4.607775907444219e-04,2.947399617508868e-13
7		1.174897554939529e+00,0.000000000000000e+00
	-4.607775907444219e+00,3.016053374047799e-09
	1.000000000000000e+00,0.000000000000000e+00
	0.000000000000000e+00,0.000000000000000e+00
	4.607775907444219e-04,-3.016053374047799e-13
	1.652392125531203e-22,5.694902080421023e-13
	4.607775912126438e-12,-8.291014208146884e-15
	-4.607775953521978e-04,-2.595938564291755e-13
	-4.607775907444219e-04,3.016053374047799e-13
	-1.652392125531203e-22,-5.694902080421023e-13
	-4.607775907444219e-04,3.016053374047799e-13
8		1.202264434617413e+00,0.000000000000000e+00
	-4.607775907444219e+00,3.086306282007837e-09
	1.000000000000000e+00,0.000000000000000e+00
	0.000000000000000e+00,0.000000000000000e+00
	4.607775907444219e-04,-3.086306282007837e-13
	1.730266967218229e-22,5.827553390619921e-13
	4.607775912126438e-12,-8.484136738096878e-15
	-4.607775953521978e-04,-2.656405741231115e-13
	-4.607775907444219e-04,3.086306282007837e-13
	-1.730266967218229e-22,-5.827553390619921e-13
	-4.607775907444219e-04,3.086306282007837e-13
9		1.230268770812381e+00,0.000000000000000e+00
	-4.607775907444219e+00,3.158195590410688e-09
	1.000000000000000e+00,0.000000000000000e+00
	0.000000000000000e+00,0.000000000000000e+00
	4.607775907444219e-04,-3.158195590410689e-13
	1.811811937123657e-22,5.963294546763313e-13
	4.607775912126438e-12,-8.681757669646175e-15
	-4.607775953521978e-04,-2.718281379656163e-13
	-4.607775907444219e-04,3.158195590410688e-13
	-1.811811937123657e-22,-5.963294546763313e-13
	-4.607775907444219e-04,3.158195590410688e-13
10		1.258925411794167e+00,0.000000000000000e+00
	-4.607775907444219e+00,3.231759415919236e-09
	1.000000000000000e+00,0.000000000000000e+00
	0.000000000000000e+00,0.000000000000000e+00
	4.607775907444219e-04,-3.231759415919237e-13
	1.897200003061583e-22,6.102197520608935e-13
	4.607775912126438e-12,-8.883981784028676e-15
	-4.607775953521978e-04,-2.781598286849411e-13
	-4.607775907444219e-04,3.231759415919236e-13
	-1.897200003061583e-22,-6.102197520608935e-13
	-4.607775907444219e-04,3.231759415919236e-13
11		1.288249551693134e+00,0.000000000000000e+00
	-4.607775907444219e+00,3.307036763047498e-09
	1.000000000000000e+00,0.000000000000000e+00
	0.000000000000000e+00,0.000000000000000e+00
	4.607775907444219e-04,-3.307036763047498e-13
	1.986612284568038e-22,6.244335960352117e-13
	4.607775912126438e-12,-9.090916303146524e-15
	-4.607775953521978e-04,-2.846390034273153e-13
	-4.607775907444219e-04,3.307036763047498e-13
	-1.986612284568038e-22,-6.244335960352117e-13
	-4.607775907444219e-04,3.307036763047498e-13
12		1.318256738556407e+00,0.000000000000000e+00
	-4.607775907444219e+00,3.384067544841333e-09
	1.000000000000000e+00,0.000000000000000e+00
	0.000000000000000e+00,0.000000000000000e+00
	4.607775907444219e-04,-3.384067544841334e-13
	2.080238437079809e-22,6.389785229675033e-13
	4.607775912126438e-12,-9.302670946420492e-15
	-4.607775953521978e-04,-2.912690975369494e-13
	-4.607775907444219e-04,3.384067544841333e-13
	-2.080238437079809e-22,-6.389785229675033e-13
	-4.607775907444219e-04,3.384067544841333e-13
13		1.348962882591653e+00,0.000000000000000e+00
	-4.607775907444219e+00,3.462892604040873e-09
	1.000000000000000e+00,0.000000000000000e+00
	0.000000000000000e+00,0.000000000000000e+00
	4.607775907444219e-04,-3.462892604040873e-13
	2.178277054219054e-22,6.538622447705530e-13
	4.607775912126438e-12,-9.519357988966015e-15
	-4.607775953521978e-04,-2.980536263774997e-13
	-4.607775907444219e-04,3.462892604040873e-13
	-2.178277054219054e-22,-6.538622447705530e-13
	-4.607775907444219e-04,3.462892604040873e-13
14		1.380384264602885e+00,0.000000000000000e+00
	-4.607775907444219e+00,3.543553734735878e-09
	1.000000000000000e+00,0.000000000000000e+00
	0.000000000000000e+00,0.000000000000000e+00
	4.607775907444219e-04,-3.543553734735878e-13
	2.280936089036989e-22,6.690926529906701e-13
	4.607775912126438e-12,-9.741092321120659e-15
	-4.607775953521978e-04,-3.049961871959616e-13
	-4.607775907444219e-04,3.543553734735878e-13
	-2.280936089036989e-22,-6.690926529906701e-13
	-4.607775907444219e-04,3.543553734735878e-13
15		1.412537544622754e+00,0.000000000000000e+00
	-4.607775907444219e+00,3.626093704525519e-09
	1.000000000000000e+00,0.000000000000000e+00
	0.000000000000000e+00,0.000000000000000e+00
	4.607775907444219e-04,-3.626093704525519e-13
	2.388433295110199e-22,6.846778229918912e-13
	4.607775912126438e-12,-9.967991509362611e-15
	-4.607775953521978e-04,-3.121004610299766e-13
	-4.607775907444219e-04,3.626093704525519e-13
	-2.388433295110199e-22,-6.846778229918912e-13
	-4.607775907444219e-04,3.626093704525519e-13
16		1.445439770745927e+00,0.000000000000000e+00
	-4.607775907444219e+00,3.710556277194322e-09
	1.000000000000000e+00,0.000000000000000e+00
	0.000000000000000e+00,0.000000000000000e+00
	4.607775907444219e-04,-3.710556277194322e-13
	2.500996688425168e-22,7.006260182376448e-13
	4.607775912126438e-12,-1.020017585864493e-14
	-4.607775953521978e-04,-3.193702146595676e-13
	-4.607775907444219e-04,3.710556277194322e-13
	-2.500996688425168e-22,-7.006260182376448e-13
	-4.607775907444219e-04,3.710556277194322e-13
17		1.479108388168207e+00,0.000000000000000e+00
	-4.607775907444219e+00,3.796986235916313e-09
	1.000000000000000e+00,0.000000000000000e+00
	0.000000000000000e+00,0.000000000000000e+00
	4.607775907444219e-04,-3.796986235916313e-13
	2.618865031030753e-22,7.169456946721495e-13
	4.607775912126438e-12,-1.043776847618260e-14
	-4.607775953521978e-04,-3.268093026043356e-13
	-4.607775907444219e-04,3.796986235916313e-13
	-2.618865031030753e-22,-7.169456946721495e-13
	-4.607775907444219e-04,3.796986235916313e-13
18		1.513561248436208e+00,0.000000000000000e+00
	-4.607775907444219e+00,3.885429406999641e-09
	1.000000000000000e+00,0.000000000000000e+00
	0.000000000000000e+00,0.000000000000000e+00
	4.607775907444219e-04,-3.885429406999642e-13
	2.742288337484507e-22,7.336455052038679e-13
	4.607775912126438e-12,-1.068089533672661e-14
	-4.607775953521978e-04,-3.344216691671771e-13
	-4.607775907444219e-04,3.885429406999642e-13
	-2.742288337484507e-22,-7.336455052038679e-13
	-4.607775907444219e-04,3.885429406999642e-13
19		1.548816618912481e+00,0.000000000000000e+00
	-4.607775907444219e+00,3.975932684184298e-09
	1.000000000000000e+00,0.000000000000000e+00
	0.000000000000000e+00,0.000000000000000e+00
	4.607775907444219e-04,-3.975932684184299e-13
	2.871528405167066e-22,7.507343042933915e-13
	4.607775912126438e-12,-1.092968534935657e-14
	-4.607775953521978e-04,-3.422113505256051e-13
	-4.607775907444219e-04,3.975932684184298e-13
	-2.871528405167066e-22,-7.507343042933915e-13
	-4.607775907444219e-04,3.975932684184298e-13
20		1.584893192461113e+00,0.000000000000000e+00
	-4.607775907444219e+00,4.068544053505802e-09
	1.000000000000000e+00,0.000000000000000e+00
	0.000000000000000e+00,0.000000000000000e+00
	4.607775907444219e-04,-4.068544053505802e-13
	3.006859369589506e-22,7.682211526481949e-13
	4.607775912126438e-12,-1.118427042583026e-14
	-4.607775953521978e-04,-3.501824768717844e-13
	-4.607775907444219e-04,4.068544053505802e-13
	-3.006859369589506e-22,-7.682211526481949e-13
	-4.607775907444219e-04,4.068544053505802e-13
21		1.621810097358929e+00,0.000000000000000e+00
	-4.607775907444219e+00,4.163312618738019e-09
	1.000000000000000e+00,0.000000000000000e+00
	0.000000000000000e+00,0.000000000000000e+00
	4.607775907444219e-04,-4.163312618738020e-13
	3.148568285871501e-22,7.861153220267412e-13
	4.607775912126438e-12,-1.144478555052491e-14
	-4.607775953521978e-04,-3.583392746024143e-13
	-4.607775907444219e-04,4.163312618738019e-13
	-3.148568285871501e-22,-7.861153220267412e-13
	-4.607775907444219e-04,4.163312618738019e-13
22		1.659586907437560e+00,0.000000000000000e+00
	-4.607775907444219e+00,4.260288627428651e-09
	1.000000000000000e+00,0.000000000000000e+00
	0.000000000000000e+00,0.000000000000000e+00
	4.607775907444219e-04,-4.260288627428652e-13
	3.296955737623735e-22,8.044263001544927e-13
	4.607775912126438e-12,-1.171136885200816e-14
	-4.607775953521978e-04,-3.666860685596193e-13
	-4.607775907444219e-04,4.260288627428651e-13
	-3.296955737623735e-22,-8.044263001544927e-13
	-4.607775907444219e-04,4.260288627428651e-13
23		1.698243652461743e+00,0.000000000000000e+00
	-4.607775907444219e+00,4.359523497541131e-09
	1.000000000000000e+00,0.000000000000000e+00
	0.000000000000000e+00,0.000000000000000e+00
	4.607775907444219e-04,-4.359523497541132e-13
	3.452336474526024e-22,8.231637957544269e-13
	4.607775912126438e-12,-1.198416167627507e-14
	-4.607775953521978e-04,-3.752272843240386e-13
	-4.607775907444219e-04,4.359523497541132e-13
	-3.452336474526024e-22,-8.231637957544269e-13
	-4.607775907444219e-04,4.359523497541132e-13
24		1.737800828749374e+00,0.000000000000000e+00
	-4.607775907444219e+00,4.461069844717123e-09
	1.000000000000000e+00,0.000000000000000e+00
	0.000000000000000e+00,0.000000000000000e+00
	4.607775907444219e-04,-4.461069844717123e-13
	3.615040079953597e-22,8.423377436947309e-13
	4.607775912126438e-12,-1.226330866169196e-14
	-4.607775953521978e-04,-3.839674505613267e-13
	-4.607775907444219e-04,4.461069844717123e-13
	-3.615040079953597e-22,-8.423377436947309e-13
	-4.607775907444219e-04,4.461069844717123e-13
25		1.778279410038922e+00,0.000000000000000e+00
	-4.607775907444219e+00,4.564981510174023e-09
	1.000000000000000e+00,0.000000000000000e+00
	0.000000000000000e+00,0.000000000000000e+00
	4.607775907444219e-04,-4.564981510174024e-13
	3.785411670067617e-22,8.619583102564001e-13
	4.607775912126438e-12,-1.254895781568517e-14
	-4.607775953521978e-04,-3.929112014233125e-13
	-4.607775907444219e-04,4.564981510174023e-13
	-3.785411670067617e-22,-8.619583102564001e-13
	-4.607775907444219e-04,4.564981510174023e-13
26		1.819700858609982e+00,0.000000000000000e+00
	-4.607775907444219e+00,4.671313589252292e-09
	1.000000000000000e+00,0.000000000000000e+00
	0.000000000000000e+00,0.000000000000000e+00
	4.607775907444219e-04,-4.671313589252292e-13
	3.963812625852833e-22,8.820358985235342e-13
	4.607775912126438e-12,-1.284126059321752e-14
	-4.607775953521978e-04,-4.020632790050876e-13
	-4.607775907444219e-04,4.671313589252292e-13
	-3.963812625852833e-22,-8.820358985235342e-13
	-4.607775907444219e-04,4.671313589252292e-13
27		1.862087136662866e+00,0.000000000000000e+00
	-4.607775907444219e+00,4.780122460627728e-09
	1.000000000000000e+00,0.000000000000000e+00
	0.000000000000000e+00,0.000000000000000e+00
	4.607775907444219e-04,-4.780122460627727e-13
	4.150621359655102e-22,9.025811538991909e-13
	4.607775912126438e-12,-1.314037197709036e-14
	-4.607775953521978e-04,-4.114285358593278e-13
	-4.607775907444219e-04,4.780122460627728e-13
	-4.150621359655102e-22,-9.025811538991909e-13
	-4.607775907444219e-04,4.780122460627728e-13
28		1.905460717963246e+00,0.000000000000000e+00
	-4.607775907444219e+00,4.891465816204188e-09
	1.000000000000000e+00,0.000000000000000e+00
	0.000000000000000e+00,0.000000000000000e+00
	4.607775907444219e-04,-4.891465816204188e-13
	4.346234117844695e-22,9.236049697497189e-13
	4.607775912126438e-12,-1.344645056011909e-14
	-4.607775953521978e-04,-4.210119375691810e-13
	-4.607775907444219e-04,4.891465816204188e-13
	-4.346234117844695e-22,-9.236049697497189e-13
	-4.607775907444219e-04,4.891465816204188e-13
29		1.949844599758044e+00,0.000000000000000e+00
	-4.607775907444219e+00,5.005402691702605e-09
	1.000000000000000e+00,0.000000000000000e+00
	0.000000000000000e+00,0.000000000000000e+00
	4.607775907444219e-04,-5.005402691702605e-13
	4.551065821307999e-22,9.451184931805654e-13
	4.607775912126438e-12,-1.375965862921947e-14
	-4.607775953521978e-04,-4.308185653810854e-13
	-4.607775907444219e-04,5.005402691702605e-13
	-4.551065821307999e-22,-9.451184931805654e-13
	-4.607775907444219e-04,5.005402691702605e-13
30		1.995262314968878e+00,0.000000000000000e+00
	-4.607775907444219e+00,5.121993497962499e-09
	1.000000000000000e+00,0.000000000000000e+00
	0.000000000000000e+00,0.000000000000000e+00
	4.607775907444219e-04,-5.121993497962500e-13
	4.765550945550318e-22,9.671331309466181e-13
	4.607775912126438e-12,-1.408016225145562e-14
	-4.607775953521978e-04,-4.408536188989125e-13
	-4.607775907444219e-04,5.121993497962498e-13
	-4.765550945550318e-22,-9.671331309466181e-13
	-4.607775907444219e-04,5.121993497962498e-13
31		2.041737944669527e+00,0.000000000000000e+00
	-4.607775907444219e+00,5.241300052972611e-09
	1.000000000000000e+00,0.000000000000000e+00
	0.000000000000000e+00,0.000000000000000e+00
	4.607775907444219e-04,-5.241300052972612e-13
	4.990144442276694e-22,9.896605555002191e-13
	4.607775912126438e-12,-1.440813136209061e-14
	-4.607775953521978e-04,-4.511224188408673e-13
	-4.607775907444219e-04,5.241300052972611e-13
	-4.990144442276694e-22,-9.896605555002191e-13
	-4.607775907444219e-04,5.241300052972611e-13
32		2.089296130854037e+00,0.000000000000000e+00
	-4.607775907444219e+00,5.363385614647619e-09
	1.000000000000000e+00,0.000000000000000e+00
	0.000000000000000e+00,0.000000000000000e+00
	4.607775907444219e-04,-5.363385614647620e-13
	5.225322704405461e-22,1.012712711180053e-12
	4.607775912126438e-12,-1.474373985468779e-14
	-4.607775953521978e-04,-4.616304098606027e-13
	-4.607775907444219e-04,5.363385614647618e-13
	-5.225322704405461e-22,-1.012712711180053e-12
	-4.607775907444219e-04,5.363385614647618e-13
33		2.137962089502230e+00,0.000000000000000e+00
	-4.607775907444219e+00,5.488314914368314e-09
	1.000000000000000e+00,0.000000000000000e+00
	0.000000000000000e+00,0.000000000000000e+00
	4.607775907444219e-04,-5.488314914368315e-13
	5.471584576561490e-22,1.036301820544191e-12
	4.607775912126438e-12,-1.508716567331249e-14
	-4.607775953521978e-04,-4.723831634340471e-13
	-4.607775907444219e-04,5.488314914368314e-13
	-5.471584576561490e-22,-1.036301820544191e-12
	-4.607775907444219e-04,5.488314914368314e-13
34		2.187761623949550e+00,0.000000000000000e+00
	-4.607775907444219e+00,5.616154191303043e-09
	1.000000000000000e+00,0.000000000000000e+00
	0.000000000000000e+00,0.000000000000000e+00
	4.607775907444219e-04,-5.616154191303044e-13
	5.729452413192530e-22,1.060440390850658e-12
	4.607775912126438e-12,-1.543859090687934e-14
	-4.607775953521978e-04,-4.833863808134746e-13
	-4.607775907444219e-04,5.616154191303043e-13
	-5.729452413192530e-22,-1.060440390850658e-12
	-4.607775907444219e-04,5.616154191303043e-13
35		2.238721138568337e+00,0.000000000000000e+00
	-4.607775907444219e+00,5.746971227528591e-09
	1.000000000000000e+00,0.000000000000000e+00
	0.000000000000000e+00,0.000000000000000e+00
	4.607775907444219e-04,-5.746971227528591e-13
	5.999473186553017e-22,1.085141220688943e-12
	4.607775912126438e-12,-1.579820188569893e-14
	-4.607775953521978e-04,-4.946458960503845e-13
	-4.607775907444219e-04,5.746971227528591e-13
	-5.999473186553017e-22,-1.085141220688943e-12
	-4.607775907444219e-04,5.746971227528591e-13
36		2.290867652767770e+00,0.000000000000000e+00
	-4.607775907444219e+00,5.880835383969128e-09
	1.000000000000000e+00,0.000000000000000e+00
	0.000000000000000e+00,0.000000000000000e+00
	4.607775907444219e-04,-5.880835383969130e-13
	6.282219646905562e-22,1.110417406765978e-12
	4.607775912126438e-12,-1.616618928027235e-14
	-4.607775953521978e-04,-5.061676790887928e-13
	-4.607775907444219e-04,5.880835383969129e-13
	-6.282219646905562e-22,-1.110417406765978e-12
	-4.607775907444219e-04,5.880835383969129e-13
37		2.344228815319919e+00,0.000000000000000e+00
	-4.607775907444219e+00,6.017817637172307e-09
	1.000000000000000e+00,0.000000000000000e+00
	0.000000000000000e+00,0.000000000000000e+00
	4.607775907444219e-04,-6.017817637172308e-13
	6.578291537401055e-22,1.136282350850193e-12
	4.607775912126438e-12,-1.654274820238701e-14
	-4.607775953521978e-04,-5.179578389305753e-13
	-4.607775907444219e-04,6.017817637172307e-13
	-6.578291537401055e-22,-1.136282350850193e-12
	-4.607775907444219e-04,6.017817637172307e-13
38		2.398832919019488e+00,0.000000000000000e+00
	-4.607775907444219e+00,6.157990616941947e-09
	1.000000000000000e+00,0.000000000000000e+00
