Title: * GA CMOS Amp | W=7.466334824891058e-06 L=5.720187469822179e-07 Vbias=0.9862539978188704
Date: Mon Sep  8 18:43:08 2025
Plotname: AC Analysis
Flags: complex forward log
No. Variables: 11
No. Points:          901
Offset:    0.0000000000000000e+00
Command: Linear Technology Corporation LTspice
Variables:
	0	frequency	frequency
	1	V(out)	voltage
	2	V(g)	voltage
	3	V(vdd)	voltage
	4	Id(M1)	device_current
	5	Ig(M1)	device_current
	6	Ib(M1)	device_current
	7	Is(M1)	device_current
	8	I(Rload)	device_current
	9	I(Vg)	device_current
	10	I(Vdd)	device_current
Values:
0		1.000000000000000e+00,0.000000000000000e+00
	-2.912237377329170e+00,2.735572647406694e-10
	1.000000000000000e+00,0.000000000000000e+00
	0.000000000000000e+00,0.000000000000000e+00
	2.912237377329170e-04,-2.735572647406695e-14
	2.566643665168338e-24,6.720024662998548e-14
	2.912237400017059e-12,-1.022902004522596e-15
	-2.912237406451544e-04,-3.882161815139594e-14
	-2.912237377329170e-04,2.735572647406694e-14
	-2.566643665168338e-24,-6.720024662998548e-14
	-2.912237377329170e-04,2.735572647406694e-14
1		1.023292992280754e+00,0.000000000000000e+00
	-2.912237377329170e+00,2.799292319966181e-10
	1.000000000000000e+00,0.000000000000000e+00
	0.000000000000000e+00,0.000000000000000e+00
	2.912237377329170e-04,-2.799292319966181e-14
	2.687605854471761e-24,6.876554145600251e-14
	2.912237400017059e-12,-1.046728453017907e-15
	-2.912237406451544e-04,-3.972588980332279e-14
	-2.912237377329170e-04,2.799292319966181e-14
	-2.687605854471761e-24,-6.876554145600251e-14
	-2.912237377329170e-04,2.799292319966181e-14
2		1.047128548050899e+00,0.000000000000000e+00
	-2.912237377329170e+00,2.864496214366727e-10
	1.000000000000000e+00,0.000000000000000e+00
	0.000000000000000e+00,0.000000000000000e+00
	2.912237377329170e-04,-2.864496214366727e-14
	2.814268816126112e-24,7.036729668231903e-14
	2.912237400017059e-12,-1.071109890794089e-15
	-2.912237406451544e-04,-4.065122464785767e-14
	-2.912237377329170e-04,2.864496214366727e-14
	-2.814268816126112e-24,-7.036729668231903e-14
	-2.912237377329170e-04,2.864496214366727e-14
3		1.071519305237606e+00,0.000000000000000e+00
	-2.912237377329170e+00,2.931218902576221e-10
	1.000000000000000e+00,0.000000000000000e+00
	0.000000000000000e+00,0.000000000000000e+00
	2.912237377329170e-04,-2.931218902576220e-14
	2.946901219255059e-24,7.200636158075781e-14
	2.912237400017059e-12,-1.096059245212193e-15
	-2.912237406451544e-04,-4.159811330978342e-14
	-2.912237377329170e-04,2.931218902576220e-14
	-2.946901219255059e-24,-7.200636158075781e-14
	-2.912237377329170e-04,2.931218902576220e-14
4		1.096478196143185e+00,0.000000000000000e+00
	-2.912237377329170e+00,2.999495761847128e-10
	1.000000000000000e+00,0.000000000000000e+00
	0.000000000000000e+00,0.000000000000000e+00
	2.912237377329170e-04,-2.999495761847129e-14
	3.085784394967974e-24,7.368360520522359e-14
	2.912237400017059e-12,-1.121589744750167e-15
	-2.912237406451544e-04,-4.256705784200213e-14
	-2.912237377329170e-04,2.999495761847128e-14
	-3.085784394967974e-24,-7.368360520522359e-14
	-2.912237377329170e-04,2.999495761847128e-14
5		1.122018454301963e+00,0.000000000000000e+00
	-2.912237377329170e+00,3.069362993473989e-10
	1.000000000000000e+00,0.000000000000000e+00
	0.000000000000000e+00,0.000000000000000e+00
	2.912237377329170e-04,-3.069362993473989e-14
	3.231212933100940e-24,7.539991685248702e-14
	2.912237400017059e-12,-1.147714926016833e-15
	-2.912237406451544e-04,-4.355857199173030e-14
	-2.912237377329170e-04,3.069362993473989e-14
	-3.231212933100940e-24,-7.539991685248702e-14
	-2.912237377329170e-04,3.069362993473989e-14
6		1.148153621496882e+00,0.000000000000000e+00
	-2.912237377329170e+00,3.140857641987810e-10
	1.000000000000000e+00,0.000000000000000e+00
	0.000000000000000e+00,0.000000000000000e+00
	2.912237377329170e-04,-3.140857641987811e-14
	3.383495307081275e-24,7.715620653370150e-14
	2.912237400017059e-12,-1.174448640929042e-15
	-2.912237406451544e-04,-4.457318147289435e-14
	-2.912237377329170e-04,3.140857641987810e-14
	-3.383495307081275e-24,-7.715620653370150e-14
	-2.912237377329170e-04,3.140857641987810e-14
7		1.174897554939529e+00,0.000000000000000e+00
	-2.912237377329170e+00,3.214017614797580e-10
	1.000000000000000e+00,0.000000000000000e+00
	0.000000000000000e+00,0.000000000000000e+00
	2.912237377329170e-04,-3.214017614797580e-14
	3.542954528241047e-24,7.895340545690327e-14
	2.912237400017059e-12,-1.201805064056345e-15
	-2.912237406451544e-04,-4.561142424487112e-14
	-2.912237377329170e-04,3.214017614797580e-14
	-3.542954528241047e-24,-7.895340545690327e-14
	-2.912237377329170e-04,3.214017614797580e-14
8		1.202264434617413e+00,0.000000000000000e+00
	-2.912237377329170e+00,3.288881702289268e-10
	1.000000000000000e+00,0.000000000000000e+00
	0.000000000000000e+00,0.000000000000000e+00
	2.912237377329170e-04,-3.288881702289268e-14
	3.709928830967408e-24,8.079246652075018e-14
	2.912237400017059e-12,-1.229798700136384e-15
	-2.912237406451544e-04,-4.667385079772111e-14
	-2.912237377329170e-04,3.288881702289268e-14
	-3.709928830967408e-24,-8.079246652075018e-14
	-2.912237377329170e-04,3.288881702289268e-14
9		1.230268770812381e+00,0.000000000000000e+00
	-2.912237377329170e+00,3.365489598393005e-10
	1.000000000000000e+00,0.000000000000000e+00
	0.000000000000000e+00,0.000000000000000e+00
	2.912237377329170e-04,-3.365489598393006e-14
	3.884772390143073e-24,8.267436481976109e-14
	2.912237400017059e-12,-1.258444391765531e-15
	-2.912237406451544e-04,-4.776102444406550e-14
	-2.912237377329170e-04,3.365489598393005e-14
	-3.884772390143073e-24,-8.267436481976109e-14
	-2.912237377329170e-04,3.365489598393005e-14
10		1.258925411794167e+00,0.000000000000000e+00
	-2.912237377329170e+00,3.443881921629332e-10
	1.000000000000000e+00,0.000000000000000e+00
	0.000000000000000e+00,0.000000000000000e+00
	2.912237377329170e-04,-3.443881921629332e-14
	4.067856072398738e-24,8.460009816132403e-14
	2.912237400017059e-12,-1.287757327268678e-15
	-2.912237406451544e-04,-4.887352161776203e-14
	-2.912237377329170e-04,3.443881921629332e-14
	-4.067856072398738e-24,-8.460009816132403e-14
	-2.912237377329170e-04,3.443881921629332e-14
11		1.288249551693134e+00,0.000000000000000e+00
	-2.912237377329170e+00,3.524100236645674e-10
	1.000000000000000e+00,0.000000000000000e+00
	0.000000000000000e+00,0.000000000000000e+00
	2.912237377329170e-04,-3.524100236645673e-14
	4.259568222770928e-24,8.657068759474681e-14
	2.912237400017059e-12,-1.317753048752237e-15
	-2.912237406451544e-04,-5.001193217953784e-14
	-2.912237377329170e-04,3.524100236645674e-14
	-4.259568222770928e-24,-8.657068759474681e-14
	-2.912237377329170e-04,3.524100236645674e-14
12		1.318256738556407e+00,0.000000000000000e+00
	-2.912237377329170e+00,3.606187076254464e-10
	1.000000000000000e+00,0.000000000000000e+00
	0.000000000000000e+00,0.000000000000000e+00
	2.912237377329170e-04,-3.606187076254465e-14
	4.460315488433871e-24,8.858717795263083e-14
	2.912237400017059e-12,-1.348447460344777e-15
	-2.912237406451544e-04,-5.117685972974140e-14
	-2.912237377329170e-04,3.606187076254464e-14
	-4.460315488433871e-24,-8.858717795263083e-14
	-2.912237377329170e-04,3.606187076254464e-14
13		1.348962882591653e+00,0.000000000000000e+00
	-2.912237377329170e+00,3.690185963984615e-10
	1.000000000000000e+00,0.000000000000000e+00
	0.000000000000000e+00,0.000000000000000e+00
	2.912237377329170e-04,-3.690185963984615e-14
	4.670523681252698e-24,9.065063840485525e-14
	2.912237400017059e-12,-1.379856836629592e-15
	-2.912237406451544e-04,-5.236892192837951e-14
	-2.912237377329170e-04,3.690185963984615e-14
	-4.670523681252698e-24,-9.065063840485525e-14
	-2.912237377329170e-04,3.690185963984615e-14
14		1.380384264602885e+00,0.000000000000000e+00
	-2.912237377329170e+00,3.776141437158256e-10
	1.000000000000000e+00,0.000000000000000e+00
	0.000000000000000e+00,0.000000000000000e+00
	2.912237377329170e-04,-3.776141437158256e-14
	4.890638680987481e-24,9.276216302546498e-14
	2.912237400017059e-12,-1.411997831273744e-15
	-2.912237406451544e-04,-5.358875082260868e-14
	-2.912237377329170e-04,3.776141437158257e-14
	-4.890638680987481e-24,-9.276216302546498e-14
	-2.912237377329170e-04,3.776141437158257e-14
15		1.412537544622754e+00,0.000000000000000e+00
	-2.912237377329170e+00,3.864099070505019e-10
	1.000000000000000e+00,0.000000000000000e+00
	0.000000000000000e+00,0.000000000000000e+00
	2.912237377329170e-04,-3.864099070505019e-14
	5.121127381063987e-24,9.492287137276319e-14
	2.912237400017059e-12,-1.444887485858039e-15
	-2.912237406451544e-04,-5.483699318185496e-14
	-2.912237377329170e-04,3.864099070505019e-14
	-5.121127381063987e-24,-9.492287137276319e-14
	-2.912237377329170e-04,3.864099070505019e-14
16		1.445439770745927e+00,0.000000000000000e+00
	-2.912237377329170e+00,3.954105500326361e-10
	1.000000000000000e+00,0.000000000000000e+00
	0.000000000000000e+00,0.000000000000000e+00
	2.912237377329170e-04,-3.954105500326361e-14
	5.362478678917235e-24,9.713390908291595e-14
	2.912237400017059e-12,-1.478543238912685e-15
	-2.912237406451544e-04,-5.611431084073966e-14
	-2.912237377329170e-04,3.954105500326361e-14
	-5.362478678917235e-24,-9.713390908291595e-14
	-2.912237377329170e-04,3.954105500326361e-14
17		1.479108388168207e+00,0.000000000000000e+00
	-2.912237377329170e+00,4.046208449222749e-10
	1.000000000000000e+00,0.000000000000000e+00
	0.000000000000000e+00,0.000000000000000e+00
	2.912237377329170e-04,-4.046208449222750e-14
	5.615204513008510e-24,9.939644847738378e-14
	2.912237400017059e-12,-1.512982935163438e-15
	-2.912237406451544e-04,-5.742138104999284e-14
	-2.912237377329170e-04,4.046208449222750e-14
	-5.615204513008510e-24,-9.939644847738378e-14
	-2.912237377329170e-04,4.046208449222750e-14
18		1.513561248436208e+00,0.000000000000000e+00
	-2.912237377329170e+00,4.140456751396817e-10
	1.000000000000000e+00,0.000000000000000e+00
	0.000000000000000e+00,0.000000000000000e+00
	2.912237377329170e-04,-4.140456751396818e-14
	5.879840948715460e-24,1.017116891845019e-13
	2.912237400017059e-12,-1.548224834993120e-15
	-2.912237406451544e-04,-5.875889683554056e-14
	-2.912237377329170e-04,4.140456751396818e-14
	-5.879840948715460e-24,-1.017116891845019e-13
	-2.912237377329170e-04,4.140456751396818e-14
19		1.548816618912481e+00,0.000000000000000e+00
	-2.912237377329170e+00,4.236900378545900e-10
	1.000000000000000e+00,0.000000000000000e+00
	0.000000000000000e+00,0.000000000000000e+00
	2.912237377329170e-04,-4.236900378545899e-14
	6.156949315398643e-24,1.040808587755389e-13
	2.912237400017059e-12,-1.584287624123482e-15
	-2.912237406451544e-04,-6.012756736595644e-14
	-2.912237377329170e-04,4.236900378545900e-14
	-6.156949315398643e-24,-1.040808587755389e-13
	-2.912237377329170e-04,4.236900378545900e-14
20		1.584893192461113e+00,0.000000000000000e+00
	-2.912237377329170e+00,4.335590466357693e-10
	1.000000000000000e+00,0.000000000000000e+00
	0.000000000000000e+00,0.000000000000000e+00
	2.912237377329170e-04,-4.335590466357694e-14
	6.447117397056360e-24,1.065052134155718e-13
	2.912237400017059e-12,-1.621190423522694e-15
	-2.912237406451544e-04,-6.152811832847218e-14
	-2.912237377329170e-04,4.335590466357694e-14
	-6.447117397056360e-24,-1.065052134155718e-13
	-2.912237377329170e-04,4.335590466357694e-14
21		1.621810097358929e+00,0.000000000000000e+00
	-2.912237377329170e+00,4.436579341623075e-10
	1.000000000000000e+00,0.000000000000000e+00
	0.000000000000000e+00,0.000000000000000e+00
	2.912237377329170e-04,-4.436579341623074e-14
	6.750960679093323e-24,1.089860385295208e-13
	2.912237400017059e-12,-1.658952799543434e-15
	-2.912237406451544e-04,-6.296129231374662e-14
	-2.912237377329170e-04,4.436579341623075e-14
	-6.750960679093323e-24,-1.089860385295208e-13
	-2.912237377329170e-04,4.436579341623075e-14
22		1.659586907437560e+00,0.000000000000000e+00
	-2.912237377329170e+00,4.539920549980454e-10
	1.000000000000000e+00,0.000000000000000e+00
	0.000000000000000e+00,0.000000000000000e+00
	2.912237377329170e-04,-4.539920549980455e-14
	7.069123653847705e-24,1.115246494836989e-13
	2.912237400017059e-12,-1.697594774297321e-15
	-2.912237406451544e-04,-6.442784920959702e-14
	-2.912237377329170e-04,4.539920549980455e-14
	-7.069123653847705e-24,-1.115246494836989e-13
	-2.912237377329170e-04,4.539920549980455e-14
23		1.698243652461743e+00,0.000000000000000e+00
	-2.912237377329170e+00,4.645668884306386e-10
	1.000000000000000e+00,0.000000000000000e+00
	0.000000000000000e+00,0.000000000000000e+00
	2.912237377329170e-04,-4.645668884306387e-14
	7.402281187645817e-24,1.141223922832365e-13
	2.912237400017059e-12,-1.737136836270876e-15
	-2.912237406451544e-04,-6.592856660390176e-14
	-2.912237377329170e-04,4.645668884306386e-14
	-7.402281187645817e-24,-1.141223922832365e-13
	-2.912237377329170e-04,4.645668884306386e-14
24		1.737800828749374e+00,0.000000000000000e+00
	-2.912237377329170e+00,4.753880413767473e-10
	1.000000000000000e+00,0.000000000000000e+00
	0.000000000000000e+00,0.000000000000000e+00
	2.912237377329170e-04,-4.753880413767475e-14
	7.751139952284050e-24,1.167806442857511e-13
	2.912237400017059e-12,-1.777599951188755e-15
	-2.912237406451544e-04,-6.746424019688761e-14
	-2.912237377329170e-04,4.753880413767474e-14
	-7.751139952284050e-24,-1.167806442857511e-13
	-2.912237377329170e-04,4.753880413767474e-14
25		1.778279410038922e+00,0.000000000000000e+00
	-2.912237377329170e+00,4.864612513548989e-10
	1.000000000000000e+00,0.000000000000000e+00
	0.000000000000000e+00,0.000000000000000e+00
	2.912237377329170e-04,-4.864612513548989e-14
	8.116439923974519e-24,1.195008149316406e-13
	2.912237400017059e-12,-1.819005573130048e-15
	-2.912237406451544e-04,-6.903568422302067e-14
	-2.912237377329170e-04,4.864612513548989e-14
	-8.116439923974519e-24,-1.195008149316406e-13
	-2.912237377329170e-04,4.864612513548989e-14
26		1.819700858609982e+00,0.000000000000000e+00
	-2.912237377329170e+00,4.977923895275944e-10
	1.000000000000000e+00,0.000000000000000e+00
	0.000000000000000e+00,0.000000000000000e+00
	2.912237377329170e-04,-4.977923895275943e-14
	8.498955952933785e-24,1.222843464913871e-13
	2.912237400017059e-12,-1.861375655903628e-15
	-2.912237406451544e-04,-7.064373188272405e-14
	-2.912237377329170e-04,4.977923895275944e-14
	-8.498955952933785e-24,-1.222843464913871e-13
	-2.912237377329170e-04,4.977923895275944e-14
27		1.862087136662866e+00,0.000000000000000e+00
	-2.912237377329170e+00,5.093874638142788e-10
	1.000000000000000e+00,0.000000000000000e+00
	0.000000000000000e+00,0.000000000000000e+00
	2.912237377329170e-04,-5.093874638142787e-14
	8.899499406944104e-24,1.251327148302681e-13
	2.912237400017059e-12,-1.904732664688194e-15
	-2.912237406451544e-04,-7.228923578415200e-14
	-2.912237377329170e-04,5.093874638142788e-14
	-8.899499406944104e-24,-1.251327148302681e-13
	-2.912237377329170e-04,5.093874638142788e-14
28		1.905460717963246e+00,0.000000000000000e+00
	-2.912237377329170e+00,5.212526220768176e-10
	1.000000000000000e+00,0.000000000000000e+00
	0.000000000000000e+00,0.000000000000000e+00
	2.912237377329170e-04,-5.212526220768177e-14
	9.318919892373220e-24,1.280474301908793e-13
	2.912237400017059e-12,-1.949099587943680e-15
	-2.912237406451544e-04,-7.397306839525386e-14
	-2.912237377329170e-04,5.212526220768176e-14
	-9.318919892373220e-24,-1.280474301908793e-13
	-2.912237377329170e-04,5.212526220768176e-14
29		1.949844599758044e+00,0.000000000000000e+00
	-2.912237377329170e+00,5.333941553791758e-10
	1.000000000000000e+00,0.000000000000000e+00
	0.000000000000000e+00,0.000000000000000e+00
	2.912237377329170e-04,-5.333941553791759e-14
	9.758107056303415e-24,1.310300379938859e-13
	2.912237400017059e-12,-1.994499949600053e-15
	-2.912237406451544e-04,-7.569612250636822e-14
	-2.912237377329170e-04,5.333941553791759e-14
	-9.758107056303415e-24,-1.310300379938859e-13
	-2.912237377329170e-04,5.333941553791759e-14
30		1.995262314968878e+00,0.000000000000000e+00
	-2.912237377329170e+00,5.458185013230223e-10
	1.000000000000000e+00,0.000000000000000e+00
	0.000000000000000e+00,0.000000000000000e+00
	2.912237377329170e-04,-5.458185013230222e-14
	1.021799247359223e-23,1.340821196574243e-13
	2.912237400017059e-12,-2.040957821530041e-15
	-2.912237406451544e-04,-7.745931170359207e-14
	-2.912237377329170e-04,5.458185013230223e-14
	-1.021799247359223e-23,-1.340821196574243e-13
	-2.912237377329170e-04,5.458185013230223e-14
31		2.041737944669527e+00,0.000000000000000e+00
	-2.912237377329170e+00,5.585322474610321e-10
	1.000000000000000e+00,0.000000000000000e+00
	0.000000000000000e+00,0.000000000000000e+00
	2.912237377329170e-04,-5.585322474610322e-14
	1.069955162286765e-23,1.372052934355919e-13
	2.912237400017059e-12,-2.088497836312289e-15
	-2.912237406451544e-04,-7.926357085317635e-14
	-2.912237377329170e-04,5.585322474610321e-14
	-1.069955162286765e-23,-1.372052934355919e-13
	-2.912237377329170e-04,5.585322474610321e-14
32		2.089296130854037e+00,0.000000000000000e+00
	-2.912237377329170e+00,5.715421347896943e-10
	1.000000000000000e+00,0.000000000000000e+00
	0.000000000000000e+00,0.000000000000000e+00
	2.912237377329170e-04,-5.715421347896944e-14
	1.120380595564905e-23,1.404012152764657e-13
	2.912237400017059e-12,-2.137145200291892e-15
	-2.912237406451544e-04,-8.110985659720440e-14
	-2.912237377329170e-04,5.715421347896943e-14
	-1.120380595564905e-23,-1.404012152764657e-13
	-2.912237377329170e-04,5.715421347896943e-14
33		2.137962089502230e+00,0.000000000000000e+00
	-2.912237377329170e+00,5.848550613234764e-10
	1.000000000000000e+00,0.000000000000000e+00
	0.000000000000000e+00,0.000000000000000e+00
	2.912237377329170e-04,-5.848550613234762e-14
	1.173182506298281e-23,1.436715797001089e-13
	2.912237400017059e-12,-2.186925706945153e-15
	-2.912237406451544e-04,-8.299914786081616e-14
	-2.912237377329170e-04,5.848550613234764e-14
	-1.173182506298281e-23,-1.436715797001089e-13
	-2.912237377329170e-04,5.848550613234764e-14
34		2.187761623949550e+00,0.000000000000000e+00
	-2.912237377329170e+00,5.984780857522440e-10
	1.000000000000000e+00,0.000000000000000e+00
	0.000000000000000e+00,0.000000000000000e+00
	2.912237377329170e-04,-5.984780857522441e-14
	1.228472894418834e-23,1.470181206970273e-13
	2.912237400017059e-12,-2.237865750555610e-15
	-2.912237406451544e-04,-8.493244637124731e-14
	-2.912237377329170e-04,5.984780857522441e-14
	-1.228472894418834e-23,-1.470181206970273e-13
	-2.912237377329170e-04,5.984780857522441e-14
35		2.238721138568337e+00,0.000000000000000e+00
	-2.912237377329170e+00,6.124184311838715e-10
	1.000000000000000e+00,0.000000000000000e+00
	0.000000000000000e+00,0.000000000000000e+00
	2.912237377329170e-04,-6.124184311838717e-14
	1.286369038252680e-23,1.504426126475542e-13
	2.912237400017059e-12,-2.289992340208645e-15
	-2.912237406451544e-04,-8.691077718895834e-14
	-2.912237377329170e-04,6.124184311838716e-14
	-1.286369038252680e-23,-1.504426126475542e-13
	-2.912237377329170e-04,6.124184311838716e-14
36		2.290867652767770e+00,0.000000000000000e+00
	-2.912237377329170e+00,6.266834889740291e-10
	1.000000000000000e+00,0.000000000000000e+00
	0.000000000000000e+00,0.000000000000000e+00
	2.912237377329170e-04,-6.266834889740291e-14
	1.346993743283160e-23,1.539468712626501e-13
	2.912237400017059e-12,-2.343333114112092e-15
	-2.912237406451544e-04,-8.893518925113509e-14
	-2.912237377329170e-04,6.266834889740291e-14
	-1.346993743283160e-23,-1.539468712626501e-13
	-2.912237377329170e-04,6.266834889740291e-14
37		2.344228815319919e+00,0.000000000000000e+00
	-2.912237377329170e+00,6.412808226451770e-10
	1.000000000000000e+00,0.000000000000000e+00
	0.000000000000000e+00,0.000000000000000e+00
	2.912237377329170e-04,-6.412808226451773e-14
	1.410475602637741e-23,1.575327545466173e-13
	2.912237400017059e-12,-2.397916354250375e-15
	-2.912237406451544e-04,-9.100675592784918e-14
	-2.912237377329170e-04,6.412808226451770e-14
	-1.410475602637741e-23,-1.575327545466173e-13
	-2.912237377329170e-04,6.412808226451770e-14
38		2.398832919019488e+00,0.000000000000000e+00
	-2.912237377329170e+00,6.562181718968469e-10
	1.000000000000000e+00,0.000000000000000e+00
