Title: * GA CMOS Amp | W=7.509813122494624e-06 L=2.3132077529724868e-07 Vbias=1.294458970783388
Date: Sat Sep  6 22:02:49 2025
Plotname: AC Analysis
Flags: complex forward log
No. Variables: 13
No. Points:          901
Offset:    0.0000000000000000e+00
Command: Linear Technology Corporation LTspice
Variables:
	0	frequency	frequency
	1	V(out)	voltage
	2	V(g)	voltage
	3	V(vdd)	voltage
	4	V(m1#dbody)	voltage
	5	V(m1#sbody)	voltage
	6	Id(M1)	device_current
	7	Ig(M1)	device_current
	8	Ib(M1)	device_current
	9	Is(M1)	device_current
	10	I(Rload)	device_current
	11	I(Vg)	device_current
	12	I(Vdd)	device_current
Values:
0		1.000000000000000e+00,0.000000000000000e+00
	1.756540143419739e-03,8.498407759083877e-11
	1.000000000000000e+00,0.000000000000000e+00
	0.000000000000000e+00,0.000000000000000e+00
	8.757129009815501e-06,8.189718237358848e-15
	8.757128996157331e-06,7.883945792603720e-15
	-1.756540143419744e-07,-8.498407759083897e-15
	6.844079321275479e-06,4.883283624423217e-13
	-4.670468802391084e-06,-4.226147626358173e-15
	-1.997956504542420e-06,-4.756038070568796e-13
	1.756540143419739e-07,8.498407759083878e-15
	-6.844079321277619e-06,-4.883283624423216e-13
	1.756540143419739e-07,8.498407759083878e-15
1		1.023292992280754e+00,0.000000000000000e+00
	1.756540143419739e-03,8.696361105414922e-11
	1.000000000000000e+00,0.000000000000000e+00
	0.000000000000000e+00,0.000000000000000e+00
	8.757129009815501e-06,8.380481281043197e-15
	8.757128996157331e-06,8.067586481092722e-15
	-1.756540143419744e-07,-8.696361105414860e-15
	6.844079321275479e-06,4.997029912191641e-13
	-4.670468802391084e-06,-4.324587250396261e-15
	-1.997956504542420e-06,-4.866820428633529e-13
	1.756540143419739e-07,8.696361105414922e-15
	-6.844079321277619e-06,-4.997029912191640e-13
	1.756540143419739e-07,8.696361105414922e-15
2		1.047128548050899e+00,0.000000000000000e+00
	1.756540143419739e-03,8.898925377514000e-11
	1.000000000000000e+00,0.000000000000000e+00
	0.000000000000000e+00,0.000000000000000e+00
	8.757129009815501e-06,8.575687766831542e-15
	8.757128996157331e-06,8.255504710721132e-15
	-1.756540143419744e-07,-8.898925377514021e-15
	6.844079321275479e-06,5.113425691363017e-13
	-4.670468802391084e-06,-4.425319827837188e-15
	-1.997956504542420e-06,-4.980183239309505e-13
	1.756540143419739e-07,8.898925377514001e-15
	-6.844079321277619e-06,-5.113425691363016e-13
	1.756540143419739e-07,8.898925377514001e-15
3		1.071519305237606e+00,0.000000000000000e+00
	1.756540143419739e-03,9.106207977639441e-11
	1.000000000000000e+00,0.000000000000000e+00
	0.000000000000000e+00,0.000000000000000e+00
	8.757129009815501e-06,8.775441195786505e-15
	8.757128996157331e-06,8.447800118221688e-15
	-1.756540143419744e-07,-9.106207977639390e-15
	6.844079321275479e-06,5.232532676520145e-13
	-4.670468802391084e-06,-4.528398768426868e-15
	-1.997956504542420e-06,-5.096186609059482e-13
	1.756540143419739e-07,9.106207977639441e-15
	-6.844079321277619e-06,-5.232532676520145e-13
	1.756540143419739e-07,9.106207977639441e-15
4		1.096478196143185e+00,0.000000000000000e+00
	1.756540143419739e-03,9.318318809769534e-11
	1.000000000000000e+00,0.000000000000000e+00
	0.000000000000000e+00,0.000000000000000e+00
	8.757129009815501e-06,8.979847479820169e-15
	8.757128996157331e-06,8.644574661164778e-15
	-1.756540143419744e-07,-9.318318809769548e-15
	6.844079321275479e-06,5.354414019763121e-13
	-4.670468802391084e-06,-4.633878725984011e-15
	-1.997956504542420e-06,-5.214892044405585e-13
	1.756540143419739e-07,9.318318809769534e-15
	-6.844079321277619e-06,-5.354414019763120e-13
	1.756540143419739e-07,9.318318809769534e-15
5		1.122018454301963e+00,0.000000000000000e+00
	1.756540143419739e-03,9.535370337875106e-11
	1.000000000000000e+00,0.000000000000000e+00
	0.000000000000000e+00,0.000000000000000e+00
	8.757129009815501e-06,9.189014997849973e-15
	8.757128996157331e-06,8.845932672017695e-15
	-1.756540143419744e-07,-9.535370337874998e-15
	6.844079321275479e-06,5.479134344193425e-13
	-4.670468802391084e-06,-4.741815627378308e-15
	-1.997956504542420e-06,-5.336362484540892e-13
	1.756540143419739e-07,9.535370337875107e-15
	-6.844079321277619e-06,-5.479134344193425e-13
	1.756540143419739e-07,9.535370337875107e-15
6		1.148153621496882e+00,0.000000000000000e+00
	1.756540143419739e-03,9.757477645549359e-11
	1.000000000000000e+00,0.000000000000000e+00
	0.000000000000000e+00,0.000000000000000e+00
	8.757129009815501e-06,9.403054653262623e-15
	8.757128996157331e-06,9.051980913463069e-15
	-1.756540143419744e-07,-9.757477645549435e-15
	6.844079321275479e-06,5.606759778177939e-13
	-4.670468802391084e-06,-4.852266702183588e-15
	-1.997956504542420e-06,-5.460662334700608e-13
	1.756540143419739e-07,9.757477645549359e-15
	-6.844079321277619e-06,-5.606759778177937e-13
	1.756540143419739e-07,9.757477645549359e-15
7		1.174897554939529e+00,0.000000000000000e+00
	1.756540143419739e-03,9.984758497026773e-11
	1.000000000000000e+00,0.000000000000000e+00
	0.000000000000000e+00,0.000000000000000e+00
	8.757129009815501e-06,9.622079932716582e-15
	8.757128996157331e-06,9.262828635005900e-15
	-1.756540143419744e-07,-9.984758497026736e-15
	6.844079321275479e-06,5.737357990411079e-13
	-4.670468802391084e-06,-4.965290513021713e-15
	-1.997956504542420e-06,-5.587857500310595e-13
	1.756540143419739e-07,9.984758497026774e-15
	-6.844079321277619e-06,-5.737357990411078e-13
	1.756540143419739e-07,9.984758497026774e-15
8		1.202264434617413e+00,0.000000000000000e+00
	1.756540143419739e-03,1.021733339962321e-10
	1.000000000000000e+00,0.000000000000000e+00
	0.000000000000000e+00,0.000000000000000e+00
	8.757129009815501e-06,9.846206966314144e-15
	8.757128996157331e-06,9.478587630899039e-15
	-1.756540143419744e-07,-1.021733339962320e-14
	6.844079321275479e-06,5.870998225793648e-13
	-4.670468802391084e-06,-5.080946986613227e-15
	-1.997956504542420e-06,-5.718015421931284e-13
	1.756540143419739e-07,1.021733339962321e-14
	-6.844079321277619e-06,-5.870998225793647e-13
	1.756540143419739e-07,1.021733339962321e-14
9		1.230268770812381e+00,0.000000000000000e+00
	1.756540143419739e-03,1.045532566763053e-10
	1.000000000000000e+00,0.000000000000000e+00
	0.000000000000000e+00,0.000000000000000e+00
	8.757129009815501e-06,1.007555458917521e-14
	8.757128996157331e-06,9.699372299418024e-15
	-1.756540143419744e-07,-1.045532566763054e-14
	6.844079321275479e-06,6.007751342147381e-13
	-4.670468802391084e-06,-5.199297445551331e-15
	-1.997956504542420e-06,-5.851205111015562e-13
	1.756540143419739e-07,1.045532566763053e-14
	-6.844079321277619e-06,-6.007751342147379e-13
	1.756540143419739e-07,1.045532566763053e-14
10		1.258925411794167e+00,0.000000000000000e+00
	1.756540143419739e-03,1.069886148769941e-10
	1.000000000000000e+00,0.000000000000000e+00
	0.000000000000000e+00,0.000000000000000e+00
	8.757129009815501e-06,1.031024440444519e-14
	8.757128996157331e-06,9.925299703516530e-15
	-1.756540143419744e-07,-1.069886148769945e-14
	6.844079321275479e-06,6.147689847784710e-13
	-4.670468802391084e-06,-5.320404640815903e-15
	-1.997956504542420e-06,-5.987497186499557e-13
	1.756540143419739e-07,1.069886148769941e-14
	-6.844079321277619e-06,-6.147689847784708e-13
	1.756540143419739e-07,1.069886148769941e-14
11		1.288249551693134e+00,0.000000000000000e+00
	1.756540143419739e-03,1.094806998574526e-10
	1.000000000000000e+00,0.000000000000000e+00
	0.000000000000000e+00,0.000000000000000e+00
	8.757129009815501e-06,1.055040084777062e-14
	8.757128996157331e-06,1.015648963289471e-14
	-1.756540143419744e-07,-1.094806998574525e-14
	6.844079321275479e-06,6.290887939953631e-13
	-4.670468802391084e-06,-5.444332785044916e-15
	-1.997956504542420e-06,-6.126963912245729e-13
	1.756540143419739e-07,1.094806998574526e-14
	-6.844079321277619e-06,-6.290887939953629e-13
	1.756540143419739e-07,1.094806998574526e-14
12		1.318256738556407e+00,0.000000000000000e+00
	1.756540143419739e-03,1.120308329541238e-10
	1.000000000000000e+00,0.000000000000000e+00
	0.000000000000000e+00,0.000000000000000e+00
	8.757129009815501e-06,1.079615125327660e-14
	8.757128996157331e-06,1.039306466751329e-14
	-1.756540143419744e-07,-1.120308329541233e-14
	6.844079321275479e-06,6.437421544178058e-13
	-4.670468802391084e-06,-5.571147586580823e-15
	-1.997956504542420e-06,-6.269679235358127e-13
	1.756540143419739e-07,1.120308329541238e-14
	-6.844079321277619e-06,-6.437421544178057e-13
	1.756540143419739e-07,1.120308329541238e-14
13		1.348962882591653e+00,0.000000000000000e+00
	1.756540143419739e-03,1.146403662813306e-10
	1.000000000000000e+00,0.000000000000000e+00
	0.000000000000000e+00,0.000000000000000e+00
	8.757129009815501e-06,1.104762592108102e-14
	8.757128996157331e-06,1.063515024258705e-14
	-1.756540143419744e-07,-1.146403662813310e-14
	6.844079321275479e-06,6.587368354514558e-13
	-4.670468802391084e-06,-5.700916284309994e-15
	-1.997956504542420e-06,-6.415718825390127e-13
	1.756540143419739e-07,1.146403662813306e-14
	-6.844079321277619e-06,-6.587368354514557e-13
	1.756540143419739e-07,1.146403662813306e-14
14		1.380384264602885e+00,0.000000000000000e+00
	1.756540143419739e-03,1.173106834481845e-10
	1.000000000000000e+00,0.000000000000000e+00
	0.000000000000000e+00,0.000000000000000e+00
	8.757129009815501e-06,1.130495818638143e-14
	8.757128996157331e-06,1.088287471509230e-14
	-1.756540143419744e-07,-1.173106834481847e-14
	6.844079321275479e-06,6.740807874746752e-13
	-4.670468802391084e-06,-5.833707683313654e-15
	-1.997956504542420e-06,-6.565160114465430e-13
	1.756540143419739e-07,1.173106834481845e-14
	-6.844079321277619e-06,-6.740807874746749e-13
	1.756540143419739e-07,1.173106834481845e-14
15		1.412537544622754e+00,0.000000000000000e+00
	1.756540143419739e-03,1.200432002921930e-10
	1.000000000000000e+00,0.000000000000000e+00
	0.000000000000000e+00,0.000000000000000e+00
	8.757129009815501e-06,1.156828449015106e-14
	8.757128996157331e-06,1.113636943182335e-14
	-1.756540143419744e-07,-1.200432002921929e-14
	6.844079321275479e-06,6.897821460539275e-13
	-4.670468802391084e-06,-5.969592191349252e-15
	-1.997956504542420e-06,-6.718082338333589e-13
	1.756540143419739e-07,1.200432002921930e-14
	-6.844079321277619e-06,-6.897821460539273e-13
	1.756540143419739e-07,1.200432002921930e-14
16		1.445439770745927e+00,0.000000000000000e+00
	1.756540143419739e-03,1.228393656299561e-10
	1.000000000000000e+00,0.000000000000000e+00
	0.000000000000000e+00,0.000000000000000e+00
	8.757129009815501e-06,1.183774445148171e-14
	8.757128996157331e-06,1.139576879903444e-14
	-1.756540143419744e-07,-1.228393656299564e-14
	6.844079321275479e-06,7.058492362573633e-13
	-4.670468802391084e-06,-6.108641856181601e-15
	-1.997956504542420e-06,-6.874566578381860e-13
	1.756540143419739e-07,1.228393656299561e-14
	-6.844079321277619e-06,-7.058492362573633e-13
	1.756540143419739e-07,1.228393656299561e-14
17		1.479108388168207e+00,0.000000000000000e+00
	1.756540143419739e-03,1.257006620253474e-10
	1.000000000000000e+00,0.000000000000000e+00
	0.000000000000000e+00,0.000000000000000e+00
	8.757129009815501e-06,1.211348094161161e-14
	8.757128996157331e-06,1.166121035370360e-14
	-1.756540143419744e-07,-1.257006620253474e-14
	6.844079321275479e-06,7.222905770688824e-13
	-4.670468802391084e-06,-6.250930403783529e-15
	-1.997956504542420e-06,-7.034695804625641e-13
	1.756540143419739e-07,1.257006620253474e-14
	-6.844079321277619e-06,-7.222905770688821e-13
	1.756540143419739e-07,1.257006620253474e-14
18		1.513561248436208e+00,0.000000000000000e+00
	1.756540143419739e-03,1.286286065755895e-10
	1.000000000000000e+00,0.000000000000000e+00
	0.000000000000000e+00,0.000000000000000e+00
	8.757129009815501e-06,1.239564015967763e-14
	8.757128996157331e-06,1.193283483645667e-14
	-1.756540143419744e-07,-1.286286065755893e-14
	6.844079321275479e-06,7.391148859050093e-13
	-4.670468802391084e-06,-6.396533277426389e-15
	-1.997956504542420e-06,-7.198554919700240e-13
	1.756540143419739e-07,1.286286065755895e-14
	-6.844079321277619e-06,-7.391148859050091e-13
	1.756540143419739e-07,1.286286065755895e-14
19		1.548816618912481e+00,0.000000000000000e+00
	1.756540143419739e-03,1.316247517156389e-10
	1.000000000000000e+00,0.000000000000000e+00
	0.000000000000000e+00,0.000000000000000e+00
	8.757129009815501e-06,1.268437171023201e-14
	8.757128996157331e-06,1.221078626618977e-14
	-1.756540143419744e-07,-1.316247517156387e-14
	6.844079321275479e-06,7.563310832369852e-13
	-4.670468802391084e-06,-6.545527677681069e-15
	-1.997956504542420e-06,-7.366230803877403e-13
	1.756540143419739e-07,1.316247517156389e-14
	-6.844079321277619e-06,-7.563310832369850e-13
	1.756540143419739e-07,1.316247517156389e-14
20		1.584893192461113e+00,0.000000000000000e+00
	1.756540143419739e-03,1.346906860413074e-10
	1.000000000000000e+00,0.000000000000000e+00
	0.000000000000000e+00,0.000000000000000e+00
	8.757129009815501e-06,1.297982868256466e-14
	8.757128996157331e-06,1.249521201643007e-14
	-1.756540143419744e-07,-1.346906860413072e-14
	6.844079321275479e-06,7.739482973205184e-13
	-4.670468802391084e-06,-6.697992603350757e-15
	-1.997956504542420e-06,-7.537812361130370e-13
	1.756540143419739e-07,1.346906860413074e-14
	-6.844079321277619e-06,-7.739482973205183e-13
	1.756540143419739e-07,1.346906860413074e-14
21		1.621810097358929e+00,0.000000000000000e+00
	1.756540143419739e-03,1.378280351515570e-10
	1.000000000000000e+00,0.000000000000000e+00
	0.000000000000000e+00,0.000000000000000e+00
	8.757129009815501e-06,1.328216773187315e-14
	8.757128996157331e-06,1.278626289347516e-14
	-1.756540143419744e-07,-1.378280351515578e-14
	6.844079321275479e-06,7.919758690357082e-13
	-4.670468802391084e-06,-6.854008893357155e-15
	-1.997956504542420e-06,-7.713390566271953e-13
	1.756540143419739e-07,1.378280351515570e-14
	-6.844079321277619e-06,-7.919758690357081e-13
	1.756540143419739e-07,1.378280351515570e-14
22		1.659586907437560e+00,0.000000000000000e+00
	1.756540143419739e-03,1.410384625104138e-10
	1.000000000000000e+00,0.000000000000000e+00
	0.000000000000000e+00,0.000000000000000e+00
	8.757129009815501e-06,1.359154916232335e-14
	8.757128996157331e-06,1.308409321635257e-14
	-1.756540143419744e-07,-1.410384625104138e-14
	6.844079321275479e-06,8.104233568397004e-13
	-4.670468802391084e-06,-7.013659269602343e-15
	-1.997956504542420e-06,-7.893058513190567e-13
	1.756540143419739e-07,1.410384625104138e-14
	-6.844079321277619e-06,-8.104233568397004e-13
	1.756540143419739e-07,1.410384625104138e-14
23		1.698243652461743e+00,0.000000000000000e+00
	1.756540143419739e-03,1.443236703289583e-10
	1.000000000000000e+00,0.000000000000000e+00
	0.000000000000000e+00,0.000000000000000e+00
	8.757129009815501e-06,1.390813701204484e-14
	8.757128996157331e-06,1.338886089864174e-14
	-1.756540143419744e-07,-1.443236703289576e-14
	6.844079321275479e-06,8.293005418347104e-13
	-4.670468802391084e-06,-7.177028380829031e-15
	-1.997956504542420e-06,-8.076911464209856e-13
	1.756540143419739e-07,1.443236703289583e-14
	-6.844079321277619e-06,-8.293005418347104e-13
	1.756540143419739e-07,1.443236703289583e-14
24		1.737800828749374e+00,0.000000000000000e+00
	1.756540143419739e-03,1.476854004678608e-10
	1.000000000000000e+00,0.000000000000000e+00
	0.000000000000000e+00,0.000000000000000e+00
	8.757129009815501e-06,1.423209914010607e-14
	8.757128996157331e-06,1.370072753220189e-14
	-1.756540143419744e-07,-1.476854004678617e-14
	6.844079321275479e-06,8.486174329540916e-13
	-4.670468802391084e-06,-7.344202847502432e-15
	-1.997956504542420e-06,-8.265046900598029e-13
	1.756540143419739e-07,1.476854004678608e-14
	-6.844079321277619e-06,-8.486174329540912e-13
	1.756540143419739e-07,1.476854004678608e-14
25		1.778279410038922e+00,0.000000000000000e+00
	1.756540143419739e-03,1.511254353609388e-10
	1.000000000000000e+00,0.000000000000000e+00
	0.000000000000000e+00,0.000000000000000e+00
	8.757129009815501e-06,1.456360731551549e-14
	8.757128996157331e-06,1.401985847285018e-14
	-1.756540143419744e-07,-1.511254353609382e-14
	6.844079321275479e-06,8.683842722692045e-13
	-4.670468802391084e-06,-7.515271307737601e-15
	-1.997956504542420e-06,-8.457564574253731e-13
	1.756540143419739e-07,1.511254353609388e-14
	-6.844079321277619e-06,-8.683842722692043e-13
	1.756540143419739e-07,1.511254353609388e-14
26		1.819700858609982e+00,0.000000000000000e+00
	1.756540143419739e-03,1.546455989602267e-10
	1.000000000000000e+00,0.000000000000000e+00
	0.000000000000000e+00,0.000000000000000e+00
	8.757129009815501e-06,1.490283730829572e-14
	8.757128996157331e-06,1.434642292803555e-14
	-1.756540143419744e-07,-1.546455989602258e-14
	6.844079321275479e-06,8.886115404198992e-13
	-4.670468802391084e-06,-7.690324464296504e-15
	-1.997956504542420e-06,-8.654566560595802e-13
	1.756540143419739e-07,1.546455989602267e-14
	-6.844079321277619e-06,-8.886115404198992e-13
	1.756540143419739e-07,1.546455989602267e-14
27		1.862087136662866e+00,0.000000000000000e+00
	1.756540143419739e-03,1.582477577030598e-10
	1.000000000000000e+00,0.000000000000000e+00
	0.000000000000000e+00,0.000000000000000e+00
	8.757129009815501e-06,1.524996898267919e-14
	8.757128996157331e-06,1.468059404655472e-14
	-1.756540143419744e-07,-1.582477577030594e-14
	6.844079321275479e-06,9.093099621714891e-13
	-4.670468802391084e-06,-7.869455132679857e-15
	-1.997956504542420e-06,-8.856157312685033e-13
	1.756540143419739e-07,1.582477577030599e-14
	-6.844079321277619e-06,-9.093099621714888e-13
	1.756540143419739e-07,1.582477577030599e-14
28		1.905460717963246e+00,0.000000000000000e+00
	1.756540143419739e-03,1.619338215016839e-10
	1.000000000000000e+00,0.000000000000000e+00
	0.000000000000000e+00,0.000000000000000e+00
	8.757129009815501e-06,1.560518639247448e-14
	8.757128996157331e-06,1.502254901035800e-14
	-1.756540143419744e-07,-1.619338215016823e-14
	6.844079321275479e-06,9.304905121011621e-13
	-4.670468802391084e-06,-8.052758290339111e-15
	-1.997956504542420e-06,-9.062443716606548e-13
	1.756540143419739e-07,1.619338215016839e-14
	-6.844079321277619e-06,-9.304905121011619e-13
	1.756540143419739e-07,1.619338215016839e-14
29		1.949844599758044e+00,0.000000000000000e+00
	1.756540143419739e-03,1.657057447559156e-10
	1.000000000000000e+00,0.000000000000000e+00
	0.000000000000000e+00,0.000000000000000e+00
	8.757129009815501e-06,1.596867787865411e-14
	8.757128996157331e-06,1.537246912849351e-14
	-1.756540143419744e-07,-1.657057447559155e-14
	6.844079321275479e-06,9.521644204168499e-13
	-4.670468802391084e-06,-8.240331127034756e-15
	-1.997956504542420e-06,-9.273535148142234e-13
	1.756540143419739e-07,1.657057447559156e-14
	-6.844079321277619e-06,-9.521644204168495e-13
	1.756540143419739e-07,1.657057447559156e-14
30		1.995262314968878e+00,0.000000000000000e+00
	1.756540143419739e-03,1.695655273893918e-10
	1.000000000000000e+00,0.000000000000000e+00
	0.000000000000000e+00,0.000000000000000e+00
	8.757129009815501e-06,1.634063616921546e-14
	8.757128996157331e-06,1.573053993323965e-14
	-1.756540143419744e-07,-1.695655273893909e-14
	6.844079321275479e-06,9.743431789116279e-13
	-4.670468802391084e-06,-8.432273096367637e-15
	-1.997956504542420e-06,-9.489543530763210e-13
	1.756540143419739e-07,1.695655273893918e-14
	-6.844079321277619e-06,-9.743431789116279e-13
	1.756540143419739e-07,1.695655273893918e-14
31		2.041737944669527e+00,0.000000000000000e+00
	1.756540143419739e-03,1.735152159099548e-10
	1.000000000000000e+00,0.000000000000000e+00
	0.000000000000000e+00,0.000000000000000e+00
	8.757129009815501e-06,1.672125848136760e-14
	8.757128996157331e-06,1.609695127847669e-14
	-1.756540143419744e-07,-1.735152159099532e-14
	6.844079321275479e-06,9.970385470568216e-13
	-4.670468802391084e-06,-8.628685968510539e-15
	-1.997956504542420e-06,-9.710583394973158e-13
	1.756540143419739e-07,1.735152159099548e-14
	-6.844079321277619e-06,-9.970385470568214e-13
	1.756540143419739e-07,1.735152159099548e-14
32		2.089296130854037e+00,0.000000000000000e+00
	1.756540143419739e-03,1.775569044947388e-10
	1.000000000000000e+00,0.000000000000000e+00
	0.000000000000000e+00,0.000000000000000e+00
	8.757129009815501e-06,1.711074662609859e-14
	8.757128996157331e-06,1.647189744034992e-14
