LTspice 24.0.9 for Windows
Circuit: * GA CMOS Amp | W=5.8430107165534345e-06 L=4.986986734544449e-07 Vbias=1.0514435536409843
Start Time: Sat Sep  6 22:08:50 2025
solver = Normal
Maximum thread count: 2
tnom = 27
temp = 27
method = modified trap
AsciiRawFile = 1
Direct Newton iteration for .op point succeeded.
Semiconductor Device Operating Points:
                        --- BSIM4 MOSFETS ---
Name:      m1
Model:      n
Id:      1.63e-04
Vgs:     1.05e+00
Vds:     1.66e-01
Vbs:     0.00e+00
Vth:     2.51e-01
Vdsat:   5.73e-01
Gm:      3.51e-05
Gds:     8.18e-04
Gmb      1.09e-04
Cbd:     2.78e-15
Cbs:     4.67e-15


.measure op idd find i(vdd)
  Error: FIND can not be evaluated over an interval.

gain_db: MAX(db(v(out)/v(g)))=(31.9262dB,136.269°) FROM 1 TO 1e+09
gain_lin: MAX(mag(v(out)/v(g)))=(-8.87639dB,0°) FROM 1 TO 1e+09

Measurement "fc" FAIL'ed

Total elapsed time: 1.277 seconds.

