LTspice 24.0.9 for Windows
Circuit: * GA CMOS Amp | W=2.543128691465011e-05 L=6.736958474824552e-07 Vbias=0.9020991932119121
Start Time: Mon Sep  8 18:47:23 2025
solver = Normal
Maximum thread count: 2
tnom = 27
temp = 27
method = modified trap
AsciiRawFile = 1
Instance "m1": Length shorter than recommended for a level 3 MOSFET.
Direct Newton iteration for .op point succeeded.
Semiconductor Device Operating Points:
                        --- MOSFET Transistors ---
Name:          m1
Model:        n_1u
Id:          8.81e-05
Vgs:         9.02e-01
Vds:         9.19e-01
Vbs:         0.00e+00
Vth:         7.71e-01
Vdsat:       1.48e-01
Gm:          8.47e-04
Gds:         2.65e-05
Gmb:         1.64e-04
Cbd:         0.00e+00
Cbs:         0.00e+00
Cgsov:       5.09e-15
Cgdov:       5.09e-15
Cgbov:       4.74e-17
Cgs:         1.39e-14
Cgd:         0.00e+00
Cgb:         0.00e+00



gain_db: MAX(db(v(out)/v(g)))=(30.074dB,58.8248°) FROM 1 TO 1e+09
gain_lin: MAX(mag(v(out)/v(g)))=(16.5098dB,0°) FROM 1 TO 1e+09

Measurement "fc" FAIL'ed

Total elapsed time: 0.425 seconds.

