Title: * GA CMOS Amp | W=4.879948290384453e-05 L=2.3497530895570736e-07 Vbias=1.481363803929248
Date: Sat Sep  6 22:02:24 2025
Plotname: AC Analysis
Flags: complex forward log
No. Variables: 13
No. Points:          901
Offset:    0.0000000000000000e+00
Command: Linear Technology Corporation LTspice
Variables:
	0	frequency	frequency
	1	V(out)	voltage
	2	V(g)	voltage
	3	V(vdd)	voltage
	4	V(m1#dbody)	voltage
	5	V(m1#sbody)	voltage
	6	Id(M1)	device_current
	7	Ig(M1)	device_current
	8	Ib(M1)	device_current
	9	Is(M1)	device_current
	10	I(Rload)	device_current
	11	I(Vg)	device_current
	12	I(Vdd)	device_current
Values:
0		1.000000000000000e+00,0.000000000000000e+00
	1.986021596330499e-03,8.583422921338513e-11
	1.000000000000000e+00,0.000000000000000e+00
	0.000000000000000e+00,0.000000000000000e+00
	2.487944146340326e-04,7.376408229214885e-17
	2.487944146152932e-04,-2.375049311147884e-15
	-1.986021596330428e-07,-8.583422921338648e-15
	1.634927431504288e-04,3.215975246466947e-12
	-1.326903545631583e-04,9.203543258508648e-16
	-3.060378642763749e-05,-3.208312177871460e-12
	1.986021596330499e-07,8.583422921338513e-15
	-1.634927431504313e-04,-3.215975246466947e-12
	1.986021596330499e-07,8.583422921338513e-15
1		1.023292992280754e+00,0.000000000000000e+00
	1.986021596330499e-03,8.783356525187699e-11
	1.000000000000000e+00,0.000000000000000e+00
	0.000000000000000e+00,0.000000000000000e+00
	2.487944146340326e-04,7.548226849157940e-17
	2.487944146152932e-04,-2.430371316418859e-15
	-1.986021596330428e-07,-8.783356525187407e-15
	1.634927431504288e-04,3.290884933057999e-12
	-1.326903545631583e-04,9.417921320584659e-16
	-3.060378642763749e-05,-3.283043368664870e-12
	1.986021596330499e-07,8.783356525187699e-15
	-1.634927431504313e-04,-3.290884933057998e-12
	1.986021596330499e-07,8.783356525187699e-15
2		1.047128548050899e+00,0.000000000000000e+00
	1.986021596330499e-03,8.987947180928006e-11
	1.000000000000000e+00,0.000000000000000e+00
	0.000000000000000e+00,0.000000000000000e+00
	2.487944146340326e-04,7.724047638888780e-17
	2.487944146152932e-04,-2.486981936731569e-15
	-1.986021596330428e-07,-8.987947180927652e-15
	1.634927431504288e-04,3.367539490400567e-12
	-1.326903545631583e-04,9.637292889205785e-16
	-3.060378642763749e-05,-3.359515272508560e-12
	1.986021596330499e-07,8.987947180928007e-15
	-1.634927431504313e-04,-3.367539490400568e-12
	1.986021596330499e-07,8.987947180928007e-15
3		1.071519305237606e+00,0.000000000000000e+00
	1.986021596330499e-03,9.197303365233188e-11
	1.000000000000000e+00,0.000000000000000e+00
	0.000000000000000e+00,0.000000000000000e+00
	2.487944146340326e-04,7.903963820917833e-17
	2.487944146152932e-04,-2.544911187786230e-15
	-1.986021596330428e-07,-9.197303365233121e-15
	1.634927431504288e-04,3.445979561755603e-12
	-1.326903545631583e-04,9.861774278081410e-16
	-3.060378642763749e-05,-3.437768435818178e-12
	1.986021596330499e-07,9.197303365233189e-15
	-1.634927431504313e-04,-3.445979561755602e-12
	1.986021596330499e-07,9.197303365233189e-15
4		1.096478196143185e+00,0.000000000000000e+00
	1.986021596330499e-03,9.411536081523316e-11
	1.000000000000000e+00,0.000000000000000e+00
	0.000000000000000e+00,0.000000000000000e+00
	2.487944146340326e-04,8.088070789185336e-17
	2.487944146152932e-04,-2.604189784438544e-15
	-1.986021596330428e-07,-9.411536081523520e-15
	1.634927431504288e-04,3.526246737087212e-12
	-1.326903545631583e-04,1.009148451021533e-15
	-3.060378642763749e-05,-3.517844349456710e-12
	1.986021596330499e-07,9.411536081523316e-15
	-1.634927431504313e-04,-3.526246737087212e-12
	1.986021596330499e-07,9.411536081523316e-15
5		1.122018454301963e+00,0.000000000000000e+00
	1.986021596330499e-03,9.630758918820281e-11
	1.000000000000000e+00,0.000000000000000e+00
	0.000000000000000e+00,0.000000000000000e+00
	2.487944146340326e-04,8.276466159644793e-17
	2.487944146152932e-04,-2.664849156985082e-15
	-1.986021596330428e-07,-9.630758918819954e-15
	1.634927431504288e-04,3.608383575114219e-12
	-1.326903545631583e-04,1.032654538101308e-15
	-3.060378642763749e-05,-3.599785470733501e-12
	1.986021596330499e-07,9.630758918820282e-15
	-1.634927431504313e-04,-3.608383575114218e-12
	1.986021596330499e-07,9.630758918820282e-15
6		1.148153621496882e+00,0.000000000000000e+00
	1.986021596330499e-03,9.855088111974164e-11
	1.000000000000000e+00,0.000000000000000e+00
	0.000000000000000e+00,0.000000000000000e+00
	2.487944146340326e-04,8.469249822012996e-17
	2.487944146152932e-04,-2.726921467828113e-15
	-1.986021596330428e-07,-9.855088111974018e-15
	1.634927431504288e-04,3.692433625875355e-12
	-1.326903545631583e-04,1.056708152285989e-15
	-3.060378642763749e-05,-3.683635245915667e-12
	1.986021596330499e-07,9.855088111974165e-15
	-1.634927431504313e-04,-3.692433625875355e-12
	1.986021596330499e-07,9.855088111974165e-15
7		1.174897554939529e+00,0.000000000000000e+00
	1.986021596330499e-03,1.008464260329253e-10
	1.000000000000000e+00,0.000000000000000e+00
	0.000000000000000e+00,0.000000000000000e+00
	2.487944146340326e-04,8.666523992740424e-17
	2.487944146152932e-04,-2.790439628528461e-15
	-1.986021596330428e-07,-1.008464260329255e-14
	1.634927431504288e-04,3.778441453820067e-12
	-1.326903545631583e-04,1.081322047120199e-15
	-3.060378642763749e-05,-3.769438133263894e-12
	1.986021596330499e-07,1.008464260329253e-14
	-1.634927431504313e-04,-3.778441453820066e-12
	1.986021596330499e-07,1.008464260329253e-14
8		1.202264434617413e+00,0.000000000000000e+00
	1.986021596330499e-03,1.031954410560519e-10
	1.000000000000000e+00,0.000000000000000e+00
	0.000000000000000e+00,0.000000000000000e+00
	2.487944146340326e-04,8.868393269204402e-17
	2.487944146152932e-04,-2.855437317255684e-15
	-1.986021596330428e-07,-1.031954410560511e-14
	1.634927431504288e-04,3.866452661437178e-12
	-1.326903545631583e-04,1.106509273216779e-15
	-3.060378642763749e-05,-3.857239626604790e-12
	1.986021596330499e-07,1.031954410560519e-14
	-1.634927431504313e-04,-3.866452661437178e-12
	1.986021596330499e-07,1.031954410560519e-14
9		1.230268770812381e+00,0.000000000000000e+00
	1.986021596330499e-03,1.055991716679795e-10
	1.000000000000000e+00,0.000000000000000e+00
	0.000000000000000e+00,0.000000000000000e+00
	2.487944146340326e-04,9.074964685167132e-17
	2.487944146152932e-04,-2.921948996644694e-15
	-1.986021596330428e-07,-1.055991716679818e-14
	1.634927431504288e-04,3.956513913433936e-12
	-1.326903545631583e-04,1.132283185176398e-15
	-3.060378642763749e-05,-3.947086279452315e-12
	1.986021596330499e-07,1.055991716679795e-14
	-1.634927431504313e-04,-3.956513913433936e-12
	1.986021596330499e-07,1.055991716679795e-14
10		1.258925411794167e+00,0.000000000000000e+00
	1.986021596330499e-03,1.080588923584958e-10
	1.000000000000000e+00,0.000000000000000e+00
	0.000000000000000e+00,0.000000000000000e+00
	2.487944146340326e-04,9.286347767526148e-17
	2.487944146152932e-04,-2.990009932068303e-15
	-1.986021596330428e-07,-1.080588923584869e-14
	1.634927431504288e-04,4.048672961478248e-12
	-1.326903545631583e-04,1.158657448668343e-15
	-3.060378642763749e-05,-4.039025729691068e-12
	1.986021596330499e-07,1.080588923584958e-14
	-1.634927431504313e-04,-4.048672961478249e-12
	1.986021596330499e-07,1.080588923584958e-14
11		1.288249551693134e+00,0.000000000000000e+00
	1.986021596330499e-03,1.105759073040691e-10
	1.000000000000000e+00,0.000000000000000e+00
	0.000000000000000e+00,0.000000000000000e+00
	2.487944146340326e-04,9.502654594391400e-17
	2.487944146152932e-04,-3.059656210335349e-15
	-1.986021596330428e-07,-1.105759073040644e-14
	1.634927431504288e-04,4.142978669517261e-12
	-1.326903545631583e-04,1.185646047676213e-15
	-3.060378642763749e-05,-4.133106724834530e-12
	1.986021596330499e-07,1.105759073040691e-14
	-1.634927431504313e-04,-4.142978669517260e-12
	1.986021596330499e-07,1.105759073040691e-14
12		1.318256738556407e+00,0.000000000000000e+00
	1.986021596330499e-03,1.131515510593401e-10
	1.000000000000000e+00,0.000000000000000e+00
	0.000000000000000e+00,0.000000000000000e+00
	2.487944146340326e-04,9.723999854505845e-17
	2.487944146152932e-04,-3.130924758824446e-15
	-1.986021596330428e-07,-1.131515510593432e-14
	1.634927431504288e-04,4.239481039685655e-12
	-1.326903545631583e-04,1.213263291912439e-15
	-3.060378642763749e-05,-4.229379147871633e-12
	1.986021596330499e-07,1.131515510593401e-14
	-1.634927431504313e-04,-4.239481039685655e-12
	1.986021596330499e-07,1.131515510593401e-14
13		1.348962882591653e+00,0.000000000000000e+00
	1.986021596330499e-03,1.157871892647207e-10
	1.000000000000000e+00,0.000000000000000e+00
	0.000000000000000e+00,0.000000000000000e+00
	2.487944146340326e-04,9.950500908055187e-17
	2.487944146152932e-04,-3.203853365063363e-15
	-1.986021596330428e-07,-1.157871892647150e-14
	1.634927431504288e-04,4.338231238817456e-12
	-1.326903545631583e-04,1.241523824405476e-15
	-3.060378642763749e-05,-4.327894043715391e-12
	1.986021596330499e-07,1.157871892647207e-14
	-1.634927431504313e-04,-4.338231238817456e-12
	1.986021596330499e-07,1.157871892647207e-14
14		1.380384264602885e+00,0.000000000000000e+00
	1.986021596330499e-03,1.184842193704741e-10
	1.000000000000000e+00,0.000000000000000e+00
	0.000000000000000e+00,0.000000000000000e+00
	2.487944146340326e-04,1.018227784889595e-16
	2.487944146152932e-04,-3.278480696764454e-15
	-1.986021596330428e-07,-1.184842193704682e-14
	1.634927431504288e-04,4.439281625575358e-12
	-1.326903545631583e-04,1.270442629263727e-15
	-3.060378642763749e-05,-4.428703646267574e-12
	1.986021596330499e-07,1.184842193704741e-14
	-1.634927431504313e-04,-4.439281625575358e-12
	1.986021596330499e-07,1.184842193704741e-14
15		1.412537544622754e+00,0.000000000000000e+00
	1.986021596330499e-03,1.212440713776617e-10
	1.000000000000000e+00,0.000000000000000e+00
	0.000000000000000e+00,0.000000000000000e+00
	2.487944146340326e-04,1.041945356823061e-16
	2.487944146152932e-04,-3.354846322326792e-15
	-1.986021596330428e-07,-1.212440713776641e-14
	1.634927431504288e-04,4.542685778211978e-12
	-1.326903545631583e-04,1.300035039620308e-15
	-3.060378642763749e-05,-4.531861406113832e-12
	1.986021596330499e-07,1.212440713776617e-14
	-1.634927431504313e-04,-4.542685778211978e-12
	1.986021596330499e-07,1.212440713776617e-14
16		1.445439770745927e+00,0.000000000000000e+00
	1.986021596330499e-03,1.240682085963487e-10
	1.000000000000000e+00,0.000000000000000e+00
	0.000000000000000e+00,0.000000000000000e+00
	2.487944146340326e-04,1.066215381976464e-16
	2.487944146152932e-04,-3.432990731815870e-15
	-1.986021596330428e-07,-1.240682085963482e-14
	1.634927431504288e-04,4.648498522977760e-12
	-1.326903545631583e-04,1.330316745762896e-15
	-3.060378642763749e-05,-4.637422018863889e-12
	1.986021596330499e-07,1.240682085963487e-14
	-1.634927431504313e-04,-4.648498522977761e-12
	1.986021596330499e-07,1.240682085963487e-14
17		1.479108388168207e+00,0.000000000000000e+00
	1.986021596330499e-03,1.269581284214705e-10
	1.000000000000000e+00,0.000000000000000e+00
	0.000000000000000e+00,0.000000000000000e+00
	2.487944146340326e-04,1.091050728638518e-16
	2.487944146152932e-04,-3.512955358431951e-15
	-1.986021596330428e-07,-1.269581284214717e-14
	1.634927431504288e-04,4.756775963190577e-12
	-1.326903545631583e-04,1.361303803452906e-15
	-3.060378642763749e-05,-4.745441454151884e-12
	1.986021596330499e-07,1.269581284214705e-14
	-1.634927431504313e-04,-4.756775963190577e-12
	1.986021596330499e-07,1.269581284214705e-14
18		1.513561248436208e+00,0.000000000000000e+00
	1.986021596330499e-03,1.299153631267708e-10
	1.000000000000000e+00,0.000000000000000e+00
	0.000000000000000e+00,0.000000000000000e+00
	2.487944146340326e-04,1.116464564838572e-16
	2.487944146152932e-04,-3.594782600478544e-15
	-1.986021596330428e-07,-1.299153631267715e-14
	1.634927431504288e-04,4.867575508982454e-12
	-1.326903545631583e-04,1.393012642438498e-15
	-3.060378642763749e-05,-4.855976985312215e-12
	1.986021596330499e-07,1.299153631267708e-14
	-1.634927431504313e-04,-4.867575508982454e-12
	1.986021596330499e-07,1.299153631267708e-14
19		1.548816618912481e+00,0.000000000000000e+00
	1.986021596330499e-03,1.329414806772340e-10
	1.000000000000000e+00,0.000000000000000e+00
	0.000000000000000e+00,0.000000000000000e+00
	2.487944146340326e-04,1.142470365329129e-16
	2.487944146152932e-04,-3.678515843842476e-15
	-1.986021596330428e-07,-1.329414806772367e-14
	1.634927431504288e-04,4.980955907739170e-12
	-1.326903545631583e-04,1.425460075165809e-15
	-3.060378642763749e-05,-4.969087219746612e-12
	1.986021596330499e-07,1.329414806772340e-14
	-1.634927431504313e-04,-4.980955907739168e-12
	1.986021596330499e-07,1.329414806772340e-14
20		1.584893192461113e+00,0.000000000000000e+00
	1.986021596330499e-03,1.360380855604409e-10
	1.000000000000000e+00,0.000000000000000e+00
	0.000000000000000e+00,0.000000000000000e+00
	2.487944146340326e-04,1.169081918729661e-16
	2.487944146152932e-04,-3.764199484997738e-15
	-1.986021596330428e-07,-1.360380855604448e-14
	1.634927431504288e-04,5.096977275248915e-12
	-1.326903545631583e-04,1.458663305693173e-15
	-3.060378642763749e-05,-5.084832129998563e-12
	1.986021596330499e-07,1.360380855604409e-14
	-1.634927431504313e-04,-5.096977275248914e-12
	1.986021596330499e-07,1.360380855604409e-14
21		1.621810097358929e+00,0.000000000000000e+00
	1.986021596330499e-03,1.392068196372888e-10
	1.000000000000000e+00,0.000000000000000e+00
	0.000000000000000e+00,0.000000000000000e+00
	2.487944146340326e-04,1.196313334838114e-16
	2.487944146152932e-04,-3.851878954545017e-15
	-1.986021596330428e-07,-1.392068196372822e-14
	1.634927431504288e-04,5.215701127576466e-12
	-1.326903545631583e-04,1.492639938812907e-15
	-3.060378642763749e-05,-5.203273085551550e-12
	1.986021596330499e-07,1.392068196372888e-14
	-1.634927431504313e-04,-5.215701127576467e-12
	1.986021596330499e-07,1.392068196372888e-14
22		1.659586907437560e+00,0.000000000000000e+00
	1.986021596330499e-03,1.424493630125285e-10
	1.000000000000000e+00,0.000000000000000e+00
	0.000000000000000e+00,0.000000000000000e+00
	2.487944146340326e-04,1.224179052112054e-16
	2.487944146152932e-04,-3.941600741299614e-15
	-1.986021596330428e-07,-1.424493630125229e-14
	1.634927431504288e-04,5.337190413679825e-12
	-1.326903545631583e-04,1.527407989385612e-15
	-3.060378642763749e-05,-5.324472885367958e-12
	1.986021596330499e-07,1.424493630125285e-14
	-1.634927431504313e-04,-5.337190413679825e-12
	1.986021596330499e-07,1.424493630125285e-14
23		1.698243652461743e+00,0.000000000000000e+00
	1.986021596330499e-03,1.457674349255776e-10
	1.000000000000000e+00,0.000000000000000e+00
	0.000000000000000e+00,0.000000000000000e+00
	2.487944146340326e-04,1.252693845323071e-16
	2.487944146152932e-04,-4.033412416940531e-15
	-1.986021596330428e-07,-1.457674349255827e-14
	1.634927431504288e-04,5.461509548786584e-12
	-1.326903545631583e-04,1.562985891891938e-15
	-3.060378642763749e-05,-5.448495791185918e-12
	1.986021596330499e-07,1.457674349255777e-14
	-1.634927431504313e-04,-5.461509548786585e-12
	1.986021596330499e-07,1.457674349255777e-14
24		1.737800828749374e+00,0.000000000000000e+00
	1.986021596330499e-03,1.491627946620844e-10
	1.000000000000000e+00,0.000000000000000e+00
	0.000000000000000e+00,0.000000000000000e+00
	2.487944146340326e-04,1.281872833392395e-16
	2.487944146152932e-04,-4.127362661233416e-15
	-1.986021596330428e-07,-1.491627946620821e-14
	1.634927431504288e-04,5.588724448547735e-12
	-1.326903545631583e-04,1.599392510206701e-15
	-3.060378642763749e-05,-5.575407561591733e-12
	1.986021596330499e-07,1.491627946620844e-14
	-1.634927431504313e-04,-5.588724448547734e-12
	1.986021596330499e-07,1.491627946620844e-14
25		1.778279410038922e+00,0.000000000000000e+00
	1.986021596330499e-03,1.526372424867241e-10
	1.000000000000000e+00,0.000000000000000e+00
	0.000000000000000e+00,0.000000000000000e+00
	2.487944146340326e-04,1.311731487405516e-16
	2.487944146152932e-04,-4.223501287841399e-15
	-1.986021596330428e-07,-1.526372424867262e-14
	1.634927431504288e-04,5.718902563987020e-12
	-1.326903545631583e-04,1.636647147600841e-15
	-3.060378642763749e-05,-5.705275486885948e-12
	1.986021596330499e-07,1.526372424867241e-14
	-1.634927431504313e-04,-5.718902563987019e-12
	1.986021596330499e-07,1.526372424867241e-14
26		1.819700858609982e+00,0.000000000000000e+00
	1.986021596330499e-03,1.561926205977229e-10
	1.000000000000000e+00,0.000000000000000e+00
	0.000000000000000e+00,0.000000000000000e+00
	2.487944146340326e-04,1.342285638815973e-16
	2.487944146152932e-04,-4.321879270736855e-15
	-1.986021596330428e-07,-1.561926205977257e-14
	1.634927431504288e-04,5.852112917264353e-12
	-1.326903545631583e-04,1.674769556976232e-15
	-3.060378642763749e-05,-5.838168424761557e-12
	1.986021596330499e-07,1.561926205977229e-14
	-1.634927431504313e-04,-5.852112917264353e-12
	1.986021596330499e-07,1.561926205977229e-14
27		1.862087136662866e+00,0.000000000000000e+00
	1.986021596330499e-03,1.598308141036165e-10
	1.000000000000000e+00,0.000000000000000e+00
	0.000000000000000e+00,0.000000000000000e+00
	2.487944146340326e-04,1.373551487839532e-16
	2.487944146152932e-04,-4.422548771228474e-15
	-1.986021596330428e-07,-1.598308141036082e-14
	1.634927431504288e-04,5.988426138272293e-12
	-1.326903545631583e-04,1.713779951338918e-15
	-3.060378642763749e-05,-5.974156836813271e-12
	1.986021596330499e-07,1.598308141036165e-14
	-1.634927431504313e-04,-5.988426138272293e-12
	1.986021596330499e-07,1.598308141036165e-14
28		1.905460717963246e+00,0.000000000000000e+00
	1.986021596330499e-03,1.635537520227586e-10
	1.000000000000000e+00,0.000000000000000e+00
	0.000000000000000e+00,0.000000000000000e+00
	2.487944146340326e-04,1.405545612042942e-16
	2.487944146152932e-04,-4.525563165617962e-15
	-1.986021596330428e-07,-1.635537520227545e-14
	1.634927431504288e-04,6.127914502084934e-12
	-1.326903545631583e-04,1.753699014516369e-15
	-3.060378642763749e-05,-6.113312825897175e-12
	1.986021596330499e-07,1.635537520227586e-14
	-1.634927431504313e-04,-6.127914502084936e-12
	1.986021596330499e-07,1.635537520227586e-14
29		1.949844599758044e+00,0.000000000000000e+00
	1.986021596330499e-03,1.673634083061131e-10
	1.000000000000000e+00,0.000000000000000e+00
	0.000000000000000e+00,0.000000000000000e+00
	2.487944146340326e-04,1.438284975134608e-16
	2.487944146152932e-04,-4.630977073500756e-15
	-1.986021596330428e-07,-1.673634083061173e-14
	1.634927431504288e-04,6.270651967279122e-12
	-1.326903545631583e-04,1.794547912124260e-15
	-3.060378642763749e-05,-6.255710174360635e-12
	1.986021596330499e-07,1.673634083061131e-14
	-1.634927431504313e-04,-6.270651967279122e-12
	1.986021596330499e-07,1.673634083061131e-14
30		1.995262314968878e+00,0.000000000000000e+00
	1.986021596330499e-03,1.712618028838681e-10
	1.000000000000000e+00,0.000000000000000e+00
	0.000000000000000e+00,0.000000000000000e+00
	2.487944146340326e-04,1.471786935957956e-16
	2.487944146152932e-04,-4.738846386726158e-15
	-1.986021596330428e-07,-1.712618028838716e-14
	1.634927431504288e-04,6.416714215148249e-12
	-1.326903545631583e-04,1.836348302788813e-15
	-3.060378642763749e-05,-6.401424383162651e-12
	1.986021596330499e-07,1.712618028838681e-14
	-1.634927431504313e-04,-6.416714215148248e-12
	1.986021596330499e-07,1.712618028838681e-14
31		2.041737944669527e+00,0.000000000000000e+00
	1.986021596330499e-03,1.752510027364300e-10
	1.000000000000000e+00,0.000000000000000e+00
	0.000000000000000e+00,0.000000000000000e+00
	2.487944146340326e-04,1.506069257696143e-16
	2.487944146152932e-04,-4.849228299031848e-15
	-1.986021596330428e-07,-1.752510027364313e-14
	1.634927431504288e-04,6.566178689829501e-12
	-1.326903545631583e-04,1.879122349630448e-15
	-3.060378642763749e-05,-6.550532711905488e-12
	1.986021596330499e-07,1.752510027364300e-14
	-1.634927431504313e-04,-6.566178689829502e-12
	1.986021596330499e-07,1.752510027364300e-14
32		2.089296130854037e+00,0.000000000000000e+00
	1.986021596330499e-03,1.793331229903641e-10
	1.000000000000000e+00,0.000000000000000e+00
	0.000000000000000e+00,0.000000000000000e+00
	2.487944146340326e-04,1.541150117289933e-16
	2.487944146152932e-04,-4.962181336368812e-15
