Title: * GA CMOS Amp | W=1.3511153025647655e-05 L=4.2596657062205543e-07 Vbias=1.3037606405860385
Date: Mon Sep  8 18:43:52 2025
Plotname: AC Analysis
Flags: complex forward log
No. Variables: 11
No. Points:          901
Offset:    0.0000000000000000e+00
Command: Linear Technology Corporation LTspice
Variables:
	0	frequency	frequency
	1	V(out)	voltage
	2	V(g)	voltage
	3	V(vdd)	voltage
	4	Id(M1)	device_current
	5	Ig(M1)	device_current
	6	Ib(M1)	device_current
	7	Is(M1)	device_current
	8	I(Rload)	device_current
	9	I(Vg)	device_current
	10	I(Vdd)	device_current
Values:
0		1.000000000000000e+00,0.000000000000000e+00
	-7.225858162981795e-02,1.052977598928321e-11
	1.000000000000000e+00,0.000000000000000e+00
	0.000000000000000e+00,0.000000000000000e+00
	7.225858162981783e-06,-1.052977598928316e-15
	3.510961915313875e-25,6.962622005691724e-14
	7.727553406194909e-14,-4.142004484219447e-17
	-7.225858240257317e-06,-6.853182241314673e-14
	-7.225858162981795e-06,1.052977598928321e-15
	-3.510961915313875e-25,-6.962622005691724e-14
	-7.225858162981795e-06,1.052977598928321e-15
1		1.023292992280754e+00,0.000000000000000e+00
	-7.225858162981795e-02,1.077504598011966e-11
	1.000000000000000e+00,0.000000000000000e+00
	0.000000000000000e+00,0.000000000000000e+00
	7.225858162981783e-06,-1.077504598011958e-15
	3.676428452644624e-25,7.124802306324112e-14
	7.727553406194909e-14,-4.238484162700237e-17
	-7.225858240257317e-06,-7.012813362360216e-14
	-7.225858162981795e-06,1.077504598011966e-15
	-3.676428452644624e-25,-7.124802306324112e-14
	-7.225858162981795e-06,1.077504598011966e-15
2		1.047128548050899e+00,0.000000000000000e+00
	-7.225858162981795e-02,1.102602904295935e-11
	1.000000000000000e+00,0.000000000000000e+00
	0.000000000000000e+00,0.000000000000000e+00
	7.225858162981783e-06,-1.102602904295933e-15
	3.849693187630779e-25,7.290760271447217e-14
	7.727553406194909e-14,-4.337211141584062e-17
	-7.225858240257317e-06,-7.176162769876040e-14
	-7.225858162981795e-06,1.102602904295935e-15
	-3.849693187630779e-25,-7.290760271447217e-14
	-7.225858162981795e-06,1.102602904295935e-15
3		1.071519305237606e+00,0.000000000000000e+00
	-7.225858162981795e-02,1.128285825234438e-11
	1.000000000000000e+00,0.000000000000000e+00
	0.000000000000000e+00,0.000000000000000e+00
	7.225858162981783e-06,-1.128285825234433e-15
	4.031123638005256e-25,7.460583894170864e-14
	7.727553406194909e-14,-4.438237767222501e-17
	-7.225858240257317e-06,-7.343317073880198e-14
	-7.225858162981795e-06,1.128285825234438e-15
	-4.031123638005256e-25,-7.460583894170864e-14
	-7.225858162981795e-06,1.128285825234438e-15
4		1.096478196143185e+00,0.000000000000000e+00
	-7.225858162981795e-02,1.154566978252108e-11
	1.000000000000000e+00,0.000000000000000e+00
	0.000000000000000e+00,0.000000000000000e+00
	7.225858162981783e-06,-1.154566978252100e-15
	4.221104642078103e-25,7.634363217227703e-14
	7.727553406194909e-14,-4.541617605274726e-17
	-7.225858240257317e-06,-7.514364901797218e-14
	-7.225858162981795e-06,1.154566978252108e-15
	-4.221104642078103e-25,-7.634363217227703e-14
	-7.225858162981795e-06,1.154566978252108e-15
5		1.122018454301963e+00,0.000000000000000e+00
	-7.225858162981795e-02,1.181460297964148e-11
	1.000000000000000e+00,0.000000000000000e+00
	0.000000000000000e+00,0.000000000000000e+00
	7.225858162981783e-06,-1.181460297964139e-15
	4.420039175030156e-25,7.812190380715063e-14
	7.727553406194909e-14,-4.647405469097025e-17
	-7.225858240257317e-06,-7.689396945449552e-14
	-7.225858162981795e-06,1.181460297964148e-15
	-4.420039175030156e-25,-7.812190380715063e-14
	-7.225858162981795e-06,1.181460297964148e-15
6		1.148153621496882e+00,0.000000000000000e+00
	-7.225858162981795e-02,1.208980043564644e-11
	1.000000000000000e+00,0.000000000000000e+00
	0.000000000000000e+00,0.000000000000000e+00
	7.225858162981783e-06,-1.208980043564638e-15
	4.628349203677424e-25,7.994159670948841e-14
	7.727553406194909e-14,-4.755657448815801e-17
	-7.225858240257317e-06,-7.868506009143561e-14
	-7.225858162981795e-06,1.208980043564644e-15
	-4.628349203677424e-25,-7.994159670948841e-14
	-7.225858162981795e-06,1.208980043564644e-15
7		1.174897554939529e+00,0.000000000000000e+00
	-7.225858162981795e-02,1.237140806386981e-11
	1.000000000000000e+00,0.000000000000000e+00
	0.000000000000000e+00,0.000000000000000e+00
	7.225858162981783e-06,-1.237140806386971e-15
	4.846476581519277e-25,8.180367570455366e-14
	7.727553406194909e-14,-4.866430941058157e-17
	-7.225858240257317e-06,-8.051787058875611e-14
	-7.225858162981795e-06,1.237140806386981e-15
	-4.846476581519277e-25,-8.180367570455366e-14
	-7.225858162981795e-06,1.237140806386981e-15
8		1.202264434617413e+00,0.000000000000000e+00
	-7.225858162981795e-02,1.265957517640359e-11
	1.000000000000000e+00,0.000000000000000e+00
	0.000000000000000e+00,0.000000000000000e+00
	7.225858162981783e-06,-1.265957517640359e-15
	5.074883985968967e-25,8.370912809127716e-14
	7.727553406194909e-14,-4.979784679403194e-17
	-7.225858240257317e-06,-8.239337272684277e-14
	-7.225858162981795e-06,1.265957517640359e-15
	-5.074883985968967e-25,-8.370912809127716e-14
	-7.225858162981795e-06,1.265957517640359e-15
9		1.230268770812381e+00,0.000000000000000e+00
	-7.225858162981795e-02,1.295445456326518e-11
	1.000000000000000e+00,0.000000000000000e+00
	0.000000000000000e+00,0.000000000000000e+00
	7.225858162981783e-06,-1.295445456326516e-15
	5.314055899754445e-25,8.565896416573594e-14
	7.727553406194909e-14,-5.095778765502255e-17
	-7.225858240257317e-06,-8.431256092175440e-14
	-7.225858162981795e-06,1.295445456326518e-15
	-5.314055899754445e-25,-8.565896416573594e-14
	-7.225858162981795e-06,1.295445456326518e-15
10		1.258925411794167e+00,0.000000000000000e+00
	-7.225858162981795e-02,1.325620257340870e-11
	1.000000000000000e+00,0.000000000000000e+00
	0.000000000000000e+00,0.000000000000000e+00
	7.225858162981783e-06,-1.325620257340865e-15
	5.564499638571191e-25,8.765421775682582e-14
	7.727553406194909e-14,-5.214474700950170e-17
	-7.225858240257317e-06,-8.627645275247545e-14
	-7.225858162981795e-06,1.325620257340870e-15
	-5.564499638571191e-25,-8.765421775682582e-14
	-7.225858162981795e-06,1.325620257340870e-15
11		1.288249551693134e+00,0.000000000000000e+00
	-7.225858162981795e-02,1.356497919762322e-11
	1.000000000000000e+00,0.000000000000000e+00
	0.000000000000000e+00,0.000000000000000e+00
	7.225858162981783e-06,-1.356497919762319e-15
	5.826746427166807e-25,8.969594677441112e-14
	7.727553406194909e-14,-5.335935419908753e-17
	-7.225858240257317e-06,-8.828608950044971e-14
	-7.225858162981795e-06,1.356497919762323e-15
	-5.826746427166807e-25,-8.969594677441112e-14
	-7.225858162981795e-06,1.356497919762323e-15
12		1.318256738556407e+00,0.000000000000000e+00
	-7.225858162981795e-02,1.388094815336205e-11
	1.000000000000000e+00,0.000000000000000e+00
	0.000000000000000e+00,0.000000000000000e+00
	7.225858162981783e-06,-1.388094815336197e-15
	6.101352526139945e-25,9.178523377024240e-14
	7.727553406194909e-14,-5.460225322454165e-17
	-7.225858240257317e-06,-9.034253670168166e-14
	-7.225858162981795e-06,1.388094815336205e-15
	-6.101352526139945e-25,-9.178523377024240e-14
	-7.225858162981795e-06,1.388094815336205e-15
13		1.348962882591653e+00,0.000000000000000e+00
	-7.225858162981795e-02,1.420427697154786e-11
	1.000000000000000e+00,0.000000000000000e+00
	0.000000000000000e+00,0.000000000000000e+00
	7.225858162981783e-06,-1.420427697154778e-15
	6.388900411843608e-25,9.392318651193988e-14
	7.727553406194909e-14,-5.587410308743426e-17
	-7.225858240257317e-06,-9.244688471169767e-14
	-7.225858162981795e-06,1.420427697154786e-15
	-6.388900411843608e-25,-9.392318651193988e-14
	-7.225858162981795e-06,1.420427697154786e-15
14		1.380384264602885e+00,0.000000000000000e+00
	-7.225858162981795e-02,1.453513708539982e-11
	1.000000000000000e+00,0.000000000000000e+00
	0.000000000000000e+00,0.000000000000000e+00
	7.225858162981783e-06,-1.453513708539979e-15
	6.690000011895593e-25,9.611093857034634e-14
	7.727553406194909e-14,-5.717557813932550e-17
	-7.225858240257317e-06,-9.460024928366703e-14
	-7.225858162981795e-06,1.453513708539982e-15
	-6.690000011895593e-25,-9.611093857034634e-14
	-7.225858162981795e-06,1.453513708539982e-15
15		1.412537544622754e+00,0.000000000000000e+00
	-7.225858162981795e-02,1.487370392132974e-11
	1.000000000000000e+00,0.000000000000000e+00
	0.000000000000000e+00,0.000000000000000e+00
	7.225858162981783e-06,-1.487370392132963e-15
	7.005289998916732e-25,9.834964992056145e-14
	7.727553406194909e-14,-5.850736843958651e-17
	-7.225858240257317e-06,-9.680377215998890e-14
	-7.225858162981795e-06,1.487370392132974e-15
	-7.005289998916732e-25,-9.834964992056145e-14
	-7.225858162981795e-06,1.487370392132974e-15
16		1.445439770745927e+00,0.000000000000000e+00
	-7.225858162981795e-02,1.522015699195549e-11
	1.000000000000000e+00,0.000000000000000e+00
	0.000000000000000e+00,0.000000000000000e+00
	7.225858162981783e-06,-1.522015699195541e-15
	7.335439145241161e-25,1.006405075569759e-13
	7.727553406194909e-14,-5.987018012100169e-17
	-7.225858240257317e-06,-9.905862167765937e-14
	-7.225858162981795e-06,1.522015699195549e-15
	-7.335439145241161e-25,-1.006405075569759e-13
	-7.225858162981795e-06,1.522015699195549e-15
17		1.479108388168207e+00,0.000000000000000e+00
	-7.225858162981795e-02,1.557467999128098e-11
	1.000000000000000e+00,0.000000000000000e+00
	0.000000000000000e+00,0.000000000000000e+00
	7.225858162981783e-06,-1.557467999128091e-15
	7.681147741472108e-25,1.029847261226317e-13
	7.727553406194909e-14,-6.126473576441457e-17
	-7.225858240257317e-06,-1.013659933877392e-13
	-7.225858162981795e-06,1.557467999128098e-15
	-7.681147741472108e-25,-1.029847261226317e-13
	-7.225858162981795e-06,1.557467999128098e-15
18		1.513561248436208e+00,0.000000000000000e+00
	-7.225858162981795e-02,1.593746089209310e-11
	1.000000000000000e+00,0.000000000000000e+00
	0.000000000000000e+00,0.000000000000000e+00
	7.225858162981783e-06,-1.593746089209317e-15
	8.043149081892134e-25,1.053835485532418e-13
	7.727553406194909e-14,-6.269177478164716e-17
	-7.225858240257317e-06,-1.037271106892508e-13
	-7.225858162981795e-06,1.593746089209310e-15
	-8.043149081892134e-25,-1.053835485532418e-13
	-7.225858162981795e-06,1.593746089209310e-15
19		1.548816618912481e+00,0.000000000000000e+00
	-7.225858162981795e-02,1.630869204562744e-11
	1.000000000000000e+00,0.000000000000000e+00
	0.000000000000000e+00,0.000000000000000e+00
	7.225858162981783e-06,-1.630869204562749e-15
	8.422211019878635e-25,1.078382467362109e-13
	7.727553406194909e-14,-6.415205380771532e-17
	-7.225858240257317e-06,-1.061432254778404e-13
	-7.225858162981795e-06,1.630869204562745e-15
	-8.422211019878635e-25,-1.078382467362109e-13
	-7.225858162981795e-06,1.630869204562745e-15
20		1.584893192461113e+00,0.000000000000000e+00
	-7.225858162981795e-02,1.668857028355544e-11
	1.000000000000000e+00,0.000000000000000e+00
	0.000000000000000e+00,0.000000000000000e+00
	7.225858162981783e-06,-1.668857028355540e-15
	8.819137596623803e-25,1.103501221850075e-13
	7.727553406194909e-14,-6.564634710183514e-17
	-7.225858240257317e-06,-1.086156188095502e-13
	-7.225858162981795e-06,1.668857028355545e-15
	-8.819137596623803e-25,-1.103501221850075e-13
	-7.225858162981795e-06,1.668857028355545e-15
21		1.621810097358929e+00,0.000000000000000e+00
	-7.225858162981795e-02,1.707729702234712e-11
	1.000000000000000e+00,0.000000000000000e+00
	0.000000000000000e+00,0.000000000000000e+00
	7.225858162981783e-06,-1.707729702234712e-15
	9.234770746613781e-25,1.129205067292432e-13
	7.727553406194909e-14,-6.717544695814177e-17
	-7.225858240257317e-06,-1.111456015800503e-13
	-7.225858162981795e-06,1.707729702234712e-15
	-9.234770746613781e-25,-1.129205067292432e-13
	-7.225858162981795e-06,1.707729702234712e-15
22		1.659586907437560e+00,0.000000000000000e+00
	-7.225858162981795e-02,1.747507837006480e-11
	1.000000000000000e+00,0.000000000000000e+00
	0.000000000000000e+00,0.000000000000000e+00
	7.225858162981783e-06,-1.747507837006455e-15
	9.669992083484611e-25,1.155507632208263e-13
	7.727553406194909e-14,-6.874016412562221e-17
	-7.225858240257317e-06,-1.137345152196942e-13
	-7.225858162981795e-06,1.747507837006480e-15
	-9.669992083484611e-25,-1.155507632208263e-13
	-7.225858162981795e-06,1.747507837006480e-15
23		1.698243652461743e+00,0.000000000000000e+00
	-7.225858162981795e-02,1.788212523564429e-11
	1.000000000000000e+00,0.000000000000000e+00
	0.000000000000000e+00,0.000000000000000e+00
	7.225858162981783e-06,-1.788212523564425e-15
	1.012572477004293e-24,1.182422862565642e-13
	7.727553406194909e-14,-7.034132823794352e-17
	-7.225858240257317e-06,-1.163837324047619e-13
	-7.225858162981795e-06,1.788212523564430e-15
	-1.012572477004293e-24,-1.182422862565642e-13
	-7.225858162981795e-06,1.788212523564430e-15
24		1.737800828749374e+00,0.000000000000000e+00
	-7.225858162981795e-02,1.829865344072163e-11
	1.000000000000000e+00,0.000000000000000e+00
	0.000000000000000e+00,0.000000000000000e+00
	7.225858162981783e-06,-1.829865344072156e-15
	1.060293547641808e-24,1.209965029175971e-13
	7.727553406194909e-14,-7.197978825363085e-17
	-7.225858240257317e-06,-1.190946577852713e-13
	-7.225858162981795e-06,1.829865344072163e-15
	-1.060293547641808e-24,-1.209965029175971e-13
	-7.225858162981795e-06,1.829865344072163e-15
25		1.778279410038922e+00,0.000000000000000e+00
	-7.225858162981795e-02,1.872488383406456e-11
	1.000000000000000e+00,0.000000000000000e+00
	0.000000000000000e+00,0.000000000000000e+00
	7.225858162981783e-06,-1.872488383406446e-15
	1.110263643049904e-24,1.238148735260549e-13
	7.727553406194909e-14,-7.365641290576870e-17
	-7.225858240257317e-06,-1.218687287297427e-13
	-7.225858162981795e-06,1.872488383406456e-15
	-1.110263643049904e-24,-1.238148735260549e-13
	-7.225858162981795e-06,1.872488383406456e-15
26		1.819700858609982e+00,0.000000000000000e+00
	-7.225858162981795e-02,1.916104240866944e-11
	1.000000000000000e+00,0.000000000000000e+00
	0.000000000000000e+00,0.000000000000000e+00
	7.225858162981783e-06,-1.916104240866927e-15
	1.162588756500548e-24,1.266988924193399e-13
	7.727553406194909e-14,-7.537209116304909e-17
	-7.225858240257317e-06,-1.247074160873099e-13
	-7.225858162981795e-06,1.916104240866944e-15
	-1.162588756500548e-24,-1.266988924193399e-13
	-7.225858162981795e-06,1.916104240866944e-15
27		1.862087136662866e+00,0.000000000000000e+00
	-7.225858162981795e-02,1.960736042158578e-11
	1.000000000000000e+00,0.000000000000000e+00
	0.000000000000000e+00,0.000000000000000e+00
	7.225858162981783e-06,-1.960736042158562e-15
	1.217379876574720e-24,1.296500887424437e-13
	7.727553406194909e-14,-7.712773270070253e-17
	-7.225858240257317e-06,-1.276122249675844e-13
	-7.225858162981795e-06,1.960736042158578e-15
	-1.217379876574720e-24,-1.296500887424437e-13
	-7.225858162981795e-06,1.960736042158578e-15
28		1.905460717963246e+00,0.000000000000000e+00
	-7.225858162981795e-02,2.006407451653174e-11
	1.000000000000000e+00,0.000000000000000e+00
	0.000000000000000e+00,0.000000000000000e+00
	7.225858162981783e-06,-2.006407451653153e-15
	1.274753222584069e-24,1.326700272587205e-13
	7.727553406194909e-14,-7.892426838311689e-17
	-7.225858240257317e-06,-1.305846955386842e-13
	-7.225858162981795e-06,2.006407451653174e-15
	-1.274753222584069e-24,-1.326700272587205e-13
	-7.225858162981795e-06,2.006407451653174e-15
29		1.949844599758044e+00,0.000000000000000e+00
	-7.225858162981795e-02,2.053142684936579e-11
	1.000000000000000e+00,0.000000000000000e+00
	0.000000000000000e+00,0.000000000000000e+00
	7.225858162981783e-06,-2.053142684936563e-15
	1.334830491087662e-24,1.357603091795453e-13
	7.727553406194909e-14,-8.076265075733612e-17
	-7.225858240257317e-06,-1.336264038438514e-13
	-7.225858162981795e-06,2.053142684936579e-15
	-1.334830491087662e-24,-1.357603091795453e-13
	-7.225858162981795e-06,2.053142684936579e-15
30		1.995262314968878e+00,0.000000000000000e+00
	-7.225858162981795e-02,2.100966521648093e-11
	1.000000000000000e+00,0.000000000000000e+00
	0.000000000000000e+00,0.000000000000000e+00
	7.225858162981783e-06,-2.100966521648083e-15
	1.397739114026692e-24,1.389225730132972e-13
	7.727553406194909e-14,-8.264385455800695e-17
	-7.225858240257317e-06,-1.367389626370911e-13
	-7.225858162981795e-06,2.100966521648093e-15
	-1.397739114026692e-24,-1.389225730132972e-13
	-7.225858162981795e-06,2.100966521648093e-15
31		2.041737944669527e+00,0.000000000000000e+00
	-7.225858162981795e-02,2.149904318618965e-11
	1.000000000000000e+00,0.000000000000000e+00
	0.000000000000000e+00,0.000000000000000e+00
	7.225858162981783e-06,-2.149904318618951e-15
	1.463612529024720e-24,1.421584954341184e-13
	7.727553406194909e-14,-8.456887722424057e-17
	-7.225858240257317e-06,-1.399240222382752e-13
	-7.225858162981795e-06,2.149904318618965e-15
	-1.463612529024720e-24,-1.421584954341184e-13
	-7.225858162981795e-06,2.149904318618965e-15
32		2.089296130854037e+00,0.000000000000000e+00
	-7.225858162981795e-02,2.199982023316917e-11
	1.000000000000000e+00,0.000000000000000e+00
	0.000000000000000e+00,0.000000000000000e+00
	7.225858162981783e-06,-2.199982023316895e-15
	1.532590462426761e-24,1.454697921709090e-13
	7.727553406194909e-14,-8.653873942862908e-17
	-7.225858240257317e-06,-1.431832714081634e-13
	-7.225858162981795e-06,2.199982023316917e-15
	-1.532590462426761e-24,-1.454697921709090e-13
	-7.225858162981795e-06,2.199982023316917e-15
33		2.137962089502230e+00,0.000000000000000e+00
	-7.225858162981795e-02,2.251226187603835e-11
	1.000000000000000e+00,0.000000000000000e+00
	0.000000000000000e+00,0.000000000000000e+00
	7.225858162981783e-06,-2.251226187603830e-15
	1.604819225677590e-24,1.488582189170289e-13
	7.727553406194909e-14,-8.855448561812637e-17
	-7.225858240257317e-06,-1.465184382438069e-13
	-7.225858162981795e-06,2.251226187603835e-15
	-1.604819225677590e-24,-1.488582189170289e-13
	-7.225858162981795e-06,2.251226187603835e-15
34		2.187761623949550e+00,0.000000000000000e+00
	-7.225858162981795e-02,2.303663981813922e-11
	1.000000000000000e+00,0.000000000000000e+00
	0.000000000000000e+00,0.000000000000000e+00
	7.225858162981783e-06,-2.303663981813926e-15
	1.680452025667944e-24,1.523255722611900e-13
	7.727553406194909e-14,-9.061718456805566e-17
	-7.225858240257317e-06,-1.499312910948080e-13
	-7.225858162981795e-06,2.303663981813922e-15
	-1.680452025667944e-24,-1.523255722611900e-13
	-7.225858162981795e-06,2.303663981813922e-15
35		2.238721138568337e+00,0.000000000000000e+00
	-7.225858162981795e-02,2.357323209159766e-11
	1.000000000000000e+00,0.000000000000000e+00
	0.000000000000000e+00,0.000000000000000e+00
	7.225858162981783e-06,-2.357323209159752e-15
	1.759649289706867e-24,1.558736906400314e-13
	7.727553406194909e-14,-9.272792994871360e-17
	-7.225858240257317e-06,-1.534236395009229e-13
	-7.225858162981795e-06,2.357323209159766e-15
	-1.759649289706867e-24,-1.558736906400314e-13
	-7.225858162981795e-06,2.357323209159766e-15
36		2.290867652767770e+00,0.000000000000000e+00
	-7.225858162981795e-02,2.412232320473966e-11
	1.000000000000000e+00,0.000000000000000e+00
	0.000000000000000e+00,0.000000000000000e+00
	7.225858162981783e-06,-2.412232320473949e-15
	1.842579005809548e-24,1.595044553128823e-13
	7.727553406194909e-14,-9.488784090520196e-17
	-7.225858240257317e-06,-1.569973351515031e-13
	-7.225858162981795e-06,2.412232320473967e-15
	-1.842579005809548e-24,-1.595044553128823e-13
	-7.225858162981795e-06,2.412232320473967e-15
37		2.344228815319919e+00,0.000000000000000e+00
	-7.225858162981795e-02,2.468420429294152e-11
	1.000000000000000e+00,0.000000000000000e+00
	0.000000000000000e+00,0.000000000000000e+00
	7.225858162981783e-06,-2.468420429294137e-15
	1.929417079022422e-24,1.632197913592311e-13
	7.727553406194909e-14,-9.709806265092871e-17
	-7.225858240257317e-06,-1.606542728672861e-13
	-7.225858162981795e-06,2.468420429294152e-15
	-1.929417079022422e-24,-1.632197913592311e-13
	-7.225858162981795e-06,2.468420429294152e-15
38		2.398832919019488e+00,0.000000000000000e+00
	-7.225858162981795e-02,2.525917327299357e-11
	1.000000000000000e+00,0.000000000000000e+00
