Title: * GA CMOS Amp | W=5e-05 L=4.566181973895185e-07 Vbias=1.2838121319069273
Date: Mon Sep  8 18:46:04 2025
Plotname: AC Analysis
Flags: complex forward log
No. Variables: 11
No. Points:          901
Offset:    0.0000000000000000e+00
Command: Linear Technology Corporation LTspice
Variables:
	0	frequency	frequency
	1	V(out)	voltage
	2	V(g)	voltage
	3	V(vdd)	voltage
	4	Id(M1)	device_current
	5	Ig(M1)	device_current
	6	Ib(M1)	device_current
	7	Is(M1)	device_current
	8	I(Rload)	device_current
	9	I(Vg)	device_current
	10	I(Vdd)	device_current
Values:
0		1.000000000000000e+00,0.000000000000000e+00
	-1.973004117111996e-02,1.026115544253932e-11
	1.000000000000000e+00,0.000000000000000e+00
	0.000000000000000e+00,0.000000000000000e+00
	1.973004117111982e-06,-1.026115544253890e-15
	1.356406423056687e-24,2.676263571498620e-13
	2.433817036795460e-14,-4.465463784637226e-17
	-1.973004141450152e-06,-2.665555869677618e-13
	-1.973004117111996e-06,1.026115544253932e-15
	-1.356406423056687e-24,-2.676263571498620e-13
	-1.973004117111996e-06,1.026115544253932e-15
1		1.023292992280754e+00,0.000000000000000e+00
	-1.973004117111996e-02,1.050016845705400e-11
	1.000000000000000e+00,0.000000000000000e+00
	0.000000000000000e+00,0.000000000000000e+00
	1.973004117111982e-06,-1.050016845705392e-15
	1.420331888342262e-24,2.738601758210802e-13
	2.433817036795460e-14,-4.569477798102656e-17
	-1.973004141450152e-06,-2.727644641973937e-13
	-1.973004117111996e-06,1.050016845705400e-15
	-1.420331888342262e-24,-2.738601758210802e-13
	-1.973004117111996e-06,1.050016845705400e-15
2		1.047128548050899e+00,0.000000000000000e+00
	-1.973004117111996e-02,1.074474879987078e-11
	1.000000000000000e+00,0.000000000000000e+00
	0.000000000000000e+00,0.000000000000000e+00
	1.973004117111982e-06,-1.074474879987067e-15
	1.487270067990225e-24,2.802391987824865e-13
	2.433817036795460e-14,-4.675914609185858e-17
	-1.973004141450152e-06,-2.791179647564076e-13
	-1.973004117111996e-06,1.074474879987078e-15
	-1.487270067990225e-24,-2.802391987824865e-13
	-1.973004117111996e-06,1.074474879987078e-15
3		1.071519305237606e+00,0.000000000000000e+00
	-1.973004117111996e-02,1.099502615072481e-11
	1.000000000000000e+00,0.000000000000000e+00
	0.000000000000000e+00,0.000000000000000e+00
	1.973004117111982e-06,-1.099502615072466e-15
	1.557362946854167e-24,2.867668082764917e-13
	2.433817036795460e-14,-4.784830652082175e-17
	-1.973004141450152e-06,-2.856194573548984e-13
	-1.973004117111996e-06,1.099502615072481e-15
	-1.557362946854167e-24,-2.867668082764917e-13
	-1.973004117111996e-06,1.099502615072481e-15
4		1.096478196143185e+00,0.000000000000000e+00
	-1.973004117111996e-02,1.125113320998033e-11
	1.000000000000000e+00,0.000000000000000e+00
	0.000000000000000e+00,0.000000000000000e+00
	1.973004117111982e-06,-1.125113320998035e-15
	1.630759201327673e-24,2.934464653280524e-13
	2.433817036795460e-14,-4.896283675524568e-17
	-1.973004141450152e-06,-2.922723891702991e-13
	-1.973004117111996e-06,1.125113320998033e-15
	-1.630759201327673e-24,-2.934464653280524e-13
	-1.973004117111996e-06,1.125113320998033e-15
5		1.122018454301963e+00,0.000000000000000e+00
	-1.973004117111996e-02,1.151320576899014e-11
	1.000000000000000e+00,0.000000000000000e+00
	0.000000000000000e+00,0.000000000000000e+00
	1.973004117111982e-06,-1.151320576899018e-15
	1.707614514706892e-24,3.002817115797534e-13
	2.433817036795460e-14,-5.010332773376272e-17
	-1.973004141450152e-06,-2.990802876751206e-13
	-1.973004117111996e-06,1.151320576899014e-15
	-1.707614514706892e-24,-3.002817115797534e-13
	-1.973004117111996e-06,1.151320576899014e-15
6		1.148153621496882e+00,0.000000000000000e+00
	-1.973004117111996e-02,1.178138278209396e-11
	1.000000000000000e+00,0.000000000000000e+00
	0.000000000000000e+00,0.000000000000000e+00
	1.973004117111982e-06,-1.178138278209376e-15
	1.788091907415669e-24,3.072761711696322e-13
	2.433817036795460e-14,-5.127038415993381e-17
	-1.973004141450152e-06,-3.060467625072629e-13
	-1.973004117111996e-06,1.178138278209396e-15
	-1.788091907415669e-24,-3.072761711696322e-13
	-1.973004117111996e-06,1.178138278209396e-15
7		1.174897554939529e+00,0.000000000000000e+00
	-1.973004117111996e-02,1.205580644029388e-11
	1.000000000000000e+00,0.000000000000000e+00
	0.000000000000000e+00,0.000000000000000e+00
	1.973004117111982e-06,-1.205580644029365e-15
	1.872362082793733e-24,3.144335526527461e-13
	2.433817036795460e-14,-5.246462482248818e-17
	-1.973004141450152e-06,-3.131755073838943e-13
	-1.973004117111996e-06,1.205580644029388e-15
	-1.872362082793733e-24,-3.144335526527461e-13
	-1.973004117111996e-06,1.205580644029388e-15
8		1.202264434617413e+00,0.000000000000000e+00
	-1.973004117111996e-02,1.233662224664591e-11
	1.000000000000000e+00,0.000000000000000e+00
	0.000000000000000e+00,0.000000000000000e+00
	1.973004117111982e-06,-1.233662224664577e-15
	1.960603789181359e-24,3.217576509674967e-13
	2.433817036795460e-14,-5.368668292343894e-17
	-1.973004141450152e-06,-3.204703020599087e-13
	-1.973004117111996e-06,1.233662224664592e-15
	-1.960603789181359e-24,-3.217576509674967e-13
	-1.973004117111996e-06,1.233662224664592e-15
9		1.230268770812381e+00,0.000000000000000e+00
	-1.973004117111996e-02,1.262397909340762e-11
	1.000000000000000e+00,0.000000000000000e+00
	0.000000000000000e+00,0.000000000000000e+00
	1.973004117111982e-06,-1.262397909340744e-15
	2.053004199068569e-24,3.292523494477561e-13
	2.433817036795460e-14,-5.493720641435244e-17
	-1.973004141450152e-06,-3.279350143320011e-13
	-1.973004117111996e-06,1.262397909340762e-15
	-2.053004199068569e-24,-3.292523494477561e-13
	-1.973004117111996e-06,1.262397909340762e-15
10		1.258925411794167e+00,0.000000000000000e+00
	-1.973004117111996e-02,1.291802934098276e-11
	1.000000000000000e+00,0.000000000000000e+00
	0.000000000000000e+00,0.000000000000000e+00
	1.973004117111982e-06,-1.291802934098280e-15
	2.149759306113070e-24,3.369216218818629e-13
	2.433817036795460e-14,-5.621685833928187e-17
	-1.973004141450152e-06,-3.355736020894253e-13
	-1.973004117111996e-06,1.291802934098276e-15
	-2.149759306113070e-24,-3.369216218818629e-13
	-1.973004117111996e-06,1.291802934098276e-15
11		1.288249551693134e+00,0.000000000000000e+00
	-1.973004117111996e-02,1.321892889870483e-11
	1.000000000000000e+00,0.000000000000000e+00
	0.000000000000000e+00,0.000000000000000e+00
	1.973004117111982e-06,-1.321892889870468e-15
	2.251074340869089e-24,3.447695346195763e-13
	2.433817036795460e-14,-5.752631718661183e-17
	-1.973004141450152e-06,-3.433901154125192e-13
	-1.973004117111996e-06,1.321892889870483e-15
	-2.251074340869089e-24,-3.447695346195763e-13
	-1.973004117111996e-06,1.321892889870483e-15
12		1.318256738556407e+00,0.000000000000000e+00
	-1.973004117111996e-02,1.352683730750220e-11
	1.000000000000000e+00,0.000000000000000e+00
	0.000000000000000e+00,0.000000000000000e+00
	1.973004117111982e-06,-1.352683730750197e-15
	2.357164206108885e-24,3.528002487281093e-13
	2.433817036795460e-14,-5.886627724880419e-17
	-1.973004141450152e-06,-3.513886987201103e-13
	-1.973004117111996e-06,1.352683730750220e-15
	-2.357164206108885e-24,-3.528002487281093e-13
	-1.973004117111996e-06,1.352683730750220e-15
13		1.348962882591653e+00,0.000000000000000e+00
	-1.973004117111996e-02,1.384191782448887e-11
	1.000000000000000e+00,0.000000000000000e+00
	0.000000000000000e+00,0.000000000000000e+00
	1.973004117111982e-06,-1.384191782448866e-15
	2.468253932660348e-24,3.610180221983813e-13
	2.433817036795460e-14,-6.023744899034801e-17
	-1.973004141450152e-06,-3.595735929669420e-13
	-1.973004117111996e-06,1.384191782448887e-15
	-2.468253932660348e-24,-3.610180221983813e-13
	-1.973004117111996e-06,1.384191782448887e-15
14		1.380384264602885e+00,0.000000000000000e+00
	-1.973004117111996e-02,1.416433750952552e-11
	1.000000000000000e+00,0.000000000000000e+00
	0.000000000000000e+00,0.000000000000000e+00
	1.973004117111982e-06,-1.416433750952529e-15
	2.584579156727553e-24,3.694272122026613e-13
	2.433817036795460e-14,-6.164055942467097e-17
	-1.973004141450152e-06,-3.679491378922841e-13
	-1.973004117111996e-06,1.416433750952552e-15
	-2.584579156727553e-24,-3.694272122026613e-13
	-1.973004117111996e-06,1.416433750952552e-15
15		1.412537544622754e+00,0.000000000000000e+00
	-1.973004117111996e-02,1.449426731379689e-11
	1.000000000000000e+00,0.000000000000000e+00
	0.000000000000000e+00,0.000000000000000e+00
	1.973004117111982e-06,-1.449426731379677e-15
	2.706386619706741e-24,3.780322774047984e-13
	2.433817036795460e-14,-6.307635249958318e-17
	-1.973004141450152e-06,-3.765197743209192e-13
	-1.973004117111996e-06,1.449426731379689e-15
	-2.706386619706741e-24,-3.780322774047984e-13
	-1.973004117111996e-06,1.449426731379689e-15
16		1.445439770745927e+00,0.000000000000000e+00
	-1.973004117111996e-02,1.483188217045235e-11
	1.000000000000000e+00,0.000000000000000e+00
	0.000000000000000e+00,0.000000000000000e+00
	1.973004117111982e-06,-1.483188217045212e-15
	2.833934691557901e-24,3.868377803242642e-13
	2.433817036795460e-14,-6.454558949145514e-17
	-1.973004141450152e-06,-3.852900465177275e-13
	-1.973004117111996e-06,1.483188217045235e-15
	-2.833934691557901e-24,-3.868377803242642e-13
	-1.973004117111996e-06,1.483188217045235e-15
17		1.479108388168207e+00,0.000000000000000e+00
	-1.973004117111996e-02,1.517736108735775e-11
	1.000000000000000e+00,0.000000000000000e+00
	0.000000000000000e+00,0.000000000000000e+00
	1.973004117111982e-06,-1.517736108735735e-15
	2.967493918842098e-24,3.958483897552613e-13
	2.433817036795460e-14,-6.604904940926598e-17
	-1.973004141450152e-06,-3.942646045971163e-13
	-1.973004117111996e-06,1.517736108735775e-15
	-2.967493918842098e-24,-3.958483897552613e-13
	-1.973004117111996e-06,1.517736108735775e-15
18		1.513561248436208e+00,0.000000000000000e+00
	-1.973004117111996e-02,1.553088724200779e-11
	1.000000000000000e+00,0.000000000000000e+00
	0.000000000000000e+00,0.000000000000000e+00
	1.973004117111982e-06,-1.553088724200769e-15
	3.107347598587000e-24,4.050688832421796e-13
	2.433817036795460e-14,-6.758752940723456e-17
	-1.973004141450152e-06,-4.034482069885716e-13
	-1.973004117111996e-06,1.553088724200779e-15
	-3.107347598587000e-24,-4.050688832421796e-13
	-1.973004117111996e-06,1.553088724200779e-15
19		1.548816618912481e+00,0.000000000000000e+00
	-1.973004117111996e-02,1.589264807864914e-11
	1.000000000000000e+00,0.000000000000000e+00
	0.000000000000000e+00,0.000000000000000e+00
	1.973004117111982e-06,-1.589264807864908e-15
	3.253792379197854e-24,4.145041496127133e-13
	2.433817036795460e-14,-6.916184520795181e-17
	-1.973004141450152e-06,-4.128457229596405e-13
	-1.973004117111996e-06,1.589264807864914e-15
	-3.253792379197854e-24,-4.145041496127133e-13
	-1.973004117111996e-06,1.589264807864914e-15
20		1.584893192461113e+00,0.000000000000000e+00
	-1.973004117111996e-02,1.626283540766586e-11
	1.000000000000000e+00,0.000000000000000e+00
	0.000000000000000e+00,0.000000000000000e+00
	1.973004117111982e-06,-1.626283540766582e-15
	3.407138889688531e-24,4.241591915699829e-13
	2.433817036795460e-14,-7.077283153457550e-17
	-1.973004141450152e-06,-4.224621351976817e-13
	-1.973004117111996e-06,1.626283540766586e-15
	-3.407138889688531e-24,-4.241591915699829e-13
	-1.973004117111996e-06,1.626283540766586e-15
21		1.621810097358929e+00,0.000000000000000e+00
	-1.973004117111996e-02,1.664164550727979e-11
	1.000000000000000e+00,0.000000000000000e+00
	0.000000000000000e+00,0.000000000000000e+00
	1.973004117111982e-06,-1.664164550727954e-15
	3.567712398567305e-24,4.340391283450334e-13
	2.433817036795460e-14,-7.242134255322351e-17
	-1.973004141450152e-06,-4.323025424517522e-13
	-1.973004117111996e-06,1.664164550727979e-15
	-3.567712398567305e-24,-4.340391283450334e-13
	-1.973004117111996e-06,1.664164550727979e-15
22		1.659586907437560e+00,0.000000000000000e+00
	-1.973004117111996e-02,1.702927922761991e-11
	1.000000000000000e+00,0.000000000000000e+00
	0.000000000000000e+00,0.000000000000000e+00
	1.973004117111982e-06,-1.702927922761996e-15
	3.735853503774975e-24,4.441491984111195e-13
	2.433817036795460e-14,-7.410825232622169e-17
	-1.973004141450152e-06,-4.423721622360312e-13
	-1.973004117111996e-06,1.702927922761991e-15
	-3.735853503774975e-24,-4.441491984111195e-13
	-1.973004117111996e-06,1.702927922761991e-15
23		1.698243652461743e+00,0.000000000000000e+00
	-1.973004117111996e-02,1.742594209721566e-11
	1.000000000000000e+00,0.000000000000000e+00
	0.000000000000000e+00,0.000000000000000e+00
	1.973004117111982e-06,-1.742594209721563e-15
	3.911918855138755e-24,4.544947622612128e-13
	2.433817036795460e-14,-7.583445527565115e-17
	-1.973004141450152e-06,-4.526763335962156e-13
	-1.973004117111996e-06,1.742594209721566e-15
	-3.911918855138755e-24,-4.544947622612128e-13
	-1.973004117111996e-06,1.742594209721566e-15
24		1.737800828749374e+00,0.000000000000000e+00
	-1.973004117111996e-02,1.783184443197097e-11
	1.000000000000000e+00,0.000000000000000e+00
	0.000000000000000e+00,0.000000000000000e+00
	1.973004117111982e-06,-1.783184443197102e-15
	4.096281910874380e-24,4.650813052502063e-13
	2.433817036795460e-14,-7.760086665694254e-17
	-1.973004141450152e-06,-4.632205199403523e-13
	-1.973004117111996e-06,1.783184443197097e-15
	-4.096281910874380e-24,-4.650813052502063e-13
	-1.973004117111996e-06,1.783184443197097e-15
25		1.778279410038922e+00,0.000000000000000e+00
	-1.973004117111996e-02,1.824720144667648e-11
	1.000000000000000e+00,0.000000000000000e+00
	0.000000000000000e+00,0.000000000000000e+00
	1.973004117111982e-06,-1.824720144667593e-15
	4.289333729741054e-24,4.759144405033225e-13
	2.433817036795460e-14,-7.940842304506673e-17
	-1.973004141450152e-06,-4.740103119356099e-13
	-1.973004117111996e-06,1.824720144667648e-15
	-4.289333729741054e-24,-4.759144405033225e-13
	-1.973004117111996e-06,1.824720144667648e-15
26		1.819700858609982e+00,0.000000000000000e+00
	-1.973004117111996e-02,1.867223336911928e-11
	1.000000000000000e+00,0.000000000000000e+00
	0.000000000000000e+00,0.000000000000000e+00
	1.973004117111982e-06,-1.867223336911913e-15
	4.491483800529499e-24,4.869999118922657e-13
	2.433817036795460e-14,-8.125808282999000e-17
	-1.973004141450152e-06,-4.850514304725238e-13
	-1.973004117111996e-06,1.867223336911928e-15
	-4.491483800529499e-24,-4.869999118922657e-13
	-1.973004117111996e-06,1.867223336911928e-15
27		1.862087136662866e+00,0.000000000000000e+00
	-1.973004117111996e-02,1.910716555685062e-11
	1.000000000000000e+00,0.000000000000000e+00
	0.000000000000000e+00,0.000000000000000e+00
	1.973004117111982e-06,-1.910716555685068e-15
	4.703160910642590e-24,4.983435970807002e-13
	2.433817036795460e-14,-8.315082672606358e-17
	-1.973004141450152e-06,-4.963497296982891e-13
	-1.973004117111996e-06,1.910716555685062e-15
	-4.703160910642590e-24,-4.983435970807002e-13
	-1.973004117111996e-06,1.910716555685062e-15
28		1.905460717963246e+00,0.000000000000000e+00
	-1.973004117111996e-02,1.955222861667342e-11
	1.000000000000000e+00,0.000000000000000e+00
	0.000000000000000e+00,0.000000000000000e+00
	1.973004117111982e-06,-1.955222861667277e-15
	4.924814055610920e-24,5.099515106406641e-13
	2.433817036795460e-14,-8.508765829118252e-17
	-1.973004141450152e-06,-5.079112001207057e-13
	-1.973004117111996e-06,1.955222861667342e-15
	-4.924814055610920e-24,-5.099515106406641e-13
	-1.973004117111996e-06,1.955222861667342e-15
29		1.949844599758044e+00,0.000000000000000e+00
	-1.973004117111996e-02,2.000765852691314e-11
	1.000000000000000e+00,0.000000000000000e+00
	0.000000000000000e+00,0.000000000000000e+00
	1.973004117111982e-06,-2.000765852691338e-15
	5.156913391472527e-24,5.218298072415761e-13
	2.433817036795460e-14,-8.706960445881867e-17
	-1.973004141450152e-06,-5.197419717844259e-13
	-1.973004117111996e-06,2.000765852691314e-15
	-5.156913391472527e-24,-5.218298072415761e-13
	-1.973004117111996e-06,2.000765852691314e-15
30		1.995262314968878e+00,0.000000000000000e+00
	-1.973004117111996e-02,2.047369676253649e-11
	1.000000000000000e+00,0.000000000000000e+00
	0.000000000000000e+00,0.000000000000000e+00
	1.973004117111982e-06,-2.047369676253588e-15
	5.399951232036866e-24,5.339847849135215e-13
	2.433817036795460e-14,-8.909771608353381e-17
	-1.973004141450152e-06,-5.318483175211844e-13
	-1.973004117111996e-06,2.047369676253650e-15
	-5.399951232036866e-24,-5.339847849135215e-13
	-1.973004117111996e-06,2.047369676253650e-15
31		2.041737944669527e+00,0.000000000000000e+00
	-1.973004117111996e-02,2.095059042318475e-11
	1.000000000000000e+00,0.000000000000000e+00
	0.000000000000000e+00,0.000000000000000e+00
	1.973004117111982e-06,-2.095059042318486e-15
	5.654443093148428e-24,5.464228883865522e-13
	2.433817036795460e-14,-9.117306849638822e-17
	-1.973004141450152e-06,-5.442366562757373e-13
	-1.973004117111996e-06,2.095059042318475e-15
	-5.654443093148428e-24,-5.464228883865522e-13
	-1.973004117111996e-06,2.095059042318475e-15
32		2.089296130854037e+00,0.000000000000000e+00
	-1.973004117111996e-02,2.143859236418924e-11
	1.000000000000000e+00,0.000000000000000e+00
	0.000000000000000e+00,0.000000000000000e+00
	1.973004117111982e-06,-2.143859236418960e-15
	5.920928786164950e-24,5.591507125077676e-13
	2.433817036795460e-14,-9.329676207721192e-17
	-1.973004141450152e-06,-5.569135565092715e-13
	-1.973004117111996e-06,2.143859236418924e-15
	-5.920928786164950e-24,-5.591507125077676e-13
	-1.973004117111996e-06,2.143859236418924e-15
33		2.137962089502230e+00,0.000000000000000e+00
	-1.973004117111996e-02,2.193796133063853e-11
	1.000000000000000e+00,0.000000000000000e+00
	0.000000000000000e+00,0.000000000000000e+00
	1.973004117111982e-06,-2.193796133063807e-15
	6.199973562969679e-24,5.721750057379893e-13
	2.433817036795460e-14,-9.546992283616555e-17
	-1.973004141450152e-06,-5.698857396820893e-13
	-1.973004117111996e-06,2.193796133063853e-15
	-6.199973562969679e-24,-5.721750057379893e-13
	-1.973004117111996e-06,2.193796133063853e-15
34		2.187761623949550e+00,0.000000000000000e+00
	-1.973004117111996e-02,2.244896209456858e-11
	1.000000000000000e+00,0.000000000000000e+00
	0.000000000000000e+00,0.000000000000000e+00
	1.973004117111982e-06,-2.244896209456808e-15
	6.492169314946403e-24,5.855026737298847e-13
	2.433817036795460e-14,-9.769370301176004e-17
	-1.973004141450152e-06,-5.831600838174161e-13
	-1.973004117111996e-06,2.244896209456858e-15
	-6.492169314946403e-24,-5.855026737298847e-13
	-1.973004117111996e-06,2.244896209456858e-15
35		2.238721138568337e+00,0.000000000000000e+00
	-1.973004117111996e-02,2.297186559534830e-11
	1.000000000000000e+00,0.000000000000000e+00
	0.000000000000000e+00,0.000000000000000e+00
	1.973004117111982e-06,-2.297186559534763e-15
	6.798135828460430e-24,5.991407829894357e-13
	2.433817036795460e-14,-9.996928168195248e-17
	-1.973004141450152e-06,-5.967436271482190e-13
	-1.973004117111996e-06,2.297186559534830e-15
	-6.798135828460430e-24,-5.991407829894357e-13
	-1.973004117111996e-06,2.297186559534830e-15
36		2.290867652767770e+00,0.000000000000000e+00
	-1.973004117111996e-02,2.350694908333527e-11
	1.000000000000000e+00,0.000000000000000e+00
	0.000000000000000e+00,0.000000000000000e+00
	1.973004117111982e-06,-2.350694908333497e-15
	7.118522099508569e-24,6.130965646226935e-13
	2.433817036795460e-14,-1.022978653882676e-16
	-1.973004141450152e-06,-6.106435718489717e-13
	-1.973004117111996e-06,2.350694908333528e-15
	-7.118522099508569e-24,-6.130965646226935e-13
	-1.973004117111996e-06,2.350694908333528e-15
37		2.344228815319919e+00,0.000000000000000e+00
	-1.973004117111996e-02,2.405449626687748e-11
	1.000000000000000e+00,0.000000000000000e+00
	0.000000000000000e+00,0.000000000000000e+00
	1.973004117111982e-06,-2.405449626687680e-15
	7.454007710326647e-24,6.273774181698068e-13
	2.433817036795460e-14,-1.046806887772867e-16
	-1.973004141450152e-06,-6.248672878543419e-13
	-1.973004117111996e-06,2.405449626687748e-15
	-7.454007710326647e-24,-6.273774181698068e-13
	-1.973004117111996e-06,2.405449626687748e-15
38		2.398832919019488e+00,0.000000000000000e+00
	-1.973004117111996e-02,2.461479746273929e-11
	1.000000000000000e+00,0.000000000000000e+00
	0.000000000000000e+00,0.000000000000000e+00
