Title: * GA CMOS Amp | W=1.0718147501069572e-06 L=6.314531625674658e-07 Vbias=1.1798193888854602
Date: Mon Sep  8 18:46:19 2025
Plotname: AC Analysis
Flags: complex forward log
No. Variables: 11
No. Points:          901
Offset:    0.0000000000000000e+00
Command: Linear Technology Corporation LTspice
Variables:
	0	frequency	frequency
	1	V(out)	voltage
	2	V(g)	voltage
	3	V(vdd)	voltage
	4	Id(M1)	device_current
	5	Ig(M1)	device_current
	6	Ib(M1)	device_current
	7	Is(M1)	device_current
	8	I(Rload)	device_current
	9	I(Vg)	device_current
	10	I(Vdd)	device_current
Values:
0		1.000000000000000e+00,0.000000000000000e+00
	-4.707899134511121e-01,1.920495226577018e-11
	1.000000000000000e+00,0.000000000000000e+00
	0.000000000000000e+00,0.000000000000000e+00
	4.707899134511122e-05,-1.920495226577018e-15
	2.586680716748748e-26,7.074802241848797e-15
	4.707899109619718e-13,-4.024743944631332e-16
	-4.707899181590113e-05,-4.751832620808646e-15
	-4.707899134511121e-05,1.920495226577018e-15
	-2.586680716748748e-26,-7.074802241848798e-15
	-4.707899134511121e-05,1.920495226577018e-15
1		1.023292992280754e+00,0.000000000000000e+00
	-4.707899134511121e-01,1.965229307064901e-11
	1.000000000000000e+00,0.000000000000000e+00
	0.000000000000000e+00,0.000000000000000e+00
	4.707899134511122e-05,-1.965229307064901e-15
	2.708587223200377e-26,7.239595555856044e-15
	4.707899109619718e-13,-4.118492274265641e-16
	-4.707899181590113e-05,-4.862517021364578e-15
	-4.707899134511121e-05,1.965229307064901e-15
	-2.708587223200377e-26,-7.239595555856044e-15
	-4.707899134511121e-05,1.965229307064901e-15
2		1.047128548050899e+00,0.000000000000000e+00
	-4.707899134511121e-01,2.011005378144275e-11
	1.000000000000000e+00,0.000000000000000e+00
	0.000000000000000e+00,0.000000000000000e+00
	4.707899134511122e-05,-2.011005378144276e-15
	2.836239006299028e-26,7.408227399254379e-15
	4.707899109619718e-13,-4.214424283018451e-16
	-4.707899181590113e-05,-4.975779592808258e-15
	-4.707899134511121e-05,2.011005378144275e-15
	-2.836239006299028e-26,-7.408227399254380e-15
	-4.707899134511121e-05,2.011005378144275e-15
3		1.071519305237606e+00,0.000000000000000e+00
	-4.707899134511121e-01,2.057847710893945e-11
	1.000000000000000e+00,0.000000000000000e+00
	0.000000000000000e+00,0.000000000000000e+00
	4.707899134511122e-05,-2.057847710893945e-15
	2.969906832591226e-26,7.580787182879282e-15
	4.707899109619718e-13,-4.312590835310625e-16
	-4.707899181590113e-05,-5.091680388454274e-15
	-4.707899134511121e-05,2.057847710893945e-15
	-2.969906832591226e-26,-7.580787182879284e-15
	-4.707899134511121e-05,2.057847710893945e-15
4		1.096478196143185e+00,0.000000000000000e+00
	-4.707899134511121e-01,2.105781141738765e-11
	1.000000000000000e+00,0.000000000000000e+00
	0.000000000000000e+00,0.000000000000000e+00
	4.707899134511122e-05,-2.105781141738765e-15
	3.109874229457695e-26,7.757366400212127e-15
	4.707899109619718e-13,-4.413043980347565e-16
	-4.707899181590113e-05,-5.210280860438606e-15
	-4.707899134511121e-05,2.105781141738765e-15
	-3.109874229457695e-26,-7.757366400212129e-15
	-4.707899134511121e-05,2.105781141738765e-15
5		1.122018454301963e+00,0.000000000000000e+00
	-4.707899134511121e-01,2.154831085618244e-11
	1.000000000000000e+00,0.000000000000000e+00
	0.000000000000000e+00,0.000000000000000e+00
	4.707899134511122e-05,-2.154831085618244e-15
	3.256438086512948e-26,7.938058675891251e-15
	4.707899109619718e-13,-4.515836979716424e-16
	-4.707899181590113e-05,-5.331643892301365e-15
	-4.707899134511121e-05,2.154831085618244e-15
	-3.256438086512948e-26,-7.938058675891252e-15
	-4.707899134511121e-05,2.154831085618244e-15
6		1.148153621496882e+00,0.000000000000000e+00
	-4.707899134511121e-01,2.205023549461878e-11
	1.000000000000000e+00,0.000000000000000e+00
	0.000000000000000e+00,0.000000000000000e+00
	4.707899134511122e-05,-2.205023549461878e-15
	3.409909285347952e-26,8.122959815352959e-15
	4.707899109619718e-13,-4.621024335626107e-16
	-4.707899181590113e-05,-5.455833832328470e-15
	-4.707899134511121e-05,2.205023549461878e-15
	-3.409909285347952e-26,-8.122959815352961e-15
	-4.707899134511121e-05,2.205023549461878e-15
7		1.174897554939529e+00,0.000000000000000e+00
	-4.707899134511121e-01,2.256385145978375e-11
	1.000000000000000e+00,0.000000000000000e+00
	0.000000000000000e+00,0.000000000000000e+00
	4.707899134511122e-05,-2.256385145978375e-15
	3.570613358951681e-26,8.312167855628850e-15
	4.707899109619718e-13,-4.728661819805016e-16
	-4.707899181590113e-05,-5.582916527669973e-15
	-4.707899134511121e-05,2.256385145978375e-15
	-3.570613358951681e-26,-8.312167855628851e-15
	-4.707899134511121e-05,2.256385145978375e-15
8		1.202264434617413e+00,0.000000000000000e+00
	-4.707899134511121e-01,2.308943107766057e-11
	1.000000000000000e+00,0.000000000000000e+00
	0.000000000000000e+00,0.000000000000000e+00
	4.707899134511122e-05,-2.308943107766058e-15
	3.738891182210220e-26,8.505783117326347e-15
	4.707899109619718e-13,-4.838806503072035e-16
	-4.707899181590113e-05,-5.712959359253086e-15
	-4.707899134511121e-05,2.308943107766057e-15
	-3.738891182210220e-26,-8.505783117326349e-15
	-4.707899134511121e-05,2.308943107766057e-15
9		1.230268770812381e+00,0.000000000000000e+00
	-4.707899134511121e-01,2.362725301751953e-11
	1.000000000000000e+00,0.000000000000000e+00
	0.000000000000000e+00,0.000000000000000e+00
	4.707899134511122e-05,-2.362725301751952e-15
	3.915099694948098e-26,8.703908257819997e-15
	4.707899109619718e-13,-4.951516785596156e-16
	-4.707899181590113e-05,-5.846031277508429e-15
	-4.707899134511121e-05,2.362725301751953e-15
	-3.915099694948098e-26,-8.703908257819999e-15
	-4.707899134511121e-05,2.362725301751953e-15
10		1.258925411794167e+00,0.000000000000000e+00
	-4.707899134511121e-01,2.417760243967203e-11
	1.000000000000000e+00,0.000000000000000e+00
	0.000000000000000e+00,0.000000000000000e+00
	4.707899134511122e-05,-2.417760243967204e-15
	4.099612659045522e-26,8.906648325681792e-15
	4.707899109619718e-13,-5.066852427861080e-16
	-4.707899181590113e-05,-5.982202838928480e-15
	-4.707899134511121e-05,2.417760243967204e-15
	-4.099612659045522e-26,-8.906648325681794e-15
	-4.707899134511121e-05,2.417760243967204e-15
11		1.288249551693134e+00,0.000000000000000e+00
	-4.707899134511121e-01,2.474077114666646e-11
	1.000000000000000e+00,0.000000000000000e+00
	0.000000000000000e+00,0.000000000000000e+00
	4.707899134511122e-05,-2.474077114666646e-15
	4.292821451237427e-26,9.114110816379291e-15
	4.707899109619718e-13,-5.184874582350972e-16
	-4.707899181590113e-05,-6.121546243477547e-15
	-4.707899134511121e-05,2.474077114666647e-15
	-4.292821451237427e-26,-9.114110816379292e-15
	-4.707899134511121e-05,2.474077114666647e-15
12		1.318256738556407e+00,0.000000000000000e+00
	-4.707899134511121e-01,2.531705773800567e-11
	1.000000000000000e+00,0.000000000000000e+00
	0.000000000000000e+00,0.000000000000000e+00
	4.707899134511122e-05,-2.531705773800567e-15
	4.495135893276001e-26,9.326405729271151e-15
	4.707899109619718e-13,-5.305645825974350e-16
	-4.707899181590113e-05,-6.264135372873149e-15
	-4.707899134511121e-05,2.531705773800567e-15
	-4.495135893276001e-26,-9.326405729271152e-15
	-4.707899134511121e-05,2.531705773800567e-15
13		1.348962882591653e+00,0.000000000000000e+00
	-4.707899134511121e-01,2.590676776846844e-11
	1.000000000000000e+00,0.000000000000000e+00
	0.000000000000000e+00,0.000000000000000e+00
	4.707899134511122e-05,-2.590676776846844e-15
	4.706985121217584e-26,9.543645625930246e-15
	4.707899109619718e-13,-5.429230193243189e-16
	-4.707899181590113e-05,-6.410045829759083e-15
	-4.707899134511121e-05,2.590676776846844e-15
	-4.706985121217584e-26,-9.543645625930247e-15
	-4.707899134511121e-05,2.590676776846844e-15
14		1.380384264602885e+00,0.000000000000000e+00
	-4.707899134511121e-01,2.651021391011867e-11
	1.000000000000000e+00,0.000000000000000e+00
	0.000000000000000e+00,0.000000000000000e+00
	4.707899134511122e-05,-2.651021391011866e-15
	4.928818495677754e-26,9.765945689825293e-15
	4.707899109619718e-13,-5.555693210224850e-16
	-4.707899181590113e-05,-6.559354977790941e-15
	-4.707899134511121e-05,2.651021391011867e-15
	-4.928818495677754e-26,-9.765945689825294e-15
	-4.707899134511121e-05,2.651021391011867e-15
15		1.412537544622754e+00,0.000000000000000e+00
	-4.707899134511121e-01,2.712771611808820e-11
	1.000000000000000e+00,0.000000000000000e+00
	0.000000000000000e+00,0.000000000000000e+00
	4.707899134511122e-05,-2.712771611808820e-15
	5.161106554985466e-26,9.993423787392656e-15
	4.707899109619718e-13,-5.685101929284846e-16
	-4.707899181590113e-05,-6.712141982655351e-15
	-4.707899134511121e-05,2.712771611808820e-15
	-5.161106554985466e-26,-9.993423787392658e-15
	-4.707899134511121e-05,2.712771611808820e-15
16		1.445439770745927e+00,0.000000000000000e+00
	-4.707899134511121e-01,2.775960180022131e-11
	1.000000000000000e+00,0.000000000000000e+00
	0.000000000000000e+00,0.000000000000000e+00
	4.707899134511122e-05,-2.775960180022131e-15
	5.404342013257908e-26,1.022620053053070e-14
	4.707899109619718e-13,-5.817524964638978e-16
	-4.707899181590113e-05,-6.868487854044667e-15
	-4.707899134511121e-05,2.775960180022131e-15
	-5.404342013257908e-26,-1.022620053053070e-14
	-4.707899134511121e-05,2.775960180022131e-15
17		1.479108388168207e+00,0.000000000000000e+00
	-4.707899134511121e-01,2.840620599067067e-11
	1.000000000000000e+00,0.000000000000000e+00
	0.000000000000000e+00,0.000000000000000e+00
	4.707899134511122e-05,-2.840620599067067e-15
	5.659040805513227e-26,1.046439934054979e-14
	4.707899109619718e-13,-5.953032528733413e-16
	-4.707899181590113e-05,-7.028475488609382e-15
	-4.707899134511121e-05,2.840620599067067e-15
	-5.659040805513227e-26,-1.046439934054979e-14
	-4.707899134511121e-05,2.840620599067067e-15
18		1.513561248436208e+00,0.000000000000000e+00
	-4.707899134511121e-01,2.906787152753688e-11
	1.000000000000000e+00,0.000000000000000e+00
	0.000000000000000e+00,0.000000000000000e+00
	4.707899134511122e-05,-2.906787152753688e-15
	5.925743182037860e-26,1.070814651361194e-14
	4.707899109619718e-13,-6.091696469472259e-16
	-4.707899181590113e-05,-7.192189713911031e-15
	-4.707899134511121e-05,2.906787152753688e-15
	-5.925743182037860e-26,-1.070814651361195e-14
	-4.707899134511121e-05,2.906787152753688e-15
19		1.548816618912481e+00,0.000000000000000e+00
	-4.707899134511121e-01,2.974494923464574e-11
	1.000000000000000e+00,0.000000000000000e+00
	0.000000000000000e+00,0.000000000000000e+00
	4.707899134511122e-05,-2.974494923464575e-15
	6.205014854329821e-26,1.095757128769469e-14
	4.707899109619718e-13,-6.233590308312363e-16
	-4.707899181590113e-05,-7.359717333398880e-15
	-4.707899134511121e-05,2.974494923464574e-15
	-6.205014854329821e-26,-1.095757128769469e-14
	-4.707899134511121e-05,2.974494923464574e-15
20		1.584893192461113e+00,0.000000000000000e+00
	-4.707899134511121e-01,3.043779810755978e-11
	1.000000000000000e+00,0.000000000000000e+00
	0.000000000000000e+00,0.000000000000000e+00
	4.707899134511122e-05,-3.043779810755978e-15
	6.497448195048651e-26,1.121280591111478e-14
	4.707899109619718e-13,-6.378789279245289e-16
	-4.707899181590113e-05,-7.531147172434271e-15
	-4.707899134511121e-05,3.043779810755978e-15
	-6.497448195048651e-26,-1.121280591111478e-14
	-4.707899134511121e-05,3.043779810755978e-15
21		1.621810097358929e+00,0.000000000000000e+00
	-4.707899134511121e-01,3.114678550392231e-11
	1.000000000000000e+00,0.000000000000000e+00
	0.000000000000000e+00,0.000000000000000e+00
	4.707899134511122e-05,-3.114678550392232e-15
	6.803663494517228e-26,1.147398571264797e-14
	4.707899109619718e-13,-6.527370368687320e-16
	-4.707899181590113e-05,-7.706570125387005e-15
	-4.707899134511121e-05,3.114678550392231e-15
	-6.803663494517228e-26,-1.147398571264797e-14
	-4.707899134511121e-05,3.114678550392231e-15
22		1.659586907437560e+00,0.000000000000000e+00
	-4.707899134511121e-01,3.187228733823548e-11
	1.000000000000000e+00,0.000000000000000e+00
	0.000000000000000e+00,0.000000000000000e+00
	4.707899134511122e-05,-3.187228733823548e-15
	7.124310276440736e-26,1.174124917328216e-14
	4.707899109619718e-13,-6.679412356298760e-16
	-4.707899181590113e-05,-7.886079203828737e-15
	-4.707899134511121e-05,3.187228733823548e-15
	-7.124310276440736e-26,-1.174124917328216e-14
	-4.707899134511121e-05,3.187228733823548e-15
23		1.698243652461743e+00,0.000000000000000e+00
	-4.707899134511121e-01,3.261468828117498e-11
	1.000000000000000e+00,0.000000000000000e+00
	0.000000000000000e+00,0.000000000000000e+00
	4.707899134511122e-05,-3.261468828117498e-15
	7.460068675633490e-26,1.201473799964183e-14
	4.707899109619718e-13,-6.834995856753993e-16
	-4.707899181590113e-05,-8.069769585848934e-15
	-4.707899134511121e-05,3.261468828117498e-15
	-7.460068675633490e-26,-1.201473799964183e-14
	-4.707899134511121e-05,3.261468828117498e-15
24		1.737800828749374e+00,0.000000000000000e+00
	-4.707899134511121e-01,3.337438196354758e-11
	1.000000000000000e+00,0.000000000000000e+00
	0.000000000000000e+00,0.000000000000000e+00
	4.707899134511122e-05,-3.337438196354759e-15
	7.811650880676092e-26,1.229459719912277e-14
	4.707899109619718e-13,-6.994203362484353e-16
	-4.707899181590113e-05,-8.257738666519578e-15
	-4.707899134511121e-05,3.337438196354759e-15
	-7.811650880676092e-26,-1.229459719912277e-14
	-4.707899134511121e-05,3.337438196354759e-15
25		1.778279410038922e+00,0.000000000000000e+00
	-4.707899134511121e-01,3.415177118499944e-11
	1.000000000000000e+00,0.000000000000000e+00
	0.000000000000000e+00,0.000000000000000e+00
	4.707899134511122e-05,-3.415177118499944e-15
	8.179802644562889e-26,1.258097515677692e-14
	4.707899109619718e-13,-7.157119287416706e-16
	-4.707899181590113e-05,-8.450086109535304e-15
	-4.707899134511121e-05,3.415177118499944e-15
	-8.179802644562889e-26,-1.258097515677692e-14
	-4.707899134511121e-05,3.415177118499944e-15
26		1.819700858609982e+00,0.000000000000000e+00
	-4.707899134511121e-01,3.494726812758570e-11
	1.000000000000000e+00,0.000000000000000e+00
	0.000000000000000e+00,0.000000000000000e+00
	4.707899134511122e-05,-3.494726812758571e-15
	8.565304866544039e-26,1.287402371398808e-14
	4.707899109619718e-13,-7.323830011730959e-16
	-4.707899181590113e-05,-8.646913900056416e-15
	-4.707899134511121e-05,3.494726812758570e-15
	-8.565304866544039e-26,-1.287402371398809e-14
	-4.707899134511121e-05,3.494726812758570e-15
27		1.862087136662866e+00,0.000000000000000e+00
	-4.707899134511121e-01,3.576129457431501e-11
	1.000000000000000e+00,0.000000000000000e+00
	0.000000000000000e+00,0.000000000000000e+00
	4.707899134511122e-05,-3.576129457431501e-15
	8.968975248517567e-26,1.317389824898025e-14
	4.707899109619718e-13,-7.494423927659768e-16
	-4.707899181590113e-05,-8.848326398782775e-15
	-4.707899134511121e-05,3.576129457431501e-15
	-8.968975248517567e-26,-1.317389824898025e-14
	-4.707899134511121e-05,3.576129457431501e-15
28		1.905460717963246e+00,0.000000000000000e+00
	-4.707899134511121e-01,3.659428213278430e-11
	1.000000000000000e+00,0.000000000000000e+00
	0.000000000000000e+00,0.000000000000000e+00
	4.707899134511122e-05,-3.659428213278430e-15
	9.391670029484653e-26,1.348075775920119e-14
	4.707899109619718e-13,-7.668991486355436e-16
	-4.707899181590113e-05,-9.054430397287215e-15
	-4.707899134511121e-05,3.659428213278429e-15
	-9.391670029484653e-26,-1.348075775920119e-14
	-4.707899134511121e-05,3.659428213278429e-15
29		1.949844599758044e+00,0.000000000000000e+00
	-4.707899134511121e-01,3.744667246402299e-11
	1.000000000000000e+00,0.000000000000000e+00
	0.000000000000000e+00,0.000000000000000e+00
	4.707899134511122e-05,-3.744667246402300e-15
	9.834285801747416e-26,1.379476494562498e-14
	4.707899109619718e-13,-7.847625245848281e-16
	-4.707899181590113e-05,-9.265335174637852e-15
	-4.707899134511121e-05,3.744667246402299e-15
	-9.834285801747416e-26,-1.379476494562498e-14
	-4.707899134511121e-05,3.744667246402299e-15
30		1.995262314968878e+00,0.000000000000000e+00
	-4.707899134511121e-01,3.831891751666739e-11
	1.000000000000000e+00,0.000000000000000e+00
	0.000000000000000e+00,0.000000000000000e+00
	4.707899134511122e-05,-3.831891751666740e-15
	1.029776141270135e-25,1.411608629901824e-14
	4.707899109619718e-13,-8.030419920122092e-16
	-4.707899181590113e-05,-9.481152555339290e-15
	-4.707899134511121e-05,3.831891751666740e-15
	-1.029776141270135e-25,-1.411608629901824e-14
	-4.707899134511121e-05,3.831891751666740e-15
31		2.041737944669527e+00,0.000000000000000e+00
	-4.707899134511121e-01,3.921147976658998e-11
	1.000000000000000e+00,0.000000000000000e+00
	0.000000000000000e+00,0.000000000000000e+00
	4.707899134511122e-05,-3.921147976658998e-15
	1.078307995625654e-25,1.444489218821573e-14
	4.707899109619718e-13,-8.217472429332697e-16
	-4.707899181590113e-05,-9.701996968623459e-15
	-4.707899134511121e-05,3.921147976658998e-15
	-1.078307995625654e-25,-1.444489218821573e-14
	-4.707899134511121e-05,3.921147976658998e-15
32		2.089296130854037e+00,0.000000000000000e+00
	-4.707899134511121e-01,4.012483246211011e-11
	1.000000000000000e+00,0.000000000000000e+00
	0.000000000000000e+00,0.000000000000000e+00
	4.707899134511122e-05,-4.012483246211011e-15
	1.129127085811167e-25,1.478135695045216e-14
	4.707899109619718e-13,-8.408881951196478e-16
	-4.707899181590113e-05,-9.927985509121505e-15
	-4.707899134511121e-05,4.012483246211011e-15
	-1.129127085811167e-25,-1.478135695045216e-14
	-4.707899134511121e-05,4.012483246211011e-15
33		2.137962089502230e+00,0.000000000000000e+00
	-4.707899134511121e-01,4.105945987491659e-11
	1.000000000000000e+00,0.000000000000000e+00
	0.000000000000000e+00,0.000000000000000e+00
	4.707899134511122e-05,-4.105945987491659e-15
	1.182341205930390e-25,1.512565898379812e-14
	4.707899109619718e-13,-8.604749973575450e-16
	-4.707899181590113e-05,-1.015923799894891e-14
	-4.707899134511121e-05,4.105945987491659e-15
	-1.182341205930390e-25,-1.512565898379812e-14
	-4.707899134511121e-05,4.105945987491659e-15
34		2.187761623949550e+00,0.000000000000000e+00
	-4.707899134511121e-01,4.201585755683495e-11
	1.000000000000000e+00,0.000000000000000e+00
	0.000000000000000e+00,0.000000000000000e+00
	4.707899134511122e-05,-4.201585755683496e-15
	1.238063230266639e-25,1.547798084174904e-14
	4.707899109619718e-13,-8.805180348287769e-16
	-4.707899181590113e-05,-1.039587705123677e-14
	-4.707899134511121e-05,4.201585755683496e-15
	-1.238063230266639e-25,-1.547798084174905e-14
	-4.707899134511121e-05,4.201585755683496e-15
35		2.238721138568337e+00,0.000000000000000e+00
	-4.707899134511121e-01,4.299453260257557e-11
	1.000000000000000e+00,0.000000000000000e+00
	0.000000000000000e+00,0.000000000000000e+00
	4.707899134511122e-05,-4.299453260257558e-15
	1.296411352704312e-25,1.583850933001756e-14
	4.707899109619718e-13,-9.010279346171066e-16
	-4.707899181590113e-05,-1.063802813514290e-14
	-4.707899134511121e-05,4.299453260257558e-15
	-1.296411352704312e-25,-1.583850933001757e-14
	-4.707899134511121e-05,4.299453260257558e-15
36		2.290867652767770e+00,0.000000000000000e+00
	-4.707899134511121e-01,4.399600391860199e-11
	1.000000000000000e+00,0.000000000000000e+00
	0.000000000000000e+00,0.000000000000000e+00
	4.707899134511122e-05,-4.399600391860199e-15
	1.357509337433969e-25,1.620743560558031e-14
	4.707899109619718e-13,-9.220155713428858e-16
	-4.707899181590113e-05,-1.088581964237723e-14
	-4.707899134511121e-05,4.399600391860199e-15
	-1.357509337433969e-25,-1.620743560558032e-14
	-4.707899134511121e-05,4.399600391860199e-15
37		2.344228815319919e+00,0.000000000000000e+00
	-4.707899134511121e-01,4.502080249826201e-11
	1.000000000000000e+00,0.000000000000000e+00
	0.000000000000000e+00,0.000000000000000e+00
	4.707899134511122e-05,-4.502080249826202e-15
	1.421486781472770e-25,1.658495527803192e-14
	4.707899109619718e-13,-9.434920729289122e-16
	-4.707899181590113e-05,-1.113938295527680e-14
	-4.707899134511121e-05,4.502080249826201e-15
	-1.421486781472770e-25,-1.658495527803192e-14
	-4.707899134511121e-05,4.502080249826201e-15
38		2.398832919019488e+00,0.000000000000000e+00
	-4.707899134511121e-01,4.606947170332739e-11
	1.000000000000000e+00,0.000000000000000e+00
