LTspice 24.0.9 for Windows
Circuit: * GA CMOS Amp | W=1.619223966817997e-05 L=5.331074756146602e-07 Vbias=0.7729923010337132
Start Time: Mon Sep  8 18:45:58 2025
solver = Normal
Maximum thread count: 2
tnom = 27
temp = 27
method = modified trap
AsciiRawFile = 1
Instance "m1": Length shorter than recommended for a level 3 MOSFET.
Direct Newton iteration for .op point succeeded.
Semiconductor Device Operating Points:
                        --- MOSFET Transistors ---
Name:          m1
Model:        n_1u
Id:          2.31e-05
Vgs:         7.73e-01
Vds:         1.57e+00
Vbs:         0.00e+00
Vth:         7.36e-01
Vdsat:       7.61e-02
Gm:          4.69e-04
Gds:         7.77e-06
Gmb:         7.33e-05
Cbd:         0.00e+00
Cbs:         0.00e+00
Cgsov:       3.24e-15
Cgdov:       3.24e-15
Cgbov:       3.33e-17
Cgs:         6.21e-15
Cgd:         0.00e+00
Cgb:         0.00e+00



gain_db: MAX(db(v(out)/v(g)))=(29.5809dB,64.8995°) FROM 1 TO 1e+09
gain_lin: MAX(mag(v(out)/v(g)))=(12.7827dB,0°) FROM 1 TO 1e+09

Measurement "fc" FAIL'ed

Total elapsed time: 0.688 seconds.

