Title: * GA CMOS Amp | W=2.4535472188537017e-05 L=3.1294651935338535e-07 Vbias=0.6453911851981662
Date: Sat Sep  6 22:36:09 2025
Plotname: AC Analysis
Flags: complex forward log
No. Variables: 13
No. Points:          901
Offset:    0.0000000000000000e+00
Command: Linear Technology Corporation LTspice
Variables:
	0	frequency	frequency
	1	V(out)	voltage
	2	V(g)	voltage
	3	V(vdd)	voltage
	4	V(m1#dbody)	voltage
	5	V(m1#sbody)	voltage
	6	Id(M1)	device_current
	7	Ig(M1)	device_current
	8	Ib(M1)	device_current
	9	Is(M1)	device_current
	10	I(Rload)	device_current
	11	I(Vg)	device_current
	12	I(Vdd)	device_current
Values:
0		1.000000000000000e+00,0.000000000000000e+00
	-4.071821319328152e-02,1.769713191141498e-10
	1.000000000000000e+00,0.000000000000000e+00
	0.000000000000000e+00,0.000000000000000e+00
	3.291909206446777e-09,-2.323783283679764e-14
	3.292251480042620e-09,7.232392978179800e-17
	4.071821319328244e-06,-1.769713191141549e-14
	5.314836321924591e-07,1.976991474908825e-12
	-1.755844639110782e-09,1.515436472769224e-15
	-4.601549106881593e-06,-1.960809779470179e-12
	-4.071821319328152e-06,1.769713191141498e-14
	-5.314836322017902e-07,-1.976991474908825e-12
	-4.071821319328152e-06,1.769713191141498e-14
1		1.023292992280754e+00,0.000000000000000e+00
	-4.071821319328152e-02,1.810935106841905e-10
	1.000000000000000e+00,0.000000000000000e+00
	0.000000000000000e+00,0.000000000000000e+00
	3.291909206446760e-09,-2.377911149768660e-14
	3.292251480042608e-09,7.400857051994348e-17
	4.071821319328244e-06,-1.810935106841931e-14
	5.314836321924591e-07,2.023041522072993e-12
	-1.755844639110775e-09,1.550735522831397e-15
	-4.601549106881593e-06,-2.006482906527405e-12
	-4.071821319328152e-06,1.810935106841906e-14
	-5.314836322017902e-07,-2.023041522072993e-12
	-4.071821319328152e-06,1.810935106841906e-14
2		1.047128548050899e+00,0.000000000000000e+00
	-4.071821319328152e-02,1.853117204306520e-10
	1.000000000000000e+00,0.000000000000000e+00
	0.000000000000000e+00,0.000000000000000e+00
	3.291909206446742e-09,-2.433299815824543e-14
	3.292251480042595e-09,7.573245158175150e-17
	4.071821319328244e-06,-1.853117204306558e-14
	5.314836321924591e-07,2.070164212630284e-12
	-1.755844639110768e-09,1.586856793394212e-15
	-4.601549106881593e-06,-2.053219897380613e-12
	-4.071821319328152e-06,1.853117204306521e-14
	-5.314836322017902e-07,-2.070164212630284e-12
	-4.071821319328152e-06,1.853117204306521e-14
3		1.071519305237606e+00,0.000000000000000e+00
	-4.071821319328152e-02,1.896281849041765e-10
	1.000000000000000e+00,0.000000000000000e+00
	0.000000000000000e+00,0.000000000000000e+00
	3.291909206446725e-09,-2.489978649651304e-14
	3.292251480042582e-09,7.749648699185152e-17
	4.071821319328244e-06,-1.896281849041813e-14
	5.314836321924591e-07,2.118384531654975e-12
	-1.755844639110760e-09,1.623819436433404e-15
	-4.601549106881593e-06,-2.101045532600990e-12
	-4.071821319328152e-06,1.896281849041765e-14
	-5.314836322017902e-07,-2.118384531654974e-12
	-4.071821319328152e-06,1.896281849041765e-14
4		1.096478196143185e+00,0.000000000000000e+00
	-4.071821319328152e-02,1.940451927513629e-10
	1.000000000000000e+00,0.000000000000000e+00
	0.000000000000000e+00,0.000000000000000e+00
	3.291909206446705e-09,-2.547977703116872e-14
	3.292251480042568e-09,7.930161206515564e-17
	4.071821319328244e-06,-1.940451927513618e-14
	5.314836321924591e-07,2.167728046198482e-12
	-1.755844639110753e-09,1.661643050031576e-15
	-4.601549106881593e-06,-2.149985169973378e-12
	-4.071821319328152e-06,1.940451927513629e-14
	-5.314836322017902e-07,-2.167728046198482e-12
	-4.071821319328152e-06,1.940451927513629e-14
5		1.122018454301963e+00,0.000000000000000e+00
	-4.071821319328152e-02,1.985650859282379e-10
	1.000000000000000e+00,0.000000000000000e+00
	0.000000000000000e+00,0.000000000000000e+00
	3.291909206446685e-09,-2.607327728087108e-14
	3.292251480042554e-09,8.114878390283569e-17
	4.071821319328244e-06,-1.985650859282377e-14
	5.314836321924591e-07,2.218220918845358e-12
	-1.755844639110744e-09,1.700347688769333e-15
	-4.601549106881593e-06,-2.200064757941304e-12
	-4.071821319328152e-06,1.985650859282379e-14
	-5.314836322017902e-07,-2.218220918845358e-12
	-4.071821319328152e-06,1.985650859282379e-14
6		1.148153621496882e+00,0.000000000000000e+00
	-4.071821319328152e-02,2.031902609419915e-10
	1.000000000000000e+00,0.000000000000000e+00
	0.000000000000000e+00,0.000000000000000e+00
	3.291909206446663e-09,-2.668060192730838e-14
	3.292251480042538e-09,8.303898189987383e-17
	4.071821319328244e-06,-2.031902609419950e-14
	5.314836321924591e-07,2.269889921585031e-12
	-1.755844639110736e-09,1.739953874358437e-15
	-4.601549106881593e-06,-2.251310849365189e-12
	-4.071821319328152e-06,2.031902609419915e-14
	-5.314836322017902e-07,-2.269889921585030e-12
	-4.071821319328152e-06,2.031902609419915e-14
7		1.174897554939529e+00,0.000000000000000e+00
	-4.071821319328152e-02,2.079231701216377e-10
	1.000000000000000e+00,0.000000000000000e+00
	0.000000000000000e+00,0.000000000000000e+00
	3.291909206446641e-09,-2.730207298204705e-14
	3.292251480042522e-09,8.497320826426266e-17
	4.071821319328244e-06,-2.079231701216389e-14
	5.314836321924591e-07,2.322762450006672e-12
	-1.755844639110727e-09,1.780482606522740e-15
	-4.601549106881593e-06,-2.303750615601031e-12
	-4.071821319328152e-06,2.079231701216378e-14
	-5.314836322017902e-07,-2.322762450006672e-12
	-4.071821319328152e-06,2.079231701216378e-14
8		1.202264434617413e+00,0.000000000000000e+00
	-4.071821319328152e-02,2.127663229182710e-10
	1.000000000000000e+00,0.000000000000000e+00
	0.000000000000000e+00,0.000000000000000e+00
	3.291909206446618e-09,-2.793801995726645e-14
	3.292251480042506e-09,8.695248854843524e-17
	4.071821319328244e-06,-2.127663229182708e-14
	5.314836321924591e-07,2.376866537824702e-12
	-1.755844639110718e-09,1.821955374132490e-15
	-4.601549106881593e-06,-2.357411860907008e-12
	-4.071821319328152e-06,2.127663229182710e-14
	-5.314836322017902e-07,-2.376866537824703e-12
	-4.071821319328152e-06,2.127663229182710e-14
9		1.230268770812381e+00,0.000000000000000e+00
	-4.071821319328152e-02,2.177222872356107e-10
	1.000000000000000e+00,0.000000000000000e+00
	0.000000000000000e+00,0.000000000000000e+00
	3.291909206446593e-09,-2.858878004047063e-14
	3.292251480042488e-09,8.897787219297566e-17
	4.071821319328244e-06,-2.177222872356109e-14
	5.314836321924591e-07,2.432230871742636e-12
	-1.755844639110708e-09,1.864394166598042e-15
	-4.601549106881593e-06,-2.412323037185673e-12
	-4.071821319328152e-06,2.177222872356107e-14
	-5.314836322017902e-07,-2.432230871742636e-12
	-4.071821319328152e-06,2.177222872356107e-14
10		1.258925411794167e+00,0.000000000000000e+00
	-4.071821319328152e-02,2.227936907915379e-10
	1.000000000000000e+00,0.000000000000000e+00
	0.000000000000000e+00,0.000000000000000e+00
	3.291909206446568e-09,-2.925469827326949e-14
	3.292251480042470e-09,9.105043308312750e-17
	4.071821319328244e-06,-2.227936907915389e-14
	5.314836321924589e-07,2.488884806663150e-12
	-1.755844639110697e-09,1.907821485528892e-15
	-4.601549106881593e-06,-2.468513259069525e-12
	-4.071821319328152e-06,2.227936907915379e-14
	-5.314836322017902e-07,-2.488884806663149e-12
	-4.071821319328152e-06,2.227936907915379e-14
11		1.288249551693134e+00,0.000000000000000e+00
	-4.071821319328152e-02,2.279832225113460e-10
	1.000000000000000e+00,0.000000000000000e+00
	0.000000000000000e+00,0.000000000000000e+00
	3.291909206446541e-09,-2.993612773432453e-14
	3.292251480042450e-09,9.317127011810027e-17
	4.071821319328244e-06,-2.279832225113474e-14
	5.314836321924589e-07,2.546858381252441e-12
	-1.755844639110687e-09,1.952260356664369e-15
	-4.601549106881593e-06,-2.526012319357971e-12
	-4.071821319328152e-06,2.279832225113460e-14
	-5.314836322017902e-07,-2.546858381252441e-12
	-4.071821319328152e-06,2.279832225113460e-14
12		1.318256738556407e+00,0.000000000000000e+00
	-4.071821319328152e-02,2.332936339534442e-10
	1.000000000000000e+00,0.000000000000000e+00
	0.000000000000000e+00,0.000000000000000e+00
	3.291909206446512e-09,-3.063342972655584e-14
	3.292251480042430e-09,9.534150779372898e-17
	4.071821319328244e-06,-2.332936339534476e-14
	5.314836321924589e-07,2.606182333867128e-12
	-1.755844639110675e-09,1.997734342082185e-15
	-4.601549106881593e-06,-2.584850704813865e-12
	-4.071821319328152e-06,2.332936339534442e-14
	-5.314836322017902e-07,-2.606182333867128e-12
	-4.071821319328152e-06,2.332936339534442e-14
13		1.348962882591653e+00,0.000000000000000e+00
	-4.071821319328152e-02,2.387277407682709e-10
	1.000000000000000e+00,0.000000000000000e+00
	0.000000000000000e+00,0.000000000000000e+00
	3.291909206446483e-09,-3.134697396870953e-14
	3.292251480042409e-09,9.756229679881544e-17
	4.071821319328244e-06,-2.387277407682722e-14
	5.314836321924589e-07,2.666888118852133e-12
	-1.755844639110664e-09,2.044267552691297e-15
	-4.601549106881593e-06,-2.645059612327997e-12
	-4.071821319328152e-06,2.387277407682709e-14
	-5.314836322017902e-07,-2.666888118852133e-12
	-4.071821319328152e-06,2.387277407682709e-14
14		1.380384264602885e+00,0.000000000000000e+00
	-4.071821319328152e-02,2.442884241911881e-10
	1.000000000000000e+00,0.000000000000000e+00
	0.000000000000000e+00,0.000000000000000e+00
	3.291909206446452e-09,-3.207713879138767e-14
	3.292251480042386e-09,9.983481462504966e-17
	4.071821319328244e-06,-2.442884241911897e-14
	5.314836321924589e-07,2.729007923218191e-12
	-1.755844639110651e-09,2.091884661015928e-15
	-4.601549106881593e-06,-2.706670965460088e-12
	-4.071821319328152e-06,2.442884241911881e-14
	-5.314836322017902e-07,-2.729007923218191e-12
	-4.071821319328152e-06,2.442884241911881e-14
15		1.412537544622754e+00,0.000000000000000e+00
	-4.071821319328152e-02,2.499786325701510e-10
	1.000000000000000e+00,0.000000000000000e+00
	0.000000000000000e+00,0.000000000000000e+00
	3.291909206446420e-09,-3.282431133764417e-14
	3.292251480042363e-09,1.021602661914333e-16
	4.071821319328244e-06,-2.499786325701564e-14
	5.314836321924589e-07,2.792574683707829e-12
	-1.755844639110638e-09,2.140610914277215e-15
	-4.601549106881593e-06,-2.769717431365090e-12
	-4.071821319328152e-06,2.499786325701510e-14
	-5.314836322017902e-07,-2.792574683707828e-12
	-4.071821319328152e-06,2.499786325701510e-14
16		1.445439770745927e+00,0.000000000000000e+00
	-4.071821319328152e-02,2.558013829289610e-10
	1.000000000000000e+00,0.000000000000000e+00
	0.000000000000000e+00,0.000000000000000e+00
	3.291909206446386e-09,-3.358888776825295e-14
	3.292251480042339e-09,1.045398844832554e-16
	4.071821319328244e-06,-2.558013829289630e-14
	5.314836321924589e-07,2.857622104258864e-12
	-1.755844639110625e-09,2.190472147779558e-15
	-4.601549106881593e-06,-2.834232438113747e-12
	-4.071821319328152e-06,2.558013829289610e-14
	-5.314836322017902e-07,-2.857622104258864e-12
	-4.071821319328152e-06,2.558013829289610e-14
17		1.479108388168207e+00,0.000000000000000e+00
	-4.071821319328152e-02,2.617597625669315e-10
	1.000000000000000e+00,0.000000000000000e+00
	0.000000000000000e+00,0.000000000000000e+00
	3.291909206446351e-09,-3.437127347175798e-14
	3.292251480042314e-09,1.069749312055571e-16
	4.071821319328244e-06,-2.617597625669303e-14
	5.314836321924589e-07,2.924184673874678e-12
	-1.755844639110610e-09,2.241494798608992e-15
	-4.601549106881593e-06,-2.900250192416594e-12
	-4.071821319328152e-06,2.617597625669315e-14
	-5.314836322017902e-07,-2.924184673874677e-12
	-4.071821319328152e-06,2.617597625669315e-14
18		1.513561248436208e+00,0.000000000000000e+00
	-4.071821319328152e-02,2.678569306958150e-10
	1.000000000000000e+00,0.000000000000000e+00
	0.000000000000000e+00,0.000000000000000e+00
	3.291909206446314e-09,-3.517188327941531e-14
	3.292251480042287e-09,1.094666974523858e-16
	4.071821319328244e-06,-2.678569306958161e-14
	5.314836321924588e-07,2.992297684910740e-12
	-1.755844639110595e-09,2.293705919650330e-15
	-4.601549106881593e-06,-2.967805697760809e-12
	-4.071821319328152e-06,2.678569306958151e-14
	-5.314836322017902e-07,-2.992297684910739e-12
	-4.071821319328152e-06,2.678569306958151e-14
19		1.548816618912481e+00,0.000000000000000e+00
	-4.071821319328152e-02,2.740961201148591e-10
	1.000000000000000e+00,0.000000000000000e+00
	0.000000000000000e+00,0.000000000000000e+00
	3.291909206446275e-09,-3.599114168514233e-14
	3.292251480042259e-09,1.120165043911189e-16
	4.071821319328244e-06,-2.740961201148640e-14
	5.314836321924588e-07,3.061997251787085e-12
	-1.755844639110580e-09,2.347133193931079e-15
	-4.601549106881593e-06,-3.036934772969530e-12
	-4.071821319328152e-06,2.740961201148591e-14
	-5.314836322017902e-07,-3.061997251787084e-12
	-4.071821319328152e-06,2.740961201148591e-14
20		1.584893192461113e+00,0.000000000000000e+00
	-4.071821319328152e-02,2.804806389248792e-10
	1.000000000000000e+00,0.000000000000000e+00
	0.000000000000000e+00,0.000000000000000e+00
	3.291909206446235e-09,-3.682948307058989e-14
	3.292251480042231e-09,1.146257039632078e-16
	4.071821319328244e-06,-2.804806389248844e-14
	5.314836321924588e-07,3.133320330136651e-12
	-1.755844639110564e-09,2.401804949299222e-15
	-4.601549106881593e-06,-3.107674071193462e-12
	-4.071821319328152e-06,2.804806389248792e-14
	-5.314836322017902e-07,-3.133320330136652e-12
	-4.071821319328152e-06,2.804806389248792e-14
21		1.621810097358929e+00,0.000000000000000e+00
	-4.071821319328152e-02,2.870138722822574e-10
	1.000000000000000e+00,0.000000000000000e+00
	0.000000000000000e+00,0.000000000000000e+00
	3.291909206446192e-09,-3.768735193545730e-14
	3.292251480042200e-09,1.172956796008123e-16
	4.071821319328244e-06,-2.870138722822620e-14
	5.314836321924588e-07,3.206304736399654e-12
	-1.755844639110547e-09,2.457750173443119e-15
	-4.601549106881593e-06,-3.180061099344872e-12
	-4.071821319328152e-06,2.870138722822574e-14
	-5.314836322017902e-07,-3.206304736399654e-12
	-4.071821319328152e-06,2.870138722822574e-14
22		1.659586907437560e+00,0.000000000000000e+00
	-4.071821319328152e-02,2.936992841937974e-10
	1.000000000000000e+00,0.000000000000000e+00
	0.000000000000000e+00,0.000000000000000e+00
	3.291909206446148e-09,-3.856520313317198e-14
	3.292251480042168e-09,1.200278469603217e-16
	4.071821319328244e-06,-2.936992841937993e-14
	5.314836321924588e-07,3.280989167874357e-12
	-1.755844639110529e-09,2.514998529261152e-15
	-4.601549106881593e-06,-3.254134237984238e-12
	-4.071821319328152e-06,2.936992841937974e-14
	-5.314836322017902e-07,-3.280989167874357e-12
	-4.071821319328152e-06,2.936992841937974e-14
23		1.698243652461743e+00,0.000000000000000e+00
	-4.071821319328152e-02,3.005404193533865e-10
	1.000000000000000e+00,0.000000000000000e+00
	0.000000000000000e+00,0.000000000000000e+00
	3.291909206446101e-09,-3.946350211205864e-14
	3.292251480042135e-09,1.228236546730538e-16
	4.071821319328244e-06,-3.005404193533898e-14
	5.314836321924588e-07,3.357413223234893e-12
	-1.755844639110510e-09,2.573580370589333e-15
	-4.601549106881593e-06,-3.329932761670143e-12
	-4.071821319328152e-06,3.005404193533866e-14
	-5.314836322017902e-07,-3.357413223234892e-12
	-4.071821319328152e-06,3.005404193533866e-14
24		1.737800828749374e+00,0.000000000000000e+00
	-4.071821319328152e-02,3.075409050214395e-10
	1.000000000000000e+00,0.000000000000000e+00
	0.000000000000000e+00,0.000000000000000e+00
	3.291909206446052e-09,-4.038272516212635e-14
	3.292251480042099e-09,1.256845851132450e-16
	4.071821319328244e-06,-3.075409050214438e-14
	5.314836321924587e-07,3.435617423527004e-12
	-1.755844639110490e-09,2.633526758295372e-15
	-4.601549106881593e-06,-3.407496859783155e-12
	-4.071821319328152e-06,3.075409050214395e-14
	-5.314836322017902e-07,-3.435617423527003e-12
	-4.071821319328152e-06,3.075409050214395e-14
25		1.778279410038922e+00,0.000000000000000e+00
	-4.071821319328152e-02,3.147044529481200e-10
	1.000000000000000e+00,0.000000000000000e+00
	0.000000000000000e+00,0.000000000000000e+00
	3.291909206446001e-09,-4.132335966760360e-14
	3.292251480042063e-09,1.286121551840889e-16
	4.071821319328244e-06,-3.147044529481242e-14
	5.314836321924587e-07,3.515643233652843e-12
	-1.755844639110470e-09,2.694869476747511e-15
	-4.601549106881593e-06,-3.486867657834778e-12
	-4.071821319328152e-06,3.147044529481201e-14
	-5.314836322017902e-07,-3.515643233652843e-12
	-4.071821319328152e-06,3.147044529481201e-14
26		1.819700858609982e+00,0.000000000000000e+00
	-4.071821319328152e-02,3.220348613413595e-10
	1.000000000000000e+00,0.000000000000000e+00
	0.000000000000000e+00,0.000000000000000e+00
	3.291909206445948e-09,-4.228590436535591e-14
	3.292251480042025e-09,1.316079171219866e-16
	4.071821319328244e-06,-3.220348613413619e-14
	5.314836321924587e-07,3.597533084356205e-12
	-1.755844639110448e-09,2.757641050667038e-15
	-4.601549106881593e-06,-3.568087239272735e-12
	-4.071821319328152e-06,3.220348613413595e-14
	-5.314836322017902e-07,-3.597533084356204e-12
	-4.071821319328152e-06,3.220348613413595e-14
27		1.862087136662866e+00,0.000000000000000e+00
	-4.071821319328152e-02,3.295360168807176e-10
	1.000000000000000e+00,0.000000000000000e+00
	0.000000000000000e+00,0.000000000000000e+00
	3.291909206445892e-09,-4.327086960932285e-14
	3.292251480041984e-09,1.346734593196036e-16
	4.071821319328244e-06,-3.295360168807170e-14
	5.314836321924587e-07,3.681330394719871e-12
	-1.755844639110426e-09,2.821874762373312e-15
	-4.601549106881593e-06,-3.651198667794172e-12
	-4.071821319328152e-06,3.295360168807176e-14
	-5.314836322017902e-07,-3.681330394719870e-12
	-4.071821319328152e-06,3.295360168807176e-14
28		1.905460717963246e+00,0.000000000000000e+00
	-4.071821319328152e-02,3.372118967781505e-10
	1.000000000000000e+00,0.000000000000000e+00
	0.000000000000000e+00,0.000000000000000e+00
	3.291909206445833e-09,-4.427877764111433e-14
	3.292251480041942e-09,1.378104071679465e-16
	4.071821319328244e-06,-3.372118967781535e-14
	5.314836321924587e-07,3.767079595186985e-12
	-1.755844639110402e-09,2.887604669430534e-15
	-4.601549106881593e-06,-3.736246010178600e-12
	-4.071821319328152e-06,3.372118967781505e-14
	-5.314836322017902e-07,-3.767079595186985e-12
	-4.071821319328152e-06,3.372118967781505e-14
29		1.949844599758044e+00,0.000000000000000e+00
	-4.071821319328152e-02,3.450665708867824e-10
	1.000000000000000e+00,0.000000000000000e+00
	0.000000000000000e+00,0.000000000000000e+00
	3.291909206445772e-09,-4.531016286691003e-14
	3.292251480041898e-09,1.410204239183309e-16
	4.071821319328244e-06,-3.450665708867906e-14
	5.314836321924586e-07,3.854826151118663e-12
	-1.755844639110378e-09,2.954865622705442e-15
	-4.601549106881593e-06,-3.823274359652690e-12
	-4.071821319328152e-06,3.450665708867824e-14
	-5.314836322017902e-07,-3.854826151118663e-12
	-4.071821319328152e-06,3.450665708867824e-14
30		1.995262314968878e+00,0.000000000000000e+00
	-4.071821319328152e-02,3.531042038587945e-10
	1.000000000000000e+00,0.000000000000000e+00
	0.000000000000000e+00,0.000000000000000e+00
	3.291909206445708e-09,-4.636557214080866e-14
	3.292251480041852e-09,1.443052115640881e-16
	4.071821319328244e-06,-3.531042038587994e-14
	5.314836321924586e-07,3.944616586900319e-12
	-1.755844639110352e-09,3.023693284845785e-15
	-4.601549106881593e-06,-3.912329859799284e-12
	-4.071821319328152e-06,3.531042038587945e-14
	-5.314836322017902e-07,-3.944616586900318e-12
	-4.071821319328152e-06,3.531042038587945e-14
31		2.041737944669527e+00,0.000000000000000e+00
	-4.071821319328152e-02,3.613290573535792e-10
	1.000000000000000e+00,0.000000000000000e+00
	0.000000000000000e+00,0.000000000000000e+00
	3.291909206445641e-09,-4.744556505477723e-14
	3.292251480041804e-09,1.476665117431619e-16
	4.071821319328244e-06,-3.613290573535838e-14
	5.314836321924586e-07,4.036498510609521e-12
	-1.755844639110325e-09,3.094124149189045e-15
	-4.601549106881593e-06,-4.003459729023352e-12
	-4.071821319328152e-06,3.613290573535792e-14
	-5.314836322017902e-07,-4.036498510609522e-12
	-4.071821319328152e-06,3.613290573535792e-14
32		2.089296130854037e+00,0.000000000000000e+00
	-4.071821319328152e-02,3.697454922973283e-10
	1.000000000000000e+00,0.000000000000000e+00
	0.000000000000000e+00,0.000000000000000e+00
	3.291909206445570e-09,-4.855071423535423e-14
