Title: * GA CMOS Amp | W=1e-06 L=7.609369547209052e-07 Vbias=1.4847995362313269
Date: Sat Sep  6 22:16:10 2025
Plotname: AC Analysis
Flags: complex forward log
No. Variables: 13
No. Points:          901
Offset:    0.0000000000000000e+00
Command: Linear Technology Corporation LTspice
Variables:
	0	frequency	frequency
	1	V(out)	voltage
	2	V(g)	voltage
	3	V(vdd)	voltage
	4	V(m1#dbody)	voltage
	5	V(m1#sbody)	voltage
	6	Id(M1)	device_current
	7	Ig(M1)	device_current
	8	Ib(M1)	device_current
	9	Is(M1)	device_current
	10	I(Rload)	device_current
	11	I(Vg)	device_current
	12	I(Vdd)	device_current
Values:
0		1.000000000000000e+00,0.000000000000000e+00
	-2.559385744568680e-01,5.589261278139968e-10
	1.000000000000000e+00,0.000000000000000e+00
	0.000000000000000e+00,0.000000000000000e+00
	2.465868297928139e-05,5.037621185091384e-14
	2.465868489881991e-05,5.499838812041036e-14
	2.559385744568680e-05,-5.589261278139968e-14
	1.461418400442313e-05,1.685654970837278e-13
	-1.315129849467248e-05,-2.902470044588094e-14
	-2.705674295543745e-05,-8.364818385644717e-14
	-2.559385744568680e-05,5.589261278139969e-14
	-1.461418400516834e-05,-1.685654970837278e-13
	-2.559385744568680e-05,5.589261278139969e-14
1		1.023292992280754e+00,0.000000000000000e+00
	-2.559385744568680e-01,5.719451897946801e-10
	1.000000000000000e+00,0.000000000000000e+00
	0.000000000000000e+00,0.000000000000000e+00
	2.465868297928139e-05,5.154962456469080e-14
	2.465868489881991e-05,5.627946515035300e-14
	2.559385744568680e-05,-5.719451897946800e-14
	1.461418400442313e-05,1.724918919061006e-13
	-1.315129849467248e-05,-2.970077256931805e-14
	-2.705674295543745e-05,-8.559660035731450e-14
	-2.559385744568680e-05,5.719451897946802e-14
	-1.461418400516834e-05,-1.724918919061006e-13
	-2.559385744568680e-05,5.719451897946802e-14
2		1.047128548050899e+00,0.000000000000000e+00
	-2.559385744568680e-01,5.852675046855821e-10
	1.000000000000000e+00,0.000000000000000e+00
	0.000000000000000e+00,0.000000000000000e+00
	2.465868297928139e-05,5.275036957175192e-14
	2.465868489881991e-05,5.759038229766513e-14
	2.559385744568680e-05,-5.852675046855819e-14
	1.461418400442313e-05,1.765097442127620e-13
	-1.315129849467248e-05,-3.039259243550761e-14
	-2.705674295543745e-05,-8.759040130869622e-14
	-2.559385744568680e-05,5.852675046855821e-14
	-1.461418400516834e-05,-1.765097442127620e-13
	-2.559385744568680e-05,5.852675046855821e-14
3		1.071519305237606e+00,0.000000000000000e+00
	-2.559385744568680e-01,5.989001361543993e-10
	1.000000000000000e+00,0.000000000000000e+00
	0.000000000000000e+00,0.000000000000000e+00
	2.465868297928139e-05,5.397908352299363e-14
	2.465868489881991e-05,5.893183462797032e-14
	2.559385744568680e-05,-5.989001361543995e-14
	1.461418400442313e-05,1.806211843221877e-13
	-1.315129849467248e-05,-3.110052685649998e-14
	-2.705674295543745e-05,-8.963064385024782e-14
	-2.559385744568680e-05,5.989001361543993e-14
	-1.461418400516834e-05,-1.806211843221878e-13
	-2.559385744568680e-05,5.989001361543993e-14
4		1.096478196143185e+00,0.000000000000000e+00
	-2.559385744568680e-01,6.128503124027863e-10
	1.000000000000000e+00,0.000000000000000e+00
	0.000000000000000e+00,0.000000000000000e+00
	2.465868297928139e-05,5.523641789881692e-14
	2.465868489881991e-05,6.030453339705031e-14
	2.559385744568680e-05,-6.128503124027864e-14
	1.461418400442313e-05,1.848283921743451e-13
	-1.315129849467248e-05,-3.182495118849582e-14
	-2.705674295543745e-05,-9.171840974557067e-14
	-2.559385744568680e-05,6.128503124027864e-14
	-1.461418400516834e-05,-1.848283921743451e-13
	-2.559385744568680e-05,6.128503124027864e-14
5		1.122018454301963e+00,0.000000000000000e+00
	-2.559385744568680e-01,6.271254299988424e-10
	1.000000000000000e+00,0.000000000000000e+00
	0.000000000000000e+00,0.000000000000000e+00
	2.465868297928139e-05,5.652303935455058e-14
	2.465868489881991e-05,6.170920642796228e-14
	2.559385744568680e-05,-6.271254299988423e-14
	1.461418400442313e-05,1.891335984865263e-13
	-1.315129849467248e-05,-3.256624953086484e-14
	-2.705674295543745e-05,-9.385480595577728e-14
	-2.559385744568680e-05,6.271254299988424e-14
	-1.461418400516834e-05,-1.891335984865263e-13
	-2.559385744568680e-05,6.271254299988424e-14
6		1.148153621496882e+00,0.000000000000000e+00
	-2.559385744568680e-01,6.417330577988699e-10
	1.000000000000000e+00,0.000000000000000e+00
	0.000000000000000e+00,0.000000000000000e+00
	2.465868297928139e-05,5.783963007392090e-14
	2.465868489881991e-05,6.314659849694028e-14
	2.559385744568680e-05,-6.417330577988701e-14
	1.461418400442313e-05,1.935390859361043e-13
	-1.315129849467248e-05,-3.332481492980039e-14
	-2.705674295543745e-05,-9.604096522641687e-14
	-2.559385744568680e-05,6.417330577988700e-14
	-1.461418400516834e-05,-1.935390859361042e-13
	-2.559385744568680e-05,6.417330577988700e-14
7		1.174897554939529e+00,0.000000000000000e+00
	-2.559385744568680e-01,6.566809409604837e-10
	1.000000000000000e+00,0.000000000000000e+00
	0.000000000000000e+00,0.000000000000000e+00
	2.465868297928139e-05,5.918688813075439e-14
	2.465868489881991e-05,6.461747172828538e-14
	2.559385744568680e-05,-6.566809409604836e-14
	1.461418400442313e-05,1.980471903708381e-13
	-1.315129849467248e-05,-3.410104958671778e-14
	-2.705674295543745e-05,-9.827804668807198e-14
	-2.559385744568680e-05,6.566809409604837e-14
	-1.461418400516834e-05,-1.980471903708381e-13
	-2.559385744568680e-05,6.566809409604837e-14
8		1.202264434617413e+00,0.000000000000000e+00
	-2.559385744568680e-01,6.719770050491947e-10
	1.000000000000000e+00,0.000000000000000e+00
	0.000000000000000e+00,0.000000000000000e+00
	2.465868297928139e-05,6.056552785910592e-14
	2.465868489881991e-05,6.612260599845418e-14
	2.559385744568680e-05,-6.719770050491945e-14
	1.461418400442313e-05,2.026603020473711e-13
	-1.315129849467248e-05,-3.489536507150682e-14
	-2.705674295543745e-05,-1.005672364709448e-13
	-2.559385744568680e-05,6.719770050491948e-14
	-1.461418400516834e-05,-2.026603020473711e-13
	-2.559385744568680e-05,6.719770050491948e-14
9		1.230268770812381e+00,0.000000000000000e+00
	-2.559385744568680e-01,6.876293602406498e-10
	1.000000000000000e+00,0.000000000000000e+00
	0.000000000000000e+00,0.000000000000000e+00
	2.465868297928139e-05,6.197628023200785e-14
	2.465868489881991e-05,6.766279934955951e-14
	2.559385744568680e-05,-6.876293602406497e-14
	1.461418400442313e-05,2.073808668985758e-13
	-1.315129849467248e-05,-3.570818254075152e-14
	-2.705674295543745e-05,-1.029097483337593e-13
	-2.559385744568680e-05,6.876293602406498e-14
	-1.461418400516834e-05,-2.073808668985758e-13
	-2.559385744568680e-05,6.876293602406498e-14
10		1.258925411794167e+00,0.000000000000000e+00
	-2.559385744568680e-01,7.036463056207552e-10
	1.000000000000000e+00,0.000000000000000e+00
	0.000000000000000e+00,0.000000000000000e+00
	2.465868297928139e-05,6.341989324904188e-14
	2.465868489881991e-05,6.923886841250302e-14
	2.559385744568680e-05,-7.036463056207553e-14
	1.461418400442313e-05,2.122113878304205e-13
	-1.315129849467248e-05,-3.653993296103300e-14
	-2.705674295543745e-05,-1.053068243073119e-13
	-2.559385744568680e-05,7.036463056207553e-14
	-1.461418400516834e-05,-2.122113878304204e-13
	-2.559385744568680e-05,7.036463056207553e-14
11		1.288249551693134e+00,0.000000000000000e+00
	-2.559385744568680e-01,7.200363335859606e-10
	1.000000000000000e+00,0.000000000000000e+00
	0.000000000000000e+00,0.000000000000000e+00
	2.465868297928139e-05,6.489713233293807e-14
	2.465868489881991e-05,7.085164883996363e-14
	2.559385744568680e-05,-7.200363335859607e-14
	1.461418400442313e-05,2.171544260490426e-13
	-1.315129849467248e-05,-3.739105733743363e-14
	-2.705674295543745e-05,-1.077597353530129e-13
	-2.559385744568680e-05,7.200363335859607e-14
	-1.461418400516834e-05,-2.171544260490426e-13
	-2.559385744568680e-05,7.200363335859607e-14
12		1.318256738556407e+00,0.000000000000000e+00
	-2.559385744568680e-01,7.368081343460410e-10
	1.000000000000000e+00,0.000000000000000e+00
	0.000000000000000e+00,0.000000000000000e+00
	2.465868297928139e-05,6.640878073541228e-14
	2.465868489881991e-05,7.250199574947159e-14
	2.559385744568680e-05,-7.368081343460408e-14
	1.461418400442313e-05,2.222126024187345e-13
	-1.315129849467248e-05,-3.826200694736370e-14
	-2.705674295543745e-05,-1.102697820367667e-13
	-2.559385744568680e-05,7.368081343460410e-14
	-1.461418400516834e-05,-2.222126024187345e-13
	-2.559385744568680e-05,7.368081343460410e-14
13		1.348962882591653e+00,0.000000000000000e+00
	-2.559385744568680e-01,7.539706005317600e-10
	1.000000000000000e+00,0.000000000000000e+00
	0.000000000000000e+00,0.000000000000000e+00
	2.465868297928139e-05,6.795563995245655e-14
	2.465868489881991e-05,7.419078417680331e-14
	2.559385744568680e-05,-7.539706005317601e-14
	1.461418400442313e-05,2.273885988515604e-13
	-1.315129849467248e-05,-3.915324357983481e-14
	-2.705674295543745e-05,-1.128382952185496e-13
	-2.559385744568680e-05,7.539706005317600e-14
	-1.461418400516834e-05,-2.273885988515604e-13
	-2.559385744568680e-05,7.539706005317600e-14
14		1.380384264602885e+00,0.000000000000000e+00
	-2.559385744568680e-01,7.715328319098619e-10
	1.000000000000000e+00,0.000000000000000e+00
	0.000000000000000e+00,0.000000000000000e+00
	2.465868297928139e-05,6.953853014930281e-14
	2.465868489881991e-05,7.591890953993667e-14
	2.559385744568680e-05,-7.715328319098619e-14
	1.461418400442313e-05,2.326851597293413e-13
	-1.315129849467248e-05,-4.006523978030638e-14
	-2.705674295543745e-05,-1.154666367580487e-13
	-2.559385744568680e-05,7.715328319098619e-14
	-1.461418400516834e-05,-2.326851597293413e-13
	-2.559385744568680e-05,7.715328319098619e-14
15		1.412537544622754e+00,0.000000000000000e+00
	-2.559385744568680e-01,7.895041402078868e-10
	1.000000000000000e+00,0.000000000000000e+00
	0.000000000000000e+00,0.000000000000000e+00
	2.465868297928139e-05,7.115829059528552e-14
	2.465868489881991e-05,7.768728811381370e-14
	2.559385744568680e-05,-7.895041402078868e-14
	1.461418400442313e-05,2.381050933587629e-13
	-1.315129849467248e-05,-4.099847910123563e-14
	-2.705674295543745e-05,-1.181562002367386e-13
	-2.559385744568680e-05,7.895041402078868e-14
	-1.461418400516834e-05,-2.381050933587629e-13
	-2.559385744568680e-05,7.895041402078868e-14
16		1.445439770745927e+00,0.000000000000000e+00
	-2.559385744568680e-01,8.078940540513723e-10
	1.000000000000000e+00,0.000000000000000e+00
	0.000000000000000e+00,0.000000000000000e+00
	2.465868297928139e-05,7.281578010883315e-14
	2.465868489881991e-05,7.949685751616148e-14
	2.559385744568680e-05,-8.078940540513724e-14
	1.461418400442313e-05,2.436512734603768e-13
	-1.315129849467248e-05,-4.195345635846336e-14
	-2.705674295543745e-05,-1.209084116967762e-13
	-2.559385744568680e-05,8.078940540513723e-14
	-1.461418400516834e-05,-2.436512734603767e-13
	-2.559385744568680e-05,8.078940540513723e-14
17		1.479108388168207e+00,0.000000000000000e+00
	-2.559385744568680e-01,8.267123240160582e-10
	1.000000000000000e+00,0.000000000000000e+00
	0.000000000000000e+00,0.000000000000000e+00
	2.465868297928139e-05,7.451187751282528e-14
	2.465868489881991e-05,8.134857720462962e-14
	2.559385744568680e-05,-8.267123240160580e-14
	1.461418400442313e-05,2.493266406922852e-13
	-1.315129849467248e-05,-4.293067789357200e-14
	-2.705674295543745e-05,-1.237247303971074e-13
	-2.559385744568680e-05,8.267123240160583e-14
	-1.461418400516834e-05,-2.493266406922852e-13
	-2.559385744568680e-05,8.267123240160583e-14
18		1.513561248436208e+00,0.000000000000000e+00
	-2.559385744568680e-01,8.459689277977684e-10
	1.000000000000000e+00,0.000000000000000e+00
	0.000000000000000e+00,0.000000000000000e+00
	2.465868297928139e-05,7.624748210055601e-14
	2.465868489881991e-05,8.324342898550739e-14
	2.559385744568680e-05,-8.459689277977684e-14
	1.461418400442313e-05,2.551342042093170e-13
	-1.315129849467248e-05,-4.393066184235451e-14
	-2.705674295543745e-05,-1.266066495871856e-13
	-2.559385744568680e-05,8.459689277977684e-14
	-1.461418400516834e-05,-2.551342042093169e-13
	-2.559385744568680e-05,8.459689277977684e-14
19		1.548816618912481e+00,0.000000000000000e+00
	-2.559385744568680e-01,8.656740755027197e-10
	1.000000000000000e+00,0.000000000000000e+00
	0.000000000000000e+00,0.000000000000000e+00
	2.465868297928139e-05,7.802351411255121e-14
	2.465868489881991e-05,8.518241753429031e-14
	2.559385744568680e-05,-8.656740755027195e-14
	1.461418400442313e-05,2.610770432585209e-13
	-1.315129849467248e-05,-4.495393840953690e-14
	-2.705674295543745e-05,-1.295556972987121e-13
	-2.559385744568680e-05,8.656740755027197e-14
	-1.461418400516834e-05,-2.610770432585209e-13
	-2.559385744568680e-05,8.656740755027197e-14
20		1.584893192461113e+00,0.000000000000000e+00
	-2.559385744568680e-01,8.858382150610534e-10
	1.000000000000000e+00,0.000000000000000e+00
	0.000000000000000e+00,0.000000000000000e+00
	2.465868297928139e-05,7.984091522449218e-14
	2.465868489881991e-05,8.716657092837252e-14
	2.559385744568680e-05,-8.858382150610534e-14
	1.461418400442313e-05,2.671583088118238e-13
	-1.315129849467248e-05,-4.600105014989973e-14
	-2.705674295543745e-05,-1.325734371558187e-13
	-2.559385744568680e-05,8.858382150610534e-14
	-1.461418400516834e-05,-2.671583088118238e-13
	-2.559385744568680e-05,8.858382150610534e-14
21		1.621810097358929e+00,0.000000000000000e+00
	-2.559385744568680e-01,9.064720377664673e-10
	1.000000000000000e+00,0.000000000000000e+00
	0.000000000000000e+00,0.000000000000000e+00
	2.465868297928139e-05,8.170064904650459e-14
	2.465868489881991e-05,8.919694119214688e-14
	2.559385744568680e-05,-9.064720377664674e-14
	1.461418400442313e-05,2.733812252367169e-13
	-1.315129849467248e-05,-4.707255225594792e-14
	-2.705674295543745e-05,-1.356614692041222e-13
	-2.559385744568680e-05,9.064720377664674e-14
	-1.461418400516834e-05,-2.733812252367169e-13
	-2.559385744568680e-05,9.064720377664674e-14
22		1.659586907437560e+00,0.000000000000000e+00
	-2.559385744568680e-01,9.275864839448813e-10
	1.000000000000000e+00,0.000000000000000e+00
	0.000000000000000e+00,0.000000000000000e+00
	2.465868297928139e-05,8.360370163407746e-14
	2.465868489881991e-05,9.127460485480247e-14
	2.559385744568680e-05,-9.275864839448814e-14
	1.461418400442313e-05,2.797490920058588e-13
	-1.315129849467248e-05,-4.816901285228113e-14
	-2.705674295543745e-05,-1.388214307590896e-13
	-2.559385744568680e-05,9.275864839448814e-14
	-1.461418400516834e-05,-2.797490920058588e-13
	-2.559385744568680e-05,9.275864839448814e-14
23		1.698243652461743e+00,0.000000000000000e+00
	-2.559385744568680e-01,9.491927487551413e-10
	1.000000000000000e+00,0.000000000000000e+00
	0.000000000000000e+00,0.000000000000000e+00
	2.465868297928139e-05,8.555108201088249e-14
	2.465868489881991e-05,9.340066352111427e-14
	2.559385744568680e-05,-9.491927487551414e-14
	1.461418400442313e-05,2.862652854464993e-13
	-1.315129849467248e-05,-4.929101329682085e-14
	-2.705674295543745e-05,-1.420549972741643e-13
	-2.559385744568680e-05,9.491927487551414e-14
	-1.461418400516834e-05,-2.862652854464992e-13
	-2.559385744568680e-05,9.491927487551414e-14
24		1.737800828749374e+00,0.000000000000000e+00
	-2.559385744568680e-01,9.713022881248426e-10
	1.000000000000000e+00,0.000000000000000e+00
	0.000000000000000e+00,0.000000000000000e+00
	2.465868297928139e-05,8.754382270377211e-14
	2.465868489881991e-05,9.557624445552887e-14
	2.559385744568680e-05,-9.713022881248426e-14
	1.461418400442313e-05,2.929332605306524e-13
	-1.315129849467248e-05,-5.043914848905424e-14
	-2.705674295543745e-05,-1.453638832291139e-13
	-2.559385744568680e-05,9.713022881248426e-14
	-1.461418400516834e-05,-2.929332605306524e-13
	-2.559385744568680e-05,9.713022881248426e-14
25		1.778279410038922e+00,0.000000000000000e+00
	-2.559385744568680e-01,9.939268248244135e-10
	1.000000000000000e+00,0.000000000000000e+00
	0.000000000000000e+00,0.000000000000000e+00
	2.465868297928139e-05,8.958298029023879e-14
	2.465868489881991e-05,9.780250117985498e-14
	2.559385744568680e-05,-9.939268248244134e-14
	1.461418400442313e-05,2.997565527069691e-13
	-1.315129849467248e-05,-5.161402718545759e-14
	-2.705674295543745e-05,-1.487498430390702e-13
	-2.559385744568680e-05,9.939268248244136e-14
	-1.461418400516834e-05,-2.997565527069690e-13
	-2.559385744568680e-05,9.939268248244136e-14
26		1.819700858609982e+00,0.000000000000000e+00
	-2.559385744568680e-01,1.017078354682683e-09
	1.000000000000000e+00,0.000000000000000e+00
	0.000000000000000e+00,0.000000000000000e+00
	2.465868297928139e-05,9.166963595862626e-14
	2.465868489881991e-05,1.000806140848758e-13
	2.559385744568680e-05,-1.017078354682683e-13
	1.461418400442313e-05,3.067387797752779e-13
	-1.315129849467248e-05,-5.281627232226708e-14
	-2.705674295543745e-05,-1.522146719847426e-13
	-2.559385744568680e-05,1.017078354682683e-13
	-1.461418400516834e-05,-3.067387797752779e-13
	-2.559385744568680e-05,1.017078354682683e-13
27		1.862087136662866e+00,0.000000000000000e+00
	-2.559385744568680e-01,1.040769152947228e-09
	1.000000000000000e+00,0.000000000000000e+00
	0.000000000000000e+00,0.000000000000000e+00
	2.465868297928139e-05,9.380489608139008e-14
	2.465868489881991e-05,1.024117910562079e-13
	2.559385744568680e-05,-1.040769152947228e-13
	1.461418400442313e-05,3.138836438047914e-13
	-1.315129849467248e-05,-5.404652134576785e-14
	-2.705674295543745e-05,-1.557602071643007e-13
	-2.559385744568680e-05,1.040769152947229e-13
	-1.461418400516834e-05,-3.138836438047914e-13
	-2.559385744568680e-05,1.040769152947229e-13
28		1.905460717963246e+00,0.000000000000000e+00
	-2.559385744568680e-01,1.065011780792875e-09
	1.000000000000000e+00,0.000000000000000e+00
	0.000000000000000e+00,0.000000000000000e+00
	2.465868297928139e-05,9.598989280171084e-14
	2.465868489881991e-05,1.047972681147384e-13
	2.559385744568680e-05,-1.065011780792875e-13
	1.461418400442313e-05,3.211949330969914e-13
	-1.315129849467248e-05,-5.530542655027645e-14
	-2.705674295543745e-05,-1.593883284674274e-13
	-2.559385744568680e-05,1.065011780792876e-13
	-1.461418400516834e-05,-3.211949330969913e-13
	-2.559385744568680e-05,1.065011780792876e-13
29		1.949844599758044e+00,0.000000000000000e+00
	-2.559385744568680e-01,1.089819091981796e-09
	1.000000000000000e+00,0.000000000000000e+00
	0.000000000000000e+00,0.000000000000000e+00
	2.465868297928139e-05,9.822578463377152e-14
	2.465868489881991e-05,1.072383100719791e-13
	2.559385744568680e-05,-1.089819091981796e-13
	1.461418400442313e-05,3.286765241942370e-13
	-1.315129849467248e-05,-5.659365542399585e-14
	-2.705674295543745e-05,-1.631009595720615e-13
	-2.559385744568680e-05,1.089819091981796e-13
	-1.461418400516834e-05,-3.286765241942370e-13
	-2.559385744568680e-05,1.089819091981796e-13
30		1.995262314968878e+00,0.000000000000000e+00
	-2.559385744568680e-01,1.115204239678746e-09
	1.000000000000000e+00,0.000000000000000e+00
	0.000000000000000e+00,0.000000000000000e+00
	2.465868297928139e-05,1.005137570770169e-13
	2.465868489881991e-05,1.097362112006868e-13
	2.559385744568680e-05,-1.115204239678746e-13
	1.461418400442313e-05,3.363323839351583e-13
	-1.315129849467248e-05,-5.791189100292663e-14
	-2.705674295543745e-05,-1.669000689643571e-13
	-2.559385744568680e-05,1.115204239678746e-13
	-1.461418400516834e-05,-3.363323839351584e-13
	-2.559385744568680e-05,1.115204239678746e-13
31		2.041737944669527e+00,0.000000000000000e+00
	-2.559385744568680e-01,1.141180683425048e-09
	1.000000000000000e+00,0.000000000000000e+00
	0.000000000000000e+00,0.000000000000000e+00
	2.465868297928139e-05,1.028550232447215e-13
	2.465868489881991e-05,1.122922959211036e-13
	2.559385744568680e-05,-1.141180683425047e-13
	1.461418400442313e-05,3.441665715579276e-13
	-1.315129849467248e-05,-5.926083223302168e-14
	-2.705674295543745e-05,-1.707876709824012e-13
	-2.559385744568680e-05,1.141180683425048e-13
	-1.461418400516834e-05,-3.441665715579276e-13
	-2.559385744568680e-05,1.141180683425048e-13
32		2.089296130854037e+00,0.000000000000000e+00
	-2.559385744568680e-01,1.167762196275013e-09
	1.000000000000000e+00,0.000000000000000e+00
	0.000000000000000e+00,0.000000000000000e+00
	2.465868297928139e-05,1.052508245071976e-13
