LTspice 24.0.9 for Windows
Circuit: * GA CMOS Amp | W=6.204373472148512e-06 L=7.401102022409969e-07 Vbias=0.8144889115748344
Start Time: Mon Sep  8 18:44:11 2025
solver = Normal
Maximum thread count: 2
tnom = 27
temp = 27
method = modified trap
AsciiRawFile = 1
Instance "m1": Length shorter than recommended for a level 3 MOSFET.
Direct Newton iteration for .op point succeeded.
Semiconductor Device Operating Points:
                        --- MOSFET Transistors ---
Name:          m1
Model:        n_1u
Id:          2.46e-06
Vgs:         8.14e-01
Vds:         1.78e+00
Vbs:         0.00e+00
Vth:         8.07e-01
Vdsat:       5.30e-02
Gm:          7.59e-05
Gds:         2.76e-07
Gmb:         1.86e-05
Cbd:         0.00e+00
Cbs:         0.00e+00
Cgsov:       1.24e-15
Cgdov:       1.24e-15
Cgbov:       5.40e-17
Cgs:         3.86e-15
Cgd:         0.00e+00
Cgb:         0.00e+00



gain_db: MAX(db(v(out)/v(g)))=(28.7532dB,95.0601°) FROM 1 TO 1e+09
gain_lin: MAX(mag(v(out)/v(g)))=(-2.39683dB,0°) FROM 1 TO 1e+09

Measurement "fc" FAIL'ed

Total elapsed time: 0.444 seconds.

