LTspice 24.0.9 for Windows
Circuit: * GA CMOS Amp | W=2.5201904543152753e-05 L=6.644758077144996e-07 Vbias=1.067480391552836
Start Time: Mon Sep  8 18:45:35 2025
solver = Normal
Maximum thread count: 2
tnom = 27
temp = 27
method = modified trap
AsciiRawFile = 1
Instance "m1": Length shorter than recommended for a level 3 MOSFET.
Direct Newton iteration for .op point succeeded.
Semiconductor Device Operating Points:
                        --- MOSFET Transistors ---
Name:          m1
Model:        n_1u
Id:          1.70e-04
Vgs:         1.07e+00
Vds:         1.04e-01
Vbs:         0.00e+00
Vth:         7.69e-01
Vdsat:       2.50e-01
Gm:          5.60e-04
Gds:         1.10e-03
Gmb:         1.11e-04
Cbd:         0.00e+00
Cbs:         0.00e+00
Cgsov:       5.04e-15
Cgdov:       5.04e-15
Cgbov:       4.64e-17
Cgs:         1.16e-14
Cgd:         8.10e-15
Cgb:         0.00e+00



gain_db: MAX(db(v(out)/v(g)))=(28.9705dB,103.714°) FROM 1 TO 1e+09
gain_lin: MAX(mag(v(out)/v(g)))=(-6.5872dB,0°) FROM 1 TO 1e+09

Measurement "fc" FAIL'ed

Total elapsed time: 0.507 seconds.

