Title: * GA CMOS Amp | W=1.1420206246436202e-05 L=1e-06 Vbias=1.024295006037531
Date: Sat Sep  6 22:08:06 2025
Plotname: AC Analysis
Flags: complex forward log
No. Variables: 13
No. Points:          901
Offset:    0.0000000000000000e+00
Command: Linear Technology Corporation LTspice
Variables:
	0	frequency	frequency
	1	V(out)	voltage
	2	V(g)	voltage
	3	V(vdd)	voltage
	4	V(m1#dbody)	voltage
	5	V(m1#sbody)	voltage
	6	Id(M1)	device_current
	7	Ig(M1)	device_current
	8	Ib(M1)	device_current
	9	Is(M1)	device_current
	10	I(Rload)	device_current
	11	I(Vg)	device_current
	12	I(Vdd)	device_current
Values:
0		1.000000000000000e+00,0.000000000000000e+00
	-3.444025150078531e-02,1.550399104730245e-09
	1.000000000000000e+00,0.000000000000000e+00
	0.000000000000000e+00,0.000000000000000e+00
	6.205387504786655e-06,9.011499961361254e-14
	6.205387763250132e-06,9.892353498816967e-14
	3.444025150078532e-06,-1.550399104730243e-13
	8.344510319774924e-06,2.910859437286616e-12
	-3.309540125670847e-06,-5.217305165415546e-14
	-8.478995344182610e-06,-2.703646475159436e-12
	-3.444025150078532e-06,1.550399104730245e-13
	-8.344510319724385e-06,-2.910859437286615e-12
	-3.444025150078532e-06,1.550399104730245e-13
1		1.023292992280754e+00,0.000000000000000e+00
	-3.444025150078531e-02,1.586512539108815e-09
	1.000000000000000e+00,0.000000000000000e+00
	0.000000000000000e+00,0.000000000000000e+00
	6.205387504786655e-06,9.221404760399255e-14
	6.205387763250132e-06,1.012277601250340e-13
	3.444025150078532e-06,-1.586512539108811e-13
	8.344510319774924e-06,2.978662063689693e-12
	-3.309540125670847e-06,-5.338831814359908e-14
	-8.478995344182610e-06,-2.766622491635213e-12
	-3.444025150078532e-06,1.586512539108815e-13
	-8.344510319724385e-06,-2.978662063689693e-12
	-3.444025150078532e-06,1.586512539108815e-13
2		1.047128548050899e+00,0.000000000000000e+00
	-3.444025150078531e-02,1.623467163435596e-09
	1.000000000000000e+00,0.000000000000000e+00
	0.000000000000000e+00,0.000000000000000e+00
	6.205387504786654e-06,9.436198870300943e-14
	6.205387763250132e-06,1.035856575602244e-13
	3.444025150078532e-06,-1.623467163435593e-13
	8.344510319774924e-06,3.048044016146192e-12
	-3.309540125670847e-06,-5.463189182600039e-14
	-8.478995344182610e-06,-2.831065407976632e-12
	-3.444025150078532e-06,1.623467163435596e-13
	-8.344510319724385e-06,-3.048044016146192e-12
	-3.444025150078532e-06,1.623467163435596e-13
3		1.071519305237606e+00,0.000000000000000e+00
	-3.444025150078531e-02,1.661282571541558e-09
	1.000000000000000e+00,0.000000000000000e+00
	0.000000000000000e+00,0.000000000000000e+00
	6.205387504786654e-06,9.655996177746526e-14
	6.205387763250132e-06,1.059984774821716e-13
	3.444025150078532e-06,-1.661282571541559e-13
	8.344510319774924e-06,3.119042081885683e-12
	-3.309540125670847e-06,-5.590443206058640e-14
	-8.478995344182610e-06,-2.897009392670941e-12
	-3.444025150078532e-06,1.661282571541558e-13
	-8.344510319724385e-06,-3.119042081885683e-12
	-3.444025150078532e-06,1.661282571541558e-13
4		1.096478196143185e+00,0.000000000000000e+00
	-3.444025150078531e-02,1.699978813656627e-09
	1.000000000000000e+00,0.000000000000000e+00
	0.000000000000000e+00,0.000000000000000e+00
	6.205387504786654e-06,9.880913222177762e-14
	6.205387763250132e-06,1.084674991999355e-13
	3.444025150078532e-06,-1.699978813656624e-13
	8.344510319774924e-06,3.191693905022393e-12
	-3.309540125670847e-06,-5.720661356503356e-14
	-8.478995344182610e-06,-2.964489410091698e-12
	-3.444025150078532e-06,1.699978813656627e-13
	-8.344510319724385e-06,-3.191693905022393e-12
	-3.444025150078532e-06,1.699978813656627e-13
5		1.122018454301963e+00,0.000000000000000e+00
	-3.444025150078531e-02,1.739576407040577e-09
	1.000000000000000e+00,0.000000000000000e+00
	0.000000000000000e+00,0.000000000000000e+00
	6.205387504786653e-06,1.011106925758876e-13
	6.205387763250131e-06,1.109940318215123e-13
	3.444025150078532e-06,-1.739576407040573e-13
	8.344510319774924e-06,3.266038006514610e-12
	-3.309540125670847e-06,-5.853912677321201e-14
	-8.478995344182610e-06,-3.033541239037341e-12
	-3.444025150078532e-06,1.739576407040577e-13
	-8.344510319724385e-06,-3.266038006514611e-12
	-3.444025150078532e-06,1.739576407040577e-13
6		1.148153621496882e+00,0.000000000000000e+00
	-3.444025150078531e-02,1.780096346861555e-09
	1.000000000000000e+00,0.000000000000000e+00
	0.000000000000000e+00,0.000000000000000e+00
	6.205387504786653e-06,1.034658631575593e-13
	6.205387763250131e-06,1.135794149479405e-13
	3.444025150078532e-06,-1.780096346861549e-13
	8.344510319774924e-06,3.342113804589005e-12
	-3.309540125670847e-06,-5.990267820126249e-14
	-8.478995344182610e-06,-3.104201491701587e-12
	-3.444025150078532e-06,1.780096346861555e-13
	-8.344510319724385e-06,-3.342113804589005e-12
	-3.444025150078532e-06,1.780096346861555e-13
7		1.174897554939529e+00,0.000000000000000e+00
	-3.444025150078531e-02,1.821560117327999e-09
	1.000000000000000e+00,0.000000000000000e+00
	0.000000000000000e+00,0.000000000000000e+00
	6.205387504786653e-06,1.058758927094099e-13
	6.205387763250131e-06,1.162250193835755e-13
	3.444025150078532e-06,-1.821560117327997e-13
	8.344510319774924e-06,3.419961635640698e-12
	-3.309540125670847e-06,-6.129799082220098e-14
	-8.478995344182610e-06,-3.176507633085697e-12
	-3.444025150078532e-06,1.821560117328000e-13
	-8.344510319724385e-06,-3.419961635640699e-12
	-3.444025150078532e-06,1.821560117328000e-13
8		1.202264434617413e+00,0.000000000000000e+00
	-3.444025150078531e-02,1.863989703079850e-09
	1.000000000000000e+00,0.000000000000000e+00
	0.000000000000000e+00,0.000000000000000e+00
	6.205387504786653e-06,1.083420590610082e-13
	6.205387763250131e-06,1.189322478629076e-13
	3.444025150078532e-06,-1.863989703079845e-13
	8.344510319774924e-06,3.499622775620152e-12
	-3.309540125670847e-06,-6.272580444924826e-14
	-8.478995344182610e-06,-3.250498000862919e-12
	-3.444025150078532e-06,1.863989703079850e-13
	-8.344510319724385e-06,-3.499622775620152e-12
	-3.444025150078532e-06,1.863989703079850e-13
9		1.230268770812381e+00,0.000000000000000e+00
	-3.444025150078531e-02,1.907407600845094e-09
	1.000000000000000e+00,0.000000000000000e+00
	0.000000000000000e+00,0.000000000000000e+00
	6.205387504786653e-06,1.108656698063973e-13
	6.205387763250131e-06,1.217025357943111e-13
	3.444025150078532e-06,-1.907407600845091e-13
	8.344510319774924e-06,3.581139461918224e-12
	-3.309540125670847e-06,-6.418687612808870e-14
	-8.478995344182610e-06,-3.326211825705626e-12
	-3.444025150078532e-06,1.907407600845094e-13
	-8.344510319724385e-06,-3.581139461918225e-12
	-3.444025150078532e-06,1.907407600845094e-13
10		1.258925411794167e+00,0.000000000000000e+00
	-3.444025150078531e-02,1.951836831367831e-09
	1.000000000000000e+00,0.000000000000000e+00
	0.000000000000000e+00,0.000000000000000e+00
	6.205387504786653e-06,1.134480629973983e-13
	6.205387763250130e-06,1.245373520211162e-13
	3.444025150078539e-06,-1.951836831367825e-13
	8.344510319774923e-06,3.664554915760990e-12
	-3.309540125670846e-06,-6.568198053826601e-14
	-8.478995344182617e-06,-3.403689252085941e-12
	-3.444025150078531e-06,1.951836831367831e-13
	-8.344510319724385e-06,-3.664554915760989e-12
	-3.444025150078531e-06,1.951836831367831e-13
11		1.288249551693134e+00,0.000000000000000e+00
	-3.444025150078531e-02,1.997300951614174e-09
	1.000000000000000e+00,0.000000000000000e+00
	0.000000000000000e+00,0.000000000000000e+00
	6.205387504786653e-06,1.160906078530633e-13
	6.205387763250130e-06,1.274381996004096e-13
	3.444025150078539e-06,-1.997300951614166e-13
	8.344510319774923e-06,3.749913365126211e-12
	-3.309540125670846e-06,-6.721191040392848e-14
	-8.478995344182617e-06,-3.482971359560865e-12
	-3.444025150078531e-06,1.997300951614174e-13
	-8.344510319724385e-06,-3.749913365126209e-12
	-3.444025150078531e-06,1.997300951614174e-13
12		1.318256738556407e+00,0.000000000000000e+00
	-3.444025150078531e-02,2.043824067262465e-09
	1.000000000000000e+00,0.000000000000000e+00
	0.000000000000000e+00,0.000000000000000e+00
	6.205387504786653e-06,1.187947054856527e-13
	6.205387763250130e-06,1.304066165999752e-13
	3.444025150078539e-06,-2.043824067262466e-13
	8.344510319774923e-06,3.837260068193590e-12
	-3.309540125670846e-06,-6.877747691414194e-14
	-8.478995344182617e-06,-3.564100184553202e-12
	-3.444025150078531e-06,2.043824067262465e-13
	-8.344510319724385e-06,-3.837260068193592e-12
	-3.444025150078531e-06,2.043824067262465e-13
13		1.348962882591653e+00,0.000000000000000e+00
	-3.444025150078531e-02,2.091430845484430e-09
	1.000000000000000e+00,0.000000000000000e+00
	0.000000000000000e+00,0.000000000000000e+00
	6.205387504786653e-06,1.215617896435245e-13
	6.205387763250130e-06,1.334441769137977e-13
	3.444025150078539e-06,-2.091430845484429e-13
	8.344510319774923e-06,3.926641337341272e-12
	-3.309540125670846e-06,-7.037951015299281e-14
	-8.478995344182617e-06,-3.647118742639836e-12
	-3.444025150078531e-06,2.091430845484430e-13
	-8.344510319724385e-06,-3.926641337341271e-12
	-3.444025150078531e-06,2.091430845484430e-13
14		1.380384264602885e+00,0.000000000000000e+00
	-3.444025150078531e-02,2.140146528024029e-09
	1.000000000000000e+00,0.000000000000000e+00
	0.000000000000000e+00,0.000000000000000e+00
	6.205387504786653e-06,1.243933274713258e-13
	6.205387763250130e-06,1.365524910965624e-13
	3.444025150078539e-06,-2.140146528024030e-13
	8.344510319774923e-06,4.018104563701251e-12
	-3.309540125670846e-06,-7.201885953970972e-14
	-8.478995344182617e-06,-3.732071051359138e-12
	-3.444025150078531e-06,2.140146528024029e-13
	-8.344510319724385e-06,-4.018104563701252e-12
	-3.444025150078531e-06,2.140146528024029e-13
15		1.412537544622754e+00,0.000000000000000e+00
	-3.444025150078531e-02,2.189996944580976e-09
	1.000000000000000e+00,0.000000000000000e+00
	0.000000000000000e+00,0.000000000000000e+00
	6.205387504786652e-06,1.272908202878927e-13
	6.205387763250129e-06,1.397332072175923e-13
	3.444025150078539e-06,-2.189996944580971e-13
	8.344510319774923e-06,4.111698242286807e-12
	-3.309540125670845e-06,-7.369639427903689e-14
	-8.478995344182617e-06,-3.819002153549673e-12
	-3.444025150078531e-06,2.189996944580976e-13
	-8.344510319724385e-06,-4.111698242286808e-12
	-3.444025150078531e-06,2.189996944580976e-13
16		1.445439770745927e+00,0.000000000000000e+00
	-3.444025150078531e-02,2.241008526505976e-09
	1.000000000000000e+00,0.000000000000000e+00
	0.000000000000000e+00,0.000000000000000e+00
	6.205387504786652e-06,1.302558043822694e-13
	6.205387763250129e-06,1.429880117346766e-13
	3.444025150078539e-06,-2.241008526505966e-13
	8.344510319774926e-06,4.207471997705182e-12
	-3.309540125670845e-06,-7.541300382209785e-14
	-8.478995344182620e-06,-3.907958141232488e-12
	-3.444025150078531e-06,2.241008526505976e-13
	-8.344510319724385e-06,-4.207471997705185e-12
	-3.444025150078531e-06,2.241008526505976e-13
17		1.479108388168207e+00,0.000000000000000e+00
	-3.444025150078531e-02,2.293208320814983e-09
	1.000000000000000e+00,0.000000000000000e+00
	0.000000000000000e+00,0.000000000000000e+00
	6.205387504786652e-06,1.332898518282690e-13
	6.205387763250129e-06,1.463186303882528e-13
	3.444025150078539e-06,-2.293208320814982e-13
	8.344510319774926e-06,4.305476610469219e-12
	-3.309540125670845e-06,-7.716959833799446e-14
	-8.478995344182620e-06,-3.998986180049726e-12
	-3.444025150078531e-06,2.293208320814983e-13
	-8.344510319724385e-06,-4.305476610469219e-12
	-3.444025150078531e-06,2.293208320814983e-13
18		1.513561248436208e+00,0.000000000000000e+00
	-3.444025150078531e-02,2.346624004529888e-09
	1.000000000000000e+00,0.000000000000000e+00
	0.000000000000000e+00,0.000000000000000e+00
	6.205387504786651e-06,1.363945713180077e-13
	6.205387763250129e-06,1.497268291164169e-13
	3.444025150078539e-06,-2.346624004529879e-13
	8.344510319774926e-06,4.405764043921846e-12
	-3.309540125670845e-06,-7.896710919639024e-14
	-8.478995344182620e-06,-4.092134534272468e-12
	-3.444025150078531e-06,2.346624004529888e-13
	-8.344510319724385e-06,-4.405764043921848e-12
	-3.444025150078531e-06,2.346624004529888e-13
19		1.548816618912481e+00,0.000000000000000e+00
	-3.444025150078531e-02,2.401283899353235e-09
	1.000000000000000e+00,0.000000000000000e+00
	0.000000000000000e+00,0.000000000000000e+00
	6.205387504786651e-06,1.395716090148549e-13
	6.205387763250129e-06,1.532144149912475e-13
	3.444025150078539e-06,-2.401283899353231e-13
	8.344510319774926e-06,4.508387471787742e-12
	-3.309540125670845e-06,-8.080648946133528e-14
	-8.478995344182620e-06,-4.187452592391084e-12
	-3.444025150078531e-06,2.401283899353235e-13
	-8.344510319724385e-06,-4.508387471787743e-12
	-3.444025150078531e-06,2.401283899353235e-13
20		1.584893192461113e+00,0.000000000000000e+00
	-3.444025150078531e-02,2.457216986684768e-09
	1.000000000000000e+00,0.000000000000000e+00
	0.000000000000000e+00,0.000000000000000e+00
	6.205387504786651e-06,1.428226494262503e-13
	6.205387763250129e-06,1.567832371769388e-13
	3.444025150078536e-06,-2.457216986684772e-13
	8.344510319774929e-06,4.613401306366743e-12
	-3.309540125670845e-06,-8.268871439659298e-14
	-8.478995344182620e-06,-4.284990893301673e-12
	-3.444025150078531e-06,2.457216986684769e-13
	-8.344510319724385e-06,-4.613401306366742e-12
	-3.444025150078531e-06,2.457216986684769e-13
21		1.621810097358929e+00,0.000000000000000e+00
	-3.444025150078531e-02,2.514452922987754e-09
	1.000000000000000e+00,0.000000000000000e+00
	0.000000000000000e+00,0.000000000000000e+00
	6.205387504786651e-06,1.461494162968528e-13
	6.205387763250129e-06,1.604351879102529e-13
	3.444025150078536e-06,-2.514452922987754e-13
	8.344510319774929e-06,4.720861227383963e-12
	-3.309540125670845e-06,-8.461478198273832e-14
	-8.478995344182620e-06,-4.384801153102449e-12
	-3.444025150078531e-06,2.514452922987754e-13
	-8.344510319724385e-06,-4.720861227383963e-12
	-3.444025150078531e-06,2.514452922987754e-13
22		1.659586907437560e+00,0.000000000000000e+00
	-3.444025150078531e-02,2.573022055513228e-09
	1.000000000000000e+00,0.000000000000000e+00
	0.000000000000000e+00,0.000000000000000e+00
	6.205387504786650e-06,1.495536735224922e-13
	6.205387763250128e-06,1.641722035038078e-13
	3.444025150078536e-06,-2.573022055513232e-13
	8.344510319774929e-06,4.830824211511930e-12
	-3.309540125670845e-06,-8.658571344629993e-14
	-8.478995344182620e-06,-4.486936292514307e-12
	-3.444025150078531e-06,2.573022055513228e-13
	-8.344510319724385e-06,-4.830824211511930e-12
	-3.444025150078531e-06,2.573022055513228e-13
23		1.698243652461743e+00,0.000000000000000e+00
	-3.444025150078531e-02,2.632955438390509e-09
	1.000000000000000e+00,0.000000000000000e+00
	0.000000000000000e+00,0.000000000000000e+00
	6.205387504786650e-06,1.530372260854099e-13
	6.205387763250128e-06,1.679962653727363e-13
	3.444025150078536e-06,-2.632955438390499e-13
	8.344510319774929e-06,4.943348562580358e-12
	-3.309540125670845e-06,-8.860255380122816e-14
	-8.478995344182620e-06,-4.591450464940080e-12
	-3.444025150078531e-06,2.632955438390509e-13
	-8.344510319724385e-06,-4.943348562580358e-12
	-3.444025150078531e-06,2.632955438390509e-13
24		1.737800828749374e+00,0.000000000000000e+00
	-3.444025150078531e-02,2.694284849092507e-09
	1.000000000000000e+00,0.000000000000000e+00
	0.000000000000000e+00,0.000000000000000e+00
	6.205387504786649e-06,1.566019210112854e-13
	6.205387763250127e-06,1.719094010852590e-13
	3.444025150078536e-06,-2.694284849092509e-13
	8.344510319774929e-06,5.058493942489618e-12
	-3.309540125670845e-06,-9.066637240297528e-14
	-8.478995344182620e-06,-4.698399085177392e-12
	-3.444025150078531e-06,2.694284849092507e-13
	-8.344510319724385e-06,-5.058493942489618e-12
	-3.444025150078531e-06,2.694284849092507e-13
25		1.778279410038922e+00,0.000000000000000e+00
	-3.444025150078531e-02,2.757042805284572e-09
	1.000000000000000e+00,0.000000000000000e+00
	0.000000000000000e+00,0.000000000000000e+00
	6.205387504786649e-06,1.602496483485526e-13
	6.205387763250127e-06,1.759136854377271e-13
	3.444025150078536e-06,-2.757042805284569e-13
	8.344510319774929e-06,5.176321402844271e-12
	-3.309540125670845e-06,-9.277826351548179e-14
	-8.478995344182620e-06,-4.807838858800332e-12
	-3.444025150078531e-06,2.757042805284572e-13
	-8.344510319724385e-06,-5.176321402844270e-12
	-3.444025150078531e-06,2.757042805284572e-13
26		1.819700858609982e+00,0.000000000000000e+00
	-3.444025150078531e-02,2.821262582065774e-09
	1.000000000000000e+00,0.000000000000000e+00
	0.000000000000000e+00,0.000000000000000e+00
	6.205387504786648e-06,1.639823421705289e-13
	6.205387763250127e-06,1.800112415547070e-13
	3.444025150078536e-06,-2.821262582065768e-13
	8.344510319774929e-06,5.296893417323423e-12
	-3.309540125670845e-06,-9.493934689136965e-14
	-8.478995344182620e-06,-4.919827812225477e-12
	-3.444025150078531e-06,2.821262582065774e-13
	-8.344510319724385e-06,-5.296893417323424e-12
	-3.444025150078531e-06,2.821262582065774e-13
27		1.862087136662866e+00,0.000000000000000e+00
	-3.444025150078531e-02,2.886978229611812e-09
	1.000000000000000e+00,0.000000000000000e+00
	0.000000000000000e+00,0.000000000000000e+00
	6.205387504786647e-06,1.678019816008871e-13
	6.205387763250126e-06,1.842042420146897e-13
	3.444025150078536e-06,-2.886978229611809e-13
	8.344510319774929e-06,5.420273914805116e-12
	-3.309540125670844e-06,-9.715076836565016e-14
	-8.478995344182620e-06,-5.034425323478285e-12
	-3.444025150078531e-06,2.886978229611813e-13
	-8.344510319724385e-06,-5.420273914805115e-12
	-3.444025150078531e-06,2.886978229611813e-13
28		1.905460717963246e+00,0.000000000000000e+00
	-3.444025150078531e-02,2.954224591228865e-09
	1.000000000000000e+00,0.000000000000000e+00
	0.000000000000000e+00,0.000000000000000e+00
	6.205387504786647e-06,1.717105918630116e-13
	6.205387763250126e-06,1.884949100020199e-13
	3.444025150078536e-06,-2.954224591228867e-13
	8.344510319774929e-06,5.546528313262244e-12
	-3.309540125670844e-06,-9.941370046326053e-14
	-8.478995344182620e-06,-5.151692153676096e-12
	-3.444025150078531e-06,2.954224591228865e-13
	-8.344510319724385e-06,-5.546528313262245e-12
	-3.444025150078531e-06,2.954224591228865e-13
29		1.949844599758044e+00,0.000000000000000e+00
	-3.444025150078531e-02,3.023037321827974e-09
	1.000000000000000e+00,0.000000000000000e+00
	0.000000000000000e+00,0.000000000000000e+00
	6.205387504786647e-06,1.757102453538006e-13
	6.205387763250125e-06,1.928855204856586e-13
	3.444025150078536e-06,-3.023037321827968e-13
	8.344510319774928e-06,5.675723554448046e-12
	-3.309540125670844e-06,-1.017293430207525e-13
	-8.478995344182620e-06,-5.271690479244497e-12
	-3.444025150078531e-06,3.023037321827974e-13
	-8.344510319724385e-06,-5.675723554448047e-12
	-3.444025150078531e-06,3.023037321827974e-13
30		1.995262314968878e+00,0.000000000000000e+00
	-3.444025150078531e-02,3.093452906829744e-09
	1.000000000000000e+00,0.000000000000000e+00
	0.000000000000000e+00,0.000000000000000e+00
	6.205387504786647e-06,1.798030627424761e-13
	6.205387763250125e-06,1.973784014254002e-13
	3.444025150078536e-06,-3.093452906829734e-13
	8.344510319774928e-06,5.807928139389497e-12
	-3.309540125670844e-06,-1.040989238224611e-13
	-8.478995344182620e-06,-5.394483924884063e-12
	-3.444025150078531e-06,3.093452906829744e-13
	-8.344510319724385e-06,-5.807928139389498e-12
	-3.444025150078531e-06,3.093452906829744e-13
31		2.041737944669527e+00,0.000000000000000e+00
	-3.444025150078531e-02,3.165508681509405e-09
	1.000000000000000e+00,0.000000000000000e+00
	0.000000000000000e+00,0.000000000000000e+00
	6.205387504786646e-06,1.839912140949925e-13
	6.205387763250124e-06,2.019759350061896e-13
	3.444025150078532e-06,-3.165508681509401e-13
	8.344510319774931e-06,5.943212164707471e-12
	-3.309540125670843e-06,-1.065236992514925e-13
	-8.478995344182620e-06,-5.520137597305038e-12
	-3.444025150078531e-06,3.165508681509405e-13
	-8.344510319724385e-06,-5.943212164707471e-12
	-3.444025150078531e-06,3.165508681509405e-13
32		2.089296130854037e+00,0.000000000000000e+00
	-3.444025150078531e-02,3.239242850792464e-09
	1.000000000000000e+00,0.000000000000000e+00
	0.000000000000000e+00,0.000000000000000e+00
	6.205387504786646e-06,1.882769200246337e-13
