LTspice 24.0.9 for Windows
Circuit: * GA CMOS Amp | W=3.9843594750709874e-05 L=9.400715412440405e-07 Vbias=0.875885700581147
Start Time: Mon Sep  8 18:44:14 2025
solver = Normal
Maximum thread count: 2
tnom = 27
temp = 27
method = modified trap
AsciiRawFile = 1
Instance "m1": Length shorter than recommended for a level 3 MOSFET.
Direct Newton iteration for .op point succeeded.
Semiconductor Device Operating Points:
                        --- MOSFET Transistors ---
Name:          m1
Model:        n_1u
Id:          4.61e-05
Vgs:         8.76e-01
Vds:         1.34e+00
Vbs:         0.00e+00
Vth:         8.02e-01
Vdsat:       1.09e-01
Gm:          6.77e-04
Gds:         5.10e-06
Gmb:         1.56e-04
Cbd:         0.00e+00
Cbs:         0.00e+00
Cgsov:       7.97e-15
Cgdov:       7.97e-15
Cgbov:       7.40e-17
Cgs:         3.39e-14
Cgd:         0.00e+00
Cgb:         0.00e+00



gain_db: MAX(db(v(out)/v(g)))=(30.027dB,59.3428°) FROM 1 TO 1e+09
gain_lin: MAX(mag(v(out)/v(g)))=(16.1746dB,0°) FROM 1 TO 1e+09

Measurement "fc" FAIL'ed

Total elapsed time: 0.414 seconds.

