LTspice 24.0.9 for Windows
Circuit: * GA CMOS Amp | W=1.9225519521884506e-05 L=5.881496941762788e-07 Vbias=0.8813683043817421
Start Time: Mon Sep  8 18:47:24 2025
solver = Normal
Maximum thread count: 2
tnom = 27
temp = 27
method = modified trap
AsciiRawFile = 1
Instance "m1": Length shorter than recommended for a level 3 MOSFET.
Direct Newton iteration for .op point succeeded.
Semiconductor Device Operating Points:
                        --- MOSFET Transistors ---
Name:          m1
Model:        n_1u
Id:          7.91e-05
Vgs:         8.81e-01
Vds:         1.01e+00
Vbs:         0.00e+00
Vth:         7.53e-01
Vdsat:       1.42e-01
Gm:          7.57e-04
Gds:         3.21e-05
Gmb:         1.31e-04
Cbd:         0.00e+00
Cbs:         0.00e+00
Cgsov:       3.85e-15
Cgdov:       3.85e-15
Cgbov:       3.88e-17
Cgs:         8.59e-15
Cgd:         0.00e+00
Cgb:         0.00e+00



gain_db: MAX(db(v(out)/v(g)))=(29.8887dB,60.9313°) FROM 1 TO 1e+09
gain_lin: MAX(mag(v(out)/v(g)))=(15.1685dB,0°) FROM 1 TO 1e+09

Measurement "fc" FAIL'ed

Total elapsed time: 0.424 seconds.

