LTspice 24.0.9 for Windows
Circuit: * GA CMOS Amp | W=4.25347110424219e-06 L=1e-06 Vbias=1.182198616639895
Start Time: Mon Sep  8 18:46:45 2025
solver = Normal
Maximum thread count: 2
tnom = 27
temp = 27
method = modified trap
AsciiRawFile = 1
Direct Newton iteration for .op point succeeded.
Semiconductor Device Operating Points:
                        --- MOSFET Transistors ---
Name:          m1
Model:        n_1u
Id:          3.37e-05
Vgs:         1.18e+00
Vds:         1.46e+00
Vbs:         0.00e+00
Vth:         8.49e-01
Vdsat:       2.85e-01
Gm:          1.51e-04
Gds:         6.07e-06
Gmb:         4.40e-05
Cbd:         0.00e+00
Cbs:         0.00e+00
Cgsov:       8.51e-16
Cgdov:       8.51e-16
Cgbov:       8.00e-17
Cgs:         3.92e-15
Cgd:         0.00e+00
Cgb:         0.00e+00



gain_db: MAX(db(v(out)/v(g)))=(28.7736dB,83.5972°) FROM 1 TO 1e+09
gain_lin: MAX(mag(v(out)/v(g)))=(3.06214dB,0°) FROM 1 TO 1e+09

Measurement "fc" FAIL'ed

Total elapsed time: 0.454 seconds.

