Title: * GA CMOS Amp | W=1e-06 L=7.713285290800166e-07 Vbias=1.292869104769911
Date: Sat Sep  6 22:03:56 2025
Plotname: AC Analysis
Flags: complex forward log
No. Variables: 13
No. Points:          901
Offset:    0.0000000000000000e+00
Command: Linear Technology Corporation LTspice
Variables:
	0	frequency	frequency
	1	V(out)	voltage
	2	V(g)	voltage
	3	V(vdd)	voltage
	4	V(m1#dbody)	voltage
	5	V(m1#sbody)	voltage
	6	Id(M1)	device_current
	7	Ig(M1)	device_current
	8	Ib(M1)	device_current
	9	Is(M1)	device_current
	10	I(Rload)	device_current
	11	I(Vg)	device_current
	12	I(Vdd)	device_current
Values:
0		1.000000000000000e+00,0.000000000000000e+00
	-3.092623032066955e-01,5.639732714263759e-10
	1.000000000000000e+00,0.000000000000000e+00
	0.000000000000000e+00,0.000000000000000e+00
	5.826201530187896e-06,5.009015557481923e-14
	5.826203849654981e-06,5.562650046735145e-14
	3.092623032066955e-05,-5.639732714263760e-14
	3.843343343882797e-06,1.699043530912756e-13
	-3.107308567532885e-06,-2.929846513538531e-14
	-3.166226509701947e-05,-8.420856081325267e-14
	-3.092623032066955e-05,5.639732714263759e-14
	-3.843343344023253e-06,-1.699043530912756e-13
	-3.092623032066955e-05,5.639732714263759e-14
1		1.023292992280754e+00,0.000000000000000e+00
	-3.092623032066955e-01,5.771098964842621e-10
	1.000000000000000e+00,0.000000000000000e+00
	0.000000000000000e+00,0.000000000000000e+00
	5.826201530187896e-06,5.125690518196529e-14
	5.826203849654981e-06,5.692220811334285e-14
	3.092623032066955e-05,-5.771098964842624e-14
	3.843343343882797e-06,1.738619338762972e-13
	-3.107308567532885e-06,-2.998091405762180e-14
	-3.166226509701947e-05,-8.617003017024919e-14
	-3.092623032066955e-05,5.771098964842621e-14
	-3.843343344023253e-06,-1.738619338762972e-13
	-3.092623032066955e-05,5.771098964842621e-14
2		1.047128548050899e+00,0.000000000000000e+00
	-3.092623032066955e-01,5.905525128482169e-10
	1.000000000000000e+00,0.000000000000000e+00
	0.000000000000000e+00,0.000000000000000e+00
	5.826201530187896e-06,5.245083187870414e-14
	5.826203849654981e-06,5.824809666753041e-14
	3.092623032066955e-05,-5.905525128482169e-14
	3.843343343882797e-06,1.779116985599948e-13
	-3.107308567532885e-06,-3.067925925733593e-14
	-3.166226509701947e-05,-8.817718801783714e-14
	-3.092623032066955e-05,5.905525128482169e-14
	-3.843343344023253e-06,-1.779116985599947e-13
	-3.092623032066955e-05,5.905525128482169e-14
3		1.071519305237606e+00,0.000000000000000e+00
	-3.092623032066955e-01,6.043082479713703e-10
	1.000000000000000e+00,0.000000000000000e+00
	0.000000000000000e+00,0.000000000000000e+00
	5.826201530187896e-06,5.367256870077391e-14
	5.826203849654981e-06,5.960486913357580e-14
	3.092623032066955e-05,-6.043082479713702e-14
	3.843343343882797e-06,1.820557943812085e-13
	-3.107308567532885e-06,-3.139387100639630e-14
	-3.166226509701947e-05,-9.023109857767522e-14
	-3.092623032066955e-05,6.043082479713703e-14
	-3.843343344023253e-06,-1.820557943812085e-13
	-3.092623032066955e-05,6.043082479713703e-14
4		1.096478196143185e+00,0.000000000000000e+00
	-3.092623032066955e-01,6.183843953265633e-10
	1.000000000000000e+00,0.000000000000000e+00
	0.000000000000000e+00,0.000000000000000e+00
	5.826201530187896e-06,5.492276342920927e-14
	5.826203849654981e-06,6.099324489019953e-14
	3.092623032066955e-05,-6.183843953265634e-14
	3.843343343882797e-06,1.862964185943966e-13
	-3.107308567532885e-06,-3.212512820141127e-14
	-3.166226509701947e-05,-9.233285086032895e-14
	-3.092623032066955e-05,6.183843953265633e-14
	-3.843343344023253e-06,-1.862964185943966e-13
	-3.092623032066955e-05,6.183843953265633e-14
5		1.122018454301963e+00,0.000000000000000e+00
	-3.092623032066955e-01,6.327884182734437e-10
	1.000000000000000e+00,0.000000000000000e+00
	0.000000000000000e+00,0.000000000000000e+00
	5.826201530187896e-06,5.620207893380354e-14
	5.826203849654981e-06,6.241396007260511e-14
	3.092623032066955e-05,-6.327884182734440e-14
	3.843343343882797e-06,1.906358196346480e-13
	-3.107308567532885e-06,-3.287341856462498e-14
	-3.166226509701947e-05,-9.448355924267864e-14
	-3.092623032066955e-05,6.327884182734438e-14
	-3.843343344023253e-06,-1.906358196346480e-13
	-3.092623032066955e-05,6.327884182734438e-14
6		1.148153621496882e+00,0.000000000000000e+00
	-3.092623032066955e-01,6.475279540156379e-10
	1.000000000000000e+00,0.000000000000000e+00
	0.000000000000000e+00,0.000000000000000e+00
	5.826201530187896e-06,5.751119352457095e-14
	5.826203849654981e-06,6.386776796278758e-14
	3.092623032066955e-05,-6.475279540156380e-14
	3.843343343882797e-06,1.950762983098331e-13
	-3.107308567532885e-06,-3.363913884949279e-14
	-3.166226509701947e-05,-9.668436405877652e-14
	-3.092623032066955e-05,6.475279540156380e-14
	-3.843343344023253e-06,-1.950762983098330e-13
	-3.092623032066955e-05,6.475279540156380e-14
7		1.174897554939529e+00,0.000000000000000e+00
	-3.092623032066955e-01,6.626108176500964e-10
	1.000000000000000e+00,0.000000000000000e+00
	0.000000000000000e+00,0.000000000000000e+00
	5.826201530187896e-06,5.885080131139575e-14
	5.826203849654981e-06,6.535543938893379e-14
	3.092623032066955e-05,-6.626108176500967e-14
	3.843343343882797e-06,1.996202090205221e-13
	-3.107308567532885e-06,-3.442269505104524e-14
	-3.166226509701947e-05,-9.893643220446721e-14
	-3.092623032066955e-05,6.626108176500964e-14
	-3.843343344023253e-06,-1.996202090205221e-13
	-3.092623032066955e-05,6.626108176500964e-14
8		1.202264434617413e+00,0.000000000000000e+00
	-3.092623032066955e-01,6.780450063107645e-10
	1.000000000000000e+00,0.000000000000000e+00
	0.000000000000000e+00,0.000000000000000e+00
	5.826201530187896e-06,6.022161257205827e-14
	5.826203849654981e-06,6.687776313412551e-14
	3.092623032066955e-05,-6.780450063107645e-14
	3.843343343882797e-06,2.042699610083197e-13
	-3.107308567532885e-06,-3.522450262115199e-14
	-3.166226509701947e-05,-1.012409577560912e-13
	-3.092623032066955e-05,6.780450063107645e-14
	-3.843343344023253e-06,-2.042699610083197e-13
	-3.092623032066955e-05,6.780450063107645e-14
9		1.230268770812381e+00,0.000000000000000e+00
	-3.092623032066955e-01,6.938387034087649e-10
	1.000000000000000e+00,0.000000000000000e+00
	0.000000000000000e+00,0.000000000000000e+00
	5.826201530187896e-06,6.162435412883379e-14
	5.826203849654981e-06,6.843554635456280e-14
	3.092623032066955e-05,-6.938387034087649e-14
	3.843343343882797e-06,2.090280196332764e-13
	-3.107308567532885e-06,-3.604498668879988e-14
	-3.166226509701947e-05,-1.035991626036000e-13
	-3.092623032066955e-05,6.938387034087649e-14
	-3.843343344023253e-06,-2.090280196332764e-13
	-3.092623032066955e-05,6.938387034087649e-14
10		1.258925411794167e+00,0.000000000000000e+00
	-3.092623032066955e-01,7.100002829713536e-10
	1.000000000000000e+00,0.000000000000000e+00
	0.000000000000000e+00,0.000000000000000e+00
	5.826201530187896e-06,6.305976973386318e-14
	5.826203849654981e-06,7.002961500752884e-14
	3.092623032066955e-05,-7.100002829713539e-14
	3.843343343882797e-06,2.138969076810557e-13
	-3.107308567532885e-06,-3.688458228550200e-14
	-3.166226509701947e-05,-1.060122970984183e-13
	-3.092623032066955e-05,7.100002829713536e-14
	-3.843343344023253e-06,-2.138969076810556e-13
	-3.092623032066955e-05,7.100002829713536e-14
11		1.288249551693134e+00,0.000000000000000e+00
	-3.092623032066955e-01,7.265383140819388e-10
	1.000000000000000e+00,0.000000000000000e+00
	0.000000000000000e+00,0.000000000000000e+00
	5.826201530187896e-06,6.452862046350021e-14
	5.826203849654981e-06,7.166081428932339e-14
	3.092623032066955e-05,-7.265383140819390e-14
	3.843343343882797e-06,2.188792067005477e-13
	-3.107308567532885e-06,-3.774373457595704e-14
	-3.166226509701947e-05,-1.084816407163968e-13
	-3.092623032066955e-05,7.265383140819389e-14
	-3.843343344023253e-06,-2.188792067005477e-13
	-3.092623032066955e-05,7.265383140819389e-14
12		1.318256738556407e+00,0.000000000000000e+00
	-3.092623032066955e-01,7.434615654235214e-10
	1.000000000000000e+00,0.000000000000000e+00
	0.000000000000000e+00,0.000000000000000e+00
	5.826201530187896e-06,6.603168512184421e-14
	5.826203849654981e-06,7.333000908339716e-14
	3.092623032066955e-05,-7.434615654235216e-14
	3.843343343882797e-06,2.239775583726411e-13
	-3.107308567532885e-06,-3.862289909408164e-14
	-3.166226509701947e-05,-1.110085027362073e-13
	-3.092623032066955e-05,7.434615654235215e-14
	-3.843343344023253e-06,-2.239775583726411e-13
	-3.092623032066955e-05,7.434615654235215e-14
13		1.348962882591653e+00,0.000000000000000e+00
	-3.092623032066955e-01,7.607790099279689e-10
	1.000000000000000e+00,0.000000000000000e+00
	0.000000000000000e+00,0.000000000000000e+00
	5.826201530187896e-06,6.756976065367254e-14
	5.826203849654981e-06,7.503808441892437e-14
	3.092623032066955e-05,-7.607790099279690e-14
	3.843343343882797e-06,2.291946659108772e-13
	-3.107308567532885e-06,-3.952254198454043e-14
	-3.166226509701947e-05,-1.135942229335399e-13
	-3.092623032066955e-05,7.607790099279689e-14
	-3.843343344023253e-06,-2.291946659108772e-13
	-3.092623032066955e-05,7.607790099279689e-14
14		1.380384264602885e+00,0.000000000000000e+00
	-3.092623032066955e-01,7.784998295335809e-10
	1.000000000000000e+00,0.000000000000000e+00
	0.000000000000000e+00,0.000000000000000e+00
	5.826201530187896e-06,6.914366256699094e-14
	5.826203849654981e-06,7.678594594005696e-14
	3.092623032066955e-05,-7.784998295335811e-14
	3.843343343882797e-06,2.345332954947293e-13
	-3.107308567532885e-06,-4.044314024990212e-14
	-3.166226509701947e-05,-1.162401722914691e-13
	-3.092623032066955e-05,7.784998295335809e-14
	-3.843343344023253e-06,-2.345332954947292e-13
	-3.092623032066955e-05,7.784998295335809e-14
15		1.412537544622754e+00,0.000000000000000e+00
	-3.092623032066955e-01,7.966334200534751e-10
	1.000000000000000e+00,0.000000000000000e+00
	0.000000000000000e+00,0.000000000000000e+00
	5.826201530187896e-06,7.075422536542692e-14
	5.826203849654981e-06,7.857452038610910e-14
	3.092623032066955e-05,-7.966334200534752e-14
	3.843343343882797e-06,2.399962777362679e-13
	-3.107308567532885e-06,-4.138518200355253e-14
	-3.166226509701947e-05,-1.189477537273678e-13
	-3.092623032066955e-05,7.966334200534751e-14
	-3.843343344023253e-06,-2.399962777362679e-13
	-3.092623032066955e-05,7.966334200534751e-14
16		1.445439770745927e+00,0.000000000000000e+00
	-3.092623032066955e-01,8.151893961573712e-10
	1.000000000000000e+00,0.000000000000000e+00
	0.000000000000000e+00,0.000000000000000e+00
	5.826201530187896e-06,7.240230299069454e-14
	5.826203849654981e-06,8.040475608292669e-14
	3.092623032066955e-05,-8.151893961573714e-14
	3.843343343882797e-06,2.455865091809885e-13
	-3.107308567532885e-06,-4.234916672849889e-14
	-3.166226509701947e-05,-1.217184028367524e-13
	-3.092623032066955e-05,8.151893961573712e-14
	-3.843343344023253e-06,-2.455865091809884e-13
	-3.092623032066955e-05,8.151893961573712e-14
17		1.479108388168207e+00,0.000000000000000e+00
	-3.092623032066955e-01,8.341775964694173e-10
	1.000000000000000e+00,0.000000000000000e+00
	0.000000000000000e+00,0.000000000000000e+00
	5.826201530187896e-06,7.408876927536558e-14
	5.826203849654981e-06,8.227762344570219e-14
	3.092623032066955e-05,-8.341775964694174e-14
	3.843343343882797e-06,2.513069538435985e-13
	-3.107308567532885e-06,-4.333560554220216e-14
	-3.166226509701947e-05,-1.245535886544546e-13
	-3.092623032066955e-05,8.341775964694174e-14
	-3.843343344023253e-06,-2.513069538435985e-13
	-3.092623032066955e-05,8.341775964694174e-14
18		1.513561248436208e+00,0.000000000000000e+00
	-3.092623032066955e-01,8.536080887847576e-10
	1.000000000000000e+00,0.000000000000000e+00
	0.000000000000000e+00,0.000000000000000e+00
	5.826201530187896e-06,7.581451840618727e-14
	5.826203849654981e-06,8.419411549350174e-14
	3.092623032066955e-05,-8.536080887847579e-14
	3.843343343882797e-06,2.571606447795773e-13
	-3.107308567532885e-06,-4.434502146757849e-14
	-3.166226509701947e-05,-1.274548144335230e-13
	-3.092623032066955e-05,8.536080887847576e-14
	-3.843343344023253e-06,-2.571606447795772e-13
	-3.092623032066955e-05,8.536080887847576e-14
19		1.548816618912481e+00,0.000000000000000e+00
	-3.092623032066955e-01,8.734911754076102e-10
	1.000000000000000e+00,0.000000000000000e+00
	0.000000000000000e+00,0.000000000000000e+00
	5.826201530187896e-06,7.758046539819166e-14
	5.826203849654981e-06,8.615524837577679e-14
	3.092623032066955e-05,-8.734911754076105e-14
	3.843343343882797e-06,2.631506856933418e-13
	-3.107308567532885e-06,-4.537794971031267e-14
	-3.166226509701947e-05,-1.304236184422680e-13
	-3.092623032066955e-05,8.734911754076102e-14
	-3.843343344023253e-06,-2.631506856933418e-13
	-3.092623032066955e-05,8.734911754076102e-14
20		1.584893192461113e+00,0.000000000000000e+00
	-3.092623032066955e-01,8.938373986136865e-10
	1.000000000000000e+00,0.000000000000000e+00
	0.000000000000000e+00,0.000000000000000e+00
	5.826201530187896e-06,7.938754657984906e-14
	5.826203849654981e-06,8.816206191114020e-14
	3.092623032066955e-05,-8.938373986136865e-14
	3.843343343882797e-06,2.692802525838719e-13
	-3.107308567532885e-06,-4.643493794263143e-14
	-3.166226509701947e-05,-1.334615747798718e-13
	-3.092623032066955e-05,8.938373986136865e-14
	-3.843343344023253e-06,-2.692802525838719e-13
	-3.092623032066955e-05,8.938373986136865e-14
21		1.621810097358929e+00,0.000000000000000e+00
	-3.092623032066955e-01,9.146575462398443e-10
	1.000000000000000e+00,0.000000000000000e+00
	0.000000000000000e+00,0.000000000000000e+00
	5.826201530187896e-06,8.123672008952150e-14
	5.826203849654981e-06,9.021562013869178e-14
	3.092623032066955e-05,-9.146575462398447e-14
	3.843343343882797e-06,2.755525954286675e-13
	-3.107308567532885e-06,-4.751654659368645e-14
	-3.166226509701947e-05,-1.365702942109966e-13
	-3.092623032066955e-05,9.146575462398444e-14
	-3.843343344023253e-06,-2.755525954286676e-13
	-3.092623032066955e-05,9.146575462398444e-14
22		1.659586907437560e+00,0.000000000000000e+00
	-3.092623032066955e-01,9.359626574039427e-10
	1.000000000000000e+00,0.000000000000000e+00
	0.000000000000000e+00,0.000000000000000e+00
	5.826201530187896e-06,8.312896638348051e-14
	5.826203849654981e-06,9.231701188218577e-14
	3.092623032066955e-05,-9.359626574039429e-14
	3.843343343882797e-06,2.819710399069293e-13
	-3.107308567532885e-06,-4.862334914670128e-14
	-3.166226509701947e-05,-1.397514250198337e-13
	-3.092623032066955e-05,9.359626574039427e-14
	-3.843343344023253e-06,-2.819710399069293e-13
	-3.092623032066955e-05,9.359626574039427e-14
23		1.698243652461743e+00,0.000000000000000e+00
	-3.092623032066955e-01,9.577640283579267e-10
	1.000000000000000e+00,0.000000000000000e+00
	0.000000000000000e+00,0.000000000000000e+00
	5.826201530187896e-06,8.506528875575799e-14
	5.826203849654981e-06,9.446735132733982e-14
	3.092623032066955e-05,-9.577640283579270e-14
	3.843343343882797e-06,2.885389891628776e-13
	-3.107308567532885e-06,-4.975593244303980e-14
	-3.166226509701947e-05,-1.430066538840451e-13
	-3.092623032066955e-05,9.577640283579268e-14
	-3.843343344023253e-06,-2.885389891628776e-13
	-3.092623032066955e-05,9.577640283579268e-14
24		1.737800828749374e+00,0.000000000000000e+00
	-3.092623032066955e-01,9.800732184772519e-10
	1.000000000000000e+00,0.000000000000000e+00
	0.000000000000000e+00,0.000000000000000e+00
	5.826201530187896e-06,8.704671387010596e-14
	5.826203849654981e-06,9.666777861259081e-14
	3.092623032066955e-05,-9.800732184772520e-14
	3.843343343882797e-06,2.952599256101451e-13
	-3.107308567532885e-06,-5.091489699335725e-14
	-3.166226509701947e-05,-1.463377067690626e-13
	-3.092623032066955e-05,9.800732184772519e-14
	-3.843343344023253e-06,-2.952599256101450e-13
	-3.092623032066955e-05,9.800732184772519e-14
25		1.778279410038922e+00,0.000000000000000e+00
	-3.092623032066955e-01,1.002902056389817e-09
	1.000000000000000e+00,0.000000000000000e+00
	0.000000000000000e+00,0.000000000000000e+00
	5.826201530187896e-06,8.907429230434737e-14
	5.826203849654981e-06,9.891946043361155e-14
	3.092623032066955e-05,-1.002902056389817e-13
	3.843343343882797e-06,3.021374127781982e-13
	-3.107308567532885e-06,-5.210085729599892e-14
	-3.166226509701947e-05,-1.497463498432176e-13
	-3.092623032066955e-05,1.002902056389817e-13
	-3.843343344023253e-06,-3.021374127781982e-13
	-3.092623032066955e-05,1.002902056389817e-13
26		1.819700858609982e+00,0.000000000000000e+00
	-3.092623032066955e-01,1.026262646247657e-09
	1.000000000000000e+00,0.000000000000000e+00
	0.000000000000000e+00,0.000000000000000e+00
	5.826201530187896e-06,9.114909910740615e-14
	5.826203849654981e-06,1.012235906619080e-13
	3.092623032066955e-05,-1.026262646247657e-13
	3.843343343882797e-06,3.091750972017678e-13
	-3.107308567532885e-06,-5.331444216281528e-14
	-3.166226509701947e-05,-1.532343904141868e-13
	-3.092623032066955e-05,1.026262646247657e-13
	-3.843343344023253e-06,-3.091750972017678e-13
	-3.092623032066955e-05,1.026262646247657e-13
27		1.862087136662866e+00,0.000000000000000e+00
	-3.092623032066955e-01,1.050167374144730e-09
	1.000000000000000e+00,0.000000000000000e+00
	0.000000000000000e+00,0.000000000000000e+00
	5.826201530187896e-06,9.327223436931266e-14
	5.826203849654981e-06,1.035813909778260e-13
	3.092623032066955e-05,-1.050167374144730e-13
	3.843343343882797e-06,3.163767103542899e-13
	-3.107308567532885e-06,-5.455629505256645e-14
	-3.166226509701947e-05,-1.568036778872505e-13
	-3.092623032066955e-05,1.050167374144730e-13
	-3.843343344023253e-06,-3.163767103542899e-13
	-3.092623032066955e-05,1.050167374144730e-13
28		1.905460717963246e+00,0.000000000000000e+00
	-3.092623032066955e-01,1.074628914684183e-09
	1.000000000000000e+00,0.000000000000000e+00
	0.000000000000000e+00,0.000000000000000e+00
	5.826201530187896e-06,9.544482380448573e-14
	5.826203849654981e-06,1.059941115183023e-13
	3.092623032066955e-05,-1.074628914684183e-13
	3.843343343882797e-06,3.237460706263827e-13
	-3.107308567532885e-06,-5.582707441209241e-14
	-3.166226509701947e-05,-1.604561047458721e-13
	-3.092623032066955e-05,1.074628914684183e-13
	-3.843343344023253e-06,-3.237460706263827e-13
	-3.092623032066955e-05,1.074628914684183e-13
29		1.949844599758044e+00,0.000000000000000e+00
	-3.092623032066955e-01,1.099660237698597e-09
	1.000000000000000e+00,0.000000000000000e+00
	0.000000000000000e+00,0.000000000000000e+00
	5.826201530187896e-06,9.766801934860161e-14
	5.826203849654981e-06,1.084630315397036e-13
	3.092623032066955e-05,-1.099660237698597e-13
	3.843343343882797e-06,3.312870853504077e-13
	-3.107308567532885e-06,-5.712745402543039e-14
	-3.166226509701947e-05,-1.641936075551176e-13
	-3.092623032066955e-05,1.099660237698597e-13
	-3.843343344023253e-06,-3.312870853504075e-13
	-3.092623032066955e-05,1.099660237698597e-13
30		1.995262314968878e+00,0.000000000000000e+00
	-3.092623032066955e-01,1.125274615126762e-09
	1.000000000000000e+00,0.000000000000000e+00
	0.000000000000000e+00,0.000000000000000e+00
	5.826201530187896e-06,9.994299976936510e-14
	5.826203849654981e-06,1.109894600961050e-13
	3.092623032066955e-05,-1.125274615126762e-13
	3.843343343882797e-06,3.390037528721882e-13
	-3.107308567532885e-06,-5.845812337106386e-14
	-3.166226509701947e-05,-1.680181679884481e-13
	-3.092623032066955e-05,1.125274615126762e-13
	-3.843343344023253e-06,-3.390037528721882e-13
	-3.092623032066955e-05,1.125274615126762e-13
31		2.041737944669527e+00,0.000000000000000e+00
	-3.092623032066955e-01,1.151485628050638e-09
	1.000000000000000e+00,0.000000000000000e+00
	0.000000000000000e+00,0.000000000000000e+00
	5.826201530187896e-06,1.022709712915083e-13
	5.826203849654981e-06,1.135747367333687e-13
	3.092623032066955e-05,-1.151485628050638e-13
	3.843343343882797e-06,3.469001646709866e-13
	-3.107308567532885e-06,-5.981978798749340e-14
	-3.166226509701947e-05,-1.719318138784294e-13
	-3.092623032066955e-05,1.151485628050638e-13
	-3.843343344023253e-06,-3.469001646709866e-13
	-3.092623032066955e-05,1.151485628050638e-13
32		2.089296130854037e+00,0.000000000000000e+00
	-3.092623032066955e-01,1.178307173896221e-09
	1.000000000000000e+00,0.000000000000000e+00
	0.000000000000000e+00,0.000000000000000e+00
	5.826201530187896e-06,1.046531682363466e-13
