LTspice 24.0.9 for Windows
Circuit: * GA CMOS Amp | W=1.9789286374961295e-05 L=7.398626836930959e-07 Vbias=0.5843579516464352
Start Time: Mon Sep  8 18:43:34 2025
solver = Normal
Maximum thread count: 2
tnom = 27
temp = 27
method = modified trap
AsciiRawFile = 1
Instance "m1": Length shorter than recommended for a level 3 MOSFET.
Direct Newton iteration for .op point succeeded.
Semiconductor Device Operating Points:
                        --- MOSFET Transistors ---
Name:          m1
Model:        n_1u
Id:          1.78e-07
Vgs:         5.84e-01
Vds:         1.80e+00
Vbs:         0.00e+00
Vth:         7.85e-01
Vdsat:       4.81e-02
Gm:          3.30e-06
Gds:         1.86e-08
Gmb:         7.45e-07
Cbd:         0.00e+00
Cbs:         0.00e+00
Cgsov:       3.96e-15
Cgdov:       3.96e-15
Cgbov:       5.40e-17
Cgs:         5.25e-15
Cgd:         0.00e+00
Cgb:         5.29e-15



gain_db: MAX(db(v(out)/v(g)))=(32.1036dB,137.367°) FROM 1 TO 1e+09
gain_lin: MAX(mag(v(out)/v(g)))=(-12.2737dB,0°) FROM 1 TO 1e+09

Measurement "fc" FAIL'ed

Total elapsed time: 0.446 seconds.

