LTspice 24.0.9 for Windows
Circuit: * GA CMOS Amp | W=1.8603395470297766e-05 L=7.04485477906462e-07 Vbias=0.9851250448203792
Start Time: Mon Sep  8 18:45:28 2025
solver = Normal
Maximum thread count: 2
tnom = 27
temp = 27
method = modified trap
AsciiRawFile = 1
Instance "m1": Length shorter than recommended for a level 3 MOSFET.
Direct Newton iteration for .op point succeeded.
Semiconductor Device Operating Points:
                        --- MOSFET Transistors ---
Name:          m1
Model:        n_1u
Id:          1.09e-04
Vgs:         9.85e-01
Vds:         7.10e-01
Vbs:         0.00e+00
Vth:         7.80e-01
Vdsat:       1.98e-01
Gm:          7.21e-04
Gds:         3.67e-05
Gmb:         1.47e-04
Cbd:         0.00e+00
Cbs:         0.00e+00
Cgsov:       3.72e-15
Cgdov:       3.72e-15
Cgbov:       5.04e-17
Cgs:         1.08e-14
Cgd:         0.00e+00
Cgb:         0.00e+00



gain_db: MAX(db(v(out)/v(g)))=(29.7916dB,62.1118°) FROM 1 TO 1e+09
gain_lin: MAX(mag(v(out)/v(g)))=(14.4408dB,0°) FROM 1 TO 1e+09

Measurement "fc" FAIL'ed

Total elapsed time: 0.555 seconds.

