Title: * GA CMOS Amp | W=3.0420708623311366e-05 L=8.420413864477795e-07 Vbias=0.6347895930227789
Date: Sat Sep  6 22:37:35 2025
Plotname: AC Analysis
Flags: complex forward log
No. Variables: 13
No. Points:          901
Offset:    0.0000000000000000e+00
Command: Linear Technology Corporation LTspice
Variables:
	0	frequency	frequency
	1	V(out)	voltage
	2	V(g)	voltage
	3	V(vdd)	voltage
	4	V(m1#dbody)	voltage
	5	V(m1#sbody)	voltage
	6	Id(M1)	device_current
	7	Ig(M1)	device_current
	8	Ib(M1)	device_current
	9	Is(M1)	device_current
	10	I(Rload)	device_current
	11	I(Vg)	device_current
	12	I(Vdd)	device_current
Values:
0		1.000000000000000e+00,0.000000000000000e+00
	-8.321393629429545e-02,1.212764873451112e-09
	1.000000000000000e+00,0.000000000000000e+00
	0.000000000000000e+00,0.000000000000000e+00
	1.583470231175985e-08,-4.257280932114084e-14
	1.583534913638004e-08,1.591633098058501e-14
	8.321393629429525e-06,-1.212764873451101e-13
	1.796345342863950e-06,6.296149715823566e-12
	-8.445476424149070e-09,-4.589441100973283e-15
	-1.010929349586933e-05,-6.170283787377483e-12
	-8.321393629429545e-06,1.212764873451112e-13
	-1.796345342891525e-06,-6.296149715823568e-12
	-8.321393629429545e-06,1.212764873451112e-13
1		1.023292992280754e+00,0.000000000000000e+00
	-8.321393629429545e-02,1.241013796286779e-09
	1.000000000000000e+00,0.000000000000000e+00
	0.000000000000000e+00,0.000000000000000e+00
	1.583470231175961e-08,-4.356445744002809e-14
	1.583534913637985e-08,1.628706995525381e-14
	8.321393629429525e-06,-1.241013796286776e-13
	1.796345342863950e-06,6.442805882552717e-12
	-8.445476424148962e-09,-4.696342917111285e-15
	-1.010929349586933e-05,-6.314008160006929e-12
	-8.321393629429545e-06,1.241013796286779e-13
	-1.796345342891525e-06,-6.442805882552719e-12
	-8.321393629429545e-06,1.241013796286779e-13
2		1.047128548050899e+00,0.000000000000000e+00
	-8.321393629429545e-02,1.269920721063996e-09
	1.000000000000000e+00,0.000000000000000e+00
	0.000000000000000e+00,0.000000000000000e+00
	1.583470231175937e-08,-4.457920401089396e-14
	1.583534913637964e-08,1.666644454999759e-14
	8.321393629429525e-06,-1.269920721063991e-13
	1.796345342863950e-06,6.592878110241414e-12
	-8.445476424148850e-09,-4.805734796427307e-15
	-1.010929349586933e-05,-6.461080303338588e-12
	-8.321393629429545e-06,1.269920721063996e-13
	-1.796345342891525e-06,-6.592878110241417e-12
	-8.321393629429545e-06,1.269920721063996e-13
3		1.071519305237606e+00,0.000000000000000e+00
	-8.321393629429545e-02,1.299500974616909e-09
	1.000000000000000e+00,0.000000000000000e+00
	0.000000000000000e+00,0.000000000000000e+00
	1.583470231175911e-08,-4.561758706580190e-14
	1.583534913637943e-08,1.705465591424827e-14
	8.321393629429525e-06,-1.299500974616904e-13
	1.796345342863950e-06,6.746445969171220e-12
	-8.445476424148734e-09,-4.917674739943824e-15
	-1.010929349586933e-05,-6.611578196969585e-12
	-8.321393629429545e-06,1.299500974616909e-13
	-1.796345342891525e-06,-6.746445969171220e-12
	-8.321393629429545e-06,1.299500974616909e-13
4		1.096478196143185e+00,0.000000000000000e+00
	-8.321393629429545e-02,1.329770240787493e-09
	1.000000000000000e+00,0.000000000000000e+00
	0.000000000000000e+00,0.000000000000000e+00
	1.583470231175884e-08,-4.668015716919224e-14
	1.583534913637920e-08,1.745190988280976e-14
	8.321393629429525e-06,-1.329770240787490e-13
	1.796345342863950e-06,6.903590883053650e-12
	-8.445476424148612e-09,-5.032222099700589e-15
	-1.010929349586933e-05,-6.765581636875200e-12
	-8.321393629429545e-06,1.329770240787493e-13
	-1.796345342891525e-06,-6.903590883053650e-12
	-8.321393629429545e-06,1.329770240787493e-13
5		1.122018454301963e+00,0.000000000000000e+00
	-8.321393629429545e-02,1.360744568741333e-09
	1.000000000000000e+00,0.000000000000000e+00
	0.000000000000000e+00,0.000000000000000e+00
	1.583470231175856e-08,-4.776747770979862e-14
	1.583534913637897e-08,1.785841708499449e-14
	8.321393629429525e-06,-1.360744568741334e-13
	1.796345342863950e-06,7.064396172202103e-12
	-8.445476424148484e-09,-5.149437610223971e-15
	-1.010929349586933e-05,-6.923172277717747e-12
	-8.321393629429545e-06,1.360744568741333e-13
	-1.796345342891525e-06,-7.064396172202104e-12
	-8.321393629429545e-06,1.360744568741333e-13
6		1.148153621496882e+00,0.000000000000000e+00
	-8.321393629429545e-02,1.392440381477103e-09
	1.000000000000000e+00,0.000000000000000e+00
	0.000000000000000e+00,0.000000000000000e+00
	1.583470231175826e-08,-4.888012519936407e-14
	1.583534913637873e-08,1.827439305630174e-14
	8.321393629429525e-06,-1.392440381477091e-13
	1.796345342863949e-06,7.228947097709396e-12
	-8.445476424148350e-09,-5.269383420729131e-15
	-1.010929349586933e-05,-7.084433676140958e-12
	-8.321393629429545e-06,1.392440381477103e-13
	-1.796345342891525e-06,-7.228947097709399e-12
	-8.321393629429545e-06,1.392440381477103e-13
7		1.174897554939529e+00,0.000000000000000e+00
	-8.321393629429545e-02,1.424874484534259e-09
	1.000000000000000e+00,0.000000000000000e+00
	0.000000000000000e+00,0.000000000000000e+00
	1.583470231175795e-08,-5.001868957831514e-14
	1.583534913637847e-08,1.870005835269764e-14
	8.321393629429525e-06,-1.424874484534258e-13
	1.796345342863949e-06,7.397330906654320e-12
	-8.445476424148211e-09,-5.392123128072509e-15
	-1.010929349586933e-05,-7.249451335072821e-12
	-8.321393629429545e-06,1.424874484534259e-13
	-1.796345342891525e-06,-7.397330906654321e-12
	-8.321393629429545e-06,1.424874484534259e-13
8		1.202264434617413e+00,0.000000000000000e+00
	-8.321393629429545e-02,1.458064074903560e-09
	1.000000000000000e+00,0.000000000000000e+00
	0.000000000000000e+00,0.000000000000000e+00
	1.583470231175763e-08,-5.118377452855629e-14
	1.583534913637821e-08,1.913563866755666e-14
	8.321393629429525e-06,-1.458064074903548e-13
	1.796345342863949e-06,7.569636878361201e-12
	-8.445476424148066e-09,-5.517721810471567e-15
	-1.010929349586933e-05,-7.418312749060375e-12
	-8.321393629429545e-06,1.458064074903559e-13
	-1.796345342891525e-06,-7.569636878361205e-12
	-8.321393629429545e-06,1.458064074903559e-13
9		1.230268770812381e+00,0.000000000000000e+00
	-8.321393629429545e-02,1.492026750145133e-09
	1.000000000000000e+00,0.000000000000000e+00
	0.000000000000000e+00,0.000000000000000e+00
	1.583470231175729e-08,-5.237599779354985e-14
	1.583534913637792e-08,1.958136495132733e-14
	8.321393629429525e-06,-1.492026750145130e-13
	1.796345342863949e-06,7.745956371736983e-12
	-8.445476424147910e-09,-5.646246062010217e-15
	-1.010929349586933e-05,-7.591107450660459e-12
	-8.321393629429545e-06,1.492026750145133e-13
	-1.796345342891525e-06,-7.745956371736984e-12
	-8.321393629429545e-06,1.492026750145133e-13
10		1.258925411794167e+00,0.000000000000000e+00
	-8.321393629429545e-02,1.526780517718942e-09
	1.000000000000000e+00,0.000000000000000e+00
	0.000000000000000e+00,0.000000000000000e+00
	1.583470231175694e-08,-5.359599150585169e-14
	1.583534913637763e-08,2.003747353398534e-14
	8.321393629429525e-06,-1.526780517718942e-13
	1.796345342863949e-06,7.926382873710911e-12
	-8.445476424147751e-09,-5.777764027947917e-15
	-1.010929349586933e-05,-7.767927057911068e-12
	-8.321393629429545e-06,1.526780517718942e-13
	-1.796345342891525e-06,-7.926382873710912e-12
	-8.321393629429545e-06,1.526780517718942e-13
11		1.288249551693134e+00,0.000000000000000e+00
	-8.321393629429545e-02,1.562343804532576e-09
	1.000000000000000e+00,0.000000000000000e+00
	0.000000000000000e+00,0.000000000000000e+00
	1.583470231175656e-08,-5.484440252227700e-14
	1.583534913637732e-08,2.050420625033812e-14
	8.321393629429525e-06,-1.562343804532570e-13
	1.796345342863949e-06,8.111012048802562e-12
	-8.445476424147581e-09,-5.912345440850850e-15
	-1.010929349586933e-05,-7.948865322908454e-12
	-8.321393629429545e-06,1.562343804532576e-13
	-1.796345342891525e-06,-8.111012048802563e-12
	-8.321393629429545e-06,1.562343804532576e-13
12		1.318256738556407e+00,0.000000000000000e+00
	-8.321393629429545e-02,1.598735466711436e-09
	1.000000000000000e+00,0.000000000000000e+00
	0.000000000000000e+00,0.000000000000000e+00
	1.583470231175618e-08,-5.612189276687088e-14
	1.583534913637700e-08,2.098181056825033e-14
	8.321393629429525e-06,-1.598735466711439e-13
	1.796345342863948e-06,8.299941789844423e-12
	-8.445476424147406e-09,-6.050061657565790e-15
	-1.010929349586933e-05,-8.134018181515714e-12
	-8.321393629429545e-06,1.598735466711437e-13
	-1.796345342891525e-06,-8.299941789844424e-12
	-8.321393629429545e-06,1.598735466711437e-13
13		1.348962882591653e+00,0.000000000000000e+00
	-8.321393629429545e-02,1.635974799596514e-09
	1.000000000000000e+00,0.000000000000000e+00
	0.000000000000000e+00,0.000000000000000e+00
	1.583470231175577e-08,-5.742913958187098e-14
	1.583534913637666e-08,2.147053971985276e-14
	8.321393629429525e-06,-1.635974799596505e-13
	1.796345342863948e-06,8.493272269885981e-12
	-8.445476424147220e-09,-6.190985697053515e-15
	-1.010929349586933e-05,-8.323483804229276e-12
	-8.321393629429545e-06,1.635974799596514e-13
	-1.796345342891525e-06,-8.493272269885979e-12
	-8.321393629429545e-06,1.635974799596514e-13
14		1.380384264602885e+00,0.000000000000000e+00
	-8.321393629429545e-02,1.674081547975024e-09
	1.000000000000000e+00,0.000000000000000e+00
	0.000000000000000e+00,0.000000000000000e+00
	1.583470231175534e-08,-5.876683608684178e-14
	1.583534913637631e-08,2.197065283581099e-14
	8.321393629429525e-06,-1.674081547975015e-13
	1.796345342863948e-06,8.691105995306774e-12
	-8.445476424147025e-09,-6.335192279105284e-15
	-1.010929349586933e-05,-8.517362648230167e-12
	-8.321393629429545e-06,1.674081547975024e-13
	-1.796345342891525e-06,-8.691105995306779e-12
	-8.321393629429545e-06,1.674081547975024e-13
15		1.412537544622754e+00,0.000000000000000e+00
	-8.321393629429545e-02,1.713075916549359e-09
	1.000000000000000e+00,0.000000000000000e+00
	0.000000000000000e+00,0.000000000000000e+00
	1.583470231175490e-08,-6.013569154617693e-14
	1.583534913637594e-08,2.248241508271866e-14
	8.321393629429525e-06,-1.713075916549349e-13
	1.796345342863948e-06,8.893547860166671e-12
	-8.445476424146825e-09,-6.482757863959573e-15
	-1.010929349586933e-05,-8.715757510647776e-12
	-8.321393629429545e-06,1.713075916549359e-13
	-1.796345342891525e-06,-8.893547860166674e-12
	-8.321393629429545e-06,1.713075916549359e-13
16		1.445439770745927e+00,0.000000000000000e+00
	-8.321393629429545e-02,1.752978580649889e-09
	1.000000000000000e+00,0.000000000000000e+00
	0.000000000000000e+00,0.000000000000000e+00
	1.583470231175443e-08,-6.153643174515980e-14
	1.583534913637555e-08,2.300609780369316e-14
	8.321393629429525e-06,-1.752978580649894e-13
	1.796345342863948e-06,9.100705201822049e-12
	-8.445476424146612e-09,-6.633760692842797e-15
	-1.010929349586933e-05,-8.918773583064217e-12
	-8.321393629429545e-06,1.752978580649889e-13
	-1.796345342891525e-06,-9.100705201822052e-12
	-8.321393629429545e-06,1.752978580649889e-13
17		1.479108388168207e+00,0.000000000000000e+00
	-8.321393629429545e-02,1.793810697197294e-09
	1.000000000000000e+00,0.000000000000000e+00
	0.000000000000000e+00,0.000000000000000e+00
	1.583470231175393e-08,-6.296979937478501e-14
	1.583534913637514e-08,2.354197866224482e-14
	8.321393629429525e-06,-1.793810697197275e-13
	1.796345342863948e-06,9.312687857837506e-12
	-8.445476424146388e-09,-6.788280829453530e-15
	-1.010929349586933e-05,-9.126518507288326e-12
	-8.321393629429545e-06,1.793810697197294e-13
	-1.796345342891525e-06,-9.312687857837512e-12
	-8.321393629429545e-06,1.793810697197294e-13
18		1.513561248436208e+00,0.000000000000000e+00
	-8.321393629429545e-02,1.835593915920245e-09
	1.000000000000000e+00,0.000000000000000e+00
	0.000000000000000e+00,0.000000000000000e+00
	1.583470231175342e-08,-6.443655442554252e-14
	1.583534913637472e-08,2.409034178949816e-14
	8.321393629429525e-06,-1.835593915920234e-13
	1.796345342863947e-06,9.529608224223193e-12
	-8.445476424146157e-09,-6.946400202413579e-15
	-1.010929349586933e-05,-9.339102432428755e-12
	-8.321393629429545e-06,1.835593915920245e-13
	-1.796345342891525e-06,-9.529608224223193e-12
	-8.321393629429545e-06,1.835593915920245e-13
19		1.548816618912481e+00,0.000000000000000e+00
	-8.321393629429545e-02,1.878350390834374e-09
	1.000000000000000e+00,0.000000000000000e+00
	0.000000000000000e+00,0.000000000000000e+00
	1.583470231175289e-08,-6.593747459037507e-14
	1.583534913637427e-08,2.465147793484170e-14
	8.321393629429525e-06,-1.878350390834370e-13
	1.796345342863947e-06,9.751581315028633e-12
	-8.445476424145912e-09,-7.108202648707446e-15
	-1.010929349586933e-05,-9.556638073296489e-12
	-8.321393629429545e-06,1.878350390834374e-13
	-1.796345342891525e-06,-9.751581315028634e-12
	-8.321393629429545e-06,1.878350390834374e-13
20		1.584893192461113e+00,0.000000000000000e+00
	-8.321393629429545e-02,1.922102791988631e-09
	1.000000000000000e+00,0.000000000000000e+00
	0.000000000000000e+00,0.000000000000000e+00
	1.583470231175232e-08,-6.747335567702113e-14
	1.583534913637380e-08,2.522568462008710e-14
	8.321393629429525e-06,-1.922102791988627e-13
	1.796345342863947e-06,9.978724823324742e-12
	-8.445476424145657e-09,-7.273773958133797e-15
	-1.010929349586933e-05,-9.779240770167744e-12
	-8.321393629429545e-06,1.922102791988631e-13
	-1.796345342891525e-06,-9.978724823324743e-12
	-8.321393629429545e-06,1.922102791988631e-13
21		1.621810097358929e+00,0.000000000000000e+00
	-8.321393629429545e-02,1.966874317485237e-09
	1.000000000000000e+00,0.000000000000000e+00
	0.000000000000000e+00,0.000000000000000e+00
	1.583470231175173e-08,-6.904501202996254e-14
	1.583534913637331e-08,2.581326629721954e-14
	8.321393629429525e-06,-1.966874317485245e-13
	1.796345342863947e-06,1.021115918360621e-11
	-8.445476424145389e-09,-7.443201918792567e-15
	-1.010929349586933e-05,-1.000702854993890e-11
	-8.321393629429545e-06,1.966874317485237e-13
	-1.796345342891525e-06,-1.021115918360622e-11
	-8.321393629429545e-06,1.966874317485237e-13
22		1.659586907437560e+00,0.000000000000000e+00
	-8.321393629429545e-02,2.012688705779635e-09
	1.000000000000000e+00,0.000000000000000e+00
	0.000000000000000e+00,0.000000000000000e+00
	1.583470231175111e-08,-7.065327696220098e-14
	1.583534913637281e-08,2.641453450982179e-14
	8.321393629429525e-06,-2.012688705779625e-13
	1.796345342863946e-06,1.044900763564750e-11
	-8.445476424145111e-09,-7.616576363631126e-15
	-1.010929349586933e-05,-1.024012218870591e-11
	-8.321393629429545e-06,2.012688705779635e-13
	-1.796345342891525e-06,-1.044900763564751e-11
	-8.321393629429545e-06,2.012688705779635e-13
23		1.698243652461743e+00,0.000000000000000e+00
	-8.321393629429545e-02,2.059570248266921e-09
	1.000000000000000e+00,0.000000000000000e+00
	0.000000000000000e+00,0.000000000000000e+00
	1.583470231175047e-08,-7.229900319709150e-14
	1.583534913637227e-08,2.702980805825879e-14
	8.321393629429525e-06,-2.059570248266919e-13
	1.796345342863946e-06,1.069239628984618e-11
	-8.445476424144817e-09,-7.793989218074965e-15
	-1.010929349586933e-05,-1.047864527580141e-11
	-8.321393629429545e-06,2.059570248266921e-13
	-1.796345342891525e-06,-1.069239628984619e-11
	-8.321393629429545e-06,2.059570248266921e-13
24		1.737800828749374e+00,0.000000000000000e+00
	-8.321393629429545e-02,2.107543802161473e-09
	1.000000000000000e+00,0.000000000000000e+00
	0.000000000000000e+00,0.000000000000000e+00
	1.583470231174979e-08,-7.398306332046759e-14
	1.583534913637171e-08,2.765941316871004e-14
	8.321393629429525e-06,-2.107543802161454e-13
	1.796345342863946e-06,1.094145419408833e-11
	-8.445476424144512e-09,-7.975534548767847e-15
	-1.010929349586933e-05,-1.072272427932342e-11
	-8.321393629429545e-06,2.107543802161473e-13
	-1.796345342891525e-06,-1.094145419408833e-11
	-8.321393629429545e-06,2.107543802161473e-13
25		1.778279410038922e+00,0.000000000000000e+00
	-8.321393629429545e-02,2.156634803676572e-09
	1.000000000000000e+00,0.000000000000000e+00
	0.000000000000000e+00,0.000000000000000e+00
	1.583470231174908e-08,-7.570635024329782e-14
	1.583534913637112e-08,2.830368366613897e-14
	8.321393629429525e-06,-2.156634803676553e-13
	1.796345342863945e-06,1.119631340217146e-11
	-8.445476424144188e-09,-8.161308613447177e-15
	-1.010929349586933e-05,-1.097248861319035e-11
	-8.321393629429545e-06,2.156634803676572e-13
	-1.796345342891525e-06,-1.119631340217146e-11
	-8.321393629429545e-06,2.156634803676572e-13
26		1.819700858609982e+00,0.000000000000000e+00
	-8.321393629429545e-02,2.206869281511015e-09
	1.000000000000000e+00,0.000000000000000e+00
	0.000000000000000e+00,0.000000000000000e+00
	1.583470231174834e-08,-7.746977767511901e-14
	1.583534913637051e-08,2.896296115129125e-14
	8.321393629429525e-06,-2.206869281511011e-13
	1.796345342863945e-06,1.145710904382114e-11
	-8.445476424143854e-09,-8.351409911981048e-15
	-1.010929349586933e-05,-1.122807070575806e-11
	-8.321393629429545e-06,2.206869281511015e-13
	-1.796345342891525e-06,-1.145710904382115e-11
	-8.321393629429545e-06,2.206869281511015e-13
27		1.862087136662866e+00,0.000000000000000e+00
	-8.321393629429545e-02,2.258273870649885e-09
	1.000000000000000e+00,0.000000000000000e+00
	0.000000000000000e+00,0.000000000000000e+00
	1.583470231174757e-08,-7.927428060849727e-14
	1.583534913636986e-08,2.963759518181607e-14
	8.321393629429525e-06,-2.258273870649880e-13
	1.796345342863945e-06,1.172397939633862e-11
	-8.445476424143501e-09,-8.545939238594242e-15
	-1.010929349586933e-05,-1.148960607003504e-11
	-8.321393629429545e-06,2.258273870649885e-13
	-1.796345342891525e-06,-1.172397939633863e-11
	-8.321393629429545e-06,2.258273870649885e-13
28		1.905460717963246e+00,0.000000000000000e+00
	-8.321393629429545e-02,2.310875826486761e-09
	1.000000000000000e+00,0.000000000000000e+00
	0.000000000000000e+00,0.000000000000000e+00
	1.583470231174675e-08,-8.112081581477341e-14
	1.583534913636919e-08,3.032794345760615e-14
	8.321393629429525e-06,-2.310875826486756e-13
	1.796345342863944e-06,1.199706595791726e-11
	-8.445476424143129e-09,-8.744999735310574e-15
	-1.010929349586933e-05,-1.175723337553327e-11
	-8.321393629429545e-06,2.310875826486761e-13
	-1.796345342891525e-06,-1.199706595791726e-11
	-8.321393629429545e-06,2.310875826486761e-13
29		1.949844599758044e+00,0.000000000000000e+00
	-8.321393629429545e-02,2.364703039274899e-09
	1.000000000000000e+00,0.000000000000000e+00
	0.000000000000000e+00,0.000000000000000e+00
	1.583470231174590e-08,-8.301036235135530e-14
	1.583534913636848e-08,3.103437201045544e-14
	8.321393629429525e-06,-2.364703039274894e-13
	1.796345342863944e-06,1.227651352266673e-11
	-8.445476424142744e-09,-8.948696946640423e-15
	-1.010929349586933e-05,-1.203109452179259e-11
	-8.321393629429545e-06,2.364703039274899e-13
	-1.796345342891525e-06,-1.227651352266673e-11
	-8.321393629429545e-06,2.364703039274899e-13
30		1.995262314968878e+00,0.000000000000000e+00
	-8.321393629429545e-02,2.419784048915005e-09
	1.000000000000000e+00,0.000000000000000e+00
	0.000000000000000e+00,0.000000000000000e+00
	1.583470231174500e-08,-8.494392208082818e-14
	1.583534913636774e-08,3.175725539813286e-14
	8.321393629429498e-06,-2.419784048914991e-13
	1.796345342863971e-06,1.256247025738477e-11
	-8.445476424142337e-09,-9.157138875541238e-15
	-1.010929349586933e-05,-1.231133471361773e-11
	-8.321393629429545e-06,2.419784048915005e-13
	-1.796345342891525e-06,-1.256247025738477e-11
	-8.321393629429545e-06,2.419784048915005e-13
31		2.041737944669527e+00,0.000000000000000e+00
	-8.321393629429545e-02,2.476148060087474e-09
	1.000000000000000e+00,0.000000000000000e+00
	0.000000000000000e+00,0.000000000000000e+00
	1.583470231174407e-08,-8.692252020215386e-14
	1.583534913636697e-08,3.249697690297948e-14
	8.321393629429498e-06,-2.476148060087453e-13
	1.796345342863970e-06,1.285508778011724e-11
	-8.445476424141915e-09,-9.370436040683004e-15
	-1.010929349586933e-05,-1.259810253806781e-11
	-8.321393629429545e-06,2.476148060087473e-13
	-1.796345342891525e-06,-1.285508778011724e-11
	-8.321393629429545e-06,2.476148060087473e-13
32		2.089296130854037e+00,0.000000000000000e+00
	-8.321393629429545e-02,2.533824957737095e-09
	1.000000000000000e+00,0.000000000000000e+00
	0.000000000000000e+00,0.000000000000000e+00
