Title: * GA CMOS Amp | W=2.0573221639193533e-06 L=1e-06 Vbias=1.4035856252029957
Date: Sat Sep  6 22:09:47 2025
Plotname: AC Analysis
Flags: complex forward log
No. Variables: 13
No. Points:          901
Offset:    0.0000000000000000e+00
Command: Linear Technology Corporation LTspice
Variables:
	0	frequency	frequency
	1	V(out)	voltage
	2	V(g)	voltage
	3	V(vdd)	voltage
	4	V(m1#dbody)	voltage
	5	V(m1#sbody)	voltage
	6	Id(M1)	device_current
	7	Ig(M1)	device_current
	8	Ib(M1)	device_current
	9	Is(M1)	device_current
	10	I(Rload)	device_current
	11	I(Vg)	device_current
	12	I(Vdd)	device_current
Values:
0		1.000000000000000e+00,0.000000000000000e+00
	-4.084962906466109e-01,1.479456302880737e-09
	1.000000000000000e+00,0.000000000000000e+00
	0.000000000000000e+00,0.000000000000000e+00
	3.845158673903461e-05,1.267052331703583e-13
	3.845158980275426e-05,1.425414601079321e-13
	4.084962906466109e-05,-1.479456302880737e-13
	2.359248822512465e-05,4.523579591219598e-13
	-2.050751437271796e-05,-7.496755656283819e-14
	-4.393460291706778e-05,-2.294447722710479e-13
	-4.084962906466109e-05,1.479456302880737e-13
	-2.359248822481064e-05,-4.523579591219598e-13
	-4.084962906466109e-05,1.479456302880737e-13
1		1.023292992280754e+00,0.000000000000000e+00
	-4.084962906466109e-01,1.513917267123451e-09
	1.000000000000000e+00,0.000000000000000e+00
	0.000000000000000e+00,0.000000000000000e+00
	3.845158673903461e-05,1.296565771885267e-13
	3.845158980275426e-05,1.458616772379136e-13
	4.084962906466109e-05,-1.513917267123450e-13
	2.359248822512465e-05,4.628947295719253e-13
	-2.050751437271796e-05,-7.671377527916339e-14
	-4.393460291706778e-05,-2.347892275804168e-13
	-4.084962906466109e-05,1.513917267123451e-13
	-2.359248822481064e-05,-4.628947295719254e-13
	-4.084962906466109e-05,1.513917267123451e-13
2		1.047128548050899e+00,0.000000000000000e+00
	-4.084962906466109e-01,1.549180930340257e-09
	1.000000000000000e+00,0.000000000000000e+00
	0.000000000000000e+00,0.000000000000000e+00
	3.845158673903461e-05,1.326766668401280e-13
	3.845158980275426e-05,1.492592321598742e-13
	4.084962906466109e-05,-1.549180930340257e-13
	2.359248822512465e-05,4.736769329346458e-13
	-2.050751437271796e-05,-7.850066865456842e-14
	-4.393460291706778e-05,-2.402581712460517e-13
	-4.084962906466109e-05,1.549180930340257e-13
	-2.359248822481064e-05,-4.736769329346458e-13
	-4.084962906466109e-05,1.549180930340257e-13
3		1.071519305237606e+00,0.000000000000000e+00
	-4.084962906466109e-01,1.585265989792164e-09
	1.000000000000000e+00,0.000000000000000e+00
	0.000000000000000e+00,0.000000000000000e+00
	3.845158673903461e-05,1.357671034166713e-13
	3.845158980275426e-05,1.527359263024054e-13
	4.084962906466109e-05,-1.585265989792164e-13
	2.359248822512465e-05,4.847102860770638e-13
	-2.050751437271796e-05,-8.032918412357332e-14
	-4.393460291706778e-05,-2.458545029742740e-13
	-4.084962906466109e-05,1.585265989792165e-13
	-2.359248822481064e-05,-4.847102860770639e-13
	-4.084962906466109e-05,1.585265989792165e-13
4		1.096478196143185e+00,0.000000000000000e+00
	-4.084962906466109e-01,1.622191578255335e-09
	1.000000000000000e+00,0.000000000000000e+00
	0.000000000000000e+00,0.000000000000000e+00
	3.845158673903461e-05,1.389295255085361e-13
	3.845158980275426e-05,1.562936030547612e-13
	4.084962906466109e-05,-1.622191578255335e-13
	2.359248822512465e-05,4.960006390290588e-13
	-2.050751437271796e-05,-8.220029118928299e-14
	-4.393460291706778e-05,-2.515811900142423e-13
	-4.084962906466109e-05,1.622191578255335e-13
	-2.359248822481064e-05,-4.960006390290589e-13
	-4.084962906466109e-05,1.622191578255335e-13
5		1.122018454301963e+00,0.000000000000000e+00
	-4.084962906466109e-01,1.659977274165541e-09
	1.000000000000000e+00,0.000000000000000e+00
	0.000000000000000e+00,0.000000000000000e+00
	3.845158673903461e-05,1.421656098737753e-13
	3.845158980275426e-05,1.599341487442470e-13
	4.084962906466109e-05,-1.659977274165541e-13
	2.359248822512465e-05,5.075539780852120e-13
	-2.050751437271796e-05,-8.411498193743070e-14
	-4.393460291706778e-05,-2.574412687312271e-13
	-4.084962906466109e-05,1.659977274165541e-13
	-2.359248822481064e-05,-5.075539780852120e-13
	-4.084962906466109e-05,1.659977274165541e-13
6		1.148153621496882e+00,0.000000000000000e+00
	-4.084962906466109e-01,1.698643111998906e-09
	1.000000000000000e+00,0.000000000000000e+00
	0.000000000000000e+00,0.000000000000000e+00
	3.845158673903461e-05,1.454770723271538e-13
	3.845158980275426e-05,1.636594936363756e-13
	4.084962906466109e-05,-1.698643111998906e-13
	2.359248822512465e-05,5.193764289788168e-13
	-2.050751437271796e-05,-8.607427156239505e-14
	-4.393460291706778e-05,-2.634378462165311e-13
	-4.084962906466109e-05,1.698643111998906e-13
	-2.359248822481064e-05,-5.193764289788169e-13
	-4.084962906466109e-05,1.698643111998906e-13
7		1.174897554939529e+00,0.000000000000000e+00
	-4.084962906466109e-01,1.738209592894453e-09
	1.000000000000000e+00,0.000000000000000e+00
	0.000000000000000e+00,0.000000000000000e+00
	3.845158673903461e-05,1.488656686498969e-13
	3.845158980275426e-05,1.674716129583199e-13
	4.084962906466109e-05,-1.738209592894453e-13
	2.359248822512465e-05,5.314742601298259e-13
	-2.050751437271796e-05,-8.807919890546944e-14
	-4.393460291706778e-05,-2.695741019349112e-13
	-4.084962906466109e-05,1.738209592894453e-13
	-2.359248822481064e-05,-5.314742601298259e-13
	-4.084962906466109e-05,1.738209592894453e-13
8		1.202264434617413e+00,0.000000000000000e+00
	-4.084962906466109e-01,1.778697695524076e-09
	1.000000000000000e+00,0.000000000000000e+00
	0.000000000000000e+00,0.000000000000000e+00
	3.845158673903461e-05,1.523331955206283e-13
	3.845158980275426e-05,1.713725279462035e-13
	4.084962906466109e-05,-1.778697695524076e-13
	2.359248822512465e-05,5.438538859684495e-13
	-2.050751437271796e-05,-9.013082700566955e-14
	-4.393460291706778e-05,-2.758532894103724e-13
	-4.084962906466109e-05,1.778697695524076e-13
	-2.359248822481064e-05,-5.438538859684496e-13
	-4.084962906466109e-05,1.778697695524076e-13
9		1.230268770812381e+00,0.000000000000000e+00
	-4.084962906466109e-01,1.820128887215713e-09
	1.000000000000000e+00,0.000000000000000e+00
	0.000000000000000e+00,0.000000000000000e+00
	3.845158673903461e-05,1.558814914679929e-13
	3.845158980275426e-05,1.753643069167877e-13
	4.084962906466109e-05,-1.820128887215714e-13
	2.359248822512465e-05,5.565218703361708e-13
	-2.050751437271796e-05,-9.223024366337058e-14
	-4.393460291706778e-05,-2.822787379512289e-13
	-4.084962906466109e-05,1.820128887215714e-13
	-2.359248822481064e-05,-5.565218703361707e-13
	-4.084962906466109e-05,1.820128887215714e-13
10		1.258925411794167e+00,0.000000000000000e+00
	-4.084962906466109e-01,1.862525135335607e-09
	1.000000000000000e+00,0.000000000000000e+00
	0.000000000000000e+00,0.000000000000000e+00
	3.845158673903461e-05,1.595124378454693e-13
	3.845158980275426e-05,1.794490663641203e-13
	4.084962906466109e-05,-1.862525135335607e-13
	2.359248822512465e-05,5.694849299659821e-13
	-2.050751437271796e-05,-9.437856201707357e-14
	-4.393460291706778e-05,-2.888538544153478e-13
	-4.084962906466109e-05,1.862525135335607e-13
	-2.359248822481064e-05,-5.694849299659823e-13
	-4.084962906466109e-05,1.862525135335607e-13
11		1.288249551693134e+00,0.000000000000000e+00
	-4.084962906466109e-01,1.905908918935690e-09
	1.000000000000000e+00,0.000000000000000e+00
	0.000000000000000e+00,0.000000000000000e+00
	3.845158673903461e-05,1.632279598288881e-13
	3.845158980275426e-05,1.836289720817283e-13
	4.084962906466109e-05,-1.905908918935690e-13
	2.359248822512465e-05,5.827499380436855e-13
	-2.050751437271796e-05,-9.657692113360592e-14
	-4.393460291706778e-05,-2.955821250165106e-13
	-4.084962906466109e-05,1.905908918935690e-13
	-2.359248822481064e-05,-5.827499380436856e-13
	-4.084962906466109e-05,1.905908918935690e-13
12		1.318256738556407e+00,0.000000000000000e+00
	-4.084962906466109e-01,1.950303240672280e-09
	1.000000000000000e+00,0.000000000000000e+00
	0.000000000000000e+00,0.000000000000000e+00
	3.845158673903461e-05,1.670300274371857e-13
	3.845158980275426e-05,1.879062403109508e-13
	4.084962906466109e-05,-1.950303240672280e-13
	2.359248822512465e-05,5.963239278521472e-13
	-2.050751437271796e-05,-9.882648661207004e-14
	-4.393460291706778e-05,-3.024671171728491e-13
	-4.084962906466109e-05,1.950303240672280e-13
	-2.359248822481064e-05,-5.963239278521470e-13
	-4.084962906466109e-05,1.950303240672280e-13
13		1.348962882591653e+00,0.000000000000000e+00
	-4.084962906466109e-01,1.995731639002389e-09
	1.000000000000000e+00,0.000000000000000e+00
	0.000000000000000e+00,0.000000000000000e+00
	3.845158673903461e-05,1.709206565769341e-13
	3.845158980275426e-05,1.922831389160193e-13
	4.084962906466109e-05,-1.995731639002389e-13
	2.359248822512465e-05,6.102140965004361e-13
	-2.050751437271796e-05,-1.011284512018590e-13
	-4.393460291706778e-05,-3.095124813983382e-13
	-4.084962906466109e-05,1.995731639002389e-13
	-2.359248822481064e-05,-6.102140965004362e-13
	-4.084962906466109e-05,1.995731639002389e-13
14		1.380384264602885e+00,0.000000000000000e+00
	-4.084962906466109e-01,2.042218200664128e-09
	1.000000000000000e+00,0.000000000000000e+00
	0.000000000000000e+00,0.000000000000000e+00
	3.845158673903461e-05,1.749019101112022e-13
	3.845158980275426e-05,1.967619885865094e-13
	4.084962906466109e-05,-2.042218200664128e-13
	2.359248822512465e-05,6.244278087398282e-13
	-2.050751437271796e-05,-1.034840354350686e-13
	-4.393460291706778e-05,-3.167219532383468e-13
	-4.084962906466109e-05,2.042218200664128e-13
	-2.359248822481064e-05,-6.244278087398283e-13
	-4.084962906466109e-05,2.042218200664128e-13
15		1.412537544622754e+00,0.000000000000000e+00
	-4.084962906466109e-01,2.089787573447813e-09
	1.000000000000000e+00,0.000000000000000e+00
	0.000000000000000e+00,0.000000000000000e+00
	3.845158673903461e-05,1.789758989533115e-13
	3.845158980275426e-05,2.013451640678007e-13
	4.084962906466109e-05,-2.089787573447813e-13
	2.359248822512465e-05,6.389726008686932e-13
	-2.050751437271796e-05,-1.058944882736389e-13
	-4.393460291706778e-05,-3.240993552502729e-13
	-4.084962906466109e-05,2.089787573447813e-13
	-2.359248822481064e-05,-6.389726008686933e-13
	-4.084962906466109e-05,2.089787573447813e-13
16		1.445439770745927e+00,0.000000000000000e+00
	-4.084962906466109e-01,2.138464979264548e-09
	1.000000000000000e+00,0.000000000000000e+00
	0.000000000000000e+00,0.000000000000000e+00
	3.845158673903461e-05,1.831447831860720e-13
	3.845158980275426e-05,2.060350954201991e-13
	4.084962906466109e-05,-2.138464979264549e-13
	2.359248822512465e-05,6.538561847283410e-13
	-2.050751437271796e-05,-1.083610877715711e-13
	-4.393460291706778e-05,-3.316485990303150e-13
	-4.084962906466109e-05,2.138464979264548e-13
	-2.359248822481064e-05,-6.538561847283410e-13
	-4.084962906466109e-05,2.138464979264548e-13
17		1.479108388168207e+00,0.000000000000000e+00
	-4.084962906466109e-01,2.188276227519221e-09
	1.000000000000000e+00,0.000000000000000e+00
	0.000000000000000e+00,0.000000000000000e+00
	3.845158673903461e-05,1.874107732070855e-13
	3.845158980275426e-05,2.108342693073862e-13
	4.084962906466109e-05,-2.188276227519221e-13
	2.359248822512465e-05,6.690864517919415e-13
	-2.050751437271796e-05,-1.108851417525684e-13
	-4.393460291706778e-05,-3.393736872874510e-13
	-4.084962906466109e-05,2.188276227519221e-13
	-2.359248822481064e-05,-6.690864517919416e-13
	-4.084962906466109e-05,2.188276227519221e-13
18		1.513561248436208e+00,0.000000000000000e+00
	-4.084962906466109e-01,2.239247728794984e-09
	1.000000000000000e+00,0.000000000000000e+00
	0.000000000000000e+00,0.000000000000000e+00
	3.845158673903461e-05,1.917761309007283e-13
	3.845158980275426e-05,2.157452303148816e-13
	4.084962906466109e-05,-2.239247728794984e-13
	2.359248822512465e-05,6.846714773486883e-13
	-2.050751437271796e-05,-1.134679885034614e-13
	-4.393460291706778e-05,-3.472787159657286e-13
	-4.084962906466109e-05,2.239247728794984e-13
	-2.359248822481064e-05,-6.846714773486885e-13
	-4.084962906466109e-05,2.239247728794984e-13
19		1.548816618912481e+00,0.000000000000000e+00
	-4.084962906466109e-01,2.291406508856501e-09
	1.000000000000000e+00,0.000000000000000e+00
	0.000000000000000e+00,0.000000000000000e+00
	3.845158673903461e-05,1.962431708374319e-13
	3.845158980275426e-05,2.207705822992158e-13
	4.084962906466109e-05,-2.291406508856501e-13
	2.359248822512465e-05,7.006195247854238e-13
	-2.050751437271796e-05,-1.161109974837852e-13
	-4.393460291706778e-05,-3.553678764159885e-13
	-4.084962906466109e-05,2.291406508856501e-13
	-2.359248822481064e-05,-7.006195247854238e-13
	-4.084962906466109e-05,2.291406508856501e-13
20		1.584893192461113e+00,0.000000000000000e+00
	-4.084962906466109e-01,2.344780222979366e-09
	1.000000000000000e+00,0.000000000000000e+00
	0.000000000000000e+00,0.000000000000000e+00
	3.845158673903461e-05,2.008142615008990e-13
	3.845158980275426e-05,2.259129897685289e-13
	4.084962906466109e-05,-2.344780222979366e-13
	2.359248822512465e-05,7.169390499679965e-13
	-2.050751437271796e-05,-1.188155700518857e-13
	-4.393460291706778e-05,-3.636454576181742e-13
	-4.084962906466109e-05,2.344780222979366e-13
	-2.359248822481064e-05,-7.169390499679965e-13
	-4.084962906466109e-05,2.344780222979366e-13
21		1.621810097358929e+00,0.000000000000000e+00
	-4.084962906466109e-01,2.399397170613288e-09
	1.000000000000000e+00,0.000000000000000e+00
	0.000000000000000e+00,0.000000000000000e+00
	3.845158673903461e-05,2.054918265439047e-13
	3.845158980275426e-05,2.311751792953293e-13
	4.084962906466109e-05,-2.399397170613289e-13
	2.359248822512465e-05,7.336387057246722e-13
	-2.050751437271796e-05,-1.215831402079376e-13
	-4.393460291706778e-05,-3.721158484554056e-13
	-4.084962906466109e-05,2.399397170613289e-13
	-2.359248822481064e-05,-7.336387057246721e-13
	-4.084962906466109e-05,2.399397170613289e-13
22		1.659586907437560e+00,0.000000000000000e+00
	-4.084962906466109e-01,2.455286310386847e-09
	1.000000000000000e+00,0.000000000000000e+00
	0.000000000000000e+00,0.000000000000000e+00
	3.845158673903461e-05,2.102783460733499e-13
	3.845158980275426e-05,2.365599409621574e-13
	4.084962906466109e-05,-2.455286310386847e-13
	2.359248822512465e-05,7.507273464339794e-13
	-2.050751437271796e-05,-1.244151753542710e-13
	-4.393460291706778e-05,-3.807835400410236e-13
	-4.084962906466109e-05,2.455286310386847e-13
	-2.359248822481064e-05,-7.507273464339794e-13
	-4.084962906466109e-05,2.455286310386847e-13
23		1.698243652461743e+00,0.000000000000000e+00
	-4.084962906466109e-01,2.512477275461730e-09
	1.000000000000000e+00,0.000000000000000e+00
	0.000000000000000e+00,0.000000000000000e+00
	3.845158673903461e-05,2.151763579652462e-13
	3.845158980275426e-05,2.420701298409246e-13
	4.084962906466109e-05,-2.512477275461730e-13
	2.359248822512465e-05,7.682140327194170e-13
	-2.050751437271796e-05,-1.273131770734067e-13
	-4.393460291706778e-05,-3.896531280998374e-13
	-4.084962906466109e-05,2.512477275461730e-13
	-2.359248822481064e-05,-7.682140327194170e-13
	-4.084962906466109e-05,2.512477275461730e-13
24		1.737800828749374e+00,0.000000000000000e+00
	-4.084962906466109e-01,2.571000389244629e-09
	1.000000000000000e+00,0.000000000000000e+00
	0.000000000000000e+00,0.000000000000000e+00
	3.845158673903461e-05,2.201884592103314e-13
	3.845158980275426e-05,2.477086675067103e-13
	4.084962906466109e-05,-2.571000389244629e-13
	2.359248822512465e-05,7.861080362535172e-13
	-2.050751437271796e-05,-1.302786819242158e-13
	-4.393460291706778e-05,-3.987293154048385e-13
	-4.084962906466109e-05,2.571000389244629e-13
	-2.359248822481064e-05,-7.861080362535173e-13
	-4.084962906466109e-05,2.571000389244629e-13
25		1.778279410038922e+00,0.000000000000000e+00
	-4.084962906466109e-01,2.630886681465121e-09
	1.000000000000000e+00,0.000000000000000e+00
	0.000000000000000e+00,0.000000000000000e+00
	3.845158673903461e-05,2.253173072910288e-13
	3.845158980275426e-05,2.534785435868201e-13
	4.084962906466109e-05,-2.630886681465120e-13
	2.359248822512465e-05,8.044188446738093e-13
	-2.050751437271796e-05,-1.333132622566234e-13
	-4.393460291706778e-05,-4.080169142706739e-13
	-4.084962906466109e-05,2.630886681465121e-13
	-2.359248822481064e-05,-8.044188446738093e-13
	-4.084962906466109e-05,2.630886681465121e-13
26		1.819700858609982e+00,0.000000000000000e+00
	-4.084962906466109e-01,2.692167904628026e-09
	1.000000000000000e+00,0.000000000000000e+00
	0.000000000000000e+00,0.000000000000000e+00
	3.845158673903461e-05,2.305656215904790e-13
	3.845158980275426e-05,2.593828173459246e-13
	4.084962906466109e-05,-2.692167904628026e-13
	2.359248822512465e-05,8.231561666132893e-13
	-2.050751437271796e-05,-1.364185270452891e-13
	-4.393460291706778e-05,-4.175208491051976e-13
	-4.084962906466109e-05,2.692167904628026e-13
	-2.359248822481064e-05,-8.231561666132894e-13
	-4.084962906466109e-05,2.692167904628026e-13
27		1.862087136662866e+00,0.000000000000000e+00
	-4.084962906466109e-01,2.754876550849021e-09
	1.000000000000000e+00,0.000000000000000e+00
	0.000000000000000e+00,0.000000000000000e+00
	3.845158673903461e-05,2.359361848343934e-13
	3.845158980275426e-05,2.654246193081236e-13
	4.084962906466109e-05,-2.754876550849021e-13
	2.359248822512465e-05,8.423299368480678e-13
	-2.050751437271796e-05,-1.395961227427069e-13
	-4.393460291706778e-05,-4.272461590204590e-13
	-4.084962906466109e-05,2.754876550849021e-13
	-2.359248822481064e-05,-8.423299368480680e-13
	-4.084962906466109e-05,2.754876550849021e-13
28		1.905460717963246e+00,0.000000000000000e+00
	-4.084962906466109e-01,2.819045869082377e-09
	1.000000000000000e+00,0.000000000000000e+00
	0.000000000000000e+00,0.000000000000000e+00
	3.845158673903461e-05,2.414318445664914e-13
	3.845158980275426e-05,2.716071529167897e-13
	4.084962906466109e-05,-2.819045869082378e-13
	2.359248822512465e-05,8.619503215649179e-13
	-2.050751437271796e-05,-1.428477341521759e-13
	-4.393460291706778e-05,-4.371980005045043e-13
	-4.084962906466109e-05,2.819045869082378e-13
	-2.359248822481064e-05,-8.619503215649180e-13
	-4.084962906466109e-05,2.819045869082378e-13
29		1.949844599758044e+00,0.000000000000000e+00
	-4.084962906466109e-01,2.884709882750005e-09
	1.000000000000000e+00,0.000000000000000e+00
	0.000000000000000e+00,0.000000000000000e+00
	3.845158673903461e-05,2.470555146583070e-13
	3.845158980275426e-05,2.779336962330782e-13
	4.084962906466109e-05,-2.884709882750006e-13
	2.359248822512465e-05,8.820277237515233e-13
	-2.050751437271796e-05,-1.461750853211058e-13
	-4.393460291706778e-05,-4.473816501554170e-13
	-4.084962906466109e-05,2.884709882750005e-13
	-2.359248822481064e-05,-8.820277237515234e-13
	-4.084962906466109e-05,2.884709882750005e-13
30		1.995262314968878e+00,0.000000000000000e+00
	-4.084962906466109e-01,2.951903407781116e-09
	1.000000000000000e+00,0.000000000000000e+00
	0.000000000000000e+00,0.000000000000000e+00
	3.845158673903461e-05,2.528101768541607e-13
	3.845158980275426e-05,2.844076036739967e-13
	4.084962906466109e-05,-2.951903407781116e-13
	2.359248822512465e-05,9.025727887122785e-13
	-2.050751437271796e-05,-1.495799404551289e-13
	-4.393460291706778e-05,-4.578025074790380e-13
	-4.084962906466109e-05,2.951903407781116e-13
	-2.359248822481064e-05,-9.025727887122784e-13
	-4.084962906466109e-05,2.951903407781116e-13
31		2.041737944669527e+00,0.000000000000000e+00
	-4.084962906466109e-01,3.020662071072092e-09
	1.000000000000000e+00,0.000000000000000e+00
	0.000000000000000e+00,0.000000000000000e+00
	3.845158673903461e-05,2.586988823521206e-13
	3.845158980275426e-05,2.910323077909628e-13
	4.084962906466109e-05,-3.020662071072093e-13
	2.359248822512465e-05,9.235964097125722e-13
	-2.050751437271796e-05,-1.530641048535058e-13
	-4.393460291706778e-05,-4.684660977518571e-13
	-4.084962906466109e-05,3.020662071072093e-13
	-2.359248822481064e-05,-9.235964097125724e-13
	-4.084962906466109e-05,3.020662071072093e-13
32		2.089296130854037e+00,0.000000000000000e+00
	-4.084962906466109e-01,3.091022329376342e-09
	1.000000000000000e+00,0.000000000000000e+00
	0.000000000000000e+00,0.000000000000000e+00
	3.845158673903461e-05,2.647247534217883e-13
