LTspice 24.0.9 for Windows
Circuit: * GA CMOS Amp | W=1.8666955056680754e-05 L=5.164443189255136e-07 Vbias=0.8731870503617047
Start Time: Mon Sep  8 18:47:27 2025
solver = Normal
Maximum thread count: 2
tnom = 27
temp = 27
method = modified trap
AsciiRawFile = 1
Instance "m1": Length shorter than recommended for a level 3 MOSFET.
Direct Newton iteration for .op point succeeded.
Semiconductor Device Operating Points:
                        --- MOSFET Transistors ---
Name:          m1
Model:        n_1u
Id:          1.06e-04
Vgs:         8.73e-01
Vds:         7.37e-01
Vbs:         0.00e+00
Vth:         7.27e-01
Vdsat:       1.49e-01
Gm:          8.91e-04
Gds:         6.42e-05
Gmb:         1.27e-04
Cbd:         0.00e+00
Cbs:         0.00e+00
Cgsov:       3.73e-15
Cgdov:       3.73e-15
Cgbov:       3.16e-17
Cgs:         6.80e-15
Cgd:         0.00e+00
Cgb:         0.00e+00



gain_db: MAX(db(v(out)/v(g)))=(29.8249dB,61.7005°) FROM 1 TO 1e+09
gain_lin: MAX(mag(v(out)/v(g)))=(14.6925dB,0°) FROM 1 TO 1e+09

Measurement "fc" FAIL'ed

Total elapsed time: 0.443 seconds.

