Title: * GA CMOS Amp | W=2.3238537056614963e-05 L=6.985117532927914e-07 Vbias=1.1277879605401857
Date: Mon Sep  8 18:47:43 2025
Plotname: AC Analysis
Flags: complex forward log
No. Variables: 11
No. Points:          901
Offset:    0.0000000000000000e+00
Command: Linear Technology Corporation LTspice
Variables:
	0	frequency	frequency
	1	V(out)	voltage
	2	V(g)	voltage
	3	V(vdd)	voltage
	4	Id(M1)	device_current
	5	Ig(M1)	device_current
	6	Ib(M1)	device_current
	7	Is(M1)	device_current
	8	I(Rload)	device_current
	9	I(Vg)	device_current
	10	I(Vdd)	device_current
Values:
0		1.000000000000000e+00,0.000000000000000e+00
	-3.611305161942060e-01,1.059478954251909e-10
	1.000000000000000e+00,0.000000000000000e+00
	0.000000000000000e+00,0.000000000000000e+00
	3.611305161942065e-05,-1.059478954251911e-14
	9.535571880279151e-24,2.168085083873644e-13
	3.638519065034262e-13,1.551546433616584e-15
	-3.611305198327256e-05,-2.077652652784619e-13
	-3.611305161942060e-05,1.059478954251909e-14
	-9.535571880279151e-24,-2.168085083873644e-13
	-3.611305161942060e-05,1.059478954251909e-14
1		1.023292992280754e+00,0.000000000000000e+00
	-3.611305161942060e-01,1.084157389354920e-10
	1.000000000000000e+00,0.000000000000000e+00
	0.000000000000000e+00,0.000000000000000e+00
	3.611305161942065e-05,-1.084157389354921e-14
	9.984969537831693e-24,2.218586272996331e-13
	3.638519065034262e-13,1.587686592718046e-15
	-3.611305198327256e-05,-2.126047399988019e-13
	-3.611305161942060e-05,1.084157389354920e-14
	-9.984969537831693e-24,-2.218586272996331e-13
	-3.611305161942060e-05,1.084157389354920e-14
2		1.047128548050899e+00,0.000000000000000e+00
	-3.611305161942060e-01,1.109410659056287e-10
	1.000000000000000e+00,0.000000000000000e+00
	0.000000000000000e+00,0.000000000000000e+00
	3.611305161942065e-05,-1.109410659056287e-14
	1.045554665448216e-23,2.270263785927421e-13
	3.638519065034262e-13,1.624668564266490e-15
	-3.611305198327256e-05,-2.175569405664458e-13
	-3.611305161942060e-05,1.109410659056287e-14
	-1.045554665448216e-23,-2.270263785927421e-13
	-3.611305161942060e-05,1.109410659056287e-14
3		1.071519305237606e+00,0.000000000000000e+00
	-3.611305161942060e-01,1.135252152973871e-10
	1.000000000000000e+00,0.000000000000000e+00
	0.000000000000000e+00,0.000000000000000e+00
	3.611305161942065e-05,-1.135252152973872e-14
	1.094830138738634e-23,2.323145022768304e-13
	3.638519065034262e-13,1.662511956592725e-15
	-3.611305198327256e-05,-2.226244927036844e-13
	-3.611305161942060e-05,1.135252152973871e-14
	-1.094830138738634e-23,-2.323145022768304e-13
	-3.611305161942060e-05,1.135252152973871e-14
4		1.096478196143185e+00,0.000000000000000e+00
	-3.611305161942060e-01,1.161695572609801e-10
	1.000000000000000e+00,0.000000000000000e+00
	0.000000000000000e+00,0.000000000000000e+00
	3.611305161942065e-05,-1.161695572609800e-14
	1.146427893539750e-23,2.377258021850718e-13
	3.638519065034262e-13,1.701236834764242e-15
	-3.611305198327256e-05,-2.278100832937381e-13
	-3.611305161942060e-05,1.161695572609801e-14
	-1.146427893539750e-23,-2.377258021850718e-13
	-3.611305161942060e-05,1.161695572609801e-14
5		1.122018454301963e+00,0.000000000000000e+00
	-3.611305161942060e-01,1.188754938615187e-10
	1.000000000000000e+00,0.000000000000000e+00
	0.000000000000000e+00,0.000000000000000e+00
	3.611305161942065e-05,-1.188754938615187e-14
	1.200457375607331e-23,2.432631474603048e-13
	3.638519065034262e-13,1.740863731224206e-15
	-3.611305198327256e-05,-2.331164618053771e-13
	-3.611305161942060e-05,1.188754938615187e-14
	-1.200457375607331e-23,-2.432631474603048e-13
	-3.611305161942060e-05,1.188754938615187e-14
6		1.148153621496882e+00,0.000000000000000e+00
	-3.611305161942060e-01,1.216444598224059e-10
	1.000000000000000e+00,0.000000000000000e+00
	0.000000000000000e+00,0.000000000000000e+00
	3.611305161942065e-05,-1.216444598224057e-14
	1.257033188716697e-23,2.489294740762897e-13
	3.638519065034262e-13,1.781413656677439e-15
	-3.611305198327256e-05,-2.385464417507265e-13
	-3.611305161942060e-05,1.216444598224059e-14
	-1.257033188716697e-23,-2.489294740762897e-13
	-3.611305161942060e-05,1.216444598224059e-14
7		1.174897554939529e+00,0.000000000000000e+00
	-3.611305161942060e-01,1.244779232860457e-10
	1.000000000000000e+00,0.000000000000000e+00
	0.000000000000000e+00,0.000000000000000e+00
	3.611305161942065e-05,-1.244779232860460e-14
	1.316275337752707e-23,2.547277863944008e-13
	3.638519065034262e-13,1.822908111231274e-15
	-3.611305198327256e-05,-2.441029021770275e-13
	-3.611305161942060e-05,1.244779232860457e-14
	-1.316275337752707e-23,-2.547277863944008e-13
	-3.611305161942060e-05,1.244779232860457e-14
8		1.202264434617413e+00,0.000000000000000e+00
	-3.611305161942060e-01,1.273773865922718e-10
	1.000000000000000e+00,0.000000000000000e+00
	0.000000000000000e+00,0.000000000000000e+00
	3.611305161942065e-05,-1.273773865922720e-14
	1.378309483256200e-23,2.606611587565792e-13
	3.638519065034262e-13,1.865369095794740e-15
	-3.611305198327256e-05,-2.497887891931467e-13
	-3.611305161942060e-05,1.273773865922719e-14
	-1.378309483256200e-23,-2.606611587565792e-13
	-3.611305161942060e-05,1.273773865922719e-14
9		1.230268770812381e+00,0.000000000000000e+00
	-3.611305161942060e-01,1.303443870749083e-10
	1.000000000000000e+00,0.000000000000000e+00
	0.000000000000000e+00,0.000000000000000e+00
	3.611305161942065e-05,-1.303443870749082e-14
	1.443267207966850e-23,2.667327371153886e-13
	3.638519065034262e-13,1.908819123743832e-15
	-3.611305198327256e-05,-2.556071175316416e-13
	-3.611305161942060e-05,1.303443870749083e-14
	-1.443267207966850e-23,-2.667327371153886e-13
	-3.611305161942060e-05,1.303443870749083e-14
10		1.258925411794167e+00,0.000000000000000e+00
	-3.611305161942060e-01,1.333804978768837e-10
	1.000000000000000e+00,0.000000000000000e+00
	0.000000000000000e+00,0.000000000000000e+00
	3.611305161942065e-05,-1.333804978768841e-14
	1.511286295927803e-23,2.729457407020418e-13
	3.638519065034262e-13,1.953281232858578e-15
	-3.611305198327256e-05,-2.615609721472119e-13
	-3.611305161942060e-05,1.333804978768837e-14
	-1.511286295927803e-23,-2.729457407020418e-13
	-3.611305161942060e-05,1.333804978768837e-14
11		1.288249551693134e+00,0.000000000000000e+00
	-3.611305161942060e-01,1.364873287843331e-10
	1.000000000000000e+00,0.000000000000000e+00
	0.000000000000000e+00,0.000000000000000e+00
	3.611305161942065e-05,-1.364873287843332e-14
	1.582511024744103e-23,2.793034637332792e-13
	3.638519065034262e-13,1.998778997537634e-15
	-3.611305198327256e-05,-2.676535098523835e-13
	-3.611305161942060e-05,1.364873287843331e-14
	-1.582511024744103e-23,-2.793034637332792e-13
	-3.611305161942060e-05,1.364873287843331e-14
12		1.318256738556407e+00,0.000000000000000e+00
	-3.611305161942060e-01,1.396665270801274e-10
	1.000000000000000e+00,0.000000000000000e+00
	0.000000000000000e+00,0.000000000000000e+00
	3.611305161942065e-05,-1.396665270801272e-14
	1.657092471614834e-23,2.858092771580063e-13
	3.638519065034262e-13,2.045336541298211e-15
	-3.611305198327256e-05,-2.738879609912918e-13
	-3.611305161942060e-05,1.396665270801274e-14
	-1.657092471614834e-23,-2.858092771580063e-13
	-3.611305161942060e-05,1.396665270801274e-14
13		1.348962882591653e+00,0.000000000000000e+00
	-3.611305161942060e-01,1.429197784172845e-10
	1.000000000000000e+00,0.000000000000000e+00
	0.000000000000000e+00,0.000000000000000e+00
	3.611305161942065e-05,-1.429197784172847e-14
	1.735188833788118e-23,2.924666304446157e-13
	3.638519065034262e-13,2.092978549566249e-15
	-3.611305198327256e-05,-2.802676311524535e-13
	-3.611305161942060e-05,1.429197784172845e-14
	-1.735188833788118e-23,-2.924666304446157e-13
	-3.611305161942060e-05,1.429197784172845e-14
14		1.380384264602885e+00,0.000000000000000e+00
	-3.611305161942060e-01,1.462488077127254e-10
	1.000000000000000e+00,0.000000000000000e+00
	0.000000000000000e+00,0.000000000000000e+00
	3.611305161942065e-05,-1.462488077127254e-14
	1.816965764118686e-23,2.992790534099404e-13
	3.638519065034262e-13,2.141730282765066e-15
	-3.611305198327256e-05,-2.867959029214329e-13
	-3.611305161942060e-05,1.462488077127254e-14
	-1.816965764118686e-23,-2.992790534099404e-13
	-3.611305161942060e-05,1.462488077127254e-14
15		1.412537544622754e+00,0.000000000000000e+00
	-3.611305161942060e-01,1.496553800618474e-10
	1.000000000000000e+00,0.000000000000000e+00
	0.000000000000000e+00,0.000000000000000e+00
	3.611305161942065e-05,-1.496553800618474e-14
	1.902596722439792e-23,3.062501580908095e-13
	3.638519065034262e-13,2.191617589708937e-15
	-3.611305198327256e-05,-2.934762376743337e-13
	-3.611305161942060e-05,1.496553800618475e-14
	-1.902596722439792e-23,-3.062501580908095e-13
	-3.611305161942060e-05,1.496553800618475e-14
16		1.445439770745927e+00,0.000000000000000e+00
	-3.611305161942060e-01,1.531413016744014e-10
	1.000000000000000e+00,0.000000000000000e+00
	0.000000000000000e+00,0.000000000000000e+00
	3.611305161942065e-05,-1.531413016744012e-14
	1.992263343494779e-23,3.133836406591984e-13
	3.638519065034262e-13,2.242666921308415e-15
	-3.611305198327256e-05,-3.003121774130667e-13
	-3.611305161942060e-05,1.531413016744014e-14
	-1.992263343494779e-23,-3.133836406591984e-13
	-3.611305161942060e-05,1.531413016744014e-14
17		1.479108388168207e+00,0.000000000000000e+00
	-3.611305161942060e-01,1.567084208321678e-10
	1.000000000000000e+00,0.000000000000000e+00
	0.000000000000000e+00,0.000000000000000e+00
	3.611305161942065e-05,-1.567084208321678e-14
	2.086155822208718e-23,3.206832833819877e-13
	3.638519065034262e-13,2.294905344594716e-15
	-3.611305198327256e-05,-3.073073466433657e-13
	-3.611305161942060e-05,1.567084208321678e-14
	-2.086155822208718e-23,-3.206832833819877e-13
	-3.611305161942060e-05,1.567084208321678e-14
18		1.513561248436208e+00,0.000000000000000e+00
	-3.611305161942060e-01,1.603586288689406e-10
	1.000000000000000e+00,0.000000000000000e+00
	0.000000000000000e+00,0.000000000000000e+00
	3.611305161942065e-05,-1.603586288689408e-14
	2.184473317117346e-23,3.281529566263712e-13
	3.638519065034262e-13,2.348360557071435e-15
	-3.611305198327256e-05,-3.144654542965486e-13
	-3.611305161942060e-05,1.603586288689406e-14
	-2.184473317117346e-23,-3.281529566263712e-13
	-3.611305161942060e-05,1.603586288689406e-14
19		1.548816618912481e+00,0.000000000000000e+00
	-3.611305161942060e-01,1.640938611733372e-10
	1.000000000000000e+00,0.000000000000000e+00
	0.000000000000000e+00,0.000000000000000e+00
	3.611305161942065e-05,-1.640938611733373e-14
	2.287424372809018e-23,3.357966209119759e-13
	3.638519065034262e-13,2.403060901399751e-15
	-3.611305198327256e-05,-3.217902956960420e-13
	-3.611305161942060e-05,1.640938611733372e-14
	-2.287424372809018e-23,-3.357966209119759e-13
	-3.611305161942060e-05,1.640938611733372e-14
20		1.584893192461113e+00,0.000000000000000e+00
	-3.611305161942060e-01,1.679160982149669e-10
	1.000000000000000e+00,0.000000000000000e+00
	0.000000000000000e+00,0.000000000000000e+00
	3.611305161942065e-05,-1.679160982149670e-14
	2.395227362275747e-23,3.436183290107819e-13
	3.638519065034262e-13,2.459035380426215e-15
	-3.611305198327256e-05,-3.292857545697114e-13
	-3.611305161942060e-05,1.679160982149669e-14
	-2.395227362275747e-23,-3.436183290107819e-13
	-3.611305161942060e-05,1.679160982149669e-14
21		1.621810097358929e+00,0.000000000000000e+00
	-3.611305161942060e-01,1.718273665945025e-10
	1.000000000000000e+00,0.000000000000000e+00
	0.000000000000000e+00,0.000000000000000e+00
	3.611305161942065e-05,-1.718273665945023e-14
	2.508110950111589e-23,3.516222280959556e-13
	3.638519065034262e-13,2.516313672560618e-15
	-3.611305198327256e-05,-3.369558051090660e-13
	-3.611305161942060e-05,1.718273665945025e-14
	-2.508110950111589e-23,-3.516222280959556e-13
	-3.611305161942060e-05,1.718273665945025e-14
22		1.659586907437560e+00,0.000000000000000e+00
	-3.611305161942060e-01,1.758297401182105e-10
	1.000000000000000e+00,0.000000000000000e+00
	0.000000000000000e+00,0.000000000000000e+00
	3.611305161942065e-05,-1.758297401182104e-14
	2.626314577540910e-23,3.598125619407363e-13
	3.638519065034262e-13,2.574926147511529e-15
	-3.611305198327256e-05,-3.448045140764268e-13
	-3.611305161942060e-05,1.758297401182105e-14
	-2.626314577540910e-23,-3.598125619407363e-13
	-3.611305161942060e-05,1.758297401182105e-14
23		1.698243652461743e+00,0.000000000000000e+00
	-3.611305161942060e-01,1.799253408975110e-10
	1.000000000000000e+00,0.000000000000000e+00
	0.000000000000000e+00,0.000000000000000e+00
	3.611305161942065e-05,-1.799253408975116e-14
	2.750088970305324e-23,3.681936731685403e-13
	3.638519065034262e-13,2.634903882389003e-15
	-3.611305198327256e-05,-3.528360429611781e-13
	-3.611305161942060e-05,1.799253408975110e-14
	-2.750088970305324e-23,-3.681936731685403e-13
	-3.611305161942060e-05,1.799253408975110e-14
24		1.737800828749374e+00,0.000000000000000e+00
	-3.611305161942060e-01,1.841163404741487e-10
	1.000000000000000e+00,0.000000000000000e+00
	0.000000000000000e+00,0.000000000000000e+00
	3.611305161942065e-05,-1.841163404741490e-14
	2.879696670486607e-23,3.767700055554775e-13
	3.638519065034262e-13,2.696278678182008e-15
	-3.611305198327256e-05,-3.610546501862447e-13
	-3.611305161942060e-05,1.841163404741487e-14
	-2.879696670486607e-23,-3.767700055554775e-13
	-3.611305161942060e-05,1.841163404741487e-14
25		1.778279410038922e+00,0.000000000000000e+00
	-3.611305161942060e-01,1.884049609715738e-10
	1.000000000000000e+00,0.000000000000000e+00
	0.000000000000000e+00,0.000000000000000e+00
	3.611305161942065e-05,-1.884049609715738e-14
	3.015412593393650e-23,3.855461063865009e-13
	3.638519065034262e-13,2.759083076619674e-15
	-3.611305198327256e-05,-3.694646933659632e-13
	-3.611305161942060e-05,1.884049609715738e-14
	-3.015412593393650e-23,-3.855461063865009e-13
	-3.611305161942060e-05,1.884049609715738e-14
26		1.819700858609982e+00,0.000000000000000e+00
	-3.611305161942060e-01,1.927934762731404e-10
	1.000000000000000e+00,0.000000000000000e+00
	0.000000000000000e+00,0.000000000000000e+00
	3.611305161942065e-05,-1.927934762731407e-14
	3.157524610694690e-23,3.945266288664365e-13
	3.638519065034262e-13,2.823350377425386e-15
	-3.611305198327256e-05,-3.780706316165478e-13
	-3.611305161942060e-05,1.927934762731404e-14
	-3.157524610694690e-23,-3.945266288664365e-13
	-3.611305161942060e-05,1.927934762731404e-14
27		1.862087136662866e+00,0.000000000000000e+00
	-3.611305161942060e-01,1.972842132277504e-10
	1.000000000000000e+00,0.000000000000000e+00
	0.000000000000000e+00,0.000000000000000e+00
	3.611305161942065e-05,-1.972842132277511e-14
	3.306334161031712e-23,4.037163345871743e-13
	3.638519065034262e-13,2.889114655972650e-15
	-3.611305198327256e-05,-3.868770279203719e-13
	-3.611305161942060e-05,1.972842132277504e-14
	-3.306334161031712e-23,-4.037163345871743e-13
	-3.611305161942060e-05,1.972842132277504e-14
28		1.905460717963246e+00,0.000000000000000e+00
	-3.611305161942060e-01,2.018795528835791e-10
	1.000000000000000e+00,0.000000000000000e+00
	0.000000000000000e+00,0.000000000000000e+00
	3.611305161942065e-05,-2.018795528835793e-14
	3.462156889412226e-23,4.131200960523278e-13
	3.638519065034262e-13,2.956410781352411e-15
	-3.611305198327256e-05,-3.958885515453222e-13
	-3.611305161942060e-05,2.018795528835791e-14
	-3.462156889412226e-23,-4.131200960523278e-13
	-3.611305161942060e-05,2.018795528835791e-14
29		1.949844599758044e+00,0.000000000000000e+00
	-3.611305161942060e-01,2.065819317505384e-10
	1.000000000000000e+00,0.000000000000000e+00
	0.000000000000000e+00,0.000000000000000e+00
	3.611305161942065e-05,-2.065819317505379e-14
	3.625323316734644e-23,4.227428992606991e-13
	3.638519065034262e-13,3.025274434861044e-15
	-3.611305198327256e-05,-4.051099805205063e-13
	-3.611305161942060e-05,2.065819317505384e-14
	-3.625323316734644e-23,-4.227428992606991e-13
	-3.611305161942060e-05,2.065819317505384e-14
30		1.995262314968878e+00,0.000000000000000e+00
	-3.611305161942060e-01,2.113938430921469e-10
	1.000000000000000e+00,0.000000000000000e+00
	0.000000000000000e+00,0.000000000000000e+00
	3.611305161942065e-05,-2.113938430921470e-14
	3.796179540867418e-23,4.325898463499221e-13
	3.638519065034262e-13,3.095742128919540e-15
	-3.611305198327256e-05,-4.145462041696269e-13
	-3.611305161942060e-05,2.113938430921470e-14
	-3.796179540867418e-23,-4.325898463499221e-13
	-3.611305161942060e-05,2.113938430921470e-14
31		2.041737944669527e+00,0.000000000000000e+00
	-3.611305161942060e-01,2.163178382474912e-10
	1.000000000000000e+00,0.000000000000000e+00
	0.000000000000000e+00,0.000000000000000e+00
	3.611305161942065e-05,-2.163178382474915e-14
	3.975087970769028e-23,4.426661583016833e-13
	3.638519065034262e-13,3.167851226431671e-15
	-3.611305198327256e-05,-4.242022257033659e-13
	-3.611305161942060e-05,2.163178382474912e-14
	-3.975087970769028e-23,-4.426661583016833e-13
	-3.611305161942060e-05,2.163178382474912e-14
32		2.089296130854037e+00,0.000000000000000e+00
	-3.611305161942060e-01,2.213565279839795e-10
	1.000000000000000e+00,0.000000000000000e+00
	0.000000000000000e+00,0.000000000000000e+00
	3.611305161942065e-05,-2.213565279839796e-14
	4.162428095205970e-23,4.529771777099556e-13
	3.638519065034262e-13,3.241639960595529e-15
	-3.611305198327256e-05,-4.340831648721532e-13
	-3.611305161942060e-05,2.213565279839795e-14
	-4.162428095205970e-23,-4.529771777099556e-13
	-3.611305161942060e-05,2.213565279839795e-14
33		2.137962089502230e+00,0.000000000000000e+00
	-3.611305161942060e-01,2.265125838816048e-10
	1.000000000000000e+00,0.000000000000000e+00
	0.000000000000000e+00,0.000000000000000e+00
	3.611305161942065e-05,-2.265125838816048e-14
	4.358597287699298e-23,4.635283716137114e-13
	3.638519065034262e-13,3.317147455174555e-15
	-3.611305198327256e-05,-4.441942606807255e-13
	-3.611305161942060e-05,2.265125838816048e-14
	-4.358597287699298e-23,-4.635283716137114e-13
	-3.611305161942060e-05,2.265125838816048e-14
34		2.187761623949550e+00,0.000000000000000e+00
	-3.611305161942060e-01,2.317887397494527e-10
	1.000000000000000e+00,0.000000000000000e+00
	0.000000000000000e+00,0.000000000000000e+00
	3.611305161942065e-05,-2.317887397494527e-14
	4.564011649407154e-23,4.743253343956200e-13
	3.638519065034262e-13,3.394413745242128e-15
	-3.611305198327256e-05,-4.545408741659169e-13
	-3.611305161942060e-05,2.317887397494527e-14
	-4.564011649407154e-23,-4.743253343956200e-13
	-3.611305161942060e-05,2.317887397494527e-14
35		2.238721138568337e+00,0.000000000000000e+00
	-3.611305161942060e-01,2.371877930752024e-10
	1.000000000000000e+00,0.000000000000000e+00
	0.000000000000000e+00,0.000000000000000e+00
	3.611305161942065e-05,-2.371877930752024e-14
	4.779106891731105e-23,4.853737907482633e-13
	3.638519065034262e-13,3.473479798407758e-15
	-3.611305198327256e-05,-4.651284912391508e-13
	-3.611305161942060e-05,2.371877930752025e-14
	-4.779106891731105e-23,-4.853737907482633e-13
	-3.611305161942060e-05,2.371877930752025e-14
36		2.290867652767770e+00,0.000000000000000e+00
	-3.611305161942060e-01,2.427126065083922e-10
	1.000000000000000e+00,0.000000000000000e+00
	0.000000000000000e+00,0.000000000000000e+00
	3.611305161942065e-05,-2.427126065083923e-14
	5.004339260518439e-23,4.966795987094430e-13
	3.638519065034262e-13,3.554387536539460e-15
	-3.611305198327256e-05,-4.759627255951432e-13
	-3.611305161942060e-05,2.427126065083922e-14
	-5.004339260518439e-23,-4.966795987094430e-13
	-3.611305161942060e-05,2.427126065083922e-14
37		2.344228815319919e+00,0.000000000000000e+00
	-3.611305161942060e-01,2.483661093782339e-10
	1.000000000000000e+00,0.000000000000000e+00
	0.000000000000000e+00,0.000000000000000e+00
	3.611305161942065e-05,-2.483661093782341e-14
	5.240186503820785e-23,5.082487527681901e-13
	3.638519065034262e-13,3.637179857990750e-15
	-3.611305198327256e-05,-4.870493216883574e-13
	-3.611305161942060e-05,2.483661093782339e-14
	-5.240186503820785e-23,-5.082487527681901e-13
	-3.611305161942060e-05,2.483661093782339e-14
38		2.398832919019488e+00,0.000000000000000e+00
	-3.611305161942060e-01,2.541512992467820e-10
	1.000000000000000e+00,0.000000000000000e+00
	0.000000000000000e+00,0.000000000000000e+00
