LTspice 24.0.9 for Windows
Circuit: * GA CMOS Amp | W=1.734729561550202e-05 L=9.634188005941925e-07 Vbias=1.2974359162909153
Start Time: Sat Sep  6 22:03:43 2025
solver = Normal
Maximum thread count: 2
tnom = 27
temp = 27
method = modified trap
AsciiRawFile = 1
Direct Newton iteration for .op point succeeded.
Semiconductor Device Operating Points:
                        --- BSIM4 MOSFETS ---
Name:      m1
Model:      n
Id:      1.70e-04
Vgs:     1.30e+00
Vds:     1.04e-01
Vbs:     0.00e+00
Vth:     2.36e-01
Vdsat:   7.40e-01
Gm:     -1.42e-05
Gds:     1.53e-03
Gmb      9.27e-05
Cbd:     8.40e-15
Cbs:     1.39e-14


.measure op idd find i(vdd)
  Error: FIND can not be evaluated over an interval.

gain_db: MAX(db(v(out)/v(g)))=(31.1391dB,180°) FROM 1 TO 1e+09
gain_lin: MAX(mag(v(out)/v(g)))=(-2.80427dB,0°) FROM 1 TO 1e+09

Measurement "fc" FAIL'ed

Total elapsed time: 5.040 seconds.

