LTspice 24.0.9 for Windows
Circuit: * GA CMOS Amp | W=1.9960023713416036e-05 L=9.524415937938707e-07 Vbias=1.0739793772876982
Start Time: Mon Sep  8 18:42:43 2025
solver = Normal
Maximum thread count: 2
tnom = 27
temp = 27
method = modified trap
AsciiRawFile = 1
Instance "m1": Length shorter than recommended for a level 3 MOSFET.
Direct Newton iteration for .op point succeeded.
Semiconductor Device Operating Points:
                        --- MOSFET Transistors ---
Name:          m1
Model:        n_1u
Id:          1.18e-04
Vgs:         1.07e+00
Vds:         6.18e-01
Vbs:         0.00e+00
Vth:         8.08e-01
Vdsat:       2.49e-01
Gm:          6.46e-04
Gds:         2.46e-05
Gmb:         1.52e-04
Cbd:         0.00e+00
Cbs:         0.00e+00
Cgsov:       3.99e-15
Cgdov:       3.99e-15
Cgbov:       7.52e-17
Cgs:         1.73e-14
Cgd:         0.00e+00
Cgb:         0.00e+00



gain_db: MAX(db(v(out)/v(g)))=(29.7719dB,62.3581°) FROM 1 TO 1e+09
gain_lin: MAX(mag(v(out)/v(g)))=(14.291dB,0°) FROM 1 TO 1e+09

Measurement "fc" FAIL'ed

Total elapsed time: 8.578 seconds.

