LTspice 24.0.9 for Windows
Circuit: * GA CMOS Amp | W=2.0393022601732393e-06 L=9.49703649240716e-07 Vbias=1.5
Start Time: Sat Sep  6 22:16:45 2025
solver = Normal
Maximum thread count: 2
tnom = 27
temp = 27
method = modified trap
AsciiRawFile = 1
Direct Newton iteration for .op point succeeded.
Semiconductor Device Operating Points:
                        --- BSIM4 MOSFETS ---
Name:      m1
Model:      n
Id:      9.03e-05
Vgs:     1.50e+00
Vds:     8.97e-01
Vbs:     0.00e+00
Vth:     2.36e-01
Vdsat:   8.70e-01
Gm:      4.04e-05
Gds:     1.24e-05
Gmb      4.86e-05
Cbd:     8.25e-16
Cbs:     1.63e-15


.measure op idd find i(vdd)
  Error: FIND can not be evaluated over an interval.

gain_db: MAX(db(v(out)/v(g)))=(29.1951dB,108.792°) FROM 1 TO 1e+09
gain_lin: MAX(mag(v(out)/v(g)))=(2.28095dB,0°) FROM 1 TO 1e+09
fc: mag(v(out)/v(g))=1 AT 7.42517e+08

Total elapsed time: 0.928 seconds.

