LTspice 24.0.9 for Windows
Circuit: * GA CMOS Amp | W=1.2331660930671255e-05 L=1e-06 Vbias=1.4853814260824945
Start Time: Sat Sep  6 22:12:01 2025
solver = Normal
Maximum thread count: 2
tnom = 27
temp = 27
method = modified trap
AsciiRawFile = 1
Direct Newton iteration for .op point succeeded.
Semiconductor Device Operating Points:
                        --- BSIM4 MOSFETS ---
Name:      m1
Model:      n
Id:      1.64e-04
Vgs:     1.49e+00
Vds:     1.57e-01
Vbs:     0.00e+00
Vth:     2.36e-01
Vdsat:   8.61e-01
Gm:     -1.99e-05
Gds:     9.68e-04
Gmb      8.02e-05
Cbd:     5.88e-15
Cbs:     9.87e-15


.measure op idd find i(vdd)
  Error: FIND can not be evaluated over an interval.

gain_db: MAX(db(v(out)/v(g)))=(29.3209dB,180°) FROM 1 TO 1e+09
gain_lin: MAX(mag(v(out)/v(g)))=(-2.45663dB,0°) FROM 1 TO 1e+09

Measurement "fc" FAIL'ed

Total elapsed time: 2.562 seconds.

