Title: * GA CMOS Amp | W=5e-05 L=1.2547707305756238e-07 Vbias=1.397276621979739
Date: Sat Sep  6 22:06:31 2025
Plotname: AC Analysis
Flags: complex forward log
No. Variables: 13
No. Points:          901
Offset:    0.0000000000000000e+00
Command: Linear Technology Corporation LTspice
Variables:
	0	frequency	frequency
	1	V(out)	voltage
	2	V(g)	voltage
	3	V(vdd)	voltage
	4	V(m1#dbody)	voltage
	5	V(m1#sbody)	voltage
	6	Id(M1)	device_current
	7	Ig(M1)	device_current
	8	Ib(M1)	device_current
	9	Is(M1)	device_current
	10	I(Rload)	device_current
	11	I(Vg)	device_current
	12	I(Vdd)	device_current
Values:
0		1.000000000000000e+00,0.000000000000000e+00
	2.767796880601124e-04,2.787437577269466e-11
	1.000000000000000e+00,0.000000000000000e+00
	0.000000000000000e+00,0.000000000000000e+00
	4.416391742162891e-05,3.537322535200849e-15
	4.416391741893255e-05,3.180506574652085e-15
	-2.767796880601059e-08,-2.787437577269662e-15
	3.451508557408371e-05,1.910722396196205e-12
	-2.355408930810336e-05,-1.753356767123089e-15
	-1.093331829717435e-05,-1.906181601851813e-12
	2.767796880601124e-08,2.787437577269466e-15
	-3.451508557408486e-05,-1.910722396196205e-12
	2.767796880601124e-08,2.787437577269466e-15
1		1.023292992280754e+00,0.000000000000000e+00
	2.767796880601124e-04,2.852365339239887e-11
	1.000000000000000e+00,0.000000000000000e+00
	0.000000000000000e+00,0.000000000000000e+00
	4.416391742162891e-05,3.619717361707821e-15
	4.416391741893255e-05,3.254590089744346e-15
	-2.767796880601059e-08,-2.852365339239982e-15
	3.451508557408371e-05,1.955228838221468e-12
	-2.355408930810336e-05,-1.794197692765095e-15
	-1.093331829717435e-05,-1.950582275189462e-12
	2.767796880601124e-08,2.852365339239887e-15
	-3.451508557408486e-05,-1.955228838221468e-12
	2.767796880601124e-08,2.852365339239887e-15
2		1.047128548050899e+00,0.000000000000000e+00
	2.767796880601124e-04,2.918805463068692e-11
	1.000000000000000e+00,0.000000000000000e+00
	0.000000000000000e+00,0.000000000000000e+00
	4.416391742162891e-05,3.704031410272592e-15
	4.416391741893255e-05,3.330399231581778e-15
	-2.767796880601059e-08,-2.918805463069387e-15
	3.451508557408371e-05,2.000771968457268e-12
	-2.355408930810336e-05,-1.835989925772819e-15
	-1.093331829717435e-05,-1.996017173068426e-12
	2.767796880601124e-08,2.918805463068692e-15
	-3.451508557408486e-05,-2.000771968457268e-12
	2.767796880601124e-08,2.918805463068692e-15
3		1.071519305237606e+00,0.000000000000000e+00
	2.767796880601124e-04,2.986793176188975e-11
	1.000000000000000e+00,0.000000000000000e+00
	0.000000000000000e+00,0.000000000000000e+00
	4.416391742162891e-05,3.790309385319742e-15
	4.416391741893255e-05,3.407974195174842e-15
	-2.767796880601059e-08,-2.986793176189027e-15
	3.451508557408371e-05,2.047375934474092e-12
	-2.355408930810336e-05,-1.878755624941387e-15
	-1.093331829717435e-05,-2.042510385672962e-12
	2.767796880601124e-08,2.986793176188975e-15
	-3.451508557408486e-05,-2.047375934474092e-12
	2.767796880601124e-08,2.986793176188975e-15
4		1.096478196143185e+00,0.000000000000000e+00
	2.767796880601124e-04,3.056364526586154e-11
	1.000000000000000e+00,0.000000000000000e+00
	0.000000000000000e+00,0.000000000000000e+00
	4.416391742162891e-05,3.878597032573666e-15
	4.416391741893255e-05,3.487356111796060e-15
	-2.767796880601059e-08,-3.056364526586351e-15
	3.451508557408371e-05,2.095065446311599e-12
	-2.355408930810336e-05,-1.922517465210571e-15
	-1.093331829717435e-05,-2.090086564319802e-12
	2.767796880601124e-08,3.056364526586154e-15
	-3.451508557408486e-05,-2.095065446311598e-12
	2.767796880601124e-08,3.056364526586154e-15
5		1.122018454301963e+00,0.000000000000000e+00
	2.767796880601124e-04,3.127556401911095e-11
	1.000000000000000e+00,0.000000000000000e+00
	0.000000000000000e+00,0.000000000000000e+00
	4.416391742162891e-05,3.968941163313559e-15
	4.416391741893255e-05,3.568587070788366e-15
	-2.767796880601059e-08,-3.127556401911246e-15
	3.451508557408371e-05,2.143865789580209e-12
	-2.355408930810336e-05,-1.967298649687336e-15
	-1.093331829717435e-05,-2.138770934528611e-12
	2.767796880601124e-08,3.127556401911095e-15
	-3.451508557408486e-05,-2.143865789580210e-12
	2.767796880601124e-08,3.127556401911095e-15
6		1.148153621496882e+00,0.000000000000000e+00
	2.767796880601124e-04,3.200406549038433e-11
	1.000000000000000e+00,0.000000000000000e+00
	0.000000000000000e+00,0.000000000000000e+00
	4.416391742162891e-05,4.061389679193391e-15
	4.416391741893255e-05,3.651710141881440e-15
	-2.767796880601059e-08,-3.200406549038574e-15
	3.451508557408371e-05,2.193802838867874e-12
	-2.355408930810336e-05,-2.013122921948442e-15
	-1.093331829717435e-05,-2.188589309396887e-12
	2.767796880601124e-08,3.200406549038433e-15
	-3.451508557408486e-05,-2.193802838867874e-12
	2.767796880601124e-08,3.200406549038433e-15
7		1.174897554939529e+00,0.000000000000000e+00
	2.767796880601124e-04,3.274953594080460e-11
	1.000000000000000e+00,0.000000000000000e+00
	0.000000000000000e+00,0.000000000000000e+00
	4.416391742162891e-05,4.155991597639975e-15
	4.416391741893255e-05,3.736769398027835e-15
	-2.767796880601059e-08,-3.274953594080652e-15
	3.451508557408371e-05,2.244903071459120e-12
	-2.355408930810336e-05,-2.060014578629596e-15
	-1.093331829717435e-05,-2.239568103286410e-12
	2.767796880601124e-08,3.274953594080461e-15
	-3.451508557408486e-05,-2.244903071459119e-12
	2.767796880601124e-08,3.274953594080461e-15
8		1.202264434617413e+00,0.000000000000000e+00
	2.767796880601124e-04,3.351237062867205e-11
	1.000000000000000e+00,0.000000000000000e+00
	0.000000000000000e+00,0.000000000000000e+00
	4.416391742162891e-05,4.252797077842683e-15
	4.416391741893255e-05,3.823809938771055e-15
	-2.767796880601059e-08,-3.351237062867447e-15
	3.451508557408371e-05,2.297193581373658e-12
	-2.355408930810336e-05,-2.107998482307856e-15
	-1.093331829717435e-05,-2.291734345828483e-12
	2.767796880601124e-08,3.351237062867205e-15
	-3.451508557408486e-05,-2.297193581373658e-12
	2.767796880601124e-08,3.351237062867205e-15
9		1.230268770812381e+00,0.000000000000000e+00
	2.767796880601124e-04,3.429297401903547e-11
	1.000000000000000e+00,0.000000000000000e+00
	0.000000000000000e+00,0.000000000000000e+00
	4.416391742162891e-05,4.351857447348486e-15
	4.416391741893255e-05,3.912877914157920e-15
	-2.767796880601059e-08,-3.429297401903766e-15
	3.451508557408371e-05,2.350702093731993e-12
	-2.355408930810336e-05,-2.157100074684093e-15
	-1.093331829717435e-05,-2.345115696255405e-12
	2.767796880601124e-08,3.429297401903547e-15
	-3.451508557408486e-05,-2.350702093731993e-12
	2.767796880601124e-08,3.429297401903547e-15
10		1.258925411794167e+00,0.000000000000000e+00
	2.767796880601124e-04,3.509175999814497e-11
	1.000000000000000e+00,0.000000000000000e+00
	0.000000000000000e+00,0.000000000000000e+00
	4.416391742162891e-05,4.453225229276517e-15
	4.416391741893255e-05,4.004020549207934e-15
	-2.767796880601059e-08,-3.509175999814762e-15
	3.451508557408371e-05,2.405456979455645e-12
	-2.355408930810336e-05,-2.207345390072524e-15
	-1.093331829717435e-05,-2.399740458065757e-12
	2.767796880601124e-08,3.509175999814497e-15
	-3.451508557408486e-05,-2.405456979455645e-12
	2.767796880601124e-08,3.509175999814497e-15
11		1.288249551693134e+00,0.000000000000000e+00
	2.767796880601124e-04,3.590915209289984e-11
	1.000000000000000e+00,0.000000000000000e+00
	0.000000000000000e+00,0.000000000000000e+00
	4.416391742162891e-05,4.556954170166515e-15
	4.416391741893255e-05,4.097286168952617e-15
	-2.767796880601059e-08,-3.590915209290257e-15
	3.451508557408371e-05,2.461487270309792e-12
	-2.355408930810336e-05,-2.258761069204443e-15
	-1.093331829717435e-05,-2.455637594031297e-12
	2.767796880601124e-08,3.590915209289985e-15
	-3.451508557408486e-05,-2.461487270309791e-12
	2.767796880601124e-08,3.590915209289985e-15
12		1.318256738556407e+00,0.000000000000000e+00
	2.767796880601124e-04,3.674558369540818e-11
	1.000000000000000e+00,0.000000000000000e+00
	0.000000000000000e+00,0.000000000000000e+00
	4.416391742162891e-05,4.663099268475953e-15
	4.416391741893255e-05,4.192724224058069e-15
	-2.767796880601059e-08,-3.674558369541195e-15
	3.451508557408371e-05,2.518822674296292e-12
	-2.355408930810336e-05,-2.311374373353489e-15
	-1.093331829717435e-05,-2.512836741553398e-12
	2.767796880601124e-08,3.674558369540818e-15
	-3.451508557408486e-05,-2.518822674296292e-12
	2.767796880601124e-08,3.674558369540818e-15
13		1.348962882591653e+00,0.000000000000000e+00
	2.767796880601124e-04,3.760149829277713e-11
	1.000000000000000e+00,0.000000000000000e+00
	0.000000000000000e+00,0.000000000000000e+00
	4.416391742162891e-05,4.771716803740953e-15
	4.416391741893255e-05,4.290385317044384e-15
	-2.767796880601059e-08,-3.760149829278143e-15
	3.451508557408371e-05,2.577493591405264e-12
	-2.355408930810336e-05,-2.365213198789945e-15
	-1.093331829717435e-05,-2.571368228377196e-12
	2.767796880601124e-08,3.760149829277713e-15
	-3.451508557408486e-05,-2.577493591405264e-12
	2.767796880601124e-08,3.760149829277713e-15
14		1.380384264602885e+00,0.000000000000000e+00
	2.767796880601124e-04,3.847734970225559e-11
	1.000000000000000e+00,0.000000000000000e+00
	0.000000000000000e+00,0.000000000000000e+00
	4.416391742162891e-05,4.882864366416439e-15
	4.416391741893255e-05,4.390321229115763e-15
	-2.767796880601059e-08,-3.847734970225551e-15
	3.451508557408371e-05,2.637531129733560e-12
	-2.355408930810336e-05,-2.420306091571698e-15
	-1.093331829717435e-05,-2.631263088671763e-12
	2.767796880601124e-08,3.847734970225559e-15
	-3.451508557408486e-05,-2.637531129733560e-12
	2.767796880601124e-08,3.847734970225559e-15
15		1.412537544622754e+00,0.000000000000000e+00
	2.767796880601124e-04,3.937360231185410e-11
	1.000000000000000e+00,0.000000000000000e+00
	0.000000000000000e+00,0.000000000000000e+00
	4.416391742162891e-05,4.996600888411344e-15
	4.416391741893255e-05,4.492584947615584e-15
	-2.767796880601059e-08,-3.937360231185725e-15
	3.451508557408371e-05,2.698967121978693e-12
	-2.355408930810336e-05,-2.476682262679738e-15
	-1.093331829717435e-05,-2.692553079484828e-12
	2.767796880601124e-08,3.937360231185410e-15
	-3.451508557408486e-05,-2.698967121978693e-12
	2.767796880601124e-08,3.937360231185410e-15
16		1.445439770745927e+00,0.000000000000000e+00
	2.767796880601124e-04,4.029073132656959e-11
	1.000000000000000e+00,0.000000000000000e+00
	0.000000000000000e+00,0.000000000000000e+00
	4.416391742162891e-05,5.112986674335117e-15
	4.416391741893255e-05,4.597230694121027e-15
	-2.767796880601059e-08,-4.029073132657140e-15
	3.451508557408371e-05,2.761834142316950e-12
	-2.355408930810336e-05,-2.534371603506218e-15
	-1.093331829717435e-05,-2.755270697580787e-12
	2.767796880601124e-08,4.029073132656959e-15
	-3.451508557408486e-05,-2.761834142316951e-12
	2.767796880601124e-08,4.029073132656959e-15
17		1.479108388168207e+00,0.000000000000000e+00
	2.767796880601124e-04,4.122922302034530e-11
	1.000000000000000e+00,0.000000000000000e+00
	0.000000000000000e+00,0.000000000000000e+00
	4.416391742162891e-05,5.232083433472005e-15
	4.416391741893255e-05,4.704313953192034e-15
	-2.767796880601059e-08,-4.122922302034977e-15
	3.451508557408371e-05,2.826165523674663e-12
	-2.355408930810336e-05,-2.593404701703251e-15
	-1.093331829717435e-05,-2.819449196670925e-12
	2.767796880601124e-08,4.122922302034531e-15
	-3.451508557408486e-05,-2.826165523674662e-12
	2.767796880601124e-08,4.122922302034531e-15
18		1.513561248436208e+00,0.000000000000000e+00
	2.767796880601124e-04,4.218957499389970e-11
	1.000000000000000e+00,0.000000000000000e+00
	0.000000000000000e+00,0.000000000000000e+00
	4.416391742162891e-05,5.353954312500130e-15
	4.416391741893255e-05,4.813891501789979e-15
	-2.767796880601059e-08,-4.218957499390237e-15
	3.451508557408371e-05,2.891995375401751e-12
	-2.355408930810336e-05,-2.653812857400896e-15
	-1.093331829717435e-05,-2.885122605044960e-12
	2.767796880601124e-08,4.218957499389971e-15
	-3.451508557408486e-05,-2.891995375401750e-12
	2.767796880601124e-08,4.218957499389971e-15
19		1.548816618912481e+00,0.000000000000000e+00
	2.767796880601124e-04,4.317229643856091e-11
	1.000000000000000e+00,0.000000000000000e+00
	0.000000000000000e+00,0.000000000000000e+00
	4.416391742162891e-05,5.478663928972704e-15
	4.416391741893255e-05,4.926021439381560e-15
	-2.767796880601059e-08,-4.317229643856319e-15
	3.451508557408371e-05,2.959358601356960e-12
	-2.355408930810336e-05,-2.715628099802901e-15
	-1.093331829717435e-05,-2.952325743613301e-12
	2.767796880601124e-08,4.317229643856091e-15
	-3.451508557408486e-05,-2.959358601356960e-12
	2.767796880601124e-08,4.317229643856091e-15
20		1.584893192461113e+00,0.000000000000000e+00
	2.767796880601124e-04,4.417790840624674e-11
	1.000000000000000e+00,0.000000000000000e+00
	0.000000000000000e+00,0.000000000000000e+00
	4.416391742162891e-05,5.606278405579114e-15
	4.416391741893255e-05,5.040763218743907e-15
	-2.767796880601059e-08,-4.417790840624672e-15
	3.451508557408371e-05,3.028290918414351e-12
	-2.355408930810336e-05,-2.778883204169010e-15
	-1.093331829717435e-05,-3.021094244369557e-12
	2.767796880601124e-08,4.417790840624674e-15
	-3.451508557408486e-05,-3.028290918414351e-12
	2.767796880601124e-08,4.417790840624674e-15
21		1.621810097358929e+00,0.000000000000000e+00
	2.767796880601124e-04,4.520694408573330e-11
	1.000000000000000e+00,0.000000000000000e+00
	0.000000000000000e+00,0.000000000000000e+00
	4.416391742162891e-05,5.736865405204025e-15
	4.416391741893255e-05,5.158177677487215e-15
	-2.767796880601059e-08,-4.520694408573559e-15
	3.451508557408371e-05,3.098828875400854e-12
	-2.355408930810336e-05,-2.843611709192835e-15
	-1.093331829717435e-05,-3.091464569283087e-12
	2.767796880601124e-08,4.520694408573331e-15
	-3.451508557408486e-05,-3.098828875400853e-12
	2.767796880601124e-08,4.520694408573331e-15
22		1.659586907437560e+00,0.000000000000000e+00
	2.767796880601124e-04,4.625994908535877e-11
	1.000000000000000e+00,0.000000000000000e+00
	0.000000000000000e+00,0.000000000000000e+00
	4.416391742162891e-05,5.870494166803168e-15
	4.416391741893255e-05,5.278327070311683e-15
	-2.767796880601059e-08,-4.625994908536182e-15
	3.451508557408371e-05,3.171009872474944e-12
	-2.355408930810336e-05,-2.909847934784526e-15
	-1.093331829717435e-05,-3.163474029631623e-12
	2.767796880601124e-08,4.625994908535877e-15
	-3.451508557408486e-05,-3.171009872474944e-12
	2.767796880601124e-08,4.625994908535877e-15
23		1.698243652461743e+00,0.000000000000000e+00
	2.767796880601124e-04,4.733748172231212e-11
	1.000000000000000e+00,0.000000000000000e+00
	0.000000000000000e+00,0.000000000000000e+00
	4.416391742162891e-05,6.007235542114726e-15
	4.416391741893255e-05,5.401275102015750e-15
	-2.767796880601059e-08,-4.733748172231613e-15
	3.451508557408371e-05,3.244872180956699e-12
	-2.355408930810336e-05,-2.977627000267630e-15
	-1.093331829717435e-05,-3.237160805784199e-12
	2.767796880601124e-08,4.733748172231212e-15
	-3.451508557408486e-05,-3.244872180956698e-12
	2.767796880601124e-08,4.733748172231212e-15
24		1.737800828749374e+00,0.000000000000000e+00
	2.767796880601124e-04,4.844011331866025e-11
	1.000000000000000e+00,0.000000000000000e+00
	0.000000000000000e+00,0.000000000000000e+00
	4.416391742162891e-05,6.147162033225873e-15
	4.416391741893255e-05,5.527086961273230e-15
	-2.767796880601059e-08,-4.844011331866789e-15
	3.451508557408371e-05,3.320454963619756e-12
	-2.355408930810336e-05,-3.046984842999828e-15
	-1.093331829717435e-05,-3.312563967444890e-12
	2.767796880601124e-08,4.844011331866025e-15
	-3.451508557408486e-05,-3.320454963619756e-12
	2.767796880601124e-08,4.844011331866025e-15
25		1.778279410038922e+00,0.000000000000000e+00
	2.767796880601124e-04,4.956842850427068e-11
	1.000000000000000e+00,0.000000000000000e+00
	0.000000000000000e+00,0.000000000000000e+00
	4.416391742162891e-05,6.290347831014352e-15
	4.416391741893255e-05,5.655829355197226e-15
	-2.767796880601059e-08,-4.956842850426954e-15
	3.451508557408371e-05,3.397798295455943e-12
	-2.355408930810336e-05,-3.117958237427399e-15
	-1.093331829717435e-05,-3.389723494368089e-12
	2.767796880601124e-08,4.956842850427068e-15
	-3.451508557408486e-05,-3.397798295455942e-12
	2.767796880601124e-08,4.956842850427068e-15
26		1.819700858609982e+00,0.000000000000000e+00
	2.767796880601124e-04,5.072302552678976e-11
	1.000000000000000e+00,0.000000000000000e+00
	0.000000000000000e+00,0.000000000000000e+00
	4.416391742162891e-05,6.436868854485425e-15
	4.416391741893255e-05,5.787570544709097e-15
	-2.767796880601059e-08,-5.072302552679383e-15
	3.451508557408371e-05,3.476943184923558e-12
	-2.355408930810336e-05,-3.190584814583509e-15
	-1.093331829717435e-05,-3.468680297556294e-12
	2.767796880601124e-08,5.072302552678976e-15
	-3.451508557408486e-05,-3.476943184923556e-12
	2.767796880601124e-08,5.072302552678976e-15
27		1.862087136662866e+00,0.000000000000000e+00
	2.767796880601124e-04,5.190451656884177e-11
	1.000000000000000e+00,0.000000000000000e+00
	0.000000000000000e+00,0.000000000000000e+00
	4.416391742162891e-05,6.586802791025177e-15
	4.416391741893255e-05,5.922380380731321e-15
	-2.767796880601059e-08,-5.190451656884326e-15
	3.451508557408371e-05,3.557931595690602e-12
	-2.355408930810336e-05,-3.264903082040691e-15
	-1.093331829717435e-05,-3.549476240951677e-12
	2.767796880601124e-08,5.190451656884177e-15
	-3.451508557408486e-05,-3.557931595690602e-12
	2.767796880601124e-08,5.190451656884177e-15
28		1.905460717963246e+00,0.000000000000000e+00
	2.767796880601124e-04,5.311352807261605e-11
	1.000000000000000e+00,0.000000000000000e+00
	0.000000000000000e+00,0.000000000000000e+00
	4.416391742162891e-05,6.740229137591379e-15
	4.416391741893255e-05,6.060330341223388e-15
	-2.767796880601059e-08,-5.311352807262658e-15
	3.451508557408371e-05,3.640806468884475e-12
	-2.355408930810336e-05,-3.340952444328077e-15
	-1.093331829717435e-05,-3.632154163632884e-12
	2.767796880601124e-08,5.311352807261605e-15
	-3.451508557408486e-05,-3.640806468884475e-12
	2.767796880601124e-08,5.311352807261605e-15
29		1.949844599758044e+00,0.000000000000000e+00
	2.767796880601124e-04,5.435070107201513e-11
	1.000000000000000e+00,0.000000000000000e+00
	0.000000000000000e+00,0.000000000000000e+00
	4.416391742162891e-05,6.897229242863808e-15
	4.416391741893255e-05,6.201493569080322e-15
	-2.767796880601059e-08,-5.435070107201645e-15
	3.451508557408371e-05,3.725611745859920e-12
	-2.355408930810336e-05,-3.418773223824176e-15
	-1.093331829717435e-05,-3.716757902528894e-12
	2.767796880601124e-08,5.435070107201513e-15
	-3.451508557408486e-05,-3.725611745859920e-12
	2.767796880601124e-08,5.435070107201513e-15
30		1.995262314968878e+00,0.000000000000000e+00
	2.767796880601124e-04,5.561669153253914e-11
	1.000000000000000e+00,0.000000000000000e+00
	0.000000000000000e+00,0.000000000000000e+00
	4.416391742162891e-05,7.057886350376427e-15
	4.416391741893255e-05,6.345944910914058e-15
	-2.767796880601059e-08,-5.561669153254772e-15
	3.451508557408371e-05,3.812392391497322e-12
	-2.355408930810336e-05,-3.498406682136362e-15
	-1.093331829717435e-05,-3.803332315661931e-12
	2.767796880601124e-08,5.561669153253914e-15
	-3.451508557408486e-05,-3.812392391497321e-12
	2.767796880601124e-08,5.561669153253914e-15
31		2.041737944669527e+00,0.000000000000000e+00
	2.767796880601124e-04,5.691217069908767e-11
	1.000000000000000e+00,0.000000000000000e+00
	0.000000000000000e+00,0.000000000000000e+00
	4.416391742162891e-05,7.222285642654183e-15
	4.416391741893255e-05,6.493760956738069e-15
	-2.767796880601059e-08,-5.691217069908778e-15
	3.451508557408371e-05,3.901194418043674e-12
	-2.355408930810336e-05,-3.579895041978303e-15
	-1.093331829717435e-05,-3.891923305931787e-12
	2.767796880601124e-08,5.691217069908767e-15
	-3.451508557408486e-05,-3.901194418043674e-12
	2.767796880601124e-08,5.691217069908767e-15
32		2.089296130854037e+00,0.000000000000000e+00
	2.767796880601124e-04,5.823782545186248e-11
	1.000000000000000e+00,0.000000000000000e+00
	0.000000000000000e+00,0.000000000000000e+00
	4.416391742162891e-05,7.390514286377932e-15
	4.416391741893255e-05,6.645020080576435e-15
	-2.767796880601059e-08,-5.823782545185944e-15
