LTspice 24.0.9 for Windows
Circuit: * GA CMOS Amp | W=1.974014297415882e-05 L=6.028331671292108e-07 Vbias=0.9223507170247978
Start Time: Mon Sep  8 18:46:01 2025
solver = Normal
Maximum thread count: 2
tnom = 27
temp = 27
method = modified trap
AsciiRawFile = 1
Instance "m1": Length shorter than recommended for a level 3 MOSFET.
Direct Newton iteration for .op point succeeded.
Semiconductor Device Operating Points:
                        --- MOSFET Transistors ---
Name:          m1
Model:        n_1u
Id:          1.06e-04
Vgs:         9.22e-01
Vds:         7.40e-01
Vbs:         0.00e+00
Vth:         7.57e-01
Vdsat:       1.67e-01
Gm:          8.25e-04
Gds:         4.62e-05
Gmb:         1.46e-04
Cbd:         0.00e+00
Cbs:         0.00e+00
Cgsov:       3.95e-15
Cgdov:       3.95e-15
Cgbov:       4.03e-17
Cgs:         9.15e-15
Cgd:         0.00e+00
Cgb:         0.00e+00



gain_db: MAX(db(v(out)/v(g)))=(29.8694dB,61.1616°) FROM 1 TO 1e+09
gain_lin: MAX(mag(v(out)/v(g)))=(15.0253dB,0°) FROM 1 TO 1e+09

Measurement "fc" FAIL'ed

Total elapsed time: 0.479 seconds.

