LTspice 24.0.9 for Windows
Circuit: * GA CMOS Amp | W=2.8626610380004576e-05 L=4.1779907366781366e-07 Vbias=1.166123666675165
Start Time: Sat Sep  6 22:35:32 2025
solver = Normal
Maximum thread count: 2
tnom = 27
temp = 27
method = modified trap
AsciiRawFile = 1
Direct Newton iteration for .op point succeeded.
Semiconductor Device Operating Points:
                        --- BSIM4 MOSFETS ---
Name:      m1
Model:      n
Id:      1.77e-04
Vgs:     1.17e+00
Vds:     2.74e-02
Vbs:     0.00e+00
Vth:     2.57e-01
Vdsat:   6.45e-01
Gm:     -5.22e-06
Gds:     6.37e-03
Gmb      1.03e-04
Cbd:     1.42e-14
Cbs:     2.29e-14


.measure op idd find i(vdd)
  Error: FIND can not be evaluated over an interval.

gain_db: MAX(db(v(out)/v(g)))=(34.9888dB,180°) FROM 1 TO 1e+09
gain_lin: MAX(mag(v(out)/v(g)))=(-12.6051dB,0°) FROM 1 TO 1e+09

Measurement "fc" FAIL'ed

Total elapsed time: 4.766 seconds.

