LTspice 24.0.9 for Windows
Circuit: * GA CMOS Amp | W=2.297812241985333e-06 L=5.021352701916061e-07 Vbias=1.0204085993955212
Start Time: Mon Sep  8 18:43:23 2025
solver = Normal
Maximum thread count: 2
tnom = 27
temp = 27
method = modified trap
AsciiRawFile = 1
Instance "m1": Length shorter than recommended for a level 3 MOSFET.
Direct Newton iteration for .op point succeeded.
Semiconductor Device Operating Points:
                        --- MOSFET Transistors ---
Name:          m1
Model:        n_1u
Id:          2.48e-05
Vgs:         1.02e+00
Vds:         1.55e+00
Vbs:         0.00e+00
Vth:         7.97e-01
Vdsat:       1.77e-01
Gm:          1.43e-04
Gds:         1.68e-05
Gmb:         3.50e-05
Cbd:         0.00e+00
Cbs:         0.00e+00
Cgsov:       4.60e-16
Cgdov:       4.60e-16
Cgbov:       3.02e-17
Cgs:         7.99e-16
Cgd:         0.00e+00
Cgb:         0.00e+00



gain_db: MAX(db(v(out)/v(g)))=(28.7377dB,86.2657°) FROM 1 TO 1e+09
gain_lin: MAX(mag(v(out)/v(g)))=(1.78099dB,0°) FROM 1 TO 1e+09

Measurement "fc" FAIL'ed

Total elapsed time: 0.485 seconds.

