LTspice 24.0.9 for Windows
Circuit: * GA CMOS Amp | W=4.4117288346470715e-05 L=7.2112654364604e-07 Vbias=1.0693075507205443
Start Time: Mon Sep  8 18:43:47 2025
solver = Normal
Maximum thread count: 2
tnom = 27
temp = 27
method = modified trap
AsciiRawFile = 1
Instance "m1": Length shorter than recommended for a level 3 MOSFET.
Direct Newton iteration for .op point succeeded.
Semiconductor Device Operating Points:
                        --- MOSFET Transistors ---
Name:          m1
Model:        n_1u
Id:          1.74e-04
Vgs:         1.07e+00
Vds:         6.03e-02
Vbs:         0.00e+00
Vth:         7.76e-01
Vdsat:       2.54e-01
Gm:          5.36e-04
Gds:         2.38e-03
Gmb:         1.12e-04
Cbd:         0.00e+00
Cbs:         0.00e+00
Cgsov:       8.82e-15
Cgdov:       8.82e-15
Cgbov:       5.21e-17
Cgs:         2.15e-14
Cgd:         1.79e-14
Cgb:         0.00e+00



gain_db: MAX(db(v(out)/v(g)))=(29.6436dB,115.966°) FROM 1 TO 1e+09
gain_lin: MAX(mag(v(out)/v(g)))=(-12.8711dB,0°) FROM 1 TO 1e+09

Measurement "fc" FAIL'ed

Total elapsed time: 0.483 seconds.

