Title: * GA CMOS Amp | W=1.10291168236269e-05 L=2.718550863186174e-07 Vbias=1.0594259887590558
Date: Sat Sep  6 22:01:34 2025
Plotname: AC Analysis
Flags: complex forward log
No. Variables: 13
No. Points:          901
Offset:    0.0000000000000000e+00
Command: Linear Technology Corporation LTspice
Variables:
	0	frequency	frequency
	1	V(out)	voltage
	2	V(g)	voltage
	3	V(vdd)	voltage
	4	V(m1#dbody)	voltage
	5	V(m1#sbody)	voltage
	6	Id(M1)	device_current
	7	Ig(M1)	device_current
	8	Ib(M1)	device_current
	9	Is(M1)	device_current
	10	I(Rload)	device_current
	11	I(Vg)	device_current
	12	I(Vdd)	device_current
Values:
0		1.000000000000000e+00,0.000000000000000e+00
	-5.933212026437000e-03,1.145726740450667e-10
	1.000000000000000e+00,0.000000000000000e+00
	0.000000000000000e+00,0.000000000000000e+00
	1.480241844947961e-06,7.979445581360850e-15
	1.480241892114591e-06,9.497283403328929e-15
	5.933212026437022e-07,-1.145726740450675e-14
	2.247021043669754e-06,8.250961304634109e-13
	-7.894623399134191e-07,-4.964274817334579e-15
	-2.050879906400037e-06,-8.086745882415695e-13
	-5.933212026437001e-07,1.145726740450667e-14
	-2.247021043649822e-06,-8.250961304634107e-13
	-5.933212026437001e-07,1.145726740450667e-14
1		1.023292992280754e+00,0.000000000000000e+00
	-5.933212026437000e-03,1.172414144571838e-10
	1.000000000000000e+00,0.000000000000000e+00
	0.000000000000000e+00,0.000000000000000e+00
	1.480241844947961e-06,8.165310745692190e-15
	1.480241892114591e-06,9.718503552330808e-15
	5.933212026437022e-07,-1.172414144571851e-14
	2.247021043669754e-06,8.443150882611752e-13
	-7.894623399134191e-07,-5.079907632334298e-15
	-2.050879906400037e-06,-8.275110391831224e-13
	-5.933212026437001e-07,1.172414144571838e-14
	-2.247021043649822e-06,-8.443150882611751e-13
	-5.933212026437001e-07,1.172414144571838e-14
2		1.047128548050899e+00,0.000000000000000e+00
	-5.933212026437000e-03,1.199723178191197e-10
	1.000000000000000e+00,0.000000000000000e+00
	0.000000000000000e+00,0.000000000000000e+00
	1.480241844947961e-06,8.355505265861555e-15
	1.480241892114591e-06,9.944876580555728e-15
	5.933212026437022e-07,-1.199723178191189e-14
	2.247021043669754e-06,8.639817130945669e-13
	-7.894623399134191e-07,-5.198233881601202e-15
	-2.050879906400037e-06,-8.467862474310538e-13
	-5.933212026437001e-07,1.199723178191197e-14
	-2.247021043649822e-06,-8.639817130945669e-13
	-5.933212026437001e-07,1.199723178191197e-14
3		1.071519305237606e+00,0.000000000000000e+00
	-5.933212026437000e-03,1.227668320919846e-10
	1.000000000000000e+00,0.000000000000000e+00
	0.000000000000000e+00,0.000000000000000e+00
	1.480241844947961e-06,8.550129985521063e-15
	1.480241892114591e-06,1.017652251397966e-14
	5.933212026437022e-07,-1.227668320919841e-14
	2.247021043669754e-06,8.841064324683911e-13
	-7.894623399134191e-07,-5.319316303278891e-15
	-2.050879906400037e-06,-8.665104329559139e-13
	-5.933212026437001e-07,1.227668320919846e-14
	-2.247021043649822e-06,-8.841064324683911e-13
	-5.933212026437001e-07,1.227668320919846e-14
4		1.096478196143185e+00,0.000000000000000e+00
	-5.933212026437000e-03,1.256264389642358e-10
	1.000000000000000e+00,0.000000000000000e+00
	0.000000000000000e+00,0.000000000000000e+00
	1.480241844947961e-06,8.749288097273250e-15
	1.480241892114591e-06,1.041356417434271e-14
	5.933212026437022e-07,-1.256264389642350e-14
	2.247021043669754e-06,9.046999167752422e-13
	-7.894623399134191e-07,-5.443219096870056e-15
	-2.050879906400037e-06,-8.866940537819487e-13
	-5.933212026437001e-07,1.256264389642358e-14
	-2.247021043649822e-06,-9.046999167752423e-13
	-5.933212026437001e-07,1.256264389642358e-14
5		1.122018454301963e+00,0.000000000000000e+00
	-5.933212026437000e-03,1.285526546372884e-10
	1.000000000000000e+00,0.000000000000000e+00
	0.000000000000000e+00,0.000000000000000e+00
	1.480241844947961e-06,8.953085197385135e-15
	1.480241892114591e-06,1.065612724427082e-14
	5.933212026437022e-07,-1.285526546372886e-14
	2.247021043669754e-06,9.257730849530870e-13
	-7.894623399134191e-07,-5.570007957275907e-15
	-2.050879906400037e-06,-9.073478115320823e-13
	-5.933212026437001e-07,1.285526546372884e-14
	-2.247021043649822e-06,-9.257730849530870e-13
	-5.933212026437001e-07,1.285526546372884e-14
6		1.148153621496882e+00,0.000000000000000e+00
	-5.933212026437000e-03,1.315470306294252e-10
	1.000000000000000e+00,0.000000000000000e+00
	0.000000000000000e+00,0.000000000000000e+00
	1.480241844947961e-06,9.161629341776755e-15
	1.480241892114591e-06,1.090434033391435e-14
	5.933212026437022e-07,-1.315470306294256e-14
	2.247021043669753e-06,9.473371102746289e-13
	-7.894623399134190e-07,-5.699750109628471e-15
	-2.050879906400037e-06,-9.284826571020580e-13
	-5.933212026437001e-07,1.315470306294252e-14
	-2.247021043649822e-06,-9.473371102746293e-13
	-5.933212026437001e-07,1.315470306294252e-14
7		1.174897554939529e+00,0.000000000000000e+00
	-5.933212026437000e-03,1.346111545984326e-10
	1.000000000000000e+00,0.000000000000000e+00
	0.000000000000000e+00,0.000000000000000e+00
	1.480241844947961e-06,9.375031103313893e-15
	1.480241892114591e-06,1.115833504913893e-14
	5.933212026437022e-07,-1.346111545984324e-14
	2.247021043669753e-06,9.694034262715283e-13
	-7.894623399134190e-07,-5.832514344934274e-15
	-2.050879906400037e-06,-9.501097964667507e-13
	-5.933212026437001e-07,1.346111545984326e-14
	-2.247021043649822e-06,-9.694034262715281e-13
	-5.933212026437001e-07,1.346111545984326e-14
8		1.202264434617413e+00,0.000000000000000e+00
	-5.933212026437000e-03,1.377466511833972e-10
	1.000000000000000e+00,0.000000000000000e+00
	0.000000000000000e+00,0.000000000000000e+00
	1.480241844947961e-06,9.593403630435216e-15
	1.480241892114591e-06,1.141824606130459e-14
	5.933212026437022e-07,-1.377466511833978e-14
	2.247021043669753e-06,9.919837327966075e-13
	-7.894623399134190e-07,-5.968371056548217e-15
	-2.050879906400037e-06,-9.722406966217196e-13
	-5.933212026437001e-07,1.377466511833972e-14
	-2.247021043649822e-06,-9.919837327966075e-13
	-5.933212026437001e-07,1.377466511833972e-14
9		1.230268770812381e+00,0.000000000000000e+00
	-5.933212026437000e-03,1.409551828661119e-10
	1.000000000000000e+00,0.000000000000000e+00
	0.000000000000000e+00,0.000000000000000e+00
	1.480241844947961e-06,9.816862707145104e-15
	1.480241892114591e-06,1.168421117867031e-14
	5.933212026437022e-07,-1.409551828661119e-14
	2.247021043669753e-06,1.015090002227273e-12
	-7.894623399134190e-07,-6.107392277497073e-15
	-2.050879906400037e-06,-9.948870916631642e-13
	-5.933212026437001e-07,1.409551828661119e-14
	-2.247021043649822e-06,-1.015090002227272e-12
	-5.933212026437001e-07,1.409551828661119e-14
10		1.258925411794167e+00,0.000000000000000e+00
	-5.933212026437000e-03,1.442384508525445e-10
	1.000000000000000e+00,0.000000000000000e+00
	0.000000000000000e+00,0.000000000000000e+00
	1.480241844947961e-06,1.004552681440385e-14
	1.480241892114591e-06,1.195637141946178e-14
	5.933212026437022e-07,-1.442384508525454e-14
	2.247021043669753e-06,1.038734485813423e-12
	-7.894623399134190e-07,-6.249651718672347e-15
	-2.050879906400037e-06,-1.018060989009496e-12
	-5.933212026437001e-07,1.442384508525445e-14
	-2.247021043649822e-06,-1.038734485813423e-12
	-5.933212026437001e-07,1.442384508525445e-14
11		1.288249551693134e+00,0.000000000000000e+00
	-5.933212026437000e-03,1.475981959748408e-10
	1.000000000000000e+00,0.000000000000000e+00
	0.000000000000000e+00,0.000000000000000e+00
	1.480241844947961e-06,1.027951719294787e-14
	1.480241892114591e-06,1.223487108664113e-14
	5.933212026437022e-07,-1.475981959748403e-14
	2.247021043669753e-06,1.062929720173228e-12
	-7.894623399134190e-07,-6.395224807912785e-15
	-2.050879906400037e-06,-1.041774675767831e-12
	-5.933212026437001e-07,1.475981959748408e-14
	-2.247021043649822e-06,-1.062929720173228e-12
	-5.933212026437001e-07,1.475981959748408e-14
12		1.318256738556407e+00,0.000000000000000e+00
	-5.933212026437000e-03,1.510361996143359e-10
	1.000000000000000e+00,0.000000000000000e+00
	0.000000000000000e+00,0.000000000000000e+00
	1.480241844947961e-06,1.051895790757308e-14
	1.480241892114591e-06,1.251985784441828e-14
	5.933212026437022e-07,-1.510361996143365e-14
	2.247021043669753e-06,1.087688533940208e-12
	-7.894623399134190e-07,-6.544188729997183e-15
	-2.050879906400037e-06,-1.066040725248777e-12
	-5.933212026437001e-07,1.510361996143360e-14
	-2.247021043649822e-06,-1.087688533940207e-12
	-5.933212026437001e-07,1.510361996143360e-14
13		1.348962882591653e+00,0.000000000000000e+00
	-5.933212026437000e-03,1.545542846460671e-10
	1.000000000000000e+00,0.000000000000000e+00
	0.000000000000000e+00,0.000000000000000e+00
	1.480241844947961e-06,1.076397591291576e-14
	1.480241892114591e-06,1.281148279654446e-14
	5.933212026437022e-07,-1.545542846460682e-14
	2.247021043669753e-06,1.113024054565141e-12
	-7.894623399134190e-07,-6.696622467568805e-15
	-2.050879906400037e-06,-1.090872003632966e-12
	-5.933212026437001e-07,1.545542846460671e-14
	-2.247021043649822e-06,-1.113024054565141e-12
	-5.933212026437001e-07,1.545542846460671e-14
14		1.380384264602885e+00,0.000000000000000e+00
	-5.933212026437000e-03,1.581543164052854e-10
	1.000000000000000e+00,0.000000000000000e+00
	0.000000000000000e+00,0.000000000000000e+00
	1.480241844947961e-06,1.101470112076554e-14
	1.480241892114591e-06,1.310990056642939e-14
	5.933212026437022e-07,-1.581543164052862e-14
	2.247021043669753e-06,1.138949715276421e-12
	-7.894623399134190e-07,-6.852606843013012e-15
	-2.050879906400037e-06,-1.116281676792880e-12
	-5.933212026437001e-07,1.581543164052854e-14
	-2.247021043649822e-06,-1.138949715276421e-12
	-5.933212026437001e-07,1.581543164052854e-14
15		1.412537544622754e+00,0.000000000000000e+00
	-5.933212026437000e-03,1.618382036764817e-10
	1.000000000000000e+00,0.000000000000000e+00
	0.000000000000000e+00,0.000000000000000e+00
	1.480241844947961e-06,1.127126646894634e-14
	1.480241892114591e-06,1.341526937912468e-14
	5.933212026437022e-07,-1.618382036764804e-14
	2.247021043669753e-06,1.165479262202522e-12
	-7.894623399134190e-07,-7.012224561310358e-15
	-2.050879906400037e-06,-1.142283217273563e-12
	-5.933212026437001e-07,1.618382036764817e-14
	-2.247021043649822e-06,-1.165479262202522e-12
	-5.933212026437001e-07,1.618382036764817e-14
16		1.445439770745927e+00,0.000000000000000e+00
	-5.933212026437000e-03,1.656078997054491e-10
	1.000000000000000e+00,0.000000000000000e+00
	0.000000000000000e+00,0.000000000000000e+00
	1.480241844947961e-06,1.153380799180183e-14
	1.480241892114591e-06,1.372775114521686e-14
	5.933212026437022e-07,-1.656078997054477e-14
	2.247021043669753e-06,1.192626761660384e-12
	-7.894623399134190e-07,-7.175560253887873e-15
	-2.050879906400037e-06,-1.168890411435951e-12
	-5.933212026437001e-07,1.656078997054491e-14
	-2.247021043649822e-06,-1.192626761660384e-12
	-5.933212026437001e-07,1.656078997054491e-14
17		1.479108388168207e+00,0.000000000000000e+00
	-5.933212026437000e-03,1.694654032349200e-10
	1.000000000000000e+00,0.000000000000000e+00
	0.000000000000000e+00,0.000000000000000e+00
	1.480241844947961e-06,1.180246489232257e-14
	1.480241892114591e-06,1.404751154667451e-14
	5.933212026437022e-07,-1.694654032349213e-14
	2.247021043669753e-06,1.220406607613560e-12
	-7.894623399134190e-07,-7.342700523491768e-15
	-2.050879906400037e-06,-1.196117366766576e-12
	-5.933212026437001e-07,1.694654032349200e-14
	-2.247021043649822e-06,-1.220406607613560e-12
	-5.933212026437001e-07,1.694654032349200e-14
18		1.513561248436208e+00,0.000000000000000e+00
	-5.933212026437000e-03,1.734127595643259e-10
	1.000000000000000e+00,0.000000000000000e+00
	0.000000000000000e+00,0.000000000000000e+00
	1.480241844947961e-06,1.207737961595332e-14
	1.480241892114591e-06,1.437472012469501e-14
	5.933212026437022e-07,-1.734127595643257e-14
	2.247021043669753e-06,1.248833529304084e-12
	-7.894623399134190e-07,-7.513733990105355e-15
	-2.050879906400037e-06,-1.223978519357546e-12
	-5.933212026437001e-07,1.734127595643259e-14
	-2.247021043649822e-06,-1.248833529304084e-12
	-5.933212026437001e-07,1.734127595643259e-14
19		1.548816618912481e+00,0.000000000000000e+00
	-5.933212026437000e-03,1.774520616342420e-10
	1.000000000000000e+00,0.000000000000000e+00
	0.000000000000000e+00,0.000000000000000e+00
	1.480241844947961e-06,1.235869792611945e-14
	1.480241892114591e-06,1.470955036959753e-14
	5.933212026437022e-07,-1.774520616342418e-14
	2.247021043669753e-06,1.277922599062111e-12
	-7.894623399134190e-07,-7.688751337936516e-15
	-2.050879906400037e-06,-1.252488641560750e-12
	-5.933212026437001e-07,1.774520616342420e-14
	-2.247021043649822e-06,-1.277922599062111e-12
	-5.933212026437001e-07,1.774520616342420e-14
20		1.584893192461113e+00,0.000000000000000e+00
	-5.933212026437000e-03,1.815854511360923e-10
	1.000000000000000e+00,0.000000000000000e+00
	0.000000000000000e+00,0.000000000000000e+00
	1.480241844947961e-06,1.264656898151272e-14
	1.480241892114591e-06,1.505217981280993e-14
	5.933212026437022e-07,-1.815854511360932e-14
	2.247021043669753e-06,1.307689240297466e-12
	-7.894623399134190e-07,-7.867845363499709e-15
	-2.050879906400037e-06,-1.281662849820357e-12
	-5.933212026437001e-07,1.815854511360923e-14
	-2.247021043649822e-06,-1.307689240297466e-12
	-5.933212026437001e-07,1.815854511360923e-14
21		1.621810097358929e+00,0.000000000000000e+00
	-5.933212026437000e-03,1.858151196477025e-10
	1.000000000000000e+00,0.000000000000000e+00
	0.000000000000000e+00,0.000000000000000e+00
	1.480241844947961e-06,1.294114541517712e-14
	1.480241892114591e-06,1.540279012099823e-14
	5.933212026437022e-07,-1.858151196477029e-14
	2.247021043669753e-06,1.338149235677340e-12
	-7.894623399134190e-07,-8.051111024817875e-15
	-2.050879906400037e-06,-1.311516612687752e-12
	-5.933212026437001e-07,1.858151196477025e-14
	-2.247021043649822e-06,-1.338149235677340e-12
	-5.933212026437001e-07,1.858151196477025e-14
22		1.659586907437560e+00,0.000000000000000e+00
	-5.933212026437000e-03,1.901433097953038e-10
	1.000000000000000e+00,0.000000000000000e+00
	0.000000000000000e+00,0.000000000000000e+00
	1.480241844947961e-06,1.324258341543696e-14
	1.480241892114591e-06,1.576156719238872e-14
	5.933212026437022e-07,-1.901433097953053e-14
	2.247021043669753e-06,1.369318735494469e-12
	-7.894623399134190e-07,-8.238645491770451e-15
	-2.050879906400037e-06,-1.342065759023168e-12
	-5.933212026437001e-07,1.901433097953038e-14
	-2.247021043649822e-06,-1.369318735494469e-12
	-5.933212026437001e-07,1.901433097953038e-14
23		1.698243652461743e+00,0.000000000000000e+00
	-5.933212026437000e-03,1.945723164426029e-10
	1.000000000000000e+00,0.000000000000000e+00
	0.000000000000000e+00,0.000000000000000e+00
	1.480241844947961e-06,1.355104280870998e-14
	1.480241892114591e-06,1.612870125533363e-14
	5.933212026437022e-07,-1.945723164426023e-14
	2.247021043669753e-06,1.401214266230234e-12
	-7.894623399134190e-07,-8.430548197614132e-15
	-2.050879906400037e-06,-1.373326486388360e-12
	-5.933212026437001e-07,1.945723164426029e-14
	-2.247021043649822e-06,-1.401214266230234e-12
	-5.933212026437001e-07,1.945723164426029e-14
24		1.737800828749374e+00,0.000000000000000e+00
	-5.933212026437000e-03,1.991044879075489e-10
	1.000000000000000e+00,0.000000000000000e+00
	0.000000000000000e+00,0.000000000000000e+00
	1.480241844947961e-06,1.386668714424942e-14
	1.480241892114591e-06,1.650438696917269e-14
	5.933212026437022e-07,-1.991044879075486e-14
	2.247021043669753e-06,1.433852739317217e-12
	-7.894623399134190e-07,-8.626920891703678e-15
	-2.050879906400037e-06,-1.405315369634759e-12
	-5.933212026437001e-07,1.991044879075489e-14
	-2.247021043649822e-06,-1.433852739317217e-12
	-5.933212026437001e-07,1.991044879075489e-14
25		1.778279410038922e+00,0.000000000000000e+00
	-5.933212026437000e-03,2.037422272074429e-10
	1.000000000000000e+00,0.000000000000000e+00
	0.000000000000000e+00,0.000000000000000e+00
	1.480241844947961e-06,1.418968378086006e-14
	1.480241892114591e-06,1.688882352744421e-14
	5.933212026437022e-07,-2.037422272074437e-14
	2.247021043669753e-06,1.467251460105871e-12
	-7.894623399134190e-07,-8.827867693440812e-15
	-2.050879906400037e-06,-1.438049369691686e-12
	-5.933212026437001e-07,2.037422272074429e-14
	-2.247021043649822e-06,-1.467251460105871e-12
	-5.933212026437001e-07,2.037422272074429e-14
26		1.819700858609982e+00,0.000000000000000e+00
	-5.933212026437000e-03,2.084879933330495e-10
	1.000000000000000e+00,0.000000000000000e+00
	0.000000000000000e+00,0.000000000000000e+00
	1.480241844947961e-06,1.452020397563397e-14
	1.480241892114591e-06,1.728221476349998e-14
	5.933212026437022e-07,-2.084879933330502e-14
	2.247021043669753e-06,1.501428137040043e-12
	-7.894623399134190e-07,-9.033495147479644e-15
	-2.050879906400037e-06,-1.471545842559258e-12
	-5.933212026437001e-07,2.084879933330496e-14
	-2.247021043649822e-06,-1.501428137040042e-12
	-5.933212026437001e-07,2.084879933330496e-14
27		1.862087136662866e+00,0.000000000000000e+00
	-5.933212026437000e-03,2.133443025523862e-10
	1.000000000000000e+00,0.000000000000000e+00
	0.000000000000000e+00,0.000000000000000e+00
	1.480241844947961e-06,1.485842297475338e-14
	1.480241892114591e-06,1.768476925858053e-14
	5.933212026437022e-07,-2.133443025523868e-14
	2.247021043669753e-06,1.536400891046223e-12
	-7.894623399134190e-07,-9.243912280218120e-15
	-2.050879906400037e-06,-1.505822548510766e-12
	-5.933212026437001e-07,2.133443025523862e-14
	-2.247021043649822e-06,-1.536400891046223e-12
	-5.933212026437001e-07,2.133443025523862e-14
28		1.905460717963246e+00,0.000000000000000e+00
	-5.933212026437000e-03,2.183137297448817e-10
	1.000000000000000e+00,0.000000000000000e+00
	0.000000000000000e+00,0.000000000000000e+00
	1.480241844947961e-06,1.520452010640850e-14
	1.480241892114591e-06,1.809670045240756e-14
	5.933212026437022e-07,-2.183137297448833e-14
	2.247021043669753e-06,1.572188265141507e-12
	-7.894623399134190e-07,-9.459230657605207e-15
	-2.050879906400037e-06,-1.540897661509413e-12
	-5.933212026437001e-07,2.183137297448817e-14
	-2.247021043649822e-06,-1.572188265141507e-12
	-5.933212026437001e-07,2.183137297448817e-14
29		1.949844599758044e+00,0.000000000000000e+00
	-5.933212026437000e-03,2.233989097666119e-10
	1.000000000000000e+00,0.000000000000000e+00
	0.000000000000000e+00,0.000000000000000e+00
	1.480241844947961e-06,1.555867887587965e-14
	1.480241892114591e-06,1.851822675635261e-14
	5.933212026437022e-07,-2.233989097666124e-14
	2.247021043669753e-06,1.608809234265340e-12
	-7.894623399134190e-07,-9.679564444294681e-15
	-2.050879906400037e-06,-1.576789778844384e-12
	-5.933212026437001e-07,2.233989097666120e-14
	-2.247021043649822e-06,-1.608809234265340e-12
	-5.933212026437001e-07,2.233989097666120e-14
30		1.995262314968878e+00,0.000000000000000e+00
	-5.933212026437000e-03,2.286025388473345e-10
	1.000000000000000e+00,0.000000000000000e+00
	0.000000000000000e+00,0.000000000000000e+00
	1.480241844947961e-06,1.592108706283424e-14
	1.480241892114591e-06,1.894957166924158e-14
	5.933212026437022e-07,-2.286025388473339e-14
	2.247021043669753e-06,1.646283215340288e-12
	-7.894623399134189e-07,-9.905030464176697e-15
	-2.050879906400037e-06,-1.613517930991378e-12
	-5.933212026437001e-07,2.286025388473345e-14
	-2.247021043649822e-06,-1.646283215340288e-12
	-5.933212026437001e-07,2.286025388473345e-14
31		2.041737944669527e+00,0.000000000000000e+00
	-5.933212026437000e-03,2.339273760200662e-10
	1.000000000000000e+00,0.000000000000000e+00
	0.000000000000000e+00,0.000000000000000e+00
	1.480241844947961e-06,1.629193682089005e-14
	1.480241892114591e-06,1.939096389585683e-14
	5.933212026437022e-07,-2.339273760200648e-14
	2.247021043669753e-06,1.684630077567144e-12
	-7.894623399134189e-07,-1.013574826231940e-14
	-2.050879906400037e-06,-1.651101591702818e-12
	-5.933212026437001e-07,2.339273760200662e-14
	-2.247021043649822e-06,-1.684630077567144e-12
	-5.933212026437001e-07,2.339273760200662e-14
32		2.089296130854037e+00,0.000000000000000e+00
	-5.933212026437000e-03,2.393762445839587e-10
	1.000000000000000e+00,0.000000000000000e+00
	0.000000000000000e+00,0.000000000000000e+00
	1.480241844947961e-06,1.667142477949757e-14
