Title: * GA CMOS Amp | W=1e-06 L=1e-06 Vbias=1.499731739065584
Date: Sat Sep  6 22:10:23 2025
Plotname: AC Analysis
Flags: complex forward log
No. Variables: 13
No. Points:          901
Offset:    0.0000000000000000e+00
Command: Linear Technology Corporation LTspice
Variables:
	0	frequency	frequency
	1	V(out)	voltage
	2	V(g)	voltage
	3	V(vdd)	voltage
	4	V(m1#dbody)	voltage
	5	V(m1#sbody)	voltage
	6	Id(M1)	device_current
	7	Ig(M1)	device_current
	8	Ib(M1)	device_current
	9	Is(M1)	device_current
	10	I(Rload)	device_current
	11	I(Vg)	device_current
	12	I(Vdd)	device_current
Values:
0		1.000000000000000e+00,0.000000000000000e+00
	-1.903894682377274e-01,7.169900826779502e-10
	1.000000000000000e+00,0.000000000000000e+00
	0.000000000000000e+00,0.000000000000000e+00
	3.753679946045645e-05,6.721875333410189e-14
	3.753680088837627e-05,7.059462429183932e-14
	1.903894682377274e-05,-7.169900826779502e-14
	2.206634546079322e-05,2.167993330803889e-13
	-2.001962706040050e-05,-3.742597429576878e-14
	-2.108566522416546e-05,-1.076743505168251e-13
	-1.903894682377274e-05,7.169900826779502e-14
	-2.206634545931507e-05,-2.167993330803889e-13
	-1.903894682377274e-05,7.169900826779502e-14
1		1.023292992280754e+00,0.000000000000000e+00
	-1.903894682377274e-01,7.336909271391450e-10
	1.000000000000000e+00,0.000000000000000e+00
	0.000000000000000e+00,0.000000000000000e+00
	3.753679946045645e-05,6.878447923663505e-14
	3.753680088837627e-05,7.223898433053190e-14
	1.903894682377274e-05,-7.336909271391449e-14
	2.206634546079322e-05,2.218492382723031e-13
	-2.001962706040050e-05,-3.829773722613983e-14
	-2.108566522416546e-05,-1.101824083322487e-13
	-1.903894682377274e-05,7.336909271391451e-14
	-2.206634545931507e-05,-2.218492382723031e-13
	-1.903894682377274e-05,7.336909271391451e-14
2		1.047128548050899e+00,0.000000000000000e+00
	-1.903894682377274e-01,7.507807842414563e-10
	1.000000000000000e+00,0.000000000000000e+00
	0.000000000000000e+00,0.000000000000000e+00
	3.753679946045645e-05,7.038667558052967e-14
	3.753680088837627e-05,7.392164643491247e-14
	1.903894682377274e-05,-7.507807842414563e-14
	2.206634546079322e-05,2.270167708668709e-13
	-2.001962706040050e-05,-3.918980612371865e-14
	-2.108566522416546e-05,-1.127488863190067e-13
	-1.903894682377274e-05,7.507807842414563e-14
	-2.206634545931507e-05,-2.270167708668709e-13
	-1.903894682377274e-05,7.507807842414563e-14
3		1.071519305237606e+00,0.000000000000000e+00
	-1.903894682377274e-01,7.682687152533311e-10
	1.000000000000000e+00,0.000000000000000e+00
	0.000000000000000e+00,0.000000000000000e+00
	3.753679946045645e-05,7.202619187149489e-14
	3.753680088837627e-05,7.564350277470152e-14
	1.903894682377274e-05,-7.682687152533311e-14
	2.206634546079322e-05,2.323046707582747e-13
	-2.001962706040050e-05,-4.010265397524267e-14
	-2.108566522416546e-05,-1.153751452576989e-13
	-1.903894682377274e-05,7.682687152533311e-14
	-2.206634545931507e-05,-2.323046707582747e-13
	-1.903894682377274e-05,7.682687152533311e-14
4		1.096478196143185e+00,0.000000000000000e+00
	-1.903894682377274e-01,7.861639925072716e-10
	1.000000000000000e+00,0.000000000000000e+00
	0.000000000000000e+00,0.000000000000000e+00
	3.753679946045645e-05,7.370389740276971e-14
	3.753680088837627e-05,7.740546630092181e-14
	1.903894682377274e-05,-7.861639925072717e-14
	2.206634546079322e-05,2.377157416610303e-13
	-2.001962706040050e-05,-4.103676478472574e-14
	-2.108566522416546e-05,-1.180625776255773e-13
	-1.903894682377274e-05,7.861639925072717e-14
	-2.206634545931507e-05,-2.377157416610303e-13
	-1.903894682377274e-05,7.861639925072717e-14
5		1.122018454301963e+00,0.000000000000000e+00
	-1.903894682377274e-01,8.044761043161504e-10
	1.000000000000000e+00,0.000000000000000e+00
	0.000000000000000e+00,0.000000000000000e+00
	3.753679946045645e-05,7.542068171603395e-14
	3.753680088837627e-05,7.920847122995741e-14
	1.903894682377274e-05,-8.044761043161505e-14
	2.206634546079322e-05,2.432528525965544e-13
	-2.001962706040050e-05,-4.199263383008350e-14
	-2.108566522416546e-05,-1.208126083348559e-13
	-1.903894682377274e-05,8.044761043161503e-14
	-2.206634545931507e-05,-2.432528525965544e-13
	-1.903894682377274e-05,8.044761043161503e-14
6		1.148153621496882e+00,0.000000000000000e+00
	-1.903894682377274e-01,8.232147600040376e-10
	1.000000000000000e+00,0.000000000000000e+00
	0.000000000000000e+00,0.000000000000000e+00
	3.753679946045645e-05,7.717745507305472e-14
	3.753680088837627e-05,8.105347353888712e-14
	1.903894682377274e-05,-8.232147600040378e-14
	2.206634546079322e-05,2.489189394143574e-13
	-2.001962706040050e-05,-4.297076792573615e-14
	-2.108566522416546e-05,-1.236266954882174e-13
	-1.903894682377274e-05,8.232147600040377e-14
	-2.206634545931507e-05,-2.489189394143573e-13
	-1.903894682377274e-05,8.232147600040377e-14
7		1.174897554939529e+00,0.000000000000000e+00
	-1.903894682377274e-01,8.423898950542145e-10
	1.000000000000000e+00,0.000000000000000e+00
	0.000000000000000e+00,0.000000000000000e+00
	3.753679946045645e-05,7.897514893831964e-14
	3.753680088837627e-05,8.294145147235672e-14
	1.903894682377274e-05,-8.423898950542147e-14
	2.206634546079322e-05,2.547170063486695e-13
	-2.001962706040050e-05,-4.397168569132842e-14
	-2.108566522416546e-05,-1.265063311519196e-13
	-1.903894682377274e-05,8.423898950542145e-14
	-2.206634545931507e-05,-2.547170063486694e-13
	-1.903894682377274e-05,8.423898950542145e-14
8		1.202264434617413e+00,0.000000000000000e+00
	-1.903894682377274e-01,8.620116763770976e-10
	1.000000000000000e+00,0.000000000000000e+00
	0.000000000000000e+00,0.000000000000000e+00
	3.753679946045645e-05,8.081471647291132e-14
	3.753680088837627e-05,8.487340606125687e-14
	1.903894682377274e-05,-8.620116763770978e-14
	2.206634546079322e-05,2.606501276113259e-13
	-2.001962706040050e-05,-4.499591782670827e-14
	-2.108566522416546e-05,-1.294530421469078e-13
	-1.903894682377274e-05,8.620116763770977e-14
	-2.206634545931507e-05,-2.606501276113258e-13
	-1.903894682377274e-05,8.620116763770977e-14
9		1.230268770812381e+00,0.000000000000000e+00
	-1.903894682377274e-01,8.820905077008693e-10
	1.000000000000000e+00,0.000000000000000e+00
	0.000000000000000e+00,0.000000000000000e+00
	3.753679946045645e-05,8.269713303988617e-14
	3.753680088837627e-05,8.685036165348302e-14
	1.903894682377274e-05,-8.820905077008694e-14
	2.206634546079322e-05,2.667214490217540e-13
	-2.001962706040050e-05,-4.604400739331123e-14
	-2.108566522416546e-05,-1.324683908583559e-13
	-1.903894682377274e-05,8.820905077008693e-14
	-2.206634545931507e-05,-2.667214490217539e-13
	-1.903894682377274e-05,8.820905077008693e-14
10		1.258925411794167e+00,0.000000000000000e+00
	-1.903894682377274e-01,9.026370350876721e-10
	1.000000000000000e+00,0.000000000000000e+00
	0.000000000000000e+00,0.000000000000000e+00
	3.753679946045645e-05,8.462339672142474e-14
	3.753680088837627e-05,8.887336645705831e-14
	1.903894682377274e-05,-9.026370350876723e-14
	2.206634546079322e-05,2.729341896749293e-13
	-2.001962706040050e-05,-4.711651010209861e-14
	-2.108566522416546e-05,-1.355539760640635e-13
	-1.903894682377274e-05,9.026370350876721e-14
	-2.206634545931507e-05,-2.729341896749294e-13
	-1.903894682377274e-05,9.026370350876721e-14
11		1.288249551693134e+00,0.000000000000000e+00
	-1.903894682377274e-01,9.236621525782920e-10
	1.000000000000000e+00,0.000000000000000e+00
	0.000000000000000e+00,0.000000000000000e+00
	3.753679946045645e-05,8.659452884802810e-14
	3.753680088837627e-05,9.094349309590723e-14
	1.903894682377274e-05,-9.236621525782922e-14
	2.206634546079322e-05,2.792916436481814e-13
	-2.001962706040050e-05,-4.821399460820288e-14
	-2.108566522416546e-05,-1.387114337821493e-13
	-1.903894682377274e-05,9.236621525782921e-14
	-2.206634545931507e-05,-2.792916436481814e-13
	-1.903894682377274e-05,9.236621525782921e-14
12		1.318256738556407e+00,0.000000000000000e+00
	-1.903894682377274e-01,9.451770079683230e-10
	1.000000000000000e+00,0.000000000000000e+00
	0.000000000000000e+00,0.000000000000000e+00
	3.753679946045645e-05,8.861157454004074e-14
	3.753680088837627e-05,9.306183917857500e-14
	1.903894682377274e-05,-9.451770079683232e-14
	2.206634546079322e-05,2.857971817477576e-13
	-2.001962706040050e-05,-4.933704281243607e-14
	-2.108566522416546e-05,-1.419424381384892e-13
	-1.903894682377274e-05,9.451770079683231e-14
	-2.206634545931507e-05,-2.857971817477575e-13
	-1.903894682377274e-05,9.451770079683231e-14
13		1.348962882591653e+00,0.000000000000000e+00
	-1.903894682377274e-01,9.671930087188755e-10
	1.000000000000000e+00,0.000000000000000e+00
	0.000000000000000e+00,0.000000000000000e+00
	3.753679946045645e-05,9.067560326178739e-14
	3.753680088837627e-05,9.522952788019433e-14
	1.903894682377274e-05,-9.671930087188756e-14
	2.206634546079322e-05,2.924542532960693e-13
	-2.001962706040050e-05,-5.048625016982138e-14
	-2.108566522416546e-05,-1.452487022543604e-13
	-1.903894682377274e-05,9.671930087188756e-14
	-2.206634545931507e-05,-2.924542532960694e-13
	-1.903894682377274e-05,9.671930087188756e-14
14		1.380384264602885e+00,0.000000000000000e+00
	-1.903894682377274e-01,9.897218280049637e-10
	1.000000000000000e+00,0.000000000000000e+00
	0.000000000000000e+00,0.000000000000000e+00
	3.753679946045645e-05,9.278770938861694e-14
	3.753680088837627e-05,9.744770853800757e-14
	1.903894682377274e-05,-9.897218280049638e-14
	2.206634546079322e-05,2.992663879605684e-13
	-2.001962706040050e-05,-5.166222600531126e-14
	-2.108566522416546e-05,-1.486319791547608e-13
	-1.903894682377274e-05,9.897218280049637e-14
	-2.206634545931507e-05,-2.992663879605684e-13
	-1.903894682377274e-05,9.897218280049637e-14
15		1.412537544622754e+00,0.000000000000000e+00
	-1.903894682377274e-01,1.012775410904777e-09
	1.000000000000000e+00,0.000000000000000e+00
	0.000000000000000e+00,0.000000000000000e+00
	3.753679946045645e-05,9.494901278715485e-14
	3.753680088837627e-05,9.971755726076054e-14
	1.903894682377274e-05,-1.012775410904777e-13
	2.206634546079322e-05,3.062371976252231e-13
	-2.001962706040050e-05,-5.286559383685954e-14
	-2.108566522416546e-05,-1.520940626978859e-13
	-1.903894682377274e-05,1.012775410904777e-13
	-2.206634545931507e-05,-3.062371976252231e-13
	-1.903894682377274e-05,1.012775410904777e-13
16		1.445439770745927e+00,0.000000000000000e+00
	-1.903894682377274e-01,1.036365980733119e-09
	1.000000000000000e+00,0.000000000000000e+00
	0.000000000000000e+00,0.000000000000000e+00
	3.753679946045645e-05,9.716065940907126e-14
	3.753680088837627e-05,1.020402775522911e-13
	1.903894682377274e-05,-1.036365980733120e-13
	2.206634546079322e-05,3.133703783055872e-13
	-2.001962706040050e-05,-5.409699170601898e-14
	-2.108566522416546e-05,-1.556367885262563e-13
	-1.903894682377274e-05,1.036365980733119e-13
	-2.206634545931507e-05,-3.133703783055871e-13
	-1.903894682377274e-05,1.036365980733119e-13
17		1.479108388168207e+00,0.000000000000000e+00
	-1.903894682377274e-01,1.060506045522372e-09
	1.000000000000000e+00,0.000000000000000e+00
	0.000000000000000e+00,0.000000000000000e+00
	3.753679946045645e-05,9.942382189867973e-14
	3.753680088837627e-05,1.044171009496426e-13
	1.903894682377274e-05,-1.060506045522372e-13
	2.206634546079322e-05,3.206697121084762e-13
	-2.001962706040050e-05,-5.535707251623930e-14
	-2.108566522416546e-05,-1.592620350399997e-13
	-1.903894682377274e-05,1.060506045522372e-13
	-2.206634545931507e-05,-3.206697121084762e-13
	-1.903894682377274e-05,1.060506045522372e-13
18		1.513561248436208e+00,0.000000000000000e+00
	-1.903894682377274e-01,1.085208404654418e-09
	1.000000000000000e+00,0.000000000000000e+00
	0.000000000000000e+00,0.000000000000000e+00
	3.753679946045645e-05,1.017397002146888e-13
	3.753680088837627e-05,1.068492876760414e-13
	1.903894682377274e-05,-1.085208404654418e-13
	2.206634546079322e-05,3.281390692372905e-13
	-2.001962706040050e-05,-5.664650437904522e-14
	-2.108566522416546e-05,-1.629717243928036e-13
	-1.903894682377274e-05,1.085208404654418e-13
	-2.206634545931507e-05,-3.281390692372906e-13
	-1.903894682377274e-05,1.085208404654418e-13
19		1.548816618912481e+00,0.000000000000000e+00
	-1.903894682377274e-01,1.110486155647043e-09
	1.000000000000000e+00,0.000000000000000e+00
	0.000000000000000e+00,0.000000000000000e+00
	3.753679946045645e-05,1.041095222664357e-13
	3.753680088837627e-05,1.093381273090835e-13
	1.903894682377274e-05,-1.110486155647043e-13
	2.206634546079322e-05,3.357824100440486e-13
	-2.001962706040050e-05,-5.796597096827801e-14
	-2.108566522416546e-05,-1.667678235110663e-13
	-1.903894682377274e-05,1.110486155647043e-13
	-2.206634545931507e-05,-3.357824100440486e-13
	-1.903894682377274e-05,1.110486155647043e-13
20		1.584893192461113e+00,0.000000000000000e+00
	-1.903894682377274e-01,1.136352701098413e-09
	1.000000000000000e+00,0.000000000000000e+00
	0.000000000000000e+00,0.000000000000000e+00
	3.753679946045645e-05,1.065345445649408e-13
	3.753680088837627e-05,1.118849394644860e-13
	1.903894682377274e-05,-1.136352701098414e-13
	2.206634546079322e-05,3.436037871292176e-13
	-2.001962706040050e-05,-5.931617188258852e-14
	-2.108566522416546e-05,-1.706523451367878e-13
	-1.903894682377274e-05,1.136352701098414e-13
	-2.206634545931507e-05,-3.436037871292176e-13
	-1.903894682377274e-05,1.136352701098414e-13
21		1.621810097358929e+00,0.000000000000000e+00
	-1.903894682377274e-01,1.162821755793313e-09
	1.000000000000000e+00,0.000000000000000e+00
	0.000000000000000e+00,0.000000000000000e+00
	3.753679946045645e-05,1.090160528891256e-13
	3.753680088837627e-05,1.144910744957650e-13
	1.903894682377274e-05,-1.162821755793313e-13
	2.206634546079322e-05,3.516073474904564e-13
	-2.001962706040050e-05,-6.069782301637355e-14
	-2.108566522416546e-05,-1.746273488947516e-13
	-1.903894682377274e-05,1.162821755793313e-13
	-2.206634545931507e-05,-3.516073474904563e-13
	-1.903894682377274e-05,1.162821755793313e-13
22		1.659586907437560e+00,0.000000000000000e+00
	-1.903894682377274e-01,1.189907353974899e-09
	1.000000000000000e+00,0.000000000000000e+00
	0.000000000000000e+00,0.000000000000000e+00
	3.753679946045645e-05,1.115553629675503e-13
	3.753680088837627e-05,1.171579142102101e-13
	1.903894682377274e-05,-1.189907353974900e-13
	2.206634546079322e-05,3.597973347214081e-13
	-2.001962706040050e-05,-6.211165693935252e-14
	-2.108566522416546e-05,-1.786949423845656e-13
	-1.903894682377274e-05,1.189907353974899e-13
	-2.206634545931507e-05,-3.597973347214081e-13
	-1.903894682377274e-05,1.189907353974899e-13
23		1.698243652461743e+00,0.000000000000000e+00
	-1.903894682377274e-01,1.217623856785850e-09
	1.000000000000000e+00,0.000000000000000e+00
	0.000000000000000e+00,0.000000000000000e+00
	3.753679946045645e-05,1.141538211760302e-13
	3.753680088837627e-05,1.198868726015377e-13
	1.903894682377274e-05,-1.217623856785850e-13
	2.206634546079322e-05,3.681780912617097e-13
	-2.001962706040050e-05,-6.355842328498570e-14
	-2.108566522416546e-05,-1.828572822981391e-13
	-1.903894682377274e-05,1.217623856785850e-13
	-2.206634545931507e-05,-3.681780912617097e-13
	-1.903894682377274e-05,1.217623856785850e-13
24		1.737800828749374e+00,0.000000000000000e+00
	-1.903894682377274e-01,1.245985959882824e-09
	1.000000000000000e+00,0.000000000000000e+00
	0.000000000000000e+00,0.000000000000000e+00
	3.753679946045645e-05,1.168128052515020e-13
	3.753680088837627e-05,1.226793965996091e-13
	1.903894682377274e-05,-1.245985959882824e-13
	2.206634546079322e-05,3.767540606994114e-13
	-2.001962706040050e-05,-6.503888914793977e-14
	-2.108566522416546e-05,-1.871165755631892e-13
	-1.903894682377274e-05,1.245985959882824e-13
	-2.206634545931507e-05,-3.767540606994114e-13
	-1.903894682377274e-05,1.245985959882824e-13
25		1.778279410038922e+00,0.000000000000000e+00
	-1.903894682377274e-01,1.275008701228303e-09
	1.000000000000000e+00,0.000000000000000e+00
	0.000000000000000e+00,0.000000000000000e+00
	3.753679946045645e-05,1.195337250225185e-13
	3.753680088837627e-05,1.255369668376114e-13
	1.903894682377274e-05,-1.275008701228303e-13
	2.206634546079322e-05,3.855297901270257e-13
	-2.001962706040050e-05,-6.655383949081157e-14
	-2.108566522416546e-05,-1.914750805133838e-13
	-1.903894682377274e-05,1.275008701228303e-13
	-2.206634545931507e-05,-3.855297901270256e-13
	-1.903894682377274e-05,1.275008701228303e-13
26		1.819700858609982e+00,0.000000000000000e+00
	-1.903894682377274e-01,1.304707469063908e-09
	1.000000000000000e+00,0.000000000000000e+00
	0.000000000000000e+00,0.000000000000000e+00
	3.753679946045645e-05,1.223180231567578e-13
	3.753680088837627e-05,1.284610984371091e-13
	1.903894682377274e-05,-1.304707469063908e-13
	2.206634546079322e-05,3.945099325524551e-13
	-2.001962706040050e-05,-6.810407756032558e-14
	-2.108566522416546e-05,-1.959351080857388e-13
	-1.903894682377274e-05,1.304707469063908e-13
	-2.206634545931507e-05,-3.945099325524551e-13
	-1.903894682377274e-05,1.304707469063908e-13
27		1.862087136662866e+00,0.000000000000000e+00
	-1.903894682377274e-01,1.335098010069456e-09
	1.000000000000000e+00,0.000000000000000e+00
	0.000000000000000e+00,0.000000000000000e+00
	3.753679946045645e-05,1.251671759259453e-13
	3.753680088837627e-05,1.314533418113819e-13
	1.903894682377274e-05,-1.335098010069456e-13
	2.206634546079322e-05,4.036992493660803e-13
	-2.001962706040050e-05,-6.969042531322612e-14
	-2.108566522416546e-05,-2.004990230459086e-13
	-1.903894682377274e-05,1.335098010069456e-13
	-2.206634545931507e-05,-4.036992493660803e-13
	-1.903894682377274e-05,1.335098010069456e-13
28		1.905460717963246e+00,0.000000000000000e+00
	-1.903894682377274e-01,1.366196437712054e-09
	1.000000000000000e+00,0.000000000000000e+00
	0.000000000000000e+00,0.000000000000000e+00
	3.753679946045645e-05,1.280826939885921e-13
	3.753680088837627e-05,1.345152834874737e-13
	1.903894682377274e-05,-1.366196437712054e-13
	2.206634546079322e-05,4.131026128653106e-13
	-2.001962706040050e-05,-7.131372385208954e-14
	-2.108566522416546e-05,-2.051692452420157e-13
	-1.903894682377274e-05,1.366196437712054e-13
	-2.206634545931507e-05,-4.131026128653106e-13
	-1.903894682377274e-05,1.366196437712054e-13
29		1.949844599758044e+00,0.000000000000000e+00
	-1.903894682377274e-01,1.398019240789675e-09
	1.000000000000000e+00,0.000000000000000e+00
	0.000000000000000e+00,0.000000000000000e+00
	3.753679946045645e-05,1.310661231909666e-13
	3.753680088837627e-05,1.376485469473909e-13
	1.903894682377274e-05,-1.398019240789675e-13
	2.206634546079322e-05,4.227250088379417e-13
	-2.001962706040050e-05,-7.297483387128813e-14
	-2.108566522416546e-05,-2.099482508876861e-13
	-1.903894682377274e-05,1.398019240789675e-13
	-2.206634545931507e-05,-4.227250088379416e-13
	-1.903894682377274e-05,1.398019240789675e-13
30		1.995262314968878e+00,0.000000000000000e+00
	-1.903894682377274e-01,1.430583292173734e-09
	1.000000000000000e+00,0.000000000000000e+00
	0.000000000000000e+00,0.000000000000000e+00
	3.753679946045645e-05,1.341190453867221e-13
	3.753680088837627e-05,1.408547934888935e-13
	1.903894682377274e-05,-1.430583292173734e-13
	2.206634546079322e-05,4.325715392056855e-13
	-2.001962706040050e-05,-7.467463611334135e-14
	-2.108566522416546e-05,-2.148385738749708e-13
	-1.903894682377274e-05,1.430583292173734e-13
	-2.206634545931507e-05,-4.325715392056856e-13
	-1.903894682377274e-05,1.430583292173734e-13
31		2.041737944669527e+00,0.000000000000000e+00
	-1.903894682377274e-01,1.463905857755312e-09
	1.000000000000000e+00,0.000000000000000e+00
	0.000000000000000e+00,0.000000000000000e+00
	3.753679946045645e-05,1.372430792756172e-13
	3.753680088837627e-05,1.441357231063375e-13
	1.903894682377274e-05,-1.463905857755313e-13
	2.206634546079322e-05,4.426474247292774e-13
	-2.001962706040050e-05,-7.641403183589753e-14
	-2.108566522416546e-05,-2.198428071178487e-13
	-1.903894682377274e-05,1.463905857755312e-13
	-2.206634545931507e-05,-4.426474247292774e-13
	-1.903894682377274e-05,1.463905857755312e-13
32		2.089296130854037e+00,0.000000000000000e+00
	-1.903894682377274e-01,1.498004605599758e-09
	1.000000000000000e+00,0.000000000000000e+00
	0.000000000000000e+00,0.000000000000000e+00
	3.753679946045645e-05,1.404398812617710e-13
	3.753680088837627e-05,1.474930753920344e-13
