Title: * GA CMOS Amp | W=2.5011789908262757e-06 L=1e-06 Vbias=0.8447063264805539
Date: Mon Sep  8 18:46:50 2025
Plotname: AC Analysis
Flags: complex forward log
No. Variables: 11
No. Points:          901
Offset:    0.0000000000000000e+00
Command: Linear Technology Corporation LTspice
Variables:
	0	frequency	frequency
	1	V(out)	voltage
	2	V(g)	voltage
	3	V(vdd)	voltage
	4	Id(M1)	device_current
	5	Ig(M1)	device_current
	6	Ib(M1)	device_current
	7	Is(M1)	device_current
	8	I(Rload)	device_current
	9	I(Vg)	device_current
	10	I(Vdd)	device_current
Values:
0		1.000000000000000e+00,0.000000000000000e+00
	-4.717739139416022e-02,3.290914862142444e-11
	1.000000000000000e+00,0.000000000000000e+00
	0.000000000000000e+00,0.000000000000000e+00
	4.717739139416022e-06,-3.290914862142445e-15
	1.034358965405931e-25,2.197689451667781e-14
	4.717739142189948e-14,-1.071147746159762e-15
	-4.717739186593414e-06,-1.761483190837560e-14
	-4.717739139416022e-06,3.290914862142444e-15
	-1.034358965405931e-25,-2.197689451667781e-14
	-4.717739139416022e-06,3.290914862142444e-15
1		1.023292992280754e+00,0.000000000000000e+00
	-4.717739139416022e-02,3.367570116622948e-11
	1.000000000000000e+00,0.000000000000000e+00
	0.000000000000000e+00,0.000000000000000e+00
	4.717739139416022e-06,-3.367570116622948e-15
	1.083106801608943e-25,2.248880215100973e-14
	4.717739142189948e-14,-1.096097982342606e-15
	-4.717739186593414e-06,-1.802513405204418e-14
	-4.717739139416022e-06,3.367570116622948e-15
	-1.083106801608943e-25,-2.248880215100973e-14
	-4.717739139416022e-06,3.367570116622948e-15
2		1.047128548050899e+00,0.000000000000000e+00
	-4.717739139416022e-02,3.446010901354344e-11
	1.000000000000000e+00,0.000000000000000e+00
	0.000000000000000e+00,0.000000000000000e+00
	4.717739139416022e-06,-3.446010901354344e-15
	1.134152052552826e-25,2.301263364591660e-14
	4.717739142189948e-14,-1.121629384184263e-15
	-4.717739186593414e-06,-1.844499336037800e-14
	-4.717739139416022e-06,3.446010901354344e-15
	-1.134152052552826e-25,-2.301263364591660e-14
	-4.717739139416022e-06,3.446010901354344e-15
3		1.071519305237606e+00,0.000000000000000e+00
	-4.717739139416022e-02,3.526278806678985e-11
	1.000000000000000e+00,0.000000000000000e+00
	0.000000000000000e+00,0.000000000000000e+00
	4.717739139416022e-06,-3.526278806678986e-15
	1.187602992058588e-25,2.354866674379076e-14
	4.717739142189948e-14,-1.147755488771934e-15
	-4.717739186593414e-06,-1.887463244833984e-14
	-4.717739139416022e-06,3.526278806678985e-15
	-1.187602992058588e-25,-2.354866674379076e-14
	-4.717739139416022e-06,3.526278806678985e-15
4		1.096478196143185e+00,0.000000000000000e+00
	-4.717739139416022e-02,3.608416391702744e-11
	1.000000000000000e+00,0.000000000000000e+00
	0.000000000000000e+00,0.000000000000000e+00
	4.717739139416022e-06,-3.608416391702745e-15
	1.243572996735213e-25,2.409718565647592e-14
	4.717739142189948e-14,-1.174490148512091e-15
	-4.717739186593414e-06,-1.931427911626109e-14
	-4.717739139416022e-06,3.608416391702745e-15
	-1.243572996735213e-25,-2.409718565647592e-14
	-4.717739139416022e-06,3.608416391702745e-15
5		1.122018454301963e+00,0.000000000000000e+00
	-4.717739139416022e-02,3.692467206860424e-11
	1.000000000000000e+00,0.000000000000000e+00
	0.000000000000000e+00,0.000000000000000e+00
	4.717739139416022e-06,-3.692467206860424e-15
	1.302180786466650e-25,2.465848121596012e-14
	4.717739142189948e-14,-1.201847538475202e-15
	-4.717739186593414e-06,-1.976416647062449e-14
	-4.717739139416022e-06,3.692467206860425e-15
	-1.302180786466650e-25,-2.465848121596012e-14
	-4.717739139416022e-06,3.692467206860425e-15
6		1.148153621496882e+00,0.000000000000000e+00
	-4.717739139416022e-02,3.778475817006762e-11
	1.000000000000000e+00,0.000000000000000e+00
	0.000000000000000e+00,0.000000000000000e+00
	4.717739139416022e-06,-3.778475817006762e-15
	1.363550676232602e-25,2.523285102857860e-14
	4.717739142189948e-14,-1.229842163911553e-15
	-4.717739186593414e-06,-2.022453304766029e-14
	-4.717739139416022e-06,3.778475817006763e-15
	-1.363550676232602e-25,-2.523285102857860e-14
	-4.717739139416022e-06,3.778475817006763e-15
7		1.174897554939529e+00,0.000000000000000e+00
	-4.717739139416022e-02,3.866487825045316e-11
	1.000000000000000e+00,0.000000000000000e+00
	0.000000000000000e+00,0.000000000000000e+00
	4.717739139416022e-06,-3.866487825045316e-15
	1.427812839797266e-25,2.582059963280870e-14
	4.717739142189948e-14,-1.258488867942091e-15
	-4.717739186593414e-06,-2.069562293982129e-14
	-4.717739139416022e-06,3.866487825045316e-15
	-1.427812839797266e-25,-2.582059963280870e-14
	-4.717739139416022e-06,3.866487825045316e-15
8		1.202264434617413e+00,0.000000000000000e+00
	-4.717739139416022e-02,3.956549896107727e-11
	1.000000000000000e+00,0.000000000000000e+00
	0.000000000000000e+00,0.000000000000000e+00
	4.717739139416022e-06,-3.956549896107727e-15
	1.495103585825343e-25,2.642203866074016e-14
	4.717739142189948e-14,-1.287802839428475e-15
	-4.717739186593414e-06,-2.117768592520395e-14
	-4.717739139416022e-06,3.956549896107727e-15
	-1.495103585825343e-25,-2.642203866074016e-14
	-4.717739139416022e-06,3.956549896107727e-15
9		1.230268770812381e+00,0.000000000000000e+00
	-4.717739139416022e-02,4.048709782296182e-11
	1.000000000000000e+00,0.000000000000000e+00
	0.000000000000000e+00,0.000000000000000e+00
	4.717739139416022e-06,-4.048709782296182e-15
	1.565565647010985e-25,2.703748700330656e-14
	4.717739142189948e-14,-1.317799621026419e-15
	-4.717739186593414e-06,-2.167097759998396e-14
	-4.717739139416022e-06,4.048709782296183e-15
	-1.565565647010985e-25,-2.703748700330656e-14
	-4.717739139416022e-06,4.048709782296183e-15
10		1.258925411794167e+00,0.000000000000000e+00
	-4.717739139416022e-02,4.143016348002221e-11
	1.000000000000000e+00,0.000000000000000e+00
	0.000000000000000e+00,0.000000000000000e+00
	4.717739139416022e-06,-4.143016348002221e-15
	1.639348482832979e-25,2.766727097936557e-14
	4.717739142189948e-14,-1.348495117426568e-15
	-4.717739186593414e-06,-2.217575951393678e-14
	-4.717739139416022e-06,4.143016348002221e-15
	-1.639348482832979e-25,-2.766727097936557e-14
	-4.717739139416022e-06,4.143016348002221e-15
11		1.288249551693134e+00,0.000000000000000e+00
	-4.717739139416022e-02,4.239519595815275e-11
	1.000000000000000e+00,0.000000000000000e+00
	0.000000000000000e+00,0.000000000000000e+00
	4.717739139416022e-06,-4.239519595815276e-15
	1.716608596578343e-25,2.831172450871747e-14
	4.717739142189948e-14,-1.379905603787417e-15
	-4.717739186593414e-06,-2.269229930911478e-14
	-4.717739139416022e-06,4.239519595815276e-15
	-1.716608596578343e-25,-2.831172450871747e-14
	-4.717739139416022e-06,4.239519595815276e-15
12		1.318256738556407e+00,0.000000000000000e+00
	-4.717739139416022e-02,4.338270693034706e-11
	1.000000000000000e+00,0.000000000000000e+00
	0.000000000000000e+00,0.000000000000000e+00
	4.717739139416022e-06,-4.338270693034706e-15
	1.797509867306772e-25,2.897118928915386e-14
	4.717739142189948e-14,-1.412047734364611e-15
	-4.717739186593414e-06,-2.322087086175455e-14
	-4.717739139416022e-06,4.338270693034706e-15
	-1.797509867306772e-25,-2.897118928915386e-14
	-4.717739139416022e-06,4.338270693034706e-15
13		1.348962882591653e+00,0.000000000000000e+00
	-4.717739139416022e-02,4.439321998799385e-11
	1.000000000000000e+00,0.000000000000000e+00
	0.000000000000000e+00,0.000000000000000e+00
	4.717739139416022e-06,-4.439321998799385e-15
	1.882223897460106e-25,2.964601497763039e-14
	4.717739142189948e-14,-1.444938551341219e-15
	-4.717739186593414e-06,-2.376175442748978e-14
	-4.717739139416022e-06,4.439321998799385e-15
	-1.882223897460106e-25,-2.964601497763039e-14
	-4.717739139416022e-06,4.439321998799385e-15
14		1.380384264602885e+00,0.000000000000000e+00
	-4.717739139416022e-02,4.542727091849202e-11
	1.000000000000000e+00,0.000000000000000e+00
	0.000000000000000e+00,0.000000000000000e+00
	4.717739139416022e-06,-4.542727091849201e-15
	1.970930376854106e-25,3.033655937565946e-14
	4.717739142189948e-14,-1.478595493863778e-15
	-4.717739186593414e-06,-2.431523678994648e-14
	-4.717739139416022e-06,4.542727091849202e-15
	-1.970930376854106e-25,-3.033655937565946e-14
	-4.717739139416022e-06,4.542727091849202e-15
15		1.412537544622754e+00,0.000000000000000e+00
	-4.717739139416022e-02,4.648540798933218e-11
	1.000000000000000e+00,0.000000000000000e+00
	0.000000000000000e+00,0.000000000000000e+00
	4.717739139416022e-06,-4.648540798933218e-15
	2.063817463824652e-25,3.104318861902133e-14
	4.717739142189948e-14,-1.513036407288701e-15
	-4.717739186593414e-06,-2.488161141279941e-14
	-4.717739139416022e-06,4.648540798933218e-15
	-2.063817463824652e-25,-3.104318861902133e-14
	-4.717739139416022e-06,4.648540798933218e-15
16		1.445439770745927e+00,0.000000000000000e+00
	-4.717739139416022e-02,4.756819223879539e-11
	1.000000000000000e+00,0.000000000000000e+00
	0.000000000000000e+00,0.000000000000000e+00
	4.717739139416022e-06,-4.756819223879538e-15
	2.161082184336797e-25,3.176627737189418e-14
	4.717739142189948e-14,-1.548279552644175e-15
	-4.717739186593414e-06,-2.546117859537047e-14
	-4.717739139416022e-06,4.756819223879539e-15
	-2.161082184336797e-25,-3.176627737189418e-14
	-4.717739139416022e-06,4.756819223879539e-15
17		1.479108388168207e+00,0.000000000000000e+00
	-4.717739139416022e-02,4.867619777342307e-11
	1.000000000000000e+00,0.000000000000000e+00
	0.000000000000000e+00,0.000000000000000e+00
	4.717739139416022e-06,-4.867619777342308e-15
	2.262930849903256e-25,3.250620902550601e-14
	4.717739142189948e-14,-1.584343616312367e-15
	-4.717739186593414e-06,-2.605424563185133e-14
	-4.717739139416022e-06,4.867619777342307e-15
	-2.262930849903256e-25,-3.250620902550601e-14
	-4.717739139416022e-06,4.867619777342307e-15
18		1.513561248436208e+00,0.000000000000000e+00
	-4.717739139416022e-02,4.981001207241588e-11
	1.000000000000000e+00,0.000000000000000e+00
	0.000000000000000e+00,0.000000000000000e+00
	4.717739139416022e-06,-4.981001207241589e-15
	2.369579495198785e-25,3.326337590141370e-14
	4.717739142189948e-14,-1.621247719937198e-15
	-4.717739186593414e-06,-2.666112697423492e-14
	-4.717739139416022e-06,4.981001207241589e-15
	-2.369579495198785e-25,-3.326337590141370e-14
	-4.717739139416022e-06,4.981001207241589e-15
19		1.548816618912481e+00,0.000000000000000e+00
	-4.717739139416022e-02,5.097023629912293e-11
	1.000000000000000e+00,0.000000000000000e+00
	0.000000000000000e+00,0.000000000000000e+00
	4.717739139416022e-06,-5.097023629912294e-15
	2.481254336298687e-25,3.403817945951716e-14
	4.717739142189948e-14,-1.659011430562886e-15
	-4.717739186593414e-06,-2.728214439904198e-14
	-4.717739139416022e-06,5.097023629912294e-15
	-2.481254336298687e-25,-3.403817945951716e-14
	-4.717739139416022e-06,5.097023629912294e-15
20		1.584893192461113e+00,0.000000000000000e+00
	-4.717739139416022e-02,5.215748561978662e-11
	1.000000000000000e+00,0.000000000000000e+00
	0.000000000000000e+00,0.000000000000000e+00
	4.717739139416022e-06,-5.215748561978662e-15
	2.598192250513443e-25,3.483103051091861e-14
	4.717739142189948e-14,-1.697654771008663e-15
	-4.717739186593414e-06,-2.791762717793128e-14
	-4.717739139416022e-06,5.215748561978662e-15
	-2.598192250513443e-25,-3.483103051091861e-14
	-4.717739139416022e-06,5.215748561978662e-15
21		1.621810097358929e+00,0.000000000000000e+00
	-4.717739139416022e-02,5.337238952971185e-11
	1.000000000000000e+00,0.000000000000000e+00
	0.000000000000000e+00,0.000000000000000e+00
	4.717739139416022e-06,-5.337238952971185e-15
	2.720641278837240e-25,3.564234943574014e-14
	4.717739142189948e-14,-1.737198230485157e-15
	-4.717739186593414e-06,-2.856791225228380e-14
	-4.717739139416022e-06,5.337238952971185e-15
	-2.720641278837240e-25,-3.564234943574014e-14
	-4.717739139416022e-06,5.337238952971185e-15
22		1.659586907437560e+00,0.000000000000000e+00
	-4.717739139416022e-02,5.461559218703283e-11
	1.000000000000000e+00,0.000000000000000e+00
	0.000000000000000e+00,0.000000000000000e+00
	4.717739139416022e-06,-5.461559218703284e-15
	2.848861152076182e-25,3.647256640601478e-14
	4.717739142189948e-14,-1.777662775457982e-15
	-4.717739186593414e-06,-2.923334441185351e-14
	-4.717739139416022e-06,5.461559218703283e-15
	-2.848861152076182e-25,-3.647256640601478e-14
	-4.717739139416022e-06,5.461559218703283e-15
23		1.698243652461743e+00,0.000000000000000e+00
	-4.717739139416022e-02,5.588775275425421e-11
	1.000000000000000e+00,0.000000000000000e+00
	0.000000000000000e+00,0.000000000000000e+00
	4.717739139416022e-06,-5.588775275425421e-15
	2.983123841772145e-25,3.732212161376937e-14
	4.717739142189948e-14,-1.819069860764504e-15
	-4.717739186593414e-06,-2.991427647757945e-14
	-4.717739139416022e-06,5.588775275425421e-15
	-2.983123841772145e-25,-3.732212161376937e-14
	-4.717739139416022e-06,5.588775275425421e-15
24		1.737800828749374e+00,0.000000000000000e+00
	-4.717739139416022e-02,5.718954574774773e-11
	1.000000000000000e+00,0.000000000000000e+00
	0.000000000000000e+00,0.000000000000000e+00
	4.717739139416022e-06,-5.718954574774774e-15
	3.123714137090887e-25,3.819146550442027e-14
	4.717739142189948e-14,-1.861441440989458e-15
	-4.717739186593414e-06,-3.061106948865604e-14
	-4.717739139416022e-06,5.718954574774773e-15
	-3.123714137090887e-25,-3.819146550442027e-14
	-4.717739139416022e-06,5.718954574774773e-15
25		1.778279410038922e+00,0.000000000000000e+00
	-4.717739139416022e-02,5.852166139538986e-11
	1.000000000000000e+00,0.000000000000000e+00
	0.000000000000000e+00,0.000000000000000e+00
	4.717739139416022e-06,-5.852166139538986e-15
	3.270930248898049e-25,3.908105901560542e-14
	4.717739142189948e-14,-1.904799982105492e-15
	-4.717739186593414e-06,-3.132409289396094e-14
	-4.717739139416022e-06,5.852166139538985e-15
	-3.270930248898049e-25,-3.908105901560542e-14
	-4.717739139416022e-06,5.852166139538985e-15
26		1.819700858609982e+00,0.000000000000000e+00
	-4.717739139416022e-02,5.988480600252957e-11
	1.000000000000000e+00,0.000000000000000e+00
	0.000000000000000e+00,0.000000000000000e+00
	4.717739139416022e-06,-5.988480600252957e-15
	3.425084442304380e-25,3.999137382157961e-14
	4.717739142189948e-14,-1.949168473385066e-15
	-4.717739186593414e-06,-3.205372474794159e-14
	-4.717739139416022e-06,5.988480600252957e-15
	-3.425084442304380e-25,-3.999137382157961e-14
	-4.717739139416022e-06,5.988480600252957e-15
27		1.862087136662866e+00,0.000000000000000e+00
	-4.717739139416022e-02,6.127970232648095e-11
	1.000000000000000e+00,0.000000000000000e+00
	0.000000000000000e+00,0.000000000000000e+00
	4.717739139416022e-06,-6.127970232648096e-15
	3.586503699021911e-25,4.092289258330242e-14
	4.717739142189948e-14,-1.994570439589511e-15
	-4.717739186593414e-06,-3.280035191106481e-14
	-4.717739139416022e-06,6.127970232648096e-15
	-3.586503699021911e-25,-4.092289258330242e-14
	-4.717739139416022e-06,6.127970232648096e-15
28		1.905460717963246e+00,0.000000000000000e+00
	-4.717739139416022e-02,6.270708995973858e-11
	1.000000000000000e+00,0.000000000000000e+00
	0.000000000000000e+00,0.000000000000000e+00
	4.717739139416022e-06,-6.270708995973858e-15
	3.755530410935993e-25,4.187610920435140e-14
	4.717739142189948e-14,-2.041029953442286e-15
	-4.717739186593414e-06,-3.356437025493526e-14
	-4.717739139416022e-06,6.270708995973859e-15
	-3.755530410935993e-25,-4.187610920435140e-14
	-4.717739139416022e-06,6.270708995973859e-15
29		1.949844599758044e+00,0.000000000000000e+00
	-4.717739139416022e-02,6.416772572211934e-11
	1.000000000000000e+00,0.000000000000000e+00
	0.000000000000000e+00,0.000000000000000e+00
	4.717739139416022e-06,-6.416772572211934e-15
	3.932523106364406e-25,4.285152909279639e-14
	4.717739142189948e-14,-2.088571648392607e-15
	-4.717739186593414e-06,-3.434618487219185e-14
	-4.717739139416022e-06,6.416772572211934e-15
	-3.932523106364406e-25,-4.285152909279639e-14
	-4.717739139416022e-06,6.416772572211934e-15
30		1.995262314968878e+00,0.000000000000000e+00
	-4.717739139416022e-02,6.566238406203820e-11
	1.000000000000000e+00,0.000000000000000e+00
	0.000000000000000e+00,0.000000000000000e+00
	4.717739139416022e-06,-6.566238406203820e-15
	4.117857210543972e-25,4.384966942917340e-14
	4.717739142189948e-14,-2.137220731676418e-15
	-4.717739186593414e-06,-3.514621029129316e-14
	-4.717739139416022e-06,6.566238406203820e-15
	-4.117857210543972e-25,-4.384966942917340e-14
	-4.717739139416022e-06,6.566238406203820e-15
31		2.041737944669527e+00,0.000000000000000e+00
	-4.717739139416022e-02,6.719185746713116e-11
	1.000000000000000e+00,0.000000000000000e+00
	0.000000000000000e+00,0.000000000000000e+00
	4.717739139416022e-06,-6.719185746713117e-15
	4.311925841957836e-25,4.487105944070074e-14
	4.717739142189948e-14,-2.187002997681626e-15
	-4.717739186593414e-06,-3.596487069630600e-14
	-4.717739139416022e-06,6.719185746713116e-15
	-4.311925841957836e-25,-4.487105944070074e-14
	-4.717739139416022e-06,6.719185746713116e-15
32		2.089296130854037e+00,0.000000000000000e+00
	-4.717739139416022e-02,6.875695688444258e-11
	1.000000000000000e+00,0.000000000000000e+00
	0.000000000000000e+00,0.000000000000000e+00
	4.717739139416022e-06,-6.875695688444258e-15
	4.515140646192462e-25,4.591624068188225e-14
	4.717739142189948e-14,-2.237944841624604e-15
	-4.717739186593414e-06,-3.680260015181339e-14
	-4.717739139416022e-06,6.875695688444258e-15
	-4.515140646192462e-25,-4.591624068188225e-14
	-4.717739139416022e-06,6.875695688444258e-15
33		2.137962089502230e+00,0.000000000000000e+00
	-4.717739139416022e-02,7.035851215040003e-11
	1.000000000000000e+00,0.000000000000000e+00
	0.000000000000000e+00,0.000000000000000e+00
	4.717739139416022e-06,-7.035851215040005e-15
	4.727932669093111e-25,4.698576732164658e-14
	4.717739142189948e-14,-2.290073273545325e-15
	-4.717739186593414e-06,-3.765984283306125e-14
	-4.717739139416022e-06,7.035851215040004e-15
	-4.727932669093111e-25,-4.698576732164658e-14
	-4.717739139416022e-06,7.035851215040004e-15
34		2.187761623949550e+00,0.000000000000000e+00
	-4.717739139416022e-02,7.199737243080465e-11
	1.000000000000000e+00,0.000000000000000e+00
	0.000000000000000e+00,0.000000000000000e+00
	4.717739139416022e-06,-7.199737243080466e-15
	4.950753271069884e-25,4.808020643717500e-14
	4.717739142189948e-14,-2.343415932628377e-15
	-4.717739186593414e-06,-3.853705326146616e-14
	-4.717739139416022e-06,7.199737243080466e-15
	-4.950753271069884e-25,-4.808020643717500e-14
	-4.717739139416022e-06,7.199737243080466e-15
35		2.238721138568337e+00,0.000000000000000e+00
	-4.717739139416022e-02,7.367440667106996e-11
	1.000000000000000e+00,0.000000000000000e+00
	0.000000000000000e+00,0.000000000000000e+00
	4.717739139416022e-06,-7.367440667106996e-15
	5.184075084493648e-25,4.920013831457318e-14
	4.717739142189948e-14,-2.398001101857682e-15
	-4.717739186593414e-06,-3.943469654560850e-14
	-4.717739139416022e-06,7.367440667106996e-15
	-5.184075084493648e-25,-4.920013831457318e-14
	-4.717739139416022e-06,7.367440667106996e-15
36		2.290867652767770e+00,0.000000000000000e+00
	-4.717739139416022e-02,7.539050405694834e-11
	1.000000000000000e+00,0.000000000000000e+00
	0.000000000000000e+00,0.000000000000000e+00
	4.717739139416022e-06,-7.539050405694833e-15
	5.428393016212678e-25,5.034615675654657e-14
	4.717739142189948e-14,-2.453857723012497e-15
	-4.717739186593414e-06,-4.035324862783924e-14
	-4.717739139416022e-06,7.539050405694835e-15
	-5.428393016212678e-25,-5.034615675654657e-14
	-4.717739139416022e-06,7.539050405694835e-15
37		2.344228815319919e+00,0.000000000000000e+00
	-4.717739139416022e-02,7.714657448598899e-11
	1.000000000000000e+00,0.000000000000000e+00
	0.000000000000000e+00,0.000000000000000e+00
	4.717739139416022e-06,-7.714657448598900e-15
	5.684225297316425e-25,5.151886939724244e-14
	4.717739142189948e-14,-2.511015412012698e-15
	-4.717739186593414e-06,-4.129319653663085e-14
	-4.717739139416022e-06,7.714657448598900e-15
	-5.684225297316425e-25,-5.151886939724244e-14
	-4.717739139416022e-06,7.714657448598900e-15
38		2.398832919019488e+00,0.000000000000000e+00
	-4.717739139416022e-02,7.894354904997776e-11
	1.000000000000000e+00,0.000000000000000e+00
	0.000000000000000e+00,0.000000000000000e+00
