Title: * GA CMOS Amp | W=3.370580557026196e-05 L=7.366671057465716e-07 Vbias=0.7499738555959611
Date: Mon Sep  8 18:47:13 2025
Plotname: AC Analysis
Flags: complex forward log
No. Variables: 11
No. Points:          901
Offset:    0.0000000000000000e+00
Command: Linear Technology Corporation LTspice
Variables:
	0	frequency	frequency
	1	V(out)	voltage
	2	V(g)	voltage
	3	V(vdd)	voltage
	4	Id(M1)	device_current
	5	Ig(M1)	device_current
	6	Ib(M1)	device_current
	7	Is(M1)	device_current
	8	I(Rload)	device_current
	9	I(Vg)	device_current
	10	I(Vdd)	device_current
Values:
0		1.000000000000000e+00,0.000000000000000e+00
	-1.157503589929987e+00,9.077539608649370e-10
	1.000000000000000e+00,0.000000000000000e+00
	0.000000000000000e+00,0.000000000000000e+00
	1.157503589929987e-04,-9.077539608649370e-14
	3.844879450948931e-23,2.700382174294435e-13
	1.157503590589262e-12,-5.476451406801010e-15
	-1.157503601505023e-04,-1.737863699361488e-13
	-1.157503589929987e-04,9.077539608649370e-14
	-3.844879450948931e-23,-2.700382174294435e-13
	-1.157503589929987e-04,9.077539608649370e-14
1		1.023292992280754e+00,0.000000000000000e+00
	-1.157503589929987e+00,9.288982668681880e-10
	1.000000000000000e+00,0.000000000000000e+00
	0.000000000000000e+00,0.000000000000000e+00
	1.157503589929987e-04,-9.288982668681881e-14
	4.026083036902895e-23,2.763282155435361e-13
	1.157503590589262e-12,-5.604014347145530e-15
	-1.157503601505023e-04,-1.778343745095718e-13
	-1.157503589929987e-04,9.288982668681881e-14
	-4.026083036902895e-23,-2.763282155435361e-13
	-1.157503589929987e-04,9.288982668681881e-14
2		1.047128548050899e+00,0.000000000000000e+00
	-1.157503589929987e+00,9.505350870279545e-10
	1.000000000000000e+00,0.000000000000000e+00
	0.000000000000000e+00,0.000000000000000e+00
	1.157503589929987e-04,-9.505350870279546e-14
	4.215826484764483e-23,2.827647265351462e-13
	1.157503590589262e-12,-5.734548610074839e-15
	-1.157503601505023e-04,-1.819766692222759e-13
	-1.157503589929987e-04,9.505350870279546e-14
	-4.215826484764483e-23,-2.827647265351462e-13
	-1.157503589929987e-04,9.505350870279546e-14
3		1.071519305237606e+00,0.000000000000000e+00
	-1.157503589929987e+00,9.726758934726826e-10
	1.000000000000000e+00,0.000000000000000e+00
	0.000000000000000e+00,0.000000000000000e+00
	1.157503589929987e-04,-9.726758934726826e-14
	4.414512265825961e-23,2.893511631275989e-13
	1.157503590589262e-12,-5.868123406582970e-15
	-1.157503601505023e-04,-1.862154503737477e-13
	-1.157503589929987e-04,9.726758934726826e-14
	-4.414512265825961e-23,-2.893511631275989e-13
	-1.157503589929987e-04,9.726758934726826e-14
4		1.096478196143185e+00,0.000000000000000e+00
	-1.157503589929987e+00,9.953324255510171e-10
	1.000000000000000e+00,0.000000000000000e+00
	0.000000000000000e+00,0.000000000000000e+00
	1.157503589929987e-04,-9.953324255510171e-14
	4.622561819267223e-23,2.960910175367573e-13
	1.157503590589262e-12,-6.004809559794983e-15
	-1.157503601505023e-04,-1.905529654218606e-13
	-1.157503589929987e-04,9.953324255510172e-14
	-4.622561819267223e-23,-2.960910175367573e-13
	-1.157503589929987e-04,9.953324255510172e-14
5		1.122018454301963e+00,0.000000000000000e+00
	-1.157503589929987e+00,1.018516696056161e-09
	1.000000000000000e+00,0.000000000000000e+00
	0.000000000000000e+00,0.000000000000000e+00
	1.157503589929987e-04,-1.018516696056162e-13
	4.840416446084813e-23,3.029878633226416e-13
	1.157503590589262e-12,-6.144679542518637e-15
	-1.157503601505023e-04,-1.949915141745068e-13
	-1.157503589929987e-04,1.018516696056161e-13
	-4.840416446084813e-23,-3.029878633226416e-13
	-1.157503589929987e-04,1.018516696056161e-13
6		1.148153621496882e+00,0.000000000000000e+00
	-1.157503589929987e+00,1.042240997595217e-09
	1.000000000000000e+00,0.000000000000000e+00
	0.000000000000000e+00,0.000000000000000e+00
	1.157503589929987e-04,-1.042240997595217e-13
	5.068538245150485e-23,3.100453572841781e-13
	1.157503590589262e-12,-6.287807515670284e-15
	-1.157503601505023e-04,-1.995334500089861e-13
	-1.157503589929987e-04,1.042240997595217e-13
	-5.068538245150485e-23,-3.100453572841781e-13
	-1.157503589929987e-04,1.042240997595217e-13
7		1.174897554939529e+00,0.000000000000000e+00
	-1.157503589929987e+00,1.066517909106887e-09
	1.000000000000000e+00,0.000000000000000e+00
	0.000000000000000e+00,0.000000000000000e+00
	1.157503589929987e-04,-1.066517909106887e-13
	5.307411093384880e-23,3.172672413980821e-13
	1.157503590589262e-12,-6.434269367595688e-15
	-1.157503601505023e-04,-2.041811811197977e-13
	-1.157503589929987e-04,1.066517909106887e-13
	-5.307411093384880e-23,-3.172672413980821e-13
	-1.157503589929987e-04,1.066517909106887e-13
8		1.202264434617413e+00,0.000000000000000e+00
	-1.157503589929987e+00,1.091360302531000e-09
	1.000000000000000e+00,0.000000000000000e+00
	0.000000000000000e+00,0.000000000000000e+00
	1.157503589929987e-04,-1.091360302531000e-13
	5.557541672125348e-23,3.246573448029038e-13
	1.157503590589262e-12,-6.584142754307366e-15
	-1.157503601505023e-04,-2.089371717954964e-13
	-1.157503589929987e-04,1.091360302531000e-13
	-5.557541672125348e-23,-3.246573448029038e-13
	-1.157503589929987e-04,1.091360302531000e-13
9		1.230268770812381e+00,0.000000000000000e+00
	-1.157503589929987e+00,1.116781349633377e-09
	1.000000000000000e+00,0.000000000000000e+00
	0.000000000000000e+00,0.000000000000000e+00
	1.157503589929987e-04,-1.116781349633376e-13
	5.819460541864984e-23,3.322195858292880e-13
	1.157503590589262e-12,-6.737507140658827e-15
	-1.157503601505023e-04,-2.138039437252915e-13
	-1.157503589929987e-04,1.116781349633377e-13
	-5.819460541864984e-23,-3.322195858292880e-13
	-1.157503589929987e-04,1.116781349633377e-13
10		1.258925411794167e+00,0.000000000000000e+00
	-1.157503589929987e+00,1.142794528989677e-09
	1.000000000000000e+00,0.000000000000000e+00
	0.000000000000000e+00,0.000000000000000e+00
	1.157503589929987e-04,-1.142794528989677e-13
	6.093723267642581e-23,3.399579740775249e-13
	1.157503590589262e-12,-6.894443842477747e-15
	-1.157503601505023e-04,-2.187840773360795e-13
	-1.157503589929987e-04,1.142794528989677e-13
	-6.093723267642581e-23,-3.399579740775249e-13
	-1.157503589929987e-04,1.142794528989677e-13
11		1.288249551693134e+00,0.000000000000000e+00
	-1.157503589929987e+00,1.169413633131922e-09
	1.000000000000000e+00,0.000000000000000e+00
	0.000000000000000e+00,0.000000000000000e+00
	1.157503589929987e-04,-1.169413633131922e-13
	6.380911597470560e-23,3.478766125434935e-13
	1.157503590589262e-12,-7.055036069680609e-15
	-1.157503601505023e-04,-2.238802131606207e-13
	-1.157503589929987e-04,1.169413633131922e-13
	-6.380911597470560e-23,-3.478766125434935e-13
	-1.157503589929987e-04,1.169413633131922e-13
12		1.318256738556407e+00,0.000000000000000e+00
	-1.157503589929987e+00,1.196652775861472e-09
	1.000000000000000e+00,0.000000000000000e+00
	0.000000000000000e+00,0.000000000000000e+00
	1.157503589929987e-04,-1.196652775861472e-13
	6.681634696300493e-23,3.559796997941240e-13
	1.157503590589262e-12,-7.219368970392169e-15
	-1.157503601505023e-04,-2.290950532375846e-13
	-1.157503589929987e-04,1.196652775861472e-13
	-6.681634696300493e-23,-3.559796997941240e-13
	-1.157503589929987e-04,1.196652775861472e-13
13		1.348962882591653e+00,0.000000000000000e+00
	-1.157503589929987e+00,1.224526399732356e-09
	1.000000000000000e+00,0.000000000000000e+00
	0.000000000000000e+00,0.000000000000000e+00
	1.157503589929987e-04,-1.224526399732356e-13
	6.996530438143650e-23,3.642715321935337e-13
	1.157503590589262e-12,-7.387529676091425e-15
	-1.157503601505023e-04,-2.344313625442067e-13
	-1.157503589929987e-04,1.224526399732357e-13
	-6.996530438143650e-23,-3.642715321935337e-13
	-1.157503589929987e-04,1.224526399732357e-13
14		1.380384264602885e+00,0.000000000000000e+00
	-1.157503589929987e+00,1.253049283708902e-09
	1.000000000000000e+00,0.000000000000000e+00
	0.000000000000000e+00,0.000000000000000e+00
	1.157503589929987e-04,-1.253049283708902e-13
	7.326266759087284e-23,3.727565061810162e-13
	1.157503590589262e-12,-7.559607347810436e-15
	-1.157503601505023e-04,-2.398919704623156e-13
	-1.157503589929987e-04,1.253049283708902e-13
	-7.326266759087284e-23,-3.727565061810162e-13
	-1.157503589929987e-04,1.253049283708902e-13
15		1.412537544622754e+00,0.000000000000000e+00
	-1.157503589929987e+00,1.282236551001738e-09
	1.000000000000000e+00,0.000000000000000e+00
	0.000000000000000e+00,0.000000000000000e+00
	1.157503589929987e-04,-1.282236551001738e-13
	7.671543074076637e-23,3.814391206020915e-13
	1.157503590589262e-12,-7.735693223408601e-15
	-1.157503601505023e-04,-2.454797722785091e-13
	-1.157503589929987e-04,1.282236551001738e-13
	-7.671543074076637e-23,-3.814391206020915e-13
	-1.157503589929987e-04,1.282236551001738e-13
16		1.445439770745927e+00,0.000000000000000e+00
	-1.157503589929987e+00,1.312103677086322e-09
	1.000000000000000e+00,0.000000000000000e+00
	0.000000000000000e+00,0.000000000000000e+00
	1.157503589929987e-04,-1.312103677086322e-13
	8.033091760467800e-23,3.903239790938536e-13
	1.157503590589262e-12,-7.915880665947708e-15
	-1.157503601505023e-04,-2.511977307192737e-13
	-1.157503589929987e-04,1.312103677086322e-13
	-8.033091760467800e-23,-3.903239790938536e-13
	-1.157503589929987e-04,1.312103677086322e-13
17		1.479108388168207e+00,0.000000000000000e+00
	-1.157503589929987e+00,1.342666497908242e-09
	1.000000000000000e+00,0.000000000000000e+00
	0.000000000000000e+00,0.000000000000000e+00
	1.157503589929987e-04,-1.342666497908243e-13
	8.411679711498291e-23,3.994157925258799e-13
	1.157503590589262e-12,-8.100265213194956e-15
	-1.157503601505023e-04,-2.570488775218607e-13
	-1.157503589929987e-04,1.342666497908243e-13
	-8.411679711498291e-23,-3.994157925258799e-13
	-1.157503589929987e-04,1.342666497908243e-13
18		1.513561248436208e+00,0.000000000000000e+00
	-1.157503589929987e+00,1.373941218279646e-09
	1.000000000000000e+00,0.000000000000000e+00
	0.000000000000000e+00,0.000000000000000e+00
	1.157503589929987e-04,-1.373941218279646e-13
	8.808109962970417e-23,4.087193814979965e-13
	1.157503590589262e-12,-8.288944628277902e-15
	-1.157503601505023e-04,-2.630363150417540e-13
	-1.157503589929987e-04,1.373941218279646e-13
	-8.808109962970417e-23,-4.087193814979965e-13
	-1.157503589929987e-04,1.373941218279646e-13
19		1.548816618912481e+00,0.000000000000000e+00
	-1.157503589929987e+00,1.405944420471244e-09
	1.000000000000000e+00,0.000000000000000e+00
	0.000000000000000e+00,0.000000000000000e+00
	1.157503589929987e-04,-1.405944420471244e-13
	9.223223396597873e-23,4.182396788962240e-13
	1.157503590589262e-12,-8.482018951520094e-15
	-1.157503601505023e-04,-2.691632178975795e-13
	-1.157503589929987e-04,1.405944420471244e-13
	-9.223223396597873e-23,-4.182396788962240e-13
	-1.157503589929987e-04,1.405944420471244e-13
20		1.584893192461113e+00,0.000000000000000e+00
	-1.157503589929987e+00,1.438693073004450e-09
	1.000000000000000e+00,0.000000000000000e+00
	0.000000000000000e+00,0.000000000000000e+00
	1.157503589929987e-04,-1.438693073004450e-13
	9.657900523628616e-23,4.279817325082588e-13
	1.157503590589262e-12,-8.679590553483017e-15
	-1.157503601505023e-04,-2.754328346543308e-13
	-1.157503589929987e-04,1.438693073004450e-13
	-9.657900523628616e-23,-4.279817325082588e-13
	-1.157503589929987e-04,1.438693073004450e-13
21		1.621810097358929e+00,0.000000000000000e+00
	-1.157503589929987e+00,1.472204539648317e-09
	1.000000000000000e+00,0.000000000000000e+00
	0.000000000000000e+00,0.000000000000000e+00
	1.157503589929987e-04,-1.472204539648317e-13
	1.011306335252725e-22,4.379507076998774e-13
	1.157503590589262e-12,-8.881764189245403e-15
	-1.157503601505023e-04,-2.818484895458003e-13
	-1.157503589929987e-04,1.472204539648317e-13
	-1.011306335252725e-22,-4.379507076998774e-13
	-1.157503589929987e-04,1.472204539648317e-13
22		1.659586907437560e+00,0.000000000000000e+00
	-1.157503589929987e+00,1.506496588626036e-09
	1.000000000000000e+00,0.000000000000000e+00
	0.000000000000000e+00,0.000000000000000e+00
	1.157503589929987e-04,-1.506496588626036e-13
	1.058967734467863e-22,4.481518901536815e-13
	1.157503590589262e-12,-9.088647053944946e-15
	-1.157503601505023e-04,-2.884135842371329e-13
	-1.157503589929987e-04,1.506496588626037e-13
	-1.058967734467863e-22,-4.481518901536815e-13
	-1.157503589929987e-04,1.506496588626037e-13
23		1.698243652461743e+00,0.000000000000000e+00
	-1.157503589929987e+00,1.541587402035885e-09
	1.000000000000000e+00,0.000000000000000e+00
	0.000000000000000e+00,0.000000000000000e+00
	1.157503589929987e-04,-1.541587402035885e-13
	1.108875346226083e-22,4.585906886716366e-13
	1.157503590589262e-12,-9.300348839615038e-15
	-1.157503601505023e-04,-2.951315996284330e-13
	-1.157503589929987e-04,1.541587402035885e-13
	-1.108875346226083e-22,-4.585906886716366e-13
	-1.157503589929987e-04,1.541587402035885e-13
24		1.737800828749374e+00,0.000000000000000e+00
	-1.157503589929987e+00,1.577495585491615e-09
	1.000000000000000e+00,0.000000000000000e+00
	0.000000000000000e+00,0.000000000000000e+00
	1.157503589929987e-04,-1.577495585491615e-13
	1.161135031263157e-22,4.692726380428907e-13
	1.157503590589262e-12,-9.516981793344564e-15
	-1.157503601505023e-04,-3.020060977003846e-13
	-1.157503589929987e-04,1.577495585491615e-13
	-1.161135031263157e-22,-4.692726380428907e-13
	-1.157503589929987e-04,1.577495585491615e-13
25		1.778279410038922e+00,0.000000000000000e+00
	-1.157503589929987e+00,1.614240177987395e-09
	1.000000000000000e+00,0.000000000000000e+00
	0.000000000000000e+00,0.000000000000000e+00
	1.157503589929987e-04,-1.614240177987394e-13
	1.215857639377625e-22,4.802034019783928e-13
	1.157503590589262e-12,-9.738660776792955e-15
	-1.157503601505023e-04,-3.090407234028604e-13
	-1.157503589929987e-04,1.614240177987395e-13
	-1.215857639377625e-22,-4.802034019783928e-13
	-1.157503589929987e-04,1.614240177987395e-13
26		1.819700858609982e+00,0.000000000000000e+00
	-1.157503589929987e+00,1.651840661992538e-09
	1.000000000000000e+00,0.000000000000000e+00
	0.000000000000000e+00,0.000000000000000e+00
	1.157503589929987e-04,-1.651840661992538e-13
	1.273159244558087e-22,4.913887761138673e-13
	1.157503590589262e-12,-9.965503327091660e-15
	-1.157503601505023e-04,-3.162392065875219e-13
	-1.157503589929987e-04,1.651840661992538e-13
	-1.273159244558087e-22,-4.913887761138673e-13
	-1.157503589929987e-04,1.651840661992538e-13
27		1.862087136662866e+00,0.000000000000000e+00
	-1.157503589929987e+00,1.690316973781366e-09
	1.000000000000000e+00,0.000000000000000e+00
	0.000000000000000e+00,0.000000000000000e+00
	1.157503589929987e-04,-1.690316973781366e-13
	1.333161391191690e-22,5.028346910827369e-13
	1.157503590589262e-12,-1.019762971916345e-14
	-1.157503601505023e-04,-3.236053639854369e-13
	-1.157503589929987e-04,1.690316973781366e-13
	-1.333161391191690e-22,-5.028346910827369e-13
	-1.157503589929987e-04,1.690316973781366e-13
28		1.905460717963246e+00,0.000000000000000e+00
	-1.157503589929987e+00,1.729689514003683e-09
	1.000000000000000e+00,0.000000000000000e+00
	0.000000000000000e+00,0.000000000000000e+00
	1.157503589929987e-04,-1.729689514003683e-13
	1.395991351876071e-22,5.145472156606225e-13
	1.157503590589262e-12,-1.043516302949390e-14
	-1.157503601505023e-04,-3.311431012307602e-13
	-1.157503589929987e-04,1.729689514003683e-13
	-1.395991351876071e-22,-5.145472156606225e-13
	-1.157503589929987e-04,1.729689514003683e-13
29		1.949844599758044e+00,0.000000000000000e+00
	-1.157503589929987e+00,1.769979158501472e-09
	1.000000000000000e+00,0.000000000000000e+00
	0.000000000000000e+00,0.000000000000000e+00
	1.157503589929987e-04,-1.769979158501472e-13
	1.461782397381603e-22,5.265325599830889e-13
	1.157503590589262e-12,-1.067822920138831e-14
	-1.157503601505023e-04,-3.388564149315533e-13
	-1.157503589929987e-04,1.769979158501472e-13
	-1.461782397381603e-22,-5.265325599830889e-13
	-1.157503589929987e-04,1.769979158501472e-13
30		1.995262314968878e+00,0.000000000000000e+00
	-1.157503589929987e+00,1.811207269377542e-09
	1.000000000000000e+00,0.000000000000000e+00
	0.000000000000000e+00,0.000000000000000e+00
	1.157503589929987e-04,-1.811207269377543e-13
	1.530674079336561e-22,5.387970788383406e-13
	1.157503590589262e-12,-1.092695711174834e-14
	-1.157503601505023e-04,-3.467493947888380e-13
	-1.157503589929987e-04,1.811207269377542e-13
	-1.530674079336561e-22,-5.387970788383406e-13
	-1.157503589929987e-04,1.811207269377542e-13
31		2.041737944669527e+00,0.000000000000000e+00
	-1.157503589929987e+00,1.853395706321999e-09
	1.000000000000000e+00,0.000000000000000e+00
	0.000000000000000e+00,0.000000000000000e+00
	1.157503589929987e-04,-1.853395706321999e-13
	1.602812526234840e-22,5.513472750366149e-13
	1.157503590589262e-12,-1.118147863940446e-14
	-1.157503601505023e-04,-3.548262257650105e-13
	-1.157503589929987e-04,1.853395706321999e-13
	-1.602812526234840e-22,-5.513472750366149e-13
	-1.157503589929987e-04,1.853395706321999e-13
32		2.089296130854037e+00,0.000000000000000e+00
	-1.157503589929987e+00,1.896566838202540e-09
	1.000000000000000e+00,0.000000000000000e+00
	0.000000000000000e+00,0.000000000000000e+00
	1.157503589929987e-04,-1.896566838202541e-13
	1.678350753394082e-22,5.641898028580576e-13
	1.157503590589262e-12,-1.144192873503944e-14
	-1.157503601505023e-04,-3.630911903027641e-13
	-1.157503589929987e-04,1.896566838202541e-13
	-1.678350753394082e-22,-5.641898028580576e-13
	-1.157503589929987e-04,1.896566838202541e-13
33		2.137962089502230e+00,0.000000000000000e+00
	-1.157503589929987e+00,1.940743554924726e-09
	1.000000000000000e+00,0.000000000000000e+00
	0.000000000000000e+00,0.000000000000000e+00
	1.157503589929987e-04,-1.940743554924726e-13
	1.757448987521678e-22,5.773314715809105e-13
	1.157503590589262e-12,-1.170844549274168e-14
	-1.157503601505023e-04,-3.715486705956962e-13
	-1.157503589929987e-04,1.940743554924726e-13
	-1.757448987521678e-22,-5.773314715809105e-13
	-1.157503589929987e-04,1.940743554924726e-13
34		2.187761623949550e+00,0.000000000000000e+00
	-1.157503589929987e+00,1.985949279568511e-09
	1.000000000000000e+00,0.000000000000000e+00
	0.000000000000000e+00,0.000000000000000e+00
	1.157503589929987e-04,-1.985949279568511e-13
	1.840275006577098e-22,5.907792490918811e-13
	1.157503590589262e-12,-1.198117022322388e-14
	-1.157503601505023e-04,-3.802031509118061e-13
	-1.157503589929987e-04,1.985949279568511e-13
	-1.840275006577098e-22,-5.907792490918811e-13
	-1.157503589929987e-04,1.985949279568511e-13
35		2.238721138568337e+00,0.000000000000000e+00
	-1.157503589929987e+00,2.032207980807470e-09
	1.000000000000000e+00,0.000000000000000e+00
	0.000000000000000e+00,0.000000000000000e+00
	1.157503589929987e-04,-2.032207980807470e-13
	1.927004495651437e-22,6.045402655806079e-13
	1.157503590589262e-12,-1.226024752874772e-14
	-1.157503601505023e-04,-3.890592199711132e-13
	-1.157503589929987e-04,2.032207980807470e-13
	-1.927004495651437e-22,-6.045402655806079e-13
	-1.157503589929987e-04,2.032207980807470e-13
36		2.290867652767770e+00,0.000000000000000e+00
	-1.157503589929987e+00,2.079544185617305e-09
	1.000000000000000e+00,0.000000000000000e+00
	0.000000000000000e+00,0.000000000000000e+00
	1.157503589929987e-04,-2.079544185617305e-13
	2.017821419619045e-22,6.186218173201820e-13
	1.157503590589262e-12,-1.254582537979500e-14
	-1.157503601505023e-04,-3.981215733786566e-13
	-1.157503589929987e-04,2.079544185617305e-13
	-2.017821419619045e-22,-6.186218173201820e-13
	-1.157503589929987e-04,2.079544185617305e-13
37		2.344228815319919e+00,0.000000000000000e+00
	-1.157503589929987e+00,2.127982992280376e-09
	1.000000000000000e+00,0.000000000000000e+00
	0.000000000000000e+00,0.000000000000000e+00
	1.157503589929987e-04,-2.127982992280376e-13
	2.112918413351695e-22,6.330313705357272e-13
	1.157503590589262e-12,-1.283805519352232e-14
	-1.157503601505023e-04,-4.073950161141673e-13
	-1.157503589929987e-04,2.127982992280376e-13
	-2.112918413351695e-22,-6.330313705357272e-13
	-1.157503589929987e-04,2.127982992280376e-13
38		2.398832919019488e+00,0.000000000000000e+00
	-1.157503589929987e+00,2.177550083693139e-09
	1.000000000000000e+00,0.000000000000000e+00
