Title: * GA CMOS Amp | W=1.95244884342926e-06 L=7.09243050381034e-07 Vbias=1.4450168566471895
Date: Sat Sep  6 22:15:04 2025
Plotname: AC Analysis
Flags: complex forward log
No. Variables: 13
No. Points:          901
Offset:    0.0000000000000000e+00
Command: Linear Technology Corporation LTspice
Variables:
	0	frequency	frequency
	1	V(out)	voltage
	2	V(g)	voltage
	3	V(vdd)	voltage
	4	V(m1#dbody)	voltage
	5	V(m1#sbody)	voltage
	6	Id(M1)	device_current
	7	Ig(M1)	device_current
	8	Ib(M1)	device_current
	9	Is(M1)	device_current
	10	I(Rload)	device_current
	11	I(Vg)	device_current
	12	I(Vdd)	device_current
Values:
0		1.000000000000000e+00,0.000000000000000e+00
	-2.824973633912587e-01,8.138266947107718e-10
	1.000000000000000e+00,0.000000000000000e+00
	0.000000000000000e+00,0.000000000000000e+00
	3.334335783565546e-05,8.219703703972459e-14
	3.334335995438360e-05,9.306027670203660e-14
	2.824973633912588e-05,-8.138266947107717e-14
	2.041101509398532e-05,3.148739601788487e-13
	-1.778312518119425e-05,-4.890891333772144e-14
	-3.087762625191695e-05,-1.845823773700501e-13
	-2.824973633912588e-05,8.138266947107718e-14
	-2.041101509364651e-05,-3.148739601788486e-13
	-2.824973633912588e-05,8.138266947107718e-14
1		1.023292992280754e+00,0.000000000000000e+00
	-2.824973633912587e-01,8.327831536285414e-10
	1.000000000000000e+00,0.000000000000000e+00
	0.000000000000000e+00,0.000000000000000e+00
	3.334335783565546e-05,8.411165198899178e-14
	3.334335995438360e-05,9.522792900890200e-14
	2.824973633912588e-05,-8.327831536285414e-14
	2.041101509398532e-05,3.222083169027051e-13
	-1.778312518119425e-05,-5.004814827855706e-14
	-3.087762625191695e-05,-1.888818532612939e-13
	-2.824973633912588e-05,8.327831536285414e-14
	-2.041101509364651e-05,-3.222083169027049e-13
	-2.824973633912588e-05,8.327831536285414e-14
2		1.047128548050899e+00,0.000000000000000e+00
	-2.824973633912587e-01,8.521811651975529e-10
	1.000000000000000e+00,0.000000000000000e+00
	0.000000000000000e+00,0.000000000000000e+00
	3.334335783565546e-05,8.607086404949282e-14
	3.334335995438360e-05,9.744607242421853e-14
	2.824973633912588e-05,-8.521811651975530e-14
	2.041101509398532e-05,3.297135127411145e-13
	-1.778312518119425e-05,-5.121391941007552e-14
	-3.087762625191695e-05,-1.932814768112837e-13
	-2.824973633912588e-05,8.521811651975530e-14
	-2.041101509364651e-05,-3.297135127411144e-13
	-2.824973633912588e-05,8.521811651975530e-14
3		1.071519305237606e+00,0.000000000000000e+00
	-2.824973633912587e-01,8.720310145003035e-10
	1.000000000000000e+00,0.000000000000000e+00
	0.000000000000000e+00,0.000000000000000e+00
	3.334335783565546e-05,8.807571202139548e-14
	3.334335995438360e-05,9.971588303698564e-14
	2.824973633912588e-05,-8.720310145003037e-14
	2.041101509398532e-05,3.373935270482536e-13
	-1.778312518119425e-05,-5.240684483956156e-14
	-3.087762625191695e-05,-1.977835807586617e-13
	-2.824973633912588e-05,8.720310145003035e-14
	-2.041101509364651e-05,-3.373935270482535e-13
	-2.824973633912588e-05,8.720310145003035e-14
4		1.096478196143185e+00,0.000000000000000e+00
	-2.824973633912587e-01,8.923432261896372e-10
	1.000000000000000e+00,0.000000000000000e+00
	0.000000000000000e+00,0.000000000000000e+00
	3.334335783565546e-05,9.012725890163174e-14
	3.334335995438360e-05,1.020385643308347e-13
	2.824973633912588e-05,-8.923432261896372e-14
	2.041101509398532e-05,3.452524318693649e-13
	-1.778312518119425e-05,-5.362755707186814e-14
	-3.087762625191695e-05,-2.023905521785331e-13
	-2.824973633912588e-05,8.923432261896372e-14
	-2.041101509364651e-05,-3.452524318693648e-13
	-2.824973633912588e-05,8.923432261896372e-14
5		1.122018454301963e+00,0.000000000000000e+00
	-2.824973633912587e-01,9.131285700690558e-10
	1.000000000000000e+00,0.000000000000000e+00
	0.000000000000000e+00,0.000000000000000e+00
	3.334335783565546e-05,9.222659244751300e-14
	3.334335995438360e-05,1.044153478221321e-13
	2.824973633912588e-05,-9.131285700690559e-14
	2.041101509398532e-05,3.532943940998097e-13
	-1.778312518119425e-05,-5.487670334477887e-14
	-3.087762625191695e-05,-2.071048337481252e-13
	-2.824973633912588e-05,9.131285700690559e-14
	-2.041101509364651e-05,-3.532943940998097e-13
	-2.824973633912588e-05,9.131285700690559e-14
6		1.148153621496882e+00,0.000000000000000e+00
	-2.824973633912587e-01,9.343980668030101e-10
	1.000000000000000e+00,0.000000000000000e+00
	0.000000000000000e+00,0.000000000000000e+00
	3.334335783565546e-05,9.437482575347317e-14
	3.334335995438360e-05,1.068474937129453e-13
	2.824973633912588e-05,-9.343980668030102e-14
	2.041101509398532e-05,3.615236776944102e-13
	-1.778312518119425e-05,-5.615494597218205e-14
	-3.087762625191695e-05,-2.119289250419272e-13
	-2.824973633912588e-05,9.343980668030101e-14
	-2.041101509364651e-05,-3.615236776944102e-13
	-2.824973633912588e-05,9.343980668030101e-14
7		1.174897554939529e+00,0.000000000000000e+00
	-2.824973633912587e-01,9.561629937602043e-10
	1.000000000000000e+00,0.000000000000000e+00
	0.000000000000000e+00,0.000000000000000e+00
	3.334335783565546e-05,9.657309784124632e-14
	3.334335995438360e-05,1.093362915592188e-13
	2.824973633912588e-05,-9.561629937602045e-14
	2.041101509398532e-05,3.699446459282560e-13
	-1.778312518119425e-05,-5.746296269523824e-14
	-3.087762625191695e-05,-2.168653838569973e-13
	-2.824973633912588e-05,9.561629937602042e-14
	-2.041101509364651e-05,-3.699446459282559e-13
	-2.824973633912588e-05,9.561629937602042e-14
8		1.202264434617413e+00,0.000000000000000e+00
	-2.824973633912587e-01,9.784348909930036e-10
	1.000000000000000e+00,0.000000000000000e+00
	0.000000000000000e+00,0.000000000000000e+00
	3.334335783565546e-05,9.882257426379100e-14
	3.334335995438360e-05,1.118830609545140e-13
	2.824973633912588e-05,-9.784348909930037e-14
	2.041101509398532e-05,3.785617637101691e-13
	-1.778312518119425e-05,-5.880144704172770e-14
	-3.087762625191695e-05,-2.219168275691411e-13
	-2.824973633912588e-05,9.784348909930037e-14
	-2.041101509364651e-05,-3.785617637101692e-13
	-2.824973633912588e-05,9.784348909930037e-14
9		1.230268770812381e+00,0.000000000000000e+00
	-2.824973633912587e-01,1.001225567356124e-09
	1.000000000000000e+00,0.000000000000000e+00
	0.000000000000000e+00,0.000000000000000e+00
	3.334335783565546e-05,1.011244477232817e-13
	3.334335995438360e-05,1.144891522296746e-13
	2.824973633912588e-05,-1.001225567356124e-13
	2.041101509398532e-05,3.873795999500588e-13
	-1.778312518119425e-05,-6.017110869376783e-14
	-3.087762625191695e-05,-2.270859345206786e-13
	-2.824973633912588e-05,1.001225567356124e-13
	-2.041101509364651e-05,-3.873795999500587e-13
	-2.824973633912588e-05,1.001225567356124e-13
10		1.258925411794167e+00,0.000000000000000e+00
	-2.824973633912587e-01,1.024547106767844e-09
	1.000000000000000e+00,0.000000000000000e+00
	0.000000000000000e+00,0.000000000000000e+00
	3.334335783565546e-05,1.034799387034957e-13
	3.334335995438360e-05,1.171559471687905e-13
	2.824973633912588e-05,-1.024547106767844e-13
	2.041101509398532e-05,3.964028299814171e-13
	-1.778312518119425e-05,-6.157267386409619e-14
	-3.087762625191695e-05,-2.323754454405366e-13
	-2.824973633912588e-05,1.024547106767844e-13
	-2.041101509364651e-05,-3.964028299814171e-13
	-2.824973633912588e-05,1.024547106767844e-13
11		1.288249551693134e+00,0.000000000000000e+00
	-2.824973633912587e-01,1.048411874617056e-09
	1.000000000000000e+00,0.000000000000000e+00
	0.000000000000000e+00,0.000000000000000e+00
	3.334335783565546e-05,1.058902961169292e-13
	3.334335995438360e-05,1.198848597418377e-13
	2.824973633912588e-05,-1.048411874617056e-13
	2.041101509398532e-05,4.056362380402434e-13
	-1.778312518119425e-05,-6.300688568111798e-14
	-3.087762625191695e-05,-2.377881648974198e-13
	-2.824973633912588e-05,1.048411874617056e-13
	-2.041101509364651e-05,-4.056362380402433e-13
	-2.824973633912588e-05,1.048411874617056e-13
12		1.318256738556407e+00,0.000000000000000e+00
	-2.824973633912587e-01,1.072832524319563e-09
	1.000000000000000e+00,0.000000000000000e+00
	0.000000000000000e+00,0.000000000000000e+00
	3.334335783565546e-05,1.083567979669875e-13
	3.334335995438360e-05,1.226773368543835e-13
	2.824973633912588e-05,-1.072832524319562e-13
	2.041101509398532e-05,4.150847198017089e-13
	-1.778312518119425e-05,-6.447450458292262e-14
	-3.087762625191695e-05,-2.433269627868301e-13
	-2.824973633912588e-05,1.072832524319563e-13
	-2.041101509364651e-05,-4.150847198017088e-13
	-2.824973633912588e-05,1.072832524319563e-13
13		1.348962882591653e+00,0.000000000000000e+00
	-2.824973633912587e-01,1.097822004027080e-09
	1.000000000000000e+00,0.000000000000000e+00
	0.000000000000000e+00,0.000000000000000e+00
	3.334335783565546e-05,1.108807520255998e-13
	3.334335995438360e-05,1.255348591147561e-13
	2.824973633912588e-05,-1.097822004027080e-13
	2.041101509398532e-05,4.247532849759092e-13
	-1.778312518119425e-05,-6.597630872047806e-14
	-3.087762625191695e-05,-2.489947758527231e-13
	-2.824973633912588e-05,1.097822004027080e-13
	-2.041101509364651e-05,-4.247532849759091e-13
	-2.824973633912588e-05,1.097822004027080e-13
14		1.380384264602885e+00,0.000000000000000e+00
	-2.824973633912587e-01,1.123393563492525e-09
	1.000000000000000e+00,0.000000000000000e+00
	0.000000000000000e+00,0.000000000000000e+00
	3.334335783565546e-05,1.134634965266163e-13
	3.334335995438360e-05,1.284589416190818e-13
	2.824973633912588e-05,-1.123393563492525e-13
	2.041101509398532e-05,4.346470599640780e-13
	-1.778312518119425e-05,-6.751309437021683e-14
	-3.087762625191695e-05,-2.547946092446087e-13
	-2.824973633912588e-05,1.123393563492525e-13
	-2.041101509364651e-05,-4.346470599640779e-13
	-2.824973633912588e-05,1.123393563492525e-13
15		1.412537544622754e+00,0.000000000000000e+00
	-2.824973633912587e-01,1.149560761095205e-09
	1.000000000000000e+00,0.000000000000000e+00
	0.000000000000000e+00,0.000000000000000e+00
	3.334335783565546e-05,1.161064008753581e-13
	3.334335995438360e-05,1.314511347546089e-13
	2.824973633912588e-05,-1.149560761095205e-13
	2.041101509398532e-05,4.447712905766737e-13
	-1.778312518119425e-05,-6.908567635623210e-14
	-3.087762625191695e-05,-2.607295381109211e-13
	-2.824973633912588e-05,1.149560761095205e-13
	-2.041101509364651e-05,-4.447712905766737e-13
	-2.824973633912588e-05,1.149560761095205e-13
16		1.445439770745927e+00,0.000000000000000e+00
	-2.824973633912587e-01,1.176337471029654e-09
	1.000000000000000e+00,0.000000000000000e+00
	0.000000000000000e+00,0.000000000000000e+00
	3.334335783565546e-05,1.188108663746940e-13
	3.334335995438360e-05,1.345130250217443e-13
	2.824973633912588e-05,-1.176337471029653e-13
	2.041101509398532e-05,4.551313448147771e-13
	-1.778312518119425e-05,-7.069488848230849e-14
	-3.087762625191695e-05,-2.668027092295033e-13
	-2.824973633912588e-05,1.176337471029654e-13
	-2.041101509364651e-05,-4.551313448147770e-13
	-2.824973633912588e-05,1.176337471029654e-13
17		1.479108388168207e+00,0.000000000000000e+00
	-2.824973633912587e-01,1.203737890661909e-09
	1.000000000000000e+00,0.000000000000000e+00
	0.000000000000000e+00,0.000000000000000e+00
	3.334335783565546e-05,1.215783269680294e-13
	3.334335995438360e-05,1.376462358752367e-13
	2.824973633912588e-05,-1.203737890661908e-13
	2.041101509398532e-05,4.657327157162770e-13
	-1.778312518119425e-05,-7.234158397401567e-14
	-3.087762625191695e-05,-2.730173426760704e-13
	-2.824973633912588e-05,1.203737890661909e-13
	-2.041101509364651e-05,-4.657327157162769e-13
	-2.824973633912588e-05,1.203737890661909e-13
18		1.513561248436208e+00,0.000000000000000e+00
	-2.824973633912587e-01,1.231776548057148e-09
	1.000000000000000e+00,0.000000000000000e+00
	0.000000000000000e+00,0.000000000000000e+00
	3.334335783565546e-05,1.244102499996028e-13
	3.334335995438360e-05,1.408524285849534e-13
	2.824973633912588e-05,-1.231776548057148e-13
	2.041101509398532e-05,4.765810242683508e-13
	-1.778312518119425e-05,-7.402663593109994e-14
	-3.087762625191695e-05,-2.793767335315361e-13
	-2.824973633912588e-05,1.231776548057148e-13
	-2.041101509364651e-05,-4.765810242683508e-13
	-2.824973633912588e-05,1.231776548057148e-13
19		1.548816618912481e+00,0.000000000000000e+00
	-2.824973633912587e-01,1.260468309682657e-09
	1.000000000000000e+00,0.000000000000000e+00
	0.000000000000000e+00,0.000000000000000e+00
	3.334335783565546e-05,1.273081369924902e-13
	3.334335995438360e-05,1.441333031167082e-13
	2.824973633912588e-05,-1.260468309682657e-13
	2.041101509398532e-05,4.876820223877875e-13
	-1.778312518119425e-05,-7.575093779041325e-14
	-3.087762625191695e-05,-2.858842536291085e-13
	-2.824973633912588e-05,1.260468309682657e-13
	-2.041101509364651e-05,-4.876820223877873e-13
	-2.824973633912588e-05,1.260468309682657e-13
20		1.584893192461113e+00,0.000000000000000e+00
	-2.824973633912587e-01,1.289828388290230e-09
	1.000000000000000e+00,0.000000000000000e+00
	0.000000000000000e+00,0.000000000000000e+00
	3.334335783565546e-05,1.302735244447334e-13
	3.334335995438360e-05,1.474905990336053e-13
	2.824973633912588e-05,-1.289828388290230e-13
	2.041101509398532e-05,4.990415959707287e-13
	-1.778312518119425e-05,-7.751540379962520e-14
	-3.087762625191695e-05,-2.925433533420805e-13
	-2.824973633912588e-05,1.289828388290230e-13
	-2.041101509364651e-05,-4.990415959707287e-13
	-2.824973633912588e-05,1.289828388290230e-13
21		1.621810097358929e+00,0.000000000000000e+00
	-2.824973633912587e-01,1.319872350982172e-09
	1.000000000000000e+00,0.000000000000000e+00
	0.000000000000000e+00,0.000000000000000e+00
	3.334335783565546e-05,1.333079846440112e-13
	3.334335995438360e-05,1.509260964183788e-13
	2.824973633912588e-05,-1.319872350982172e-13
	2.041101509398532e-05,5.106657680134501e-13
	-1.778312518119425e-05,-7.932096950196943e-14
	-3.087762625191695e-05,-2.993575634132634e-13
	-2.824973633912588e-05,1.319872350982172e-13
	-2.041101509364651e-05,-5.106657680134501e-13
	-2.824973633912588e-05,1.319872350982172e-13
22		1.659586907437560e+00,0.000000000000000e+00
	-2.824973633912587e-01,1.350616127465181e-09
	1.000000000000000e+00,0.000000000000000e+00
	0.000000000000000e+00,0.000000000000000e+00
	3.334335783565546e-05,1.364131265012871e-13
	3.334335995438360e-05,1.544416168172165e-13
	2.824973633912588e-05,-1.350616127465181e-13
	2.041101509398532e-05,5.225607018058329e-13
	-1.778312518119425e-05,-8.116859223228075e-14
	-3.087762625191695e-05,-3.063304968270340e-13
	-2.824973633912588e-05,1.350616127465181e-13
	-2.041101509364651e-05,-5.225607018058327e-13
	-2.824973633912588e-05,1.350616127465181e-13
23		1.698243652461743e+00,0.000000000000000e+00
	-2.824973633912587e-01,1.382076018496489e-09
	1.000000000000000e+00,0.000000000000000e+00
	0.000000000000000e+00,0.000000000000000e+00
	3.334335783565546e-05,1.395905964038751e-13
	3.334335995438360e-05,1.580390242055672e-13
	2.824973633912588e-05,-1.382076018496489e-13
	2.041101509398532e-05,5.347327041992216e-13
	-1.778312518119425e-05,-8.305925162458695e-14
	-3.087762625191695e-05,-3.134658507249857e-13
	-2.824973633912588e-05,1.382076018496489e-13
	-2.041101509364651e-05,-5.347327041992213e-13
	-2.824973633912588e-05,1.382076018496489e-13
24		1.737800828749374e+00,0.000000000000000e+00
	-2.824973633912587e-01,1.414268704526743e-09
	1.000000000000000e+00,0.000000000000000e+00
	0.000000000000000e+00,0.000000000000000e+00
	3.334335783565546e-05,1.428420790883764e-13
	3.334335995438360e-05,1.617202259764453e-13
	2.824973633912588e-05,-1.414268704526743e-13
	2.041101509398532e-05,5.471882289504007e-13
	-1.778312518119425e-05,-8.499395013152364e-14
	-3.087762625191695e-05,-3.207674083662028e-13
	-2.824973633912588e-05,1.414268704526743e-13
	-2.041101509364651e-05,-5.471882289504005e-13
	-2.824973633912588e-05,1.414268704526743e-13
25		1.778279410038922e+00,0.000000000000000e+00
	-2.824973633912587e-01,1.447211254544197e-09
	1.000000000000000e+00,0.000000000000000e+00
	0.000000000000000e+00,0.000000000000000e+00
	3.334335783565546e-05,1.461692985339489e-13
	3.334335995438360e-05,1.654871739517564e-13
	2.824973633912588e-05,-1.447211254544197e-13
	2.041101509398532e-05,5.599338801434619e-13
	-1.778312518119425e-05,-8.697371355584803e-14
	-3.087762625191695e-05,-3.282390411331943e-13
	-2.824973633912588e-05,1.447211254544197e-13
	-2.041101509364651e-05,-5.599338801434618e-13
	-2.824973633912588e-05,1.447211254544197e-13
26		1.819700858609982e+00,0.000000000000000e+00
	-2.824973633912587e-01,1.480921135124915e-09
	1.000000000000000e+00,0.000000000000000e+00
	0.000000000000000e+00,0.000000000000000e+00
	3.334335783565546e-05,1.495740188763834e-13
	3.334335995438360e-05,1.693418654171785e-13
	2.824973633912588e-05,-1.480921135124915e-13
	2.041101509398532e-05,5.729764156913763e-13
	-1.778312518119425e-05,-8.899959159433291e-14
	-3.087762625191695e-05,-3.358847105845518e-13
	-2.824973633912588e-05,1.480921135124915e-13
	-2.041101509364651e-05,-5.729764156913761e-13
	-2.824973633912588e-05,1.480921135124915e-13
27		1.862087136662866e+00,0.000000000000000e+00
	-2.824973633912587e-01,1.515416219693785e-09
	1.000000000000000e+00,0.000000000000000e+00
	0.000000000000000e+00,0.000000000000000e+00
	3.334335783565546e-05,1.530580453434723e-13
	3.334335995438360e-05,1.732863441811493e-13
	2.824973633912588e-05,-1.515416219693785e-13
	2.041101509398532e-05,5.863227509191297e-13
	-1.778312518119425e-05,-9.107265839432996e-14
	-3.087762625191695e-05,-3.437084705554211e-13
	-2.824973633912588e-05,1.515416219693785e-13
	-2.041101509364651e-05,-5.863227509191296e-13
	-2.824973633912588e-05,1.515416219693785e-13
28		1.905460717963246e+00,0.000000000000000e+00
	-2.824973633912587e-01,1.550714798001242e-09
	1.000000000000000e+00,0.000000000000000e+00
	0.000000000000000e+00,0.000000000000000e+00
	3.334335783565546e-05,1.566232252121651e-13
	3.334335995438360e-05,1.773227016585210e-13
	2.824973633912588e-05,-1.550714798001242e-13
	2.041101509398532e-05,5.999799622303193e-13
	-1.778312518119425e-05,-9.319401312329685e-14
	-3.087762625191695e-05,-3.517144693068983e-13
	-2.824973633912588e-05,1.550714798001242e-13
	-2.041101509364651e-05,-5.999799622303193e-13
	-2.824973633912588e-05,1.550714798001242e-13
29		1.949844599758044e+00,0.000000000000000e+00
	-2.824973633912587e-01,1.586835585820736e-09
	1.000000000000000e+00,0.000000000000000e+00
	0.000000000000000e+00,0.000000000000000e+00
	3.334335783565546e-05,1.602714487880189e-13
	3.334335995438360e-05,1.814530779794554e-13
	2.824973633912588e-05,-1.586835585820736e-13
	2.041101509398532e-05,6.139552908591574e-13
	-1.778312518119425e-05,-9.536478055159033e-14
	-3.087762625191695e-05,-3.599069517254935e-13
	-2.824973633912588e-05,1.586835585820736e-13
	-2.041101509364651e-05,-6.139552908591574e-13
	-2.824973633912588e-05,1.586835585820736e-13
30		1.995262314968878e+00,0.000000000000000e+00
	-2.824973633912587e-01,1.623797734872085e-09
	1.000000000000000e+00,0.000000000000000e+00
	0.000000000000000e+00,0.000000000000000e+00
	3.334335783565546e-05,1.640046504074635e-13
	3.334335995438360e-05,1.856796631241499e-13
	2.824973633912588e-05,-1.623797734872085e-13
	2.041101509398532e-05,6.282561467098679e-13
	-1.778312518119425e-05,-9.758611164883431e-14
	-3.087762625191695e-05,-3.682902615738251e-13
	-2.824973633912588e-05,1.623797734872085e-13
	-2.041101509364651e-05,-6.282561467098677e-13
	-2.824973633912588e-05,1.623797734872085e-13
31		2.041737944669527e+00,0.000000000000000e+00
	-2.824973633912587e-01,1.661620842975966e-09
	1.000000000000000e+00,0.000000000000000e+00
	0.000000000000000e+00,0.000000000000000e+00
	3.334335783565546e-05,1.678248094634123e-13
	3.334335995438360e-05,1.900046980839937e-13
	2.824973633912588e-05,-1.661620842975966e-13
	2.041101509398532e-05,6.428901122855171e-13
	-1.778312518119425e-05,-9.985918419417941e-14
	-3.087762625191695e-05,-3.768688437937411e-13
	-2.824973633912588e-05,1.661620842975966e-13
	-2.041101509364651e-05,-6.428901122855169e-13
	-2.824973633912588e-05,1.661620842975966e-13
32		2.089296130854037e+00,0.000000000000000e+00
	-2.824973633912587e-01,1.700324964444945e-09
	1.000000000000000e+00,0.000000000000000e+00
	0.000000000000000e+00,0.000000000000000e+00
	3.334335783565546e-05,1.717339514547626e-13
