Title: * GA CMOS Amp | W=4.412704972839254e-05 L=9.999999999999997e-07 Vbias=0.9615014129747226
Date: Mon Sep  8 18:45:37 2025
Plotname: AC Analysis
Flags: complex forward log
No. Variables: 11
No. Points:          901
Offset:    0.0000000000000000e+00
Command: Linear Technology Corporation LTspice
Variables:
	0	frequency	frequency
	1	V(out)	voltage
	2	V(g)	voltage
	3	V(vdd)	voltage
	4	Id(M1)	device_current
	5	Ig(M1)	device_current
	6	Ib(M1)	device_current
	7	Is(M1)	device_current
	8	I(Rload)	device_current
	9	I(Vg)	device_current
	10	I(Vdd)	device_current
Values:
0		1.000000000000000e+00,0.000000000000000e+00
	-8.619089617032376e+00,1.923829796124801e-08
	1.000000000000000e+00,0.000000000000000e+00
	0.000000000000000e+00,0.000000000000000e+00
	8.619089617032375e-04,-1.923829796124801e-12
	3.222261553951105e-21,1.908803676167636e-12
	8.619089708443439e-12,7.934948024373111e-14
	-8.619089703223272e-04,-6.432336028656605e-14
	-8.619089617032376e-04,1.923829796124801e-12
	-3.222261553951105e-21,-1.908803676167636e-12
	-8.619089617032376e-04,1.923829796124801e-12
1		1.023292992280754e+00,0.000000000000000e+00
	-8.619089617032376e+00,1.968641548715420e-08
	1.000000000000000e+00,0.000000000000000e+00
	0.000000000000000e+00,0.000000000000000e+00
	8.619089617032375e-04,-1.968641548715420e-12
	3.374122062429056e-21,1.953265425462084e-12
	8.619089708443439e-12,8.119776707452974e-14
	-8.619089703223272e-04,-6.582164382119297e-14
	-8.619089617032376e-04,1.968641548715420e-12
	-3.374122062429056e-21,-1.953265425462084e-12
	-8.619089617032376e-04,1.968641548715420e-12
2		1.047128548050899e+00,0.000000000000000e+00
	-8.619089617032376e+00,2.014497101113220e-08
	1.000000000000000e+00,0.000000000000000e+00
	0.000000000000000e+00,0.000000000000000e+00
	8.619089617032375e-04,-2.014497101113221e-12
	3.533139536177843e-21,1.998762821939636e-12
	8.619089708443439e-12,8.308910603621248e-14
	-8.619089703223272e-04,-6.735482686262663e-14
	-8.619089617032376e-04,2.014497101113221e-12
	-3.533139536177843e-21,-1.998762821939636e-12
	-8.619089617032376e-04,2.014497101113221e-12
3		1.071519305237606e+00,0.000000000000000e+00
	-8.619089617032376e+00,2.061420766539052e-08
	1.000000000000000e+00,0.000000000000000e+00
	0.000000000000000e+00,0.000000000000000e+00
	8.619089617032375e-04,-2.061420766539052e-12
	3.699651272579133e-21,2.045319988922134e-12
	8.619089708443439e-12,8.502449994172834e-14
	-8.619089703223272e-04,-6.892372232480945e-14
	-8.619089617032376e-04,2.061420766539052e-12
	-3.699651272579133e-21,-2.045319988922134e-12
	-8.619089617032376e-04,2.061420766539052e-12
4		1.096478196143185e+00,0.000000000000000e+00
	-8.619089617032376e+00,2.109437424541432e-08
	1.000000000000000e+00,0.000000000000000e+00
	0.000000000000000e+00,0.000000000000000e+00
	8.619089617032375e-04,-2.109437424541432e-12
	3.874010465350449e-21,2.092961611635768e-12
	8.619089708443439e-12,8.700497496254582e-14
	-8.619089703223272e-04,-7.052916205688194e-14
	-8.619089617032376e-04,2.109437424541432e-12
	-3.874010465350449e-21,-2.092961611635768e-12
	-8.619089617032376e-04,2.109437424541432e-12
5		1.122018454301963e+00,0.000000000000000e+00
	-8.619089617032376e+00,2.158572534188010e-08
	1.000000000000000e+00,0.000000000000000e+00
	0.000000000000000e+00,0.000000000000000e+00
	8.619089617032375e-04,-2.158572534188010e-12
	4.056586953716406e-21,2.141712950299516e-12
	8.619089708443439e-12,8.903158117273533e-14
	-8.619089703223272e-04,-7.217199728424102e-14
	-8.619089617032376e-04,2.158572534188010e-12
	-4.056586953716406e-21,-2.141712950299516e-12
	-8.619089617032376e-04,2.158572534188010e-12
6		1.148153621496882e+00,0.000000000000000e+00
	-8.619089617032376e+00,2.208852147564299e-08
	1.000000000000000e+00,0.000000000000000e+00
	0.000000000000000e+00,0.000000000000000e+00
	8.619089617032375e-04,-2.208852147564299e-12
	4.247768006887282e-21,2.191599853518433e-12
	8.619089708443439e-12,9.110539310573532e-14
	-8.619089703223272e-04,-7.385309905986935e-14
	-8.619089617032376e-04,2.208852147564299e-12
	-4.247768006887282e-21,-2.191599853518433e-12
	-8.619089617032376e-04,2.208852147564299e-12
7		1.174897554939529e+00,0.000000000000000e+00
	-8.619089617032376e+00,2.260302923586841e-08
	1.000000000000000e+00,0.000000000000000e+00
	0.000000000000000e+00,0.000000000000000e+00
	8.619089617032375e-04,-2.260302923586841e-12
	4.447959145508942e-21,2.242648771988940e-12
	8.619089708443439e-12,9.322751032408219e-14
	-8.619089703223272e-04,-7.557335872618078e-14
	-8.619089617032376e-04,2.260302923586841e-12
	-4.447959145508942e-21,-2.242648771988940e-12
	-8.619089617032376e-04,2.260302923586841e-12
8		1.202264434617413e+00,0.000000000000000e+00
	-8.619089617032376e+00,2.312952142138116e-08
	1.000000000000000e+00,0.000000000000000e+00
	0.000000000000000e+00,0.000000000000000e+00
	8.619089617032375e-04,-2.312952142138116e-12
	4.657585001826499e-21,2.294886772523321e-12
	8.619089708443439e-12,9.539905800241508e-14
	-8.619089703223272e-04,-7.733368838762038e-14
	-8.619089617032376e-04,2.312952142138116e-12
	-4.657585001826499e-21,-2.294886772523321e-12
	-8.619089617032376e-04,2.312952142138116e-12
9		1.230268770812381e+00,0.000000000000000e+00
	-8.619089617032376e+00,2.366827718530692e-08
	1.000000000000000e+00,0.000000000000000e+00
	0.000000000000000e+00,0.000000000000000e+00
	8.619089617032375e-04,-2.366827718530693e-12
	4.877090220386228e-21,2.348341552400911e-12
	8.619089708443439e-12,9.762118752405652e-14
	-8.619089703223272e-04,-7.913502139427534e-14
	-8.619089617032376e-04,2.366827718530693e-12
	-4.877090220386228e-21,-2.348341552400911e-12
	-8.619089617032376e-04,2.366827718530693e-12
10		1.258925411794167e+00,0.000000000000000e+00
	-8.619089617032376e+00,2.421958218308303e-08
	1.000000000000000e+00,0.000000000000000e+00
	0.000000000000000e+00,0.000000000000000e+00
	8.619089617032375e-04,-2.421958218308303e-12
	5.106940401186273e-21,2.403041454053560e-12
	8.619089708443439e-12,9.989507709149224e-14
	-8.619089703223272e-04,-8.097831283674966e-14
	-8.619089617032376e-04,2.421958218308303e-12
	-5.106940401186273e-21,-2.403041454053560e-12
	-8.619089617032376e-04,2.421958218308303e-12
11		1.288249551693134e+00,0.000000000000000e+00
	-8.619089617032376e+00,2.478372872391667e-08
	1.000000000000000e+00,0.000000000000000e+00
	0.000000000000000e+00,0.000000000000000e+00
	8.619089617032375e-04,-2.478372872391668e-12
	5.347623087276661e-21,2.459015480093162e-12
	8.619089708443439e-12,1.022219323510699e-13
	-8.619089703223272e-04,-8.286454005256452e-14
	-8.619089617032376e-04,2.478372872391667e-12
	-5.347623087276661e-21,-2.459015480093162e-12
	-8.619089617032376e-04,2.478372872391667e-12
12		1.318256738556407e+00,0.000000000000000e+00
	-8.619089617032376e+00,2.536101592577117e-08
	1.000000000000000e+00,0.000000000000000e+00
	0.000000000000000e+00,0.000000000000000e+00
	8.619089617032375e-04,-2.536101592577117e-12
	5.599648798903478e-21,2.516293308689227e-12
	8.619089708443439e-12,1.046029870322474e-13
	-8.619089703223272e-04,-8.479470314435708e-14
	-8.619089617032376e-04,2.536101592577117e-12
	-5.599648798903478e-21,-2.516293308689227e-12
	-8.619089617032376e-04,2.536101592577117e-12
13		1.348962882591653e+00,0.000000000000000e+00
	-8.619089617032376e+00,2.595174987396224e-08
	1.000000000000000e+00,0.000000000000000e+00
	0.000000000000000e+00,0.000000000000000e+00
	8.619089617032375e-04,-2.595174987396224e-12
	5.863552116390763e-21,2.574905309304638e-12
	8.619089708443439e-12,1.070395036017334e-13
	-8.619089703223272e-04,-8.676982551014753e-14
	-8.619089617032376e-04,2.595174987396224e-12
	-5.863552116390763e-21,-2.574905309304638e-12
	-8.619089617032376e-04,2.595174987396224e-12
14		1.380384264602885e+00,0.000000000000000e+00
	-8.619089617032376e+00,2.655624378344850e-08
	1.000000000000000e+00,0.000000000000000e+00
	0.000000000000000e+00,0.000000000000000e+00
	8.619089617032375e-04,-2.655624378344851e-12
	6.139892814057040e-21,2.634882558797945e-12
	8.619089708443439e-12,1.095327739328637e-13
	-8.619089703223272e-04,-8.879095438595769e-14
	-8.619089617032376e-04,2.655624378344851e-12
	-6.139892814057040e-21,-2.634882558797945e-12
	-8.619089617032376e-04,2.655624378344851e-12
15		1.412537544622754e+00,0.000000000000000e+00
	-8.619089617032376e+00,2.717481816490219e-08
	1.000000000000000e+00,0.000000000000000e+00
	0.000000000000000e+00,0.000000000000000e+00
	8.619089617032375e-04,-2.717481816490220e-12
	6.429257047571698e-21,2.696256857900719e-12
	8.619089708443439e-12,1.120841199905720e-13
	-8.619089703223272e-04,-9.085916140107061e-14
	-8.619089617032376e-04,2.717481816490219e-12
	-6.429257047571698e-21,-2.696256857900719e-12
	-8.619089617032376e-04,2.717481816490219e-12
16		1.445439770745927e+00,0.000000000000000e+00
	-8.619089617032376e+00,2.780780099464815e-08
	1.000000000000000e+00,0.000000000000000e+00
	0.000000000000000e+00,0.000000000000000e+00
	8.619089617032375e-04,-2.780780099464816e-12
	6.732258597269763e-21,2.759060748078730e-12
	8.619089708443439e-12,1.146948945323073e-13
	-8.619089703223272e-04,-9.297554314622149e-14
	-8.619089617032376e-04,2.780780099464815e-12
	-6.732258597269763e-21,-2.759060748078730e-12
	-8.619089617032376e-04,2.780780099464815e-12
17		1.479108388168207e+00,0.000000000000000e+00
	-8.619089617032376e+00,2.845552788856124e-08
	1.000000000000000e+00,0.000000000000000e+00
	0.000000000000000e+00,0.000000000000000e+00
	8.619089617032375e-04,-2.845552788856124e-12
	7.049540170062271e-21,2.823327528785859e-12
	8.619089708443439e-12,1.173664818252905e-13
	-8.619089703223272e-04,-9.514122175502532e-14
	-8.619089617032376e-04,2.845552788856124e-12
	-7.049540170062271e-21,-2.823327528785859e-12
	-8.619089617032376e-04,2.845552788856124e-12
18		1.513561248436208e+00,0.000000000000000e+00
	-8.619089617032376e+00,2.911834228001428e-08
	1.000000000000000e+00,0.000000000000000e+00
	0.000000000000000e+00,0.000000000000000e+00
	8.619089617032375e-04,-2.911834228001428e-12
	7.381774762703799e-21,2.889091275119909e-12
	8.619089708443439e-12,1.201002983804660e-13
	-8.619089703223272e-04,-9.735734549894667e-14
	-8.619089617032376e-04,2.911834228001428e-12
	-7.381774762703799e-21,-2.889091275119909e-12
	-8.619089617032376e-04,2.911834228001428e-12
19		1.548816618912481e+00,0.000000000000000e+00
	-8.619089617032376e+00,2.979659560197101e-08
	1.000000000000000e+00,0.000000000000000e+00
	0.000000000000000e+00,0.000000000000000e+00
	8.619089617032375e-04,-2.979659560197101e-12
	7.729667089308801e-21,2.956386855889671e-12
	8.619089708443439e-12,1.228977937035583e-13
	-8.619089703223272e-04,-9.962508939612833e-14
	-8.619089617032376e-04,2.979659560197101e-12
	-7.729667089308801e-21,-2.956386855889671e-12
	-8.619089617032376e-04,2.979659560197101e-12
20		1.584893192461113e+00,0.000000000000000e+00
	-8.619089617032376e+00,3.049064747332047e-08
	1.000000000000000e+00,0.000000000000000e+00
	0.000000000000000e+00,0.000000000000000e+00
	8.619089617032375e-04,-3.049064747332048e-12
	8.093955076144748e-21,3.025249952102832e-12
	8.619089708443439e-12,1.257604510636177e-13
	-8.619089703223272e-04,-1.019456558344018e-13
	-8.619089617032376e-04,3.049064747332047e-12
	-8.093955076144748e-21,-3.025249952102832e-12
	-8.619089617032376e-04,3.049064747332047e-12
21		1.621810097358929e+00,0.000000000000000e+00
	-8.619089617032376e+00,3.120086588955171e-08
	1.000000000000000e+00,0.000000000000000e+00
	0.000000000000000e+00,0.000000000000000e+00
	8.619089617032375e-04,-3.120086588955173e-12
	8.475411426872657e-21,3.095717075884515e-12
	8.619089708443439e-12,1.286897882794665e-13
	-8.619089703223272e-04,-1.043202752088088e-13
	-8.619089617032376e-04,3.120086588955171e-12
	-8.475411426872657e-21,-3.095717075884515e-12
	-8.619089617032376e-04,3.120086588955171e-12
22		1.659586907437560e+00,0.000000000000000e+00
	-8.619089617032376e+00,3.192762741786989e-08
	1.000000000000000e+00,0.000000000000000e+00
	0.000000000000000e+00,0.000000000000000e+00
	8.619089617032375e-04,-3.192762741786990e-12
	8.874845261555170e-21,3.167825589836492e-12
	8.619089708443439e-12,1.316873585244717e-13
	-8.619089703223272e-04,-1.067502065739739e-13
	-8.619089617032376e-04,3.192762741786989e-12
	-8.874845261555170e-21,-3.167825589836492e-12
	-8.619089617032376e-04,3.192762741786989e-12
23		1.698243652461743e+00,0.000000000000000e+00
	-8.619089617032376e+00,3.267131739685713e-08
	1.000000000000000e+00,0.000000000000000e+00
	0.000000000000000e+00,0.000000000000000e+00
	8.619089617032375e-04,-3.267131739685714e-12
	9.293103832908671e-21,3.241613726847329e-12
	8.619089708443439e-12,1.347547511500552e-13
	-8.619089703223272e-04,-1.092367383116705e-13
	-8.619089617032376e-04,3.267131739685713e-12
	-9.293103832908671e-21,-3.241613726847329e-12
	-8.619089617032376e-04,3.267131739685713e-12
24		1.737800828749374e+00,0.000000000000000e+00
	-8.619089617032376e+00,3.343233014078419e-08
	1.000000000000000e+00,0.000000000000000e+00
	0.000000000000000e+00,0.000000000000000e+00
	8.619089617032375e-04,-3.343233014078419e-12
	9.731074323439903e-21,3.317120610363970e-12
	8.619089708443439e-12,1.378935925283885e-13
	-8.619089703223272e-04,-1.117811888139388e-13
	-8.619089617032376e-04,3.343233014078419e-12
	-9.731074323439903e-21,-3.317120610363970e-12
	-8.619089617032376e-04,3.343233014078419e-12
25		1.778279410038922e+00,0.000000000000000e+00
	-8.619089617032376e+00,3.421106914868110e-08
	1.000000000000000e+00,0.000000000000000e+00
	0.000000000000000e+00,0.000000000000000e+00
	8.619089617032375e-04,-3.421106914868110e-12
	1.018968572727902e-20,3.394386275135508e-12
	8.619089708443439e-12,1.411055469147171e-13
	-8.619089703223272e-04,-1.143849071821155e-13
	-8.619089617032376e-04,3.421106914868110e-12
	-1.018968572727902e-20,-3.394386275135508e-12
	-8.619089617032376e-04,3.421106914868110e-12
26		1.819700858609982e+00,0.000000000000000e+00
	-8.619089617032376e+00,3.500794731827766e-08
	1.000000000000000e+00,0.000000000000000e+00
	0.000000000000000e+00,0.000000000000000e+00
	8.619089617032375e-04,-3.500794731827767e-12
	1.066991082070064e-20,3.473451688440136e-12
	8.619089708443439e-12,1.443923173297736e-13
	-8.619089703223272e-04,-1.170492739421433e-13
	-8.619089617032376e-04,3.500794731827766e-12
	-1.066991082070064e-20,-3.473451688440136e-12
	-8.619089617032376e-04,3.500794731827766e-12
27		1.862087136662866e+00,0.000000000000000e+00
	-8.619089617032376e+00,3.582338716492736e-08
	1.000000000000000e+00,0.000000000000000e+00
	0.000000000000000e+00,0.000000000000000e+00
	8.619089617032375e-04,-3.582338716492736e-12
	1.117276822551285e-20,3.554358771806545e-12
	8.619089708443439e-12,1.477556464627367e-13
	-8.619089703223272e-04,-1.197757017765456e-13
	-8.619089617032376e-04,3.582338716492736e-12
	-1.117276822551285e-20,-3.554358771806545e-12
	-8.619089617032376e-04,3.582338716492736e-12
28		1.905460717963246e+00,0.000000000000000e+00
	-8.619089617032376e+00,3.665782104563047e-08
	1.000000000000000e+00,0.000000000000000e+00
	0.000000000000000e+00,0.000000000000000e+00
	8.619089617032375e-04,-3.665782104563048e-12
	1.169932456969050e-20,3.637150423241266e-12
	8.619089708443439e-12,1.511973175952311e-13
	-8.619089703223272e-04,-1.225656362734485e-13
	-8.619089617032376e-04,3.665782104563047e-12
	-1.169932456969050e-20,-3.637150423241266e-12
	-8.619089617032376e-04,3.665782104563047e-12
29		1.949844599758044e+00,0.000000000000000e+00
	-8.619089617032376e+00,3.751169138827560e-08
	1.000000000000000e+00,0.000000000000000e+00
	0.000000000000000e+00,0.000000000000000e+00
	8.619089617032375e-04,-3.751169138827562e-12
	1.225069674983622e-20,3.721870539973767e-12
	8.619089708443439e-12,1.547191555468469e-13
	-8.619089703223272e-04,-1.254205566930514e-13
	-8.619089617032376e-04,3.751169138827560e-12
	-1.225069674983622e-20,-3.721870539973767e-12
	-8.619089617032376e-04,3.751169138827560e-12
30		1.995262314968878e+00,0.000000000000000e+00
	-8.619089617032376e+00,3.838545092622074e-08
	1.000000000000000e+00,0.000000000000000e+00
	0.000000000000000e+00,0.000000000000000e+00
	8.619089617032375e-04,-3.838545092622075e-12
	1.282805430026788e-20,3.808564041731341e-12
	8.619089708443439e-12,1.583230276426843e-13
	-8.619089703223272e-04,-1.283419767519509e-13
	-8.619089617032376e-04,3.838545092622074e-12
	-1.282805430026788e-20,-3.808564041731341e-12
	-8.619089617032376e-04,3.838545092622074e-12
31		2.041737944669527e+00,0.000000000000000e+00
	-8.619089617032376e+00,3.927956293833845e-08
	1.000000000000000e+00,0.000000000000000e+00
	0.000000000000000e+00,0.000000000000000e+00
	8.619089617032375e-04,-3.927956293833847e-12
	1.343262187375759e-20,3.897276894556146e-12
	8.619089708443439e-12,1.620108447034318e-13
	-8.619089703223272e-04,-1.313314454257306e-13
	-8.619089617032376e-04,3.927956293833845e-12
	-1.343262187375759e-20,-3.897276894556146e-12
	-8.619089617032376e-04,3.927956293833845e-12
32		2.089296130854037e+00,0.000000000000000e+00
	-8.619089617032376e+00,4.019450149465258e-08
	1.000000000000000e+00,0.000000000000000e+00
	0.000000000000000e+00,0.000000000000000e+00
	8.619089617032375e-04,-4.019450149465260e-12
	1.406568183918455e-20,3.988056135177004e-12
	8.619089708443439e-12,1.657845620585080e-13
	-8.619089703223272e-04,-1.343905477702525e-13
	-8.619089617032376e-04,4.019450149465259e-12
	-1.406568183918455e-20,-3.988056135177004e-12
	-8.619089617032376e-04,4.019450149465259e-12
33		2.137962089502230e+00,0.000000000000000e+00
	-8.619089617032376e+00,4.113075170769628e-08
	1.000000000000000e+00,0.000000000000000e+00
	0.000000000000000e+00,0.000000000000000e+00
	8.619089617032375e-04,-4.113075170769628e-12
	1.472857700161122e-20,4.080949895948896e-12
	8.619089708443439e-12,1.696461805828039e-13
	-8.619089703223272e-04,-1.375209057620713e-13
	-8.619089617032376e-04,4.113075170769628e-12
	-1.472857700161122e-20,-4.080949895948896e-12
	-8.619089617032376e-04,4.113075170769628e-12
34		2.187761623949550e+00,0.000000000000000e+00
	-8.619089617032376e+00,4.208880998972526e-08
	1.000000000000000e+00,0.000000000000000e+00
	0.000000000000000e+00,0.000000000000000e+00
	8.619089617032375e-04,-4.208880998972527e-12
	1.542271345055303e-20,4.176007430373378e-12
	8.619089708443439e-12,1.735977477575783e-13
	-8.619089703223272e-04,-1.407241791584296e-13
	-8.619089617032376e-04,4.208880998972526e-12
	-1.542271345055303e-20,-4.176007430373378e-12
	-8.619089617032376e-04,4.208880998972526e-12
35		2.238721138568337e+00,0.000000000000000e+00
	-8.619089617032376e+00,4.306918431592207e-08
	1.000000000000000e+00,0.000000000000000e+00
	0.000000000000000e+00,0.000000000000000e+00
	8.619089617032375e-04,-4.306918431592206e-12
	1.614956354248267e-20,4.273279139213437e-12
	8.619089708443439e-12,1.776413587560517e-13
	-8.619089703223272e-04,-1.440020663772825e-13
	-8.619089617032376e-04,4.306918431592207e-12
	-1.614956354248267e-20,-4.273279139213437e-12
	-8.619089617032376e-04,4.306918431592207e-12
36		2.290867652767770e+00,0.000000000000000e+00
	-8.619089617032376e+00,4.407239449373121e-08
	1.000000000000000e+00,0.000000000000000e+00
	0.000000000000000e+00,0.000000000000000e+00
	8.619089617032375e-04,-4.407239449373122e-12
	1.691066902389562e-20,4.372816597216643e-12
	8.619089708443439e-12,1.817791575542996e-13
	-8.619089703223272e-04,-1.473563053978209e-13
	-8.619089617032376e-04,4.407239449373121e-12
	-1.691066902389562e-20,-4.372816597216643e-12
	-8.619089617032376e-04,4.407239449373121e-12
37		2.344228815319919e+00,0.000000000000000e+00
	-8.619089617032376e+00,4.509897243846804e-08
	1.000000000000000e+00,0.000000000000000e+00
	0.000000000000000e+00,0.000000000000000e+00
	8.619089617032375e-04,-4.509897243846803e-12
	1.770764430156113e-20,4.474672580460763e-12
	8.619089708443439e-12,1.860133380680132e-13
	-8.619089703223272e-04,-1.507886746819729e-13
	-8.619089617032376e-04,4.509897243846804e-12
	-1.770764430156113e-20,-4.474672580460763e-12
	-8.619089617032376e-04,4.509897243846804e-12
38		2.398832919019488e+00,0.000000000000000e+00
	-8.619089617032376e+00,4.614946245534722e-08
	1.000000000000000e+00,0.000000000000000e+00
	0.000000000000000e+00,0.000000000000000e+00
