Title: * GA CMOS Amp | W=5.8430107165534345e-06 L=4.986986734544449e-07 Vbias=1.0514435536409843
Date: Sat Sep  6 22:08:50 2025
Plotname: AC Analysis
Flags: complex forward log
No. Variables: 13
No. Points:          901
Offset:    0.0000000000000000e+00
Command: Linear Technology Corporation LTspice
Variables:
	0	frequency	frequency
	1	V(out)	voltage
	2	V(g)	voltage
	3	V(vdd)	voltage
	4	V(m1#dbody)	voltage
	5	V(m1#sbody)	voltage
	6	Id(M1)	device_current
	7	Ig(M1)	device_current
	8	Ib(M1)	device_current
	9	Is(M1)	device_current
	10	I(Rload)	device_current
	11	I(Vg)	device_current
	12	I(Vdd)	device_current
Values:
0		1.000000000000000e+00,0.000000000000000e+00
	-3.748250475099052e-02,4.036216878586952e-10
	1.000000000000000e+00,0.000000000000000e+00
	0.000000000000000e+00,0.000000000000000e+00
	1.825991042137044e-06,2.543848987446739e-14
	1.825991323432084e-06,3.034347249270110e-14
	3.748250475099041e-06,-4.036216878586950e-14
	2.352439775743479e-06,7.610552379680830e-13
	-9.738620211467860e-07,-1.585634738902731e-14
	-5.126828229695735e-06,-7.048367217931861e-13
	-3.748250475099052e-06,4.036216878586952e-14
	-2.352439775754611e-06,-7.610552379680828e-13
	-3.748250475099052e-06,4.036216878586952e-14
1		1.023292992280754e+00,0.000000000000000e+00
	-3.748250475099052e-02,4.130232447183327e-10
	1.000000000000000e+00,0.000000000000000e+00
	0.000000000000000e+00,0.000000000000000e+00
	1.825991042137044e-06,2.603102842274740e-14
	1.825991323432084e-06,3.105026276324486e-14
	3.748250475099041e-06,-4.130232447183328e-14
	2.352439775743479e-06,7.787824917513008e-13
	-9.738620211467860e-07,-1.622568916636088e-14
	-5.126828229695735e-06,-7.212544781131067e-13
	-3.748250475099052e-06,4.130232447183327e-14
	-2.352439775754611e-06,-7.787824917513009e-13
	-3.748250475099052e-06,4.130232447183327e-14
2		1.047128548050899e+00,0.000000000000000e+00
	-3.748250475099052e-02,4.226437919693287e-10
	1.000000000000000e+00,0.000000000000000e+00
	0.000000000000000e+00,0.000000000000000e+00
	1.825991042137044e-06,2.663736896685854e-14
	1.825991323432084e-06,3.177351629410451e-14
	3.748250475099041e-06,-4.226437919693284e-14
	2.352439775743479e-06,7.969226663200502e-13
	-9.738620211467860e-07,-1.660363401886284e-14
	-5.126828229695735e-06,-7.380546531042546e-13
	-3.748250475099052e-06,4.226437919693287e-14
	-2.352439775754611e-06,-7.969226663200504e-13
	-3.748250475099052e-06,4.226437919693287e-14
3		1.071519305237606e+00,0.000000000000000e+00
	-3.748250475099052e-02,4.324884305531790e-10
	1.000000000000000e+00,0.000000000000000e+00
	0.000000000000000e+00,0.000000000000000e+00
	1.825991042137044e-06,2.725783299658318e-14
	1.825991323432084e-06,3.251361656387551e-14
	3.748250475099041e-06,-4.324884305531786e-14
	2.352439775743479e-06,8.154853798350013e-13
	-9.738620211467860e-07,-1.699038233789668e-14
	-5.126828229695735e-06,-7.552461544417867e-13
	-3.748250475099052e-06,4.324884305531790e-14
	-2.352439775754611e-06,-8.154853798350013e-13
	-3.748250475099052e-06,4.324884305531790e-14
4		1.096478196143185e+00,0.000000000000000e+00
	-3.748250475099052e-02,4.425623802275695e-10
	1.000000000000000e+00,0.000000000000000e+00
	0.000000000000000e+00,0.000000000000000e+00
	1.825991042137044e-06,2.789274949016267e-14
	1.825991323432084e-06,3.327095598351724e-14
	3.748250475099041e-06,-4.425623802275705e-14
	2.352439775743479e-06,8.344804744925657e-13
	-9.738620211467860e-07,-1.738613918254036e-14
	-5.126828229695735e-06,-7.728380972872682e-13
	-3.748250475099052e-06,4.425623802275695e-14
	-2.352439775754611e-06,-8.344804744925656e-13
	-3.748250475099052e-06,4.425623802275695e-14
5		1.122018454301963e+00,0.000000000000000e+00
	-3.748250475099052e-02,4.528709823339625e-10
	1.000000000000000e+00,0.000000000000000e+00
	0.000000000000000e+00,0.000000000000000e+00
	1.825991042137044e-06,2.854245508872602e-14
	1.825991323432084e-06,3.404593610441461e-14
	3.748250475099041e-06,-4.528709823339631e-14
	2.352439775743479e-06,8.539180217433611e-13
	-9.738620211467860e-07,-1.779111438831139e-14
	-5.126828229695735e-06,-7.908398091216534e-13
	-3.748250475099052e-06,4.528709823339625e-14
	-2.352439775754611e-06,-8.539180217433612e-13
	-3.748250475099052e-06,4.528709823339625e-14
6		1.148153621496882e+00,0.000000000000000e+00
	-3.748250475099052e-02,4.634197026296450e-10
	1.000000000000000e+00,0.000000000000000e+00
	0.000000000000000e+00,0.000000000000000e+00
	1.825991042137044e-06,2.920729427478151e-14
	1.825991323432084e-06,3.483896783128580e-14
	3.748250475099041e-06,-4.634197026296454e-14
	2.352439775743479e-06,8.738083276322260e-13
	-9.738620211467860e-07,-1.820552267842435e-14
	-5.126828229695735e-06,-8.092608346908371e-13
	-3.748250475099052e-06,4.634197026296450e-14
	-2.352439775754611e-06,-8.738083276322261e-13
	-3.748250475099052e-06,4.634197026296450e-14
7		1.174897554939529e+00,0.000000000000000e+00
	-3.748250475099052e-02,4.742141341857466e-10
	1.000000000000000e+00,0.000000000000000e+00
	0.000000000000000e+00,0.000000000000000e+00
	1.825991042137044e-06,2.988761955486571e-14
	1.825991323432084e-06,3.565047164004940e-14
	3.748250475099041e-06,-4.742141341857475e-14
	2.352439775743479e-06,8.941619382626221e-13
	-9.738620211467860e-07,-1.862958377763999e-14
	-5.126828229695735e-06,-8.281109410664073e-13
	-3.748250475099052e-06,4.742141341857466e-14
	-2.352439775754611e-06,-8.941619382626223e-13
	-3.748250475099052e-06,4.742141341857466e-14
8		1.202264434617413e+00,0.000000000000000e+00
	-3.748250475099052e-02,4.852600003527598e-10
	1.000000000000000e+00,0.000000000000000e+00
	0.000000000000000e+00,0.000000000000000e+00
	1.825991042137044e-06,3.058379164644732e-14
	1.825991323432084e-06,3.648087780076631e-14
	3.748250475099041e-06,-4.852600003527605e-14
	2.352439775743479e-06,9.149896453883174e-13
	-9.738620211467860e-07,-1.906352252876622e-14
	-5.126828229695735e-06,-8.474001228242752e-13
	-3.748250475099052e-06,4.852600003527598e-14
	-2.352439775754611e-06,-9.149896453883178e-13
	-3.748250475099052e-06,4.852600003527598e-14
9		1.230268770812381e+00,0.000000000000000e+00
	-3.748250475099052e-02,4.965631577951354e-10
	1.000000000000000e+00,0.000000000000000e+00
	0.000000000000000e+00,0.000000000000000e+00
	1.825991042137044e-06,3.129617966918420e-14
	1.825991323432084e-06,3.733062660577468e-14
	3.748250475099041e-06,-4.965631577951355e-14
	2.352439775743479e-06,9.363024921353176e-13
	-9.738620211467860e-07,-1.950756901187275e-14
	-5.126828229695735e-06,-8.671386073439312e-13
	-3.748250475099052e-06,4.965631577951354e-14
	-2.352439775754611e-06,-9.363024921353176e-13
	-3.748250475099052e-06,4.965631577951354e-14
10		1.258925411794167e+00,0.000000000000000e+00
	-3.748250475099052e-02,5.081295995965644e-10
	1.000000000000000e+00,0.000000000000000e+00
	0.000000000000000e+00,0.000000000000000e+00
	1.825991042137044e-06,3.202516134063559e-14
	1.825991323432084e-06,3.820016860313869e-14
	3.748250475099041e-06,-5.081295995965645e-14
	2.352439775743479e-06,9.581117788570762e-13
	-9.738620211467860e-07,-1.996195866628257e-14
	-5.126828229695735e-06,-8.873368602311372e-13
	-3.748250475099052e-06,5.081295995965645e-14
	-2.352439775754611e-06,-9.581117788570764e-13
	-3.748250475099052e-06,5.081295995965645e-14
11		1.288249551693134e+00,0.000000000000000e+00
	-3.748250475099052e-02,5.199654584375900e-10
	1.000000000000000e+00,0.000000000000000e+00
	0.000000000000000e+00,0.000000000000000e+00
	1.825991042137044e-06,3.277112317653294e-14
	1.825991323432084e-06,3.908996483553514e-14
	3.748250475099041e-06,-5.199654584375892e-14
	2.352439775743479e-06,9.804290691260939e-13
	-9.738620211467860e-07,-2.042693241540503e-14
	-5.126828229695735e-06,-9.080055908669300e-13
	-3.748250475099052e-06,5.199654584375900e-14
	-2.352439775754611e-06,-9.804290691260943e-13
	-3.748250475099052e-06,5.199654584375900e-14
12		1.318256738556407e+00,0.000000000000000e+00
	-3.748250475099052e-02,5.320770098472355e-10
	1.000000000000000e+00,0.000000000000000e+00
	0.000000000000000e+00,0.000000000000000e+00
	1.825991042137044e-06,3.353446069571556e-14
	1.825991323432083e-06,4.000048708470419e-14
	3.748250475099041e-06,-5.320770098472345e-14
	2.352439775743479e-06,1.003266195865075e-12
	-9.738620211467860e-07,-2.090273679447654e-14
	-5.126828229695735e-06,-9.291557580858747e-13
	-3.748250475099052e-06,5.320770098472355e-14
	-2.352439775754611e-06,-1.003266195865075e-12
	-3.748250475099052e-06,5.320770098472355e-14
13		1.348962882591653e+00,0.000000000000000e+00
	-3.748250475099052e-02,5.444706755303738e-10
	1.000000000000000e+00,0.000000000000000e+00
	0.000000000000000e+00,0.000000000000000e+00
	1.825991042137044e-06,3.431557862984012e-14
	1.825991323432083e-06,4.093221812159462e-14
	3.748250475099041e-06,-5.444706755303745e-14
	2.352439775743479e-06,1.026635267620902e-12
	-9.738620211467860e-07,-2.138962408127693e-14
	-5.126828229695735e-06,-9.507985759865873e-13
	-3.748250475099052e-06,5.444706755303738e-14
	-2.352439775754611e-06,-1.026635267620902e-12
	-3.748250475099052e-06,5.444706755303738e-14
14		1.380384264602885e+00,0.000000000000000e+00
	-3.748250475099052e-02,5.571530267725999e-10
	1.000000000000000e+00,0.000000000000000e+00
	0.000000000000000e+00,0.000000000000000e+00
	1.825991042137044e-06,3.511489113797458e-14
	1.825991323432083e-06,4.188565196233506e-14
	3.748250475099041e-06,-5.571530267726007e-14
	2.352439775743479e-06,1.050548674984745e-12
	-9.738620211467860e-07,-2.188785242989033e-14
	-5.126828229695735e-06,-9.729455198775950e-13
	-3.748250475099052e-06,5.571530267725999e-14
	-2.352439775754611e-06,-1.050548674984745e-12
	-3.748250475099052e-06,5.571530267725999e-14
15		1.412537544622754e+00,0.000000000000000e+00
	-3.748250475099052e-02,5.701307879244128e-10
	1.000000000000000e+00,0.000000000000000e+00
	0.000000000000000e+00,0.000000000000000e+00
	1.825991042137044e-06,3.593282202619095e-14
	1.825991323432083e-06,4.286129413016808e-14
	3.748250475099041e-06,-5.701307879244139e-14
	2.352439775743479e-06,1.075019097161722e-12
	-9.738620211467860e-07,-2.239768600758206e-14
	-5.126828229695735e-06,-9.956083323616981e-13
	-3.748250475099052e-06,5.701307879244129e-14
	-2.352439775754611e-06,-1.075019097161722e-12
	-3.748250475099052e-06,5.701307879244129e-14
16		1.445439770745927e+00,0.000000000000000e+00
	-3.748250475099052e-02,5.834108399665563e-10
	1.000000000000000e+00,0.000000000000000e+00
	0.000000000000000e+00,0.000000000000000e+00
	1.825991042137044e-06,3.676980497227271e-14
	1.825991323432083e-06,4.385966192348521e-14
	3.748250475099041e-06,-5.834108399665560e-14
	2.352439775743479e-06,1.100059508693572e-12
	-9.738620211467858e-07,-2.291939513486341e-14
	-5.126828229695735e-06,-1.018799029562053e-12
	-3.748250475099052e-06,5.834108399665563e-14
	-2.352439775754611e-06,-1.100059508693573e-12
	-3.748250475099052e-06,5.834108399665563e-14
17		1.479108388168207e+00,0.000000000000000e+00
	-3.748250475099052e-02,5.970002241584055e-10
	1.000000000000000e+00,0.000000000000000e+00
	0.000000000000000e+00,0.000000000000000e+00
	1.825991042137044e-06,3.762628375565669e-14
	1.825991323432083e-06,4.488128469010543e-14
	3.748250475099041e-06,-5.970002241584077e-14
	2.352439775743479e-06,1.125683186337942e-12
	-9.738620211467858e-07,-2.345325642881933e-14
	-5.126828229695735e-06,-1.042529907493282e-12
	-3.748250475099052e-06,5.970002241584055e-14
	-2.352439775754611e-06,-1.125683186337942e-12
	-3.748250475099052e-06,5.970002241584055e-14
18		1.513561248436208e+00,0.000000000000000e+00
	-3.748250475099052e-02,6.109061457713359e-10
	1.000000000000000e+00,0.000000000000000e+00
	0.000000000000000e+00,0.000000000000000e+00
	1.825991042137044e-06,3.850271249273068e-14
	1.825991323432083e-06,4.592670410794239e-14
	3.748250475099041e-06,-6.109061457713356e-14
	2.352439775743479e-06,1.151903716107886e-12
	-9.738620211467858e-07,-2.399955294977438e-14
	-5.126828229695735e-06,-1.066813548580979e-12
	-3.748250475099052e-06,6.109061457713359e-14
	-2.352439775754611e-06,-1.151903716107887e-12
	-3.748250475099052e-06,6.109061457713359e-14
19		1.548816618912481e+00,0.000000000000000e+00
	-3.748250475099052e-02,6.251359779090529e-10
	1.000000000000000e+00,0.000000000000000e+00
	0.000000000000000e+00,0.000000000000000e+00
	1.825991042137044e-06,3.939955587761195e-14
	1.825991323432083e-06,4.699647447220918e-14
	3.748250475099041e-06,-6.251359779090528e-14
	2.352439775743479e-06,1.178735000475360e-12
	-9.738620211467858e-07,-2.455857435137503e-14
	-5.126828229695735e-06,-1.091662828333079e-12
	-3.748250475099052e-06,6.251359779090530e-14
	-2.352439775754611e-06,-1.178735000475360e-12
	-3.748250475099052e-06,6.251359779090530e-14
20		1.584893192461113e+00,0.000000000000000e+00
	-3.748250475099052e-02,6.396972654169102e-10
	1.000000000000000e+00,0.000000000000000e+00
	0.000000000000000e+00,0.000000000000000e+00
	1.825991042137044e-06,4.031728942853431e-14
	1.825991323432083e-06,4.809116298931301e-14
	3.748250475099041e-06,-6.396972654169091e-14
	2.352439775743479e-06,1.206191265742487e-12
	-9.738620211467858e-07,-2.513061703416793e-14
	-5.126828229695735e-06,-1.117090922166628e-12
	-3.748250475099052e-06,6.396972654169102e-14
	-2.352439775754611e-06,-1.206191265742487e-12
	-3.748250475099052e-06,6.396972654169102e-14
21		1.621810097358929e+00,0.000000000000000e+00
	-3.748250475099052e-02,6.545977288822858e-10
	1.000000000000000e+00,0.000000000000000e+00
	0.000000000000000e+00,0.000000000000000e+00
	1.825991042137044e-06,4.125639973997409e-14
	1.825991323432083e-06,4.921135007759557e-14
	3.748250475099041e-06,-6.545977288822847e-14
	2.352439775743479e-06,1.234287069584540e-12
	-9.738620211467858e-07,-2.571598430275539e-14
	-5.126828229695735e-06,-1.143111312393556e-12
	-3.748250475099052e-06,6.545977288822857e-14
	-2.352439775754611e-06,-1.234287069584540e-12
	-3.748250475099052e-06,6.545977288822857e-14
22		1.659586907437560e+00,0.000000000000000e+00
	-3.748250475099052e-02,6.698452687281400e-10
	1.000000000000000e+00,0.000000000000000e+00
	0.000000000000000e+00,0.000000000000000e+00
	1.825991042137044e-06,4.221738474064901e-14
	1.825991323432083e-06,5.035762967507848e-14
	3.748250475099041e-06,-6.698452687281392e-14
	2.352439775743479e-06,1.263037308768607e-12
	-9.738620211467858e-07,-2.631498652661147e-14
	-5.126828229695735e-06,-1.169737795369181e-12
	-3.748250475099052e-06,6.698452687281400e-14
	-2.352439775754611e-06,-1.263037308768607e-12
	-3.748250475099052e-06,6.698452687281400e-14
23		1.698243652461743e+00,0.000000000000000e+00
	-3.748250475099052e-02,6.854479694019240e-10
	1.000000000000000e+00,0.000000000000000e+00
	0.000000000000000e+00,0.000000000000000e+00
	1.825991042137044e-06,4.320075395752660e-14
	1.825991323432083e-06,5.153060955437718e-14
	3.748250475099041e-06,-6.854479694019234e-14
	2.352439775743479e-06,1.292457227052058e-12
	-9.738620211467858e-07,-2.692794130464399e-14
	-5.126828229695735e-06,-1.196984488807222e-12
	-3.748250475099052e-06,6.854479694019241e-14
	-2.352439775754611e-06,-1.292457227052059e-12
	-3.748250475099052e-06,6.854479694019241e-14
24		1.737800828749374e+00,0.000000000000000e+00
	-3.748250475099052e-02,7.014141036620616e-10
	1.000000000000000e+00,0.000000000000000e+00
	0.000000000000000e+00,0.000000000000000e+00
	1.825991042137043e-06,4.420702878598200e-14
	1.825991323432083e-06,5.273091164494981e-14
	3.748250475099041e-06,-7.014141036620627e-14
	2.352439775743479e-06,1.322562423264987e-12
	-9.738620211467856e-07,-2.755517363358965e-14
	-5.126828229695735e-06,-1.224865839265191e-12
	-3.748250475099052e-06,7.014141036620616e-14
	-2.352439775754611e-06,-1.322562423264987e-12
	-3.748250475099052e-06,7.014141036620616e-14
25		1.778279410038922e+00,0.000000000000000e+00
	-3.748250475099052e-02,7.177521369642740e-10
	1.000000000000000e+00,0.000000000000000e+00
	0.000000000000000e+00,0.000000000000000e+00
	1.825991042137043e-06,4.523674276624896e-14
	1.825991323432083e-06,5.395917236285277e-14
	3.748250475099041e-06,-7.177521369642748e-14
	2.352439775743479e-06,1.353368859580913e-12
	-9.738620211467856e-07,-2.819701608033170e-14
	-5.126828229695735e-06,-1.253396629804154e-12
	-3.748250475099052e-06,7.177521369642741e-14
	-2.352439775754611e-06,-1.353368859580914e-12
	-3.748250475099052e-06,7.177521369642741e-14
26		1.819700858609982e+00,0.000000000000000e+00
	-3.748250475099052e-02,7.344707319500778e-10
	1.000000000000000e+00,0.000000000000000e+00
	0.000000000000000e+00,0.000000000000000e+00
	1.825991042137043e-06,4.629044186630966e-14
	1.825991323432083e-06,5.521604294817658e-14
	3.748250475099041e-06,-7.344707319500777e-14
	2.352439775743479e-06,1.384892869980145e-12
	-9.738620211467856e-07,-2.885380895823117e-14
	-5.126828229695735e-06,-1.282591987826906e-12
	-3.748250475099052e-06,7.344707319500777e-14
	-2.352439775754611e-06,-1.384892869980145e-12
	-3.748250475099052e-06,7.344707319500777e-14
27		1.862087136662866e+00,0.000000000000000e+00
	-3.748250475099052e-02,7.515787530398307e-10
	1.000000000000000e+00,0.000000000000000e+00
	0.000000000000000e+00,0.000000000000000e+00
	1.825991042137043e-06,4.736868477137430e-14
	1.825991323432083e-06,5.650218981034224e-14
	3.748250475099041e-06,-7.515787530398306e-14
	2.352439775743479e-06,1.417151168910263e-12
	-9.738620211467856e-07,-2.952590050756559e-14
	-5.126828229695735e-06,-1.312467393098715e-12
	-3.748250475099052e-06,7.515787530398307e-14
	-2.352439775754611e-06,-1.417151168910264e-12
	-3.748250475099052e-06,7.515787530398307e-14
28		1.905460717963246e+00,0.000000000000000e+00
	-3.748250475099052e-02,7.690852711327662e-10
	1.000000000000000e+00,0.000000000000000e+00
	0.000000000000000e+00,0.000000000000000e+00
	1.825991042137043e-06,4.847204318010341e-14
	1.825991323432083e-06,5.781829488144025e-14
	3.748250475099041e-06,-7.690852711327661e-14
	2.352439775743479e-06,1.450160860148352e-12
	-9.738620211467856e-07,-3.021364708017064e-14
	-5.126828229695735e-06,-1.343038685954905e-12
	-3.748250475099052e-06,7.690852711327662e-14
	-2.352439775754611e-06,-1.450160860148352e-12
	-3.748250475099052e-06,7.690852711327662e-14
29		1.949844599758044e+00,0.000000000000000e+00
	-3.748250475099052e-02,7.869995684165034e-10
	1.000000000000000e+00,0.000000000000000e+00
	0.000000000000000e+00,0.000000000000000e+00
	1.825991042137043e-06,4.960110210772990e-14
	1.825991323432083e-06,5.916505597779997e-14
	3.748250475099041e-06,-7.869995684165046e-14
	2.352439775743479e-06,1.483939445869639e-12
	-9.738620211467856e-07,-3.091741332838246e-14
	-5.126828229695735e-06,-1.374322075699606e-12
	-3.748250475099052e-06,7.869995684165034e-14
	-2.352439775754611e-06,-1.483939445869640e-12
	-3.748250475099052e-06,7.869995684165034e-14
30		1.995262314968878e+00,0.000000000000000e+00
	-3.748250475099052e-02,8.053311432885858e-10
	1.000000000000000e+00,0.000000000000000e+00
	0.000000000000000e+00,0.000000000000000e+00
	1.825991042137043e-06,5.075646019624217e-14
	1.825991323432083e-06,6.054318716998127e-14
	3.748250475099041e-06,-8.053311432885861e-14
	2.352439775743479e-06,1.518504835927387e-12
	-9.738620211467856e-07,-3.163757239838137e-14
	-5.126828229695735e-06,-1.406334149200147e-12
	-3.748250475099052e-06,8.053311432885859e-14
	-2.352439775754611e-06,-1.518504835927387e-12
	-3.748250475099052e-06,8.053311432885859e-14
31		2.041737944669527e+00,0.000000000000000e+00
	-3.748250475099052e-02,8.240897153926576e-10
	1.000000000000000e+00,0.000000000000000e+00
	0.000000000000000e+00,0.000000000000000e+00
	1.825991042137043e-06,5.193873003179164e-14
	1.825991323432083e-06,6.195341916138389e-14
	3.748250475099041e-06,-8.240897153926571e-14
	2.352439775743479e-06,1.553875357348931e-12
	-9.738620211467856e-07,-3.237450612803866e-14
	-5.126828229695735e-06,-1.439091879681627e-12
	-3.748250475099052e-06,8.240897153926577e-14
	-2.352439775754611e-06,-1.553875357348932e-12
	-3.748250475099052e-06,8.240897153926577e-14
32		2.089296130854037e+00,0.000000000000000e+00
	-3.748250475099052e-02,8.432852307719478e-10
	1.000000000000000e+00,0.000000000000000e+00
	0.000000000000000e+00,0.000000000000000e+00
	1.825991042137043e-06,5.314853846949432e-14
