LTspice 24.0.9 for Windows
Circuit: * GA CMOS Amp | W=2.1020807290005663e-06 L=1e-06 Vbias=1.3708550900108631
Start Time: Sat Sep  6 22:15:46 2025
solver = Normal
Maximum thread count: 2
tnom = 27
temp = 27
method = modified trap
AsciiRawFile = 1
Direct Newton iteration for .op point succeeded.
Semiconductor Device Operating Points:
                        --- BSIM4 MOSFETS ---
Name:      m1
Model:      n
Id:      8.35e-05
Vgs:     1.37e+00
Vds:     9.65e-01
Vbs:     0.00e+00
Vth:     2.35e-01
Vdsat:   7.88e-01
Gm:      4.78e-05
Gds:     7.37e-06
Gmb      5.00e-05
Cbd:     8.41e-16
Cbs:     1.68e-15


.measure op idd find i(vdd)
  Error: FIND can not be evaluated over an interval.

gain_db: MAX(db(v(out)/v(g)))=(29.0158dB,104.887°) FROM 1 TO 1e+09
gain_lin: MAX(mag(v(out)/v(g)))=(3.35647dB,0°) FROM 1 TO 1e+09
fc: mag(v(out)/v(g))=1 AT 6.34121e+08

Total elapsed time: 0.842 seconds.

