Title: * GA CMOS Amp | W=2.3136044502262478e-05 L=1e-06 Vbias=1.007700227794422
Date: Sat Sep  6 22:40:05 2025
Plotname: AC Analysis
Flags: complex forward log
No. Variables: 13
No. Points:          901
Offset:    0.0000000000000000e+00
Command: Linear Technology Corporation LTspice
Variables:
	0	frequency	frequency
	1	V(out)	voltage
	2	V(g)	voltage
	3	V(vdd)	voltage
	4	V(m1#dbody)	voltage
	5	V(m1#sbody)	voltage
	6	Id(M1)	device_current
	7	Ig(M1)	device_current
	8	Ib(M1)	device_current
	9	Is(M1)	device_current
	10	I(Rload)	device_current
	11	I(Vg)	device_current
	12	I(Vdd)	device_current
Values:
0		1.000000000000000e+00,0.000000000000000e+00
	-6.923403510823788e-03,1.392657252094966e-09
	1.000000000000000e+00,0.000000000000000e+00
	0.000000000000000e+00,0.000000000000000e+00
	1.006982446821709e-05,9.911853402096379e-14
	1.006982452107026e-05,1.027953300094827e-13
	6.923403510823761e-07,-1.392657252094960e-13
	1.525615623904767e-05,5.952362057360749e-12
	-5.370573078441705e-06,-5.458256950826626e-14
	-1.057792351168834e-05,-5.758513762642987e-12
	-6.923403510823789e-07,1.392657252094966e-13
	-1.525615623904075e-05,-5.952362057360749e-12
	-6.923403510823789e-07,1.392657252094966e-13
1		1.023292992280754e+00,0.000000000000000e+00
	-6.923403510823788e-03,1.425096406717751e-09
	1.000000000000000e+00,0.000000000000000e+00
	0.000000000000000e+00,0.000000000000000e+00
	1.006982446821709e-05,1.014273012687938e-13
	1.006982452107026e-05,1.051897408378911e-13
	6.923403510823778e-07,-1.425096406717749e-13
	1.525615623904767e-05,6.091010380815107e-12
	-5.370573078441705e-06,-5.585396087848603e-14
	-1.057792351168834e-05,-5.892646779264847e-12
	-6.923403510823788e-07,1.425096406717751e-13
	-1.525615623904075e-05,-6.091010380815106e-12
	-6.923403510823788e-07,1.425096406717751e-13
2		1.047128548050899e+00,0.000000000000000e+00
	-6.923403510823788e-03,1.458291166318758e-09
	1.000000000000000e+00,0.000000000000000e+00
	0.000000000000000e+00,0.000000000000000e+00
	1.006982446821709e-05,1.037898466143055e-13
	1.006982452107026e-05,1.076399246592427e-13
	6.923403510823778e-07,-1.458291166318757e-13
	1.525615623904767e-05,6.232888238597426e-12
	-5.370573078441705e-06,-5.715496675807817e-14
	-1.057792351168834e-05,-6.029904155207472e-12
	-6.923403510823788e-07,1.458291166318758e-13
	-1.525615623904075e-05,-6.232888238597425e-12
	-6.923403510823788e-07,1.458291166318758e-13
3		1.071519305237606e+00,0.000000000000000e+00
	-6.923403510823788e-03,1.492259131198912e-09
	1.000000000000000e+00,0.000000000000000e+00
	0.000000000000000e+00,0.000000000000000e+00
	1.006982446821708e-05,1.062074227103131e-13
	1.006982452107026e-05,1.101471805934313e-13
	6.923403510823778e-07,-1.492259131198909e-13
	1.525615623904767e-05,6.378070856225878e-12
	-5.370573078441705e-06,-5.848627695758081e-14
	-1.057792351168834e-05,-6.170358666148407e-12
	-6.923403510823788e-07,1.492259131198912e-13
	-1.525615623904075e-05,-6.378070856225878e-12
	-6.923403510823788e-07,1.492259131198912e-13
4		1.096478196143185e+00,0.000000000000000e+00
	-6.923403510823788e-03,1.527018311622813e-09
	1.000000000000000e+00,0.000000000000000e+00
	0.000000000000000e+00,0.000000000000000e+00
	1.006982446821708e-05,1.086813113876633e-13
	1.006982452107026e-05,1.127128380207410e-13
	6.923403510823778e-07,-1.527018311622817e-13
	1.525615623904767e-05,6.526635211446050e-12
	-5.370573078441705e-06,-5.984859735528380e-14
	-1.057792351168834e-05,-6.314084782928485e-12
	-6.923403510823788e-07,1.527018311622813e-13
	-1.525615623904075e-05,-6.526635211446050e-12
	-6.923403510823788e-07,1.527018311622813e-13
5		1.122018454301963e+00,0.000000000000000e+00
	-6.923403510823788e-03,1.562587137368013e-09
	1.000000000000000e+00,0.000000000000000e+00
	0.000000000000000e+00,0.000000000000000e+00
	1.006982446821708e-05,1.112128243348783e-13
	1.006982452107026e-05,1.153382572867000e-13
	6.923403510823778e-07,-1.562587137368023e-13
	1.525615623904767e-05,6.678660075045563e-12
	-5.370573078441705e-06,-6.124265027149437e-14
	-1.057792351168834e-05,-6.461158711037266e-12
	-6.923403510823788e-07,1.562587137368013e-13
	-1.525615623904075e-05,-6.678660075045561e-12
	-6.923403510823788e-07,1.562587137368013e-13
6		1.148153621496882e+00,0.000000000000000e+00
	-6.923403510823788e-03,1.598984467496732e-09
	1.000000000000000e+00,0.000000000000000e+00
	0.000000000000000e+00,0.000000000000000e+00
	1.006982446821708e-05,1.138033037936316e-13
	1.006982452107026e-05,1.180248304233548e-13
	6.923403510823778e-07,-1.598984467496734e-13
	1.525615623904767e-05,6.834226052619379e-12
	-5.370573078441705e-06,-6.266917485152123e-14
	-1.057792351168835e-05,-6.611658431018184e-12
	-6.923403510823788e-07,1.598984467496732e-13
	-1.525615623904075e-05,-6.834226052619378e-12
	-6.923403510823788e-07,1.598984467496732e-13
7		1.174897554939529e+00,0.000000000000000e+00
	-6.923403510823788e-03,1.636229600355179e-09
	1.000000000000000e+00,0.000000000000000e+00
	0.000000000000000e+00,0.000000000000000e+00
	1.006982446821708e-05,1.164541232704209e-13
	1.006982452107026e-05,1.207739818873432e-13
	6.923403510823761e-07,-1.636229600355173e-13
	1.525615623904767e-05,6.993415627307970e-12
	-5.370573078441705e-06,-6.412892745757893e-14
	-1.057792351168835e-05,-6.765663739814874e-12
	-6.923403510823788e-07,1.636229600355180e-13
	-1.525615623904075e-05,-6.993415627307972e-12
	-6.923403510823788e-07,1.636229600355180e-13
8		1.202264434617413e+00,0.000000000000000e+00
	-6.923403510823787e-03,1.674342283805794e-09
	1.000000000000000e+00,0.000000000000000e+00
	0.000000000000000e+00,0.000000000000000e+00
	1.006982446821708e-05,1.191666882648209e-13
	1.006982452107026e-05,1.235871693151611e-13
	6.923403510823778e-07,-1.674342283805796e-13
	1.525615623904767e-05,7.156313203530962e-12
	-5.370573078441705e-06,-6.562268206982137e-14
	-1.057792351168835e-05,-6.923256293080561e-12
	-6.923403510823787e-07,1.674342283805794e-13
	-1.525615623904075e-05,-7.156313203530958e-12
	-6.923403510823787e-07,1.674342283805794e-13
9		1.230268770812381e+00,0.000000000000000e+00
	-6.923403510823787e-03,1.713342725697823e-09
	1.000000000000000e+00,0.000000000000000e+00
	0.000000000000000e+00,0.000000000000000e+00
	1.006982446821708e-05,1.219424370146963e-13
	1.006982452107026e-05,1.264658842960194e-13
	6.923403510823778e-07,-1.713342725697820e-13
	1.525615623904767e-05,7.323005151739465e-12
	-5.370573078441705e-06,-6.715123069671610e-14
	-1.057792351168835e-05,-7.084519648472968e-12
	-6.923403510823787e-07,1.713342725697823e-13
	-1.525615623904075e-05,-7.323005151739465e-12
	-6.923403510823787e-07,1.713342725697823e-13
10		1.258925411794167e+00,0.000000000000000e+00
	-6.923403510823787e-03,1.753251604581788e-09
	1.000000000000000e+00,0.000000000000000e+00
	0.000000000000000e+00,0.000000000000000e+00
	1.006982446821708e-05,1.247828412587760e-13
	1.006982452107026e-05,1.294116531627053e-13
	6.923403510823778e-07,-1.753251604581792e-13
	1.525615623904767e-05,7.493579854210857e-12
	-5.370573078441705e-06,-6.871538379497785e-14
	-1.057792351168835e-05,-7.249539309957700e-12
	-6.923403510823787e-07,1.753251604581788e-13
	-1.525615623904075e-05,-7.493579854210855e-12
	-6.923403510823787e-07,1.753251604581788e-13
11		1.288249551693134e+00,0.000000000000000e+00
	-6.923403510823787e-03,1.794090080673532e-09
	1.000000000000000e+00,0.000000000000000e+00
	0.000000000000000e+00,0.000000000000000e+00
	1.006982446821708e-05,1.276894070169873e-13
	1.006982452107026e-05,1.324260378008638e-13
	6.923403510823778e-07,-1.794090080673537e-13
	1.525615623904767e-05,7.668127751910207e-12
	-5.370573078441705e-06,-7.031597069928334e-14
	-1.057792351168835e-05,-7.418402773143569e-12
	-6.923403510823787e-07,1.794090080673532e-13
	-1.525615623904075e-05,-7.668127751910203e-12
	-6.923403510823787e-07,1.794090080673532e-13
12		1.318256738556407e+00,0.000000000000000e+00
	-6.923403510823787e-03,1.835879807073638e-09
	1.000000000000000e+00,0.000000000000000e+00
	0.000000000000000e+00,0.000000000000000e+00
	1.006982446821708e-05,1.306636753889680e-13
	1.006982452107026e-05,1.355106364771302e-13
	6.923403510823761e-07,-1.835879807073641e-13
	1.525615623904768e-05,7.846741392443284e-12
	-5.370573078441705e-06,-7.195384006199546e-14
	-1.057792351168835e-05,-7.591199571673924e-12
	-6.923403510823787e-07,1.835879807073638e-13
	-1.525615623904075e-05,-7.846741392443284e-12
	-6.923403510823787e-07,1.835879807073638e-13
13		1.348962882591653e+00,0.000000000000000e+00
	-6.923403510823787e-03,1.878642941248197e-09
	1.000000000000000e+00,0.000000000000000e+00
	0.000000000000000e+00,0.000000000000000e+00
	1.006982446821708e-05,1.337072233711782e-13
	1.006982452107025e-05,1.386670846865521e-13
	6.923403510823761e-07,-1.878642941248193e-13
	1.525615623904767e-05,8.029515479126543e-12
	-5.370573078441703e-06,-7.362986030313016e-14
	-1.057792351168835e-05,-7.768021324698593e-12
	-6.923403510823787e-07,1.878642941248197e-13
	-1.525615623904075e-05,-8.029515479126540e-12
	-6.923403510823787e-07,1.878642941248197e-13
14		1.380384264602885e+00,0.000000000000000e+00
	-6.923403510823786e-03,1.922402156776984e-09
	1.000000000000000e+00,0.000000000000000e+00
	0.000000000000000e+00,0.000000000000000e+00
	1.006982446821708e-05,1.368216646930441e-13
	1.006982452107025e-05,1.418970560197506e-13
	6.923403510823778e-07,-1.922402156776993e-13
	1.525615623904767e-05,8.216546921200030e-12
	-5.370573078441703e-06,-7.534492007080397e-14
	-1.057792351168835e-05,-7.948961785451529e-12
	-6.923403510823786e-07,1.922402156776984e-13
	-1.525615623904075e-05,-8.216546921200032e-12
	-6.923403510823786e-07,1.922402156776984e-13
15		1.412537544622754e+00,0.000000000000000e+00
	-6.923403510823786e-03,1.967180655375296e-09
	1.000000000000000e+00,0.000000000000000e+00
	0.000000000000000e+00,0.000000000000000e+00
	1.006982446821708e-05,1.400086506725791e-13
	1.006982452107025e-05,1.452022630502804e-13
	6.923403510823778e-07,-1.967180655375293e-13
	1.525615623904767e-05,8.407934885209999e-12
	-5.370573078441703e-06,-7.709992871240723e-14
	-1.057792351168835e-05,-8.134116890960062e-12
	-6.923403510823786e-07,1.967180655375296e-13
	-1.525615623904075e-05,-8.407934885209998e-12
	-6.923403510823786e-07,1.967180655375296e-13
16		1.445439770745927e+00,0.000000000000000e+00
	-6.923403510823786e-03,2.013002179195801e-09
	1.000000000000000e+00,0.000000000000000e+00
	0.000000000000000e+00,0.000000000000000e+00
	1.006982446821708e-05,1.432698710919343e-13
	1.006982452107025e-05,1.485844582426586e-13
	6.923403510823761e-07,-2.013002179195788e-13
	1.525615623904768e-05,8.603780847588277e-12
	-5.370573078441702e-06,-7.889581675675201e-14
	-1.057792351168835e-05,-8.323584812911945e-12
	-6.923403510823786e-07,2.013002179195801e-13
	-1.525615623904075e-05,-8.603780847588275e-12
	-6.923403510823786e-07,2.013002179195801e-13
17		1.479108388168207e+00,0.000000000000000e+00
	-6.923403510823786e-03,2.059891023416950e-09
	1.000000000000000e+00,0.000000000000000e+00
	0.000000000000000e+00,0.000000000000000e+00
	1.006982446821708e-05,1.466070550933434e-13
	1.006982452107025e-05,1.520454348815449e-13
	6.923403510823761e-07,-2.059891023416941e-13
	1.525615623904768e-05,8.804188648456449e-12
	-5.370573078441702e-06,-8.073353640745083e-14
	-1.057792351168835e-05,-8.517466009707305e-12
	-6.923403510823786e-07,2.059891023416950e-13
	-1.525615623904075e-05,-8.804188648456449e-12
	-6.923403510823786e-07,2.059891023416950e-13
18		1.513561248436208e+00,0.000000000000000e+00
	-6.923403510823785e-03,2.107872049124595e-09
	1.000000000000000e+00,0.000000000000000e+00
	0.000000000000000e+00,0.000000000000000e+00
	1.006982446821708e-05,1.500219720959367e-13
	1.006982452107025e-05,1.555870280225646e-13
	6.923403510823778e-07,-2.107872049124598e-13
	1.525615623904768e-05,9.009264546683250e-12
	-5.370573078441702e-06,-8.261406204778755e-14
	-1.057792351168835e-05,-8.715863279723003e-12
	-6.923403510823786e-07,2.107872049124596e-13
	-1.525615623904075e-05,-9.009264546683248e-12
	-6.923403510823786e-07,2.107872049124596e-13
19		1.548816618912481e+00,0.000000000000000e+00
	-6.923403510823785e-03,2.156970696493672e-09
	1.000000000000000e+00,0.000000000000000e+00
	0.000000000000000e+00,0.000000000000000e+00
	1.006982446821708e-05,1.535164327339109e-13
	1.006982452107025e-05,1.592111154652797e-13
	6.923403510823778e-07,-2.156970696493688e-13
	1.525615623904768e-05,9.219117276224413e-12
	-5.370573078441700e-06,-8.453839075734843e-14
	-1.057792351168835e-05,-8.918881815817697e-12
	-6.923403510823786e-07,2.156970696493672e-13
	-1.525615623904075e-05,-9.219117276224413e-12
	-6.923403510823786e-07,2.156970696493672e-13
20		1.584893192461113e+00,0.000000000000000e+00
	-6.923403510823785e-03,2.207212998276912e-09
	1.000000000000000e+00,0.000000000000000e+00
	0.000000000000000e+00,0.000000000000000e+00
	1.006982446821708e-05,1.570922898165508e-13
	1.006982452107025e-05,1.629196187488227e-13
	6.923403510823761e-07,-2.207212998276910e-13
	1.525615623904768e-05,9.433858103774877e-12
	-5.370573078441700e-06,-8.650754284068673e-14
	-1.057792351168835e-05,-9.126629261106499e-12
	-6.923403510823786e-07,2.207212998276912e-13
	-1.525615623904075e-05,-9.433858103774874e-12
	-6.923403510823786e-07,2.207212998276912e-13
21		1.621810097358929e+00,0.000000000000000e+00
	-6.923403510823785e-03,2.258625593607756e-09
	1.000000000000000e+00,0.000000000000000e+00
	0.000000000000000e+00,0.000000000000000e+00
	1.006982446821708e-05,1.607514393106137e-13
	1.006982452107025e-05,1.667145041707224e-13
	6.923403510823761e-07,-2.258625593607763e-13
	1.525615623904768e-05,9.653600887763834e-12
	-5.370573078441700e-06,-8.852256236830184e-14
	-1.057792351168835e-05,-9.339215766034755e-12
	-6.923403510823786e-07,2.258625593607756e-13
	-1.525615623904075e-05,-9.653600887763832e-12
	-6.923403510823786e-07,2.258625593607756e-13
22		1.659586907437560e+00,0.000000000000000e+00
	-6.923403510823784e-03,2.311235742124776e-09
	1.000000000000000e+00,0.000000000000000e+00
	0.000000000000000e+00,0.000000000000000e+00
	1.006982446821707e-05,1.644958213455959e-13
	1.006982452107025e-05,1.705977838294608e-13
	6.923403510823795e-07,-2.311235742124776e-13
	1.525615623904767e-05,9.878462138723997e-12
	-5.370573078441700e-06,-9.058451773021929e-14
	-1.057792351168836e-05,-9.556754046781300e-12
	-6.923403510823785e-07,2.311235742124776e-13
	-1.525615623904075e-05,-9.878462138723997e-12
	-6.923403510823785e-07,2.311235742124776e-13
23		1.698243652461743e+00,0.000000000000000e+00
	-6.923403510823784e-03,2.365071338425091e-09
	1.000000000000000e+00,0.000000000000000e+00
	0.000000000000000e+00,0.000000000000000e+00
	1.006982446821707e-05,1.683274212424152e-13
	1.006982452107025e-05,1.745715166913142e-13
	6.923403510823778e-07,-2.365071338425088e-13
	1.525615623904768e-05,1.010856108106702e-11
	-5.370573078441700e-06,-9.269450220246512e-14
	-1.057792351168836e-05,-9.779359445022044e-12
	-6.923403510823785e-07,2.365071338425091e-13
	-1.525615623904075e-05,-1.010856108106702e-11
	-6.923403510823785e-07,2.365071338425091e-13
24		1.737800828749374e+00,0.000000000000000e+00
	-6.923403510823784e-03,2.420160926854459e-09
	1.000000000000000e+00,0.000000000000000e+00
	0.000000000000000e+00,0.000000000000000e+00
	1.006982446821707e-05,1.722482705660540e-13
	1.006982452107025e-05,1.786378096820445e-13
	6.923403510823778e-07,-2.420160926854450e-13
	1.525615623904768e-05,1.034401971629784e-11
	-5.370573078441700e-06,-9.485363452673546e-14
	-1.057792351168836e-05,-1.000714998908566e-11
	-6.923403510823785e-07,2.420160926854459e-13
	-1.525615623904075e-05,-1.034401971629784e-11
	-6.923403510823785e-07,2.420160926854459e-13
25		1.778279410038922e+00,0.000000000000000e+00
	-6.923403510823783e-03,2.476533716641863e-09
	1.000000000000000e+00,0.000000000000000e+00
	0.000000000000000e+00,0.000000000000000e+00
	1.006982446821707e-05,1.762604482027223e-13
	1.006982452107025e-05,1.827988188040191e-13
	6.923403510823795e-07,-2.476533716641866e-13
	1.525615623904768e-05,1.058496288770154e-11
	-5.370573078441700e-06,-9.706305950356815e-14
	-1.057792351168836e-05,-1.024024645653378e-11
	-6.923403510823784e-07,2.476533716641863e-13
	-1.525615623904075e-05,-1.058496288770153e-11
	-6.923403510823784e-07,2.476533716641863e-13
26		1.819700858609982e+00,0.000000000000000e+00
	-6.923403510823783e-03,2.534219597386628e-09
	1.000000000000000e+00,0.000000000000000e+00
	0.000000000000000e+00,0.000000000000000e+00
	1.006982446821707e-05,1.803660814621106e-13
	1.006982452107025e-05,1.870567502793522e-13
	6.923403510823778e-07,-2.534219597386642e-13
	1.525615623904768e-05,1.083151834653684e-11
	-5.370573078441700e-06,-9.932394859933117e-14
	-1.057792351168836e-05,-1.047877243819884e-11
	-6.923403510823784e-07,2.534219597386628e-13
	-1.525615623904075e-05,-1.083151834653683e-11
	-6.923403510823784e-07,2.534219597386628e-13
27		1.862087136662866e+00,0.000000000000000e+00
	-6.923403510823783e-03,2.593249154906291e-09
	1.000000000000000e+00,0.000000000000000e+00
	0.000000000000000e+00,0.000000000000000e+00
	1.006982446821707e-05,1.845673472053174e-13
	1.006982452107025e-05,1.914138617196721e-13
	6.923403510823778e-07,-2.593249154906297e-13
	1.525615623904768e-05,1.108381681977157e-11
	-5.370573078441699e-06,-1.016375005673494e-13
	-1.057792351168836e-05,-1.072285440371359e-11
	-6.923403510823784e-07,2.593249154906291e-13
	-1.525615623904075e-05,-1.108381681977156e-11
	-6.923403510823784e-07,2.593249154906291e-13
28		1.905460717963246e+00,0.000000000000000e+00
	-6.923403510823782e-03,2.653653687453595e-09
	1.000000000000000e+00,0.000000000000000e+00
	0.000000000000000e+00,0.000000000000000e+00
	1.006982446821707e-05,1.888664729990500e-13
	1.006982452107025e-05,1.958724633231377e-13
	6.923403510823778e-07,-2.653653687453597e-13
	1.525615623904768e-05,1.134199207939580e-11
	-5.370573078441699e-06,-1.040049420834998e-13
	-1.057792351168836e-05,-1.097262176856694e-11
	-6.923403510823783e-07,2.653653687453595e-13
	-1.525615623904075e-05,-1.134199207939579e-11
	-6.923403510823783e-07,2.653653687453595e-13
29		1.949844599758044e+00,0.000000000000000e+00
	-6.923403510823782e-03,2.715465222311247e-09
	1.000000000000000e+00,0.000000000000000e+00
	0.000000000000000e+00,0.000000000000000e+00
	1.006982446821707e-05,1.932657382967102e-13
	1.006982452107024e-05,2.004349190993359e-13
	6.923403510823778e-07,-2.715465222311240e-13
	1.525615623904768e-05,1.160618101334954e-11
	-5.370573078441698e-06,-1.064275283966111e-13
	-1.057792351168836e-05,-1.122820696272180e-11
	-6.923403510823783e-07,2.715465222311247e-13
	-1.525615623904075e-05,-1.160618101334954e-11
	-6.923403510823783e-07,2.715465222311247e-13
30		1.995262314968878e+00,0.000000000000000e+00
	-6.923403510823782e-03,2.778716532773199e-09
	1.000000000000000e+00,0.000000000000000e+00
	0.000000000000000e+00,0.000000000000000e+00
	1.006982446821707e-05,1.977674756469897e-13
	1.006982452107024e-05,2.051036481227102e-13
	6.923403510823778e-07,-2.778716532773199e-13
	1.525615623904768e-05,1.187652369810252e-11
	-5.370573078441698e-06,-1.089065439940130e-13
	-1.057792351168837e-05,-1.148974550083119e-11
	-6.923403510823782e-07,2.778716532773199e-13
	-1.525615623904075e-05,-1.187652369810252e-11
	-6.923403510823782e-07,2.778716532773199e-13
31		2.041737944669527e+00,0.000000000000000e+00
	-6.923403510823782e-03,2.843441155521488e-09
	1.000000000000000e+00,0.000000000000000e+00
	0.000000000000000e+00,0.000000000000000e+00
	1.006982446821707e-05,2.023740719306193e-13
	1.006982452107024e-05,2.098811258151870e-13
	6.923403510823778e-07,-2.843441155521498e-13
	1.525615623904768e-05,1.215316347292462e-11
	-5.370573078441697e-06,-1.114433032825892e-13
	-1.057792351168837e-05,-1.175737605408988e-11
	-6.923403510823782e-07,2.843441155521489e-13
	-1.525615623904075e-05,-1.215316347292461e-11
	-6.923403510823782e-07,2.843441155521489e-13
32		2.089296130854037e+00,0.000000000000000e+00
	-6.923403510823781e-03,2.909673408407829e-09
	1.000000000000000e+00,0.000000000000000e+00
	0.000000000000000e+00,0.000000000000000e+00
	1.006982446821706e-05,2.070879696259240e-13
