Title: * GA CMOS Amp | W=2.7946830097930246e-05 L=6.55321341870031e-07 Vbias=0.7383097477206688
Date: Mon Sep  8 18:45:54 2025
Plotname: AC Analysis
Flags: complex forward log
No. Variables: 11
No. Points:          901
Offset:    0.0000000000000000e+00
Command: Linear Technology Corporation LTspice
Variables:
	0	frequency	frequency
	1	V(out)	voltage
	2	V(g)	voltage
	3	V(vdd)	voltage
	4	Id(M1)	device_current
	5	Ig(M1)	device_current
	6	Ib(M1)	device_current
	7	Is(M1)	device_current
	8	I(Rload)	device_current
	9	I(Vg)	device_current
	10	I(Vdd)	device_current
Values:
0		1.000000000000000e+00,0.000000000000000e+00
	-1.189771205573649e+00,7.621249746850743e-10
	1.000000000000000e+00,0.000000000000000e+00
	0.000000000000000e+00,0.000000000000000e+00
	1.189771205573649e-04,-7.621249746850744e-14
	2.676508409621337e-23,2.079518212918082e-13
	1.189771209070961e-12,-3.901358445650822e-15
	-1.189771217471361e-04,-1.278379653776500e-13
	-1.189771205573649e-04,7.621249746850744e-14
	-2.676508409621337e-23,-2.079518212918082e-13
	-1.189771205573649e-04,7.621249746850744e-14
1		1.023292992280754e+00,0.000000000000000e+00
	-1.189771205573649e+00,7.798771458373836e-10
	1.000000000000000e+00,0.000000000000000e+00
	0.000000000000000e+00,0.000000000000000e+00
	1.189771205573649e-04,-7.798771458373836e-14
	2.802648364812813e-23,2.127956414599271e-13
	1.189771209070961e-12,-3.992232757809844e-15
	-1.189771217471361e-04,-1.308156941183789e-13
	-1.189771205573649e-04,7.798771458373836e-14
	-2.802648364812813e-23,-2.127956414599271e-13
	-1.189771205573649e-04,7.798771458373836e-14
2		1.047128548050899e+00,0.000000000000000e+00
	-1.189771205573649e+00,7.980428181753103e-10
	1.000000000000000e+00,0.000000000000000e+00
	0.000000000000000e+00,0.000000000000000e+00
	1.189771205573649e-04,-7.980428181753103e-14
	2.934733112943668e-23,2.177522886938313e-13
	1.189771209070961e-12,-4.085223804620459e-15
	-1.189771217471361e-04,-1.338627830716798e-13
	-1.189771205573649e-04,7.980428181753103e-14
	-2.934733112943668e-23,-2.177522886938313e-13
	-1.189771205573649e-04,7.980428181753103e-14
3		1.071519305237606e+00,0.000000000000000e+00
	-1.189771205573649e+00,8.166316233787790e-10
	1.000000000000000e+00,0.000000000000000e+00
	0.000000000000000e+00,0.000000000000000e+00
	1.189771205573649e-04,-8.166316233787791e-14
	3.073042823473599e-23,2.228243910734932e-13
	1.189771209070961e-12,-4.180380891166618e-15
	-1.189771217471361e-04,-1.369808478444487e-13
	-1.189771205573649e-04,8.166316233787791e-14
	-3.073042823473599e-23,-2.228243910734932e-13
	-1.189771205573649e-04,8.166316233787791e-14
4		1.096478196143185e+00,0.000000000000000e+00
	-1.189771205573649e+00,8.356534174783606e-10
	1.000000000000000e+00,0.000000000000000e+00
	0.000000000000000e+00,0.000000000000000e+00
	1.189771205573649e-04,-8.356534174783605e-14
	3.217870869842146e-23,2.280146378947318e-13
	1.189771209070961e-12,-4.277754470995231e-15
	-1.189771217471361e-04,-1.401715416759005e-13
	-1.189771205573649e-04,8.356534174783606e-14
	-3.217870869842146e-23,-2.280146378947318e-13
	-1.189771205573649e-04,8.356534174783606e-14
5		1.122018454301963e+00,0.000000000000000e+00
	-1.189771205573649e+00,8.551182860810699e-10
	1.000000000000000e+00,0.000000000000000e+00
	0.000000000000000e+00,0.000000000000000e+00
	1.189771205573649e-04,-8.551182860810699e-14
	3.369524451753092e-23,2.333257810951128e-13
	1.189771209070961e-12,-4.377396172867070e-15
	-1.189771217471361e-04,-1.434365563141387e-13
	-1.189771205573649e-04,8.551182860810699e-14
	-3.369524451753092e-23,-2.333257810951128e-13
	-1.189771205573649e-04,8.551182860810699e-14
6		1.148153621496882e+00,0.000000000000000e+00
	-1.189771205573649e+00,8.750365497178879e-10
	1.000000000000000e+00,0.000000000000000e+00
	0.000000000000000e+00,0.000000000000000e+00
	1.189771205573649e-04,-8.750365497178880e-14
	3.528325246786219e-23,2.387606367130621e-13
	1.189771209070961e-12,-4.479358828131435e-15
	-1.189771217471361e-04,-1.467776229131419e-13
	-1.189771205573649e-04,8.750365497178879e-14
	-3.528325246786219e-23,-2.387606367130621e-13
	-1.189771205573649e-04,8.750365497178879e-14
7		1.174897554939529e+00,0.000000000000000e+00
	-1.189771205573649e+00,8.954187693158443e-10
	1.000000000000000e+00,0.000000000000000e+00
	0.000000000000000e+00,0.000000000000000e+00
	1.189771205573649e-04,-8.954187693158443e-14
	3.694610092718584e-23,2.443220863809674e-13
	1.189771209070961e-12,-4.583696498737840e-15
	-1.189771217471361e-04,-1.501965129506451e-13
	-1.189771205573649e-04,8.954187693158443e-14
	-3.694610092718584e-23,-2.443220863809674e-13
	-1.189771205573649e-04,8.954187693158443e-14
8		1.202264434617413e+00,0.000000000000000e+00
	-1.189771205573649e+00,9.162757517975607e-10
	1.000000000000000e+00,0.000000000000000e+00
	0.000000000000000e+00,0.000000000000000e+00
	1.189771205573649e-04,-9.162757517975607e-14
	3.868731702002610e-23,2.500130788530570e-13
	1.189771209070961e-12,-4.690464505900268e-15
	-1.189771217471361e-04,-1.536950391674007e-13
	-1.189771205573649e-04,9.162757517975608e-14
	-3.868731702002610e-23,-2.500130788530570e-13
	-1.189771205573649e-04,9.162757517975608e-14
9		1.230268770812381e+00,0.000000000000000e+00
	-1.189771205573649e+00,9.376185558112235e-10
	1.000000000000000e+00,0.000000000000000e+00
	0.000000000000000e+00,0.000000000000000e+00
	1.189771205573649e-04,-9.376185558112235e-14
	4.051059409916479e-23,2.558366315688689e-13
	1.189771209070961e-12,-4.799719459429356e-15
	-1.189771217471361e-04,-1.572750565283172e-13
	-1.189771205573649e-04,9.376185558112235e-14
	-4.051059409916479e-23,-2.558366315688689e-13
	-1.189771205573649e-04,9.376185558112235e-14
10		1.258925411794167e+00,0.000000000000000e+00
	-1.189771205573649e+00,9.594584975940261e-10
	1.000000000000000e+00,0.000000000000000e+00
	0.000000000000000e+00,0.000000000000000e+00
	1.189771205573649e-04,-9.594584975940262e-14
	4.241979957973777e-23,2.617958322531367e-13
	1.189771209070961e-12,-4.911519287747629e-15
	-1.189771217471361e-04,-1.609384632059864e-13
	-1.189771205573649e-04,9.594584975940261e-14
	-4.241979957973777e-23,-2.617958322531367e-13
	-1.189771205573649e-04,9.594584975940261e-14
11		1.288249551693134e+00,0.000000000000000e+00
	-1.189771205573649e+00,9.818071569721880e-10
	1.000000000000000e+00,0.000000000000000e+00
	0.000000000000000e+00,0.000000000000000e+00
	1.189771205573649e-04,-9.818071569721879e-14
	4.441898314254098e-23,2.678938405529426e-13
	1.189771209070961e-12,-5.025923268603870e-15
	-1.189771217471361e-04,-1.646872015871200e-13
	-1.189771205573649e-04,9.818071569721880e-14
	-4.441898314254098e-23,-2.678938405529426e-13
	-1.189771205573649e-04,9.818071569721880e-14
12		1.318256738556407e+00,0.000000000000000e+00
	-1.189771205573649e+00,1.004676383500730e-09
	1.000000000000000e+00,0.000000000000000e+00
	0.000000000000000e+00,0.000000000000000e+00
	1.189771205573649e-04,-1.004676383500730e-13
	4.651238532394629e-23,2.741338897130039e-13
	1.189771209070961e-12,-5.142992060503153e-15
	-1.189771217471361e-04,-1.685232593024277e-13
	-1.189771205573649e-04,1.004676383500730e-13
	-4.651238532394629e-23,-2.741338897130039e-13
	-1.189771205573649e-04,1.004676383500730e-13
13		1.348962882591653e+00,0.000000000000000e+00
	-1.189771205573649e+00,1.028078302746268e-09
	1.000000000000000e+00,0.000000000000000e+00
	0.000000000000000e+00,0.000000000000000e+00
	1.189771205573649e-04,-1.028078302746269e-13
	4.870444651064786e-23,2.805192882899820e-13
	1.189771209070961e-12,-5.262787734868454e-15
	-1.189771217471361e-04,-1.724486702804867e-13
	-1.189771205573649e-04,1.028078302746269e-13
	-4.870444651064786e-23,-2.805192882899820e-13
	-1.189771205573649e-04,1.028078302746269e-13
14		1.380384264602885e+00,0.000000000000000e+00
	-1.189771205573649e+00,1.052025322716148e-09
	1.000000000000000e+00,0.000000000000000e+00
	0.000000000000000e+00,0.000000000000000e+00
	1.189771205573649e-04,-1.052025322716148e-13
	5.099981635831741e-23,2.870534219067232e-13
	1.189771209070961e-12,-5.385373808951965e-15
	-1.189771217471361e-04,-1.764655158261564e-13
	-1.189771205573649e-04,1.052025322716149e-13
	-5.099981635831741e-23,-2.870534219067232e-13
	-1.189771205573649e-04,1.052025322716149e-13
15		1.412537544622754e+00,0.000000000000000e+00
	-1.189771205573649e+00,1.076530140437333e-09
	1.000000000000000e+00,0.000000000000000e+00
	0.000000000000000e+00,0.000000000000000e+00
	1.189771205573649e-04,-1.076530140437334e-13
	5.340336365414743e-23,2.937397550473606e-13
	1.189771209070961e-12,-5.510815279512848e-15
	-1.189771217471361e-04,-1.805759257241144e-13
	-1.189771205573649e-04,1.076530140437334e-13
	-5.340336365414743e-23,-2.937397550473606e-13
	-1.189771205573649e-04,1.076530140437334e-13
16		1.445439770745927e+00,0.000000000000000e+00
	-1.189771205573649e+00,1.101605748688539e-09
	1.000000000000000e+00,0.000000000000000e+00
	0.000000000000000e+00,0.000000000000000e+00
	1.189771205573649e-04,-1.101605748688539e-13
	5.592018664420154e-23,3.005818328942293e-13
	1.189771209070961e-12,-5.639178657279245e-15
	-1.189771217471361e-04,-1.847820793680961e-13
	-1.189771205573649e-04,1.101605748688539e-13
	-5.592018664420154e-23,-3.005818328942293e-13
	-1.189771205573649e-04,1.101605748688539e-13
17		1.479108388168207e+00,0.000000000000000e+00
	-1.189771205573649e+00,1.127265442889176e-09
	1.000000000000000e+00,0.000000000000000e+00
	0.000000000000000e+00,0.000000000000000e+00
	1.189771205573649e-04,-1.127265442889176e-13
	5.855562384747805e-23,3.075832832075695e-13
	1.189771209070961e-12,-5.770532002213041e-15
	-1.189771217471361e-04,-1.890862069164389e-13
	-1.189771205573649e-04,1.127265442889176e-13
	-5.855562384747805e-23,-3.075832832075695e-13
	-1.189771205573649e-04,1.127265442889176e-13
18		1.513561248436208e+00,0.000000000000000e+00
	-1.189771205573649e+00,1.153522828148754e-09
	1.000000000000000e+00,0.000000000000000e+00
	0.000000000000000e+00,0.000000000000000e+00
	1.189771205573649e-04,-1.153522828148754e-13
	6.131526537962433e-23,3.147478182490124e-13
	1.189771209070961e-12,-5.904944959596430e-15
	-1.189771217471361e-04,-1.934905904745406e-13
	-1.189771205573649e-04,1.153522828148754e-13
	-6.131526537962433e-23,-3.147478182490124e-13
	-1.189771205573649e-04,1.153522828148754e-13
19		1.548816618912481e+00,0.000000000000000e+00
	-1.189771205573649e+00,1.180391826480497e-09
	1.000000000000000e+00,0.000000000000000e+00
	0.000000000000000e+00,0.000000000000000e+00
	1.189771205573649e-04,-1.180391826480497e-13
	6.420496481032162e-23,3.220792367498709e-13
	1.189771209070961e-12,-6.042488796958580e-15
	-1.189771217471361e-04,-1.979975653048626e-13
	-1.189771205573649e-04,1.180391826480497e-13
	-6.420496481032162e-23,-3.220792367498709e-13
	-1.189771205573649e-04,1.180391826480497e-13
20		1.584893192461113e+00,0.000000000000000e+00
	-1.189771205573649e+00,1.207886684182972e-09
	1.000000000000000e+00,0.000000000000000e+00
	0.000000000000000e+00,0.000000000000000e+00
	1.189771205573649e-04,-1.207886684182972e-13
	6.723085157949117e-23,3.295814259252768e-13
	1.189771209070961e-12,-6.183236441862705e-15
	-1.189771217471361e-04,-2.026095210651169e-13
	-1.189771205573649e-04,1.207886684182972e-13
	-6.723085157949117e-23,-3.295814259252768e-13
	-1.189771205573649e-04,1.207886684182972e-13
21		1.621810097358929e+00,0.000000000000000e+00
	-1.189771205573649e+00,1.236021979393672e-09
	1.000000000000000e+00,0.000000000000000e+00
	0.000000000000000e+00,0.000000000000000e+00
	1.189771205573649e-04,-1.236021979393672e-13
	7.039934399865808e-23,3.372583635352341e-13
	1.189771209070961e-12,-6.327262520573032e-15
	-1.189771217471361e-04,-2.073289030752939e-13
	-1.189771205573649e-04,1.236021979393672e-13
	-7.039934399865808e-23,-3.372583635352341e-13
	-1.189771205573649e-04,1.236021979393672e-13
22		1.659586907437560e+00,0.000000000000000e+00
	-1.189771205573649e+00,1.264812629818531e-09
	1.000000000000000e+00,0.000000000000000e+00
	0.000000000000000e+00,0.000000000000000e+00
	1.189771205573649e-04,-1.264812629818531e-13
	7.371716286505065e-23,3.451141199936801e-13
	1.189771209070961e-12,-6.474643397623030e-15
	-1.189771217471361e-04,-2.121582136142040e-13
	-1.189771205573649e-04,1.264812629818531e-13
	-7.371716286505065e-23,-3.451141199936801e-13
	-1.189771205573649e-04,1.264812629818531e-13
23		1.698243652461743e+00,0.000000000000000e+00
	-1.189771205573649e+00,1.294273900641495e-09
	1.000000000000000e+00,0.000000000000000e+00
	0.000000000000000e+00,0.000000000000000e+00
	1.189771205573649e-04,-1.294273900641495e-13
	7.719134571731221e-23,3.531528605266722e-13
	1.189771209070961e-12,-6.625457216304496e-15
	-1.189771217471361e-04,-2.171000132462182e-13
	-1.189771205573649e-04,1.294273900641495e-13
	-7.719134571731221e-23,-3.531528605266722e-13
	-1.189771205573649e-04,1.294273900641495e-13
24		1.737800828749374e+00,0.000000000000000e+00
	-1.189771205573649e+00,1.324421412618318e-09
	1.000000000000000e+00,0.000000000000000e+00
	0.000000000000000e+00,0.000000000000000e+00
	1.189771205573649e-04,-1.324421412618318e-13
	8.082926176306410e-23,3.613788473808461e-13
	1.189771209070961e-12,-6.779783940100376e-15
	-1.189771217471361e-04,-2.221569221789140e-13
	-1.189771205573649e-04,1.324421412618318e-13
	-8.082926176306410e-23,-3.613788473808461e-13
	-1.189771205573649e-04,1.324421412618318e-13
25		1.778279410038922e+00,0.000000000000000e+00
	-1.189771205573649e+00,1.355271150358902e-09
	1.000000000000000e+00,0.000000000000000e+00
	0.000000000000000e+00,0.000000000000000e+00
	1.189771205573649e-04,-1.355271150358902e-13
	8.463862750998342e-23,3.697964420833161e-13
	1.189771209070961e-12,-6.937705395082339e-15
	-1.189771217471361e-04,-2.273316216523435e-13
	-1.189771205573649e-04,1.355271150358902e-13
	-8.463862750998342e-23,-3.697964420833161e-13
	-1.189771205573649e-04,1.355271150358902e-13
26		1.819700858609982e+00,0.000000000000000e+00
	-1.189771205573649e+00,1.386839470802541e-09
	1.000000000000000e+00,0.000000000000000e+00
	0.000000000000000e+00,0.000000000000000e+00
	1.189771205573649e-04,-1.386839470802541e-13
	8.862752313354984e-23,3.784101077542130e-13
	1.189771209070961e-12,-7.099305313296104e-15
	-1.189771217471361e-04,-2.326268553606628e-13
	-1.189771205573649e-04,1.386839470802541e-13
	-8.862752313354984e-23,-3.784101077542130e-13
	-1.189771205573649e-04,1.386839470802541e-13
27		1.862087136662866e+00,0.000000000000000e+00
	-1.189771205573649e+00,1.419143111890589e-09
	1.000000000000000e+00,0.000000000000000e+00
	0.000000000000000e+00,0.000000000000000e+00
	1.189771205573649e-04,-1.419143111890589e-13
	9.280440961618155e-23,3.872244114730912e-13
	1.189771209070961e-12,-7.264669377157451e-15
	-1.189771217471361e-04,-2.380454309068749e-13
	-1.189771205573649e-04,1.419143111890589e-13
	-9.280440961618155e-23,-3.872244114730912e-13
	-1.189771205573649e-04,1.419143111890589e-13
28		1.905460717963246e+00,0.000000000000000e+00
	-1.189771205573649e+00,1.452199201441142e-09
	1.000000000000000e+00,0.000000000000000e+00
	0.000000000000000e+00,0.000000000000000e+00
	1.189771205573649e-04,-1.452199201441142e-13
	9.717814669411313e-23,3.962440267004535e-13
	1.189771209070961e-12,-7.433885264881746e-15
	-1.189771217471361e-04,-2.435902212914575e-13
	-1.189771205573649e-04,1.452199201441142e-13
	-9.717814669411313e-23,-3.962440267004535e-13
	-1.189771205573649e-04,1.452199201441142e-13
29		1.949844599758044e+00,0.000000000000000e+00
	-1.189771205573649e+00,1.486025266230428e-09
	1.000000000000000e+00,0.000000000000000e+00
	0.000000000000000e+00,0.000000000000000e+00
	1.189771205573649e-04,-1.486025266230428e-13
	1.017580116500840e-22,4.054737357556821e-13
	1.189771209070961e-12,-7.607042696972665e-15
	-1.189771217471361e-04,-2.492641664356666e-13
	-1.189771205573649e-04,1.486025266230428e-13
	-1.017580116500840e-22,-4.054737357556821e-13
	-1.189771205573649e-04,1.486025266230428e-13
30		1.995262314968878e+00,0.000000000000000e+00
	-1.189771205573649e+00,1.520639241285739e-09
	1.000000000000000e+00,0.000000000000000e+00
	0.000000000000000e+00,0.000000000000000e+00
	1.189771205573649e-04,-1.520639241285739e-13
	1.065537189916990e-22,4.149184323526877e-13
	1.189771209070961e-12,-7.784233483792699e-15
	-1.189771217471361e-04,-2.550702747403211e-13
	-1.189771205573649e-04,1.520639241285739e-13
	-1.065537189916990e-22,-4.149184323526877e-13
	-1.189771205573649e-04,1.520639241285739e-13
31		2.041737944669527e+00,0.000000000000000e+00
	-1.189771205573649e+00,1.556059479394819e-09
	1.000000000000000e+00,0.000000000000000e+00
	0.000000000000000e+00,0.000000000000000e+00
	1.189771205573649e-04,-1.556059479394819e-13
	1.115754410572013e-22,4.245831241946214e-13
	1.189771209070961e-12,-7.965551574242236e-15
	-1.189771217471361e-04,-2.610116246808973e-13
	-1.189771205573649e-04,1.556059479394819e-13
	-1.115754410572013e-22,-4.245831241946214e-13
	-1.189771205573649e-04,1.556059479394819e-13
32		2.089296130854037e+00,0.000000000000000e+00
	-1.189771205573649e+00,1.592304760836757e-09
	1.000000000000000e+00,0.000000000000000e+00
	0.000000000000000e+00,0.000000000000000e+00
	1.189771205573649e-04,-1.592304760836757e-13
	1.168338295923659e-22,4.344729356290252e-13
	1.189771209070961e-12,-8.151093105573035e-15
	-1.189771217471361e-04,-2.670913664397765e-13
	-1.189771205573649e-04,1.592304760836757e-13
	-1.168338295923659e-22,-4.344729356290252e-13
	-1.189771205573649e-04,1.592304760836757e-13
33		2.137962089502230e+00,0.000000000000000e+00
	-1.189771205573649e+00,1.629394303339536e-09
	1.000000000000000e+00,0.000000000000000e+00
	0.000000000000000e+00,0.000000000000000e+00
	1.189771205573649e-04,-1.629394303339536e-13
	1.223400383442803e-22,4.445931103648287e-13
	1.189771209070961e-12,-8.340956454360831e-15
	-1.189771217471361e-04,-2.733127235765143e-13
	-1.189771205573649e-04,1.629394303339536e-13
	-1.223400383442803e-22,-4.445931103648287e-13
	-1.189771205573649e-04,1.629394303339536e-13
34		2.187761623949550e+00,0.000000000000000e+00
	-1.189771205573649e+00,1.667347772269528e-09
	1.000000000000000e+00,0.000000000000000e+00
	0.000000000000000e+00,0.000000000000000e+00
	1.189771205573649e-04,-1.667347772269528e-13
	1.281057467199376e-22,4.549490142526331e-13
	1.189771209070961e-12,-8.535242288666387e-15
	-1.189771217471361e-04,-2.796789947370139e-13
	-1.189771205573649e-04,1.667347772269528e-13
	-1.281057467199376e-22,-4.549490142526331e-13
	-1.189771205573649e-04,1.667347772269528e-13
35		2.238721138568337e+00,0.000000000000000e+00
	-1.189771205573649e+00,1.706185291058335e-09
	1.000000000000000e+00,0.000000000000000e+00
	0.000000000000000e+00,0.000000000000000e+00
	1.189771205573649e-04,-1.706185291058335e-13
	1.341431845598245e-22,4.655461381297563e-13
	1.189771209070961e-12,-8.734053621410575e-15
	-1.189771217471361e-04,-2.861935554025123e-13
	-1.189771205573649e-04,1.706185291058335e-13
	-1.341431845598245e-22,-4.655461381297563e-13
	-1.189771205573649e-04,1.706185291058335e-13
36		2.290867652767770e+00,0.000000000000000e+00
	-1.189771205573649e+00,1.745927451872492e-09
	1.000000000000000e+00,0.000000000000000e+00
	0.000000000000000e+00,0.000000000000000e+00
	1.189771205573649e-04,-1.745927451872493e-13
	1.404651580790529e-22,4.763901007315477e-13
	1.189771209070961e-12,-8.937495864993872e-15
	-1.189771217471361e-04,-2.928598596793045e-13
	-1.189771205573649e-04,1.745927451872492e-13
	-1.404651580790529e-22,-4.763901007315477e-13
	-1.189771205573649e-04,1.745927451872492e-13
37		2.344228815319919e+00,0.000000000000000e+00
	-1.189771205573649e+00,1.786595326531715e-09
	1.000000000000000e+00,0.000000000000000e+00
	0.000000000000000e+00,0.000000000000000e+00
	1.189771205573649e-04,-1.786595326531715e-13
	1.470850770310587e-22,4.874866516705152e-13
	1.189771209070961e-12,-9.145676887186409e-15
	-1.189771217471361e-04,-2.996814421301573e-13
	-1.189771205573649e-04,1.786595326531715e-13
	-1.470850770310587e-22,-4.874866516705152e-13
	-1.189771205573649e-04,1.786595326531715e-13
38		2.398832919019488e+00,0.000000000000000e+00
	-1.189771205573649e+00,1.828210477681450e-09
	1.000000000000000e+00,0.000000000000000e+00
