LTspice 24.0.9 for Windows
Circuit: * GA CMOS Amp | W=1.0087529440538486e-05 L=1e-06 Vbias=1.0968221665159386
Start Time: Mon Sep  8 18:44:35 2025
solver = Normal
Maximum thread count: 2
tnom = 27
temp = 27
method = modified trap
AsciiRawFile = 1
Direct Newton iteration for .op point succeeded.
Semiconductor Device Operating Points:
                        --- MOSFET Transistors ---
Name:          m1
Model:        n_1u
Id:          6.08e-05
Vgs:         1.10e+00
Vds:         1.19e+00
Vbs:         0.00e+00
Vth:         8.22e-01
Vdsat:       2.55e-01
Gm:          3.25e-04
Gds:         1.05e-05
Gmb:         8.21e-05
Cbd:         0.00e+00
Cbs:         0.00e+00
Cgsov:       2.02e-15
Cgdov:       2.02e-15
Cgbov:       8.00e-17
Cgs:         9.29e-15
Cgd:         0.00e+00
Cgb:         0.00e+00



gain_db: MAX(db(v(out)/v(g)))=(29.2034dB,71.048°) FROM 1 TO 1e+09
gain_lin: MAX(mag(v(out)/v(g)))=(9.37029dB,0°) FROM 1 TO 1e+09

Measurement "fc" FAIL'ed

Total elapsed time: 0.436 seconds.

