LTspice 24.0.9 for Windows
Circuit: * GA CMOS Amp | W=1e-06 L=9.031439289171693e-07 Vbias=1.2395129125163957
Start Time: Mon Sep  8 18:46:38 2025
solver = Normal
Maximum thread count: 2
tnom = 27
temp = 27
method = modified trap
AsciiRawFile = 1
Instance "m1": Length shorter than recommended for a level 3 MOSFET.
Instance "m1": Width narrower than recommended for a level 3 MOSFET.
Direct Newton iteration for .op point succeeded.
Semiconductor Device Operating Points:
                        --- MOSFET Transistors ---
Name:          m1
Model:        n_1u
Id:          5.00e-06
Vgs:         1.24e+00
Vds:         1.75e+00
Vbs:         0.00e+00
Vth:         9.96e-01
Vdsat:       1.95e-01
Gm:          2.98e-05
Gds:         8.56e-07
Gmb:         1.51e-05
Cbd:         0.00e+00
Cbs:         0.00e+00
Cgsov:       2.00e-16
Cgdov:       2.00e-16
Cgbov:       7.03e-17
Cgs:         8.09e-16
Cgd:         0.00e+00
Cgb:         0.00e+00



gain_db: MAX(db(v(out)/v(g)))=(29.3287dB,111.213°) FROM 1 TO 1e+09
gain_lin: MAX(mag(v(out)/v(g)))=(-10.5844dB,0°) FROM 1 TO 1e+09

Measurement "fc" FAIL'ed

Total elapsed time: 0.444 seconds.

