LTspice 24.0.9 for Windows
Circuit: * GA CMOS Amp | W=6.335566074331904e-06 L=6.962970289134319e-07 Vbias=1.302363559646491
Start Time: Mon Sep  8 18:46:10 2025
solver = Normal
Maximum thread count: 2
tnom = 27
temp = 27
method = modified trap
AsciiRawFile = 1
Instance "m1": Length shorter than recommended for a level 3 MOSFET.
Direct Newton iteration for .op point succeeded.
Semiconductor Device Operating Points:
                        --- MOSFET Transistors ---
Name:          m1
Model:        n_1u
Id:          1.30e-04
Vgs:         1.30e+00
Vds:         4.98e-01
Vbs:         0.00e+00
Vth:         7.99e-01
Vdsat:       3.49e-01
Gm:          3.49e-04
Gds:         6.88e-05
Gmb:         7.99e-05
Cbd:         0.00e+00
Cbs:         0.00e+00
Cgsov:       1.27e-15
Cgdov:       1.27e-15
Cgbov:       4.96e-17
Cgs:         3.62e-15
Cgd:         0.00e+00
Cgb:         0.00e+00



gain_db: MAX(db(v(out)/v(g)))=(28.945dB,76.9934°) FROM 1 TO 1e+09
gain_lin: MAX(mag(v(out)/v(g)))=(6.30315dB,0°) FROM 1 TO 1e+09

Measurement "fc" FAIL'ed

Total elapsed time: 0.453 seconds.

