Title: * GA CMOS Amp | W=4.817754092144642e-05 L=9.690097901427563e-07 Vbias=0.9224697582921961
Date: Sat Sep  6 22:01:43 2025
Plotname: AC Analysis
Flags: complex forward log
No. Variables: 13
No. Points:          901
Offset:    0.0000000000000000e+00
Command: Linear Technology Corporation LTspice
Variables:
	0	frequency	frequency
	1	V(out)	voltage
	2	V(g)	voltage
	3	V(vdd)	voltage
	4	V(m1#dbody)	voltage
	5	V(m1#sbody)	voltage
	6	Id(M1)	device_current
	7	Ig(M1)	device_current
	8	Ib(M1)	device_current
	9	Is(M1)	device_current
	10	I(Rload)	device_current
	11	I(Vg)	device_current
	12	I(Vdd)	device_current
Values:
0		1.000000000000000e+00,0.000000000000000e+00
	-5.012183046404589e-03,1.255091036934725e-09
	1.000000000000000e+00,0.000000000000000e+00
	0.000000000000000e+00,0.000000000000000e+00
	5.631013236468613e-06,1.221803908803960e-13
	5.631013277561775e-06,1.277986747176072e-13
	5.012183046404584e-07,-1.255091036934723e-13
	1.688992089007929e-05,1.198204998605930e-11
	-3.003207080899496e-06,-6.778883191064823e-14
	-1.438793211382026e-05,-1.178875205045518e-11
	-5.012183046404589e-07,1.255091036934725e-13
	-1.688992089007857e-05,-1.198204998605930e-11
	-5.012183046404589e-07,1.255091036934725e-13
1		1.023292992280754e+00,0.000000000000000e+00
	-5.012183046404589e-03,1.284325862769690e-09
	1.000000000000000e+00,0.000000000000000e+00
	0.000000000000000e+00,0.000000000000000e+00
	5.631013236468612e-06,1.250263377820325e-13
	5.631013277561774e-06,1.307754882612950e-13
	5.012183046404550e-07,-1.284325862769682e-13
	1.688992089007930e-05,1.226114778389219e-11
	-3.003207080899495e-06,-6.936783664906427e-14
	-1.438793211382026e-05,-1.206334736096615e-11
	-5.012183046404589e-07,1.284325862769690e-13
	-1.688992089007857e-05,-1.226114778389218e-11
	-5.012183046404589e-07,1.284325862769690e-13
2		1.047128548050899e+00,0.000000000000000e+00
	-5.012183046404589e-03,1.314241655177156e-09
	1.000000000000000e+00,0.000000000000000e+00
	0.000000000000000e+00,0.000000000000000e+00
	5.631013236468612e-06,1.279385753028804e-13
	5.631013277561774e-06,1.338216406998773e-13
	5.012183046404550e-07,-1.314241655177155e-13
	1.688992089007930e-05,1.254674660457557e-11
	-3.003207080899495e-06,-7.098362113266355e-14
	-1.438793211382026e-05,-1.234433881792519e-11
	-5.012183046404589e-07,1.314241655177157e-13
	-1.688992089007857e-05,-1.254674660457557e-11
	-5.012183046404589e-07,1.314241655177157e-13
3		1.071519305237606e+00,0.000000000000000e+00
	-5.012183046404589e-03,1.344854275906244e-09
	1.000000000000000e+00,0.000000000000000e+00
	0.000000000000000e+00,0.000000000000000e+00
	5.631013236468611e-06,1.309186475498211e-13
	5.631013277561773e-06,1.369387471436973e-13
	5.012183046404550e-07,-1.344854275906230e-13
	1.688992089007930e-05,1.283899787638452e-11
	-3.003207080899495e-06,-7.263704207176664e-14
	-1.438793211382026e-05,-1.263187540672214e-11
	-5.012183046404589e-07,1.344854275906244e-13
	-1.688992089007857e-05,-1.283899787638452e-11
	-5.012183046404589e-07,1.344854275906244e-13
4		1.096478196143185e+00,0.000000000000000e+00
	-5.012183046404589e-03,1.376179956173667e-09
	1.000000000000000e+00,0.000000000000000e+00
	0.000000000000000e+00,0.000000000000000e+00
	5.631013236468611e-06,1.339681345966058e-13
	5.631013277561773e-06,1.401284603238516e-13
	5.012183046404550e-07,-1.376179956173649e-13
	1.688992089007930e-05,1.313805655481177e-11
	-3.003207080899495e-06,-7.432897613204110e-14
	-1.438793211382026e-05,-1.292610958306236e-11
	-5.012183046404589e-07,1.376179956173667e-13
	-1.688992089007857e-05,-1.313805655481177e-11
	-5.012183046404589e-07,1.376179956173667e-13
5		1.122018454301963e+00,0.000000000000000e+00
	-5.012183046404588e-03,1.408235305269749e-09
	1.000000000000000e+00,0.000000000000000e+00
	0.000000000000000e+00,0.000000000000000e+00
	5.631013236468610e-06,1.370886533216316e-13
	5.631013277561772e-06,1.433924714684890e-13
	5.012183046404584e-07,-1.408235305269747e-13
	1.688992089007930e-05,1.344408120472711e-11
	-3.003207080899495e-06,-7.606032039932111e-14
	-1.438793211382026e-05,-1.322719735380082e-11
	-5.012183046404588e-07,1.408235305269749e-13
	-1.688992089007857e-05,-1.344408120472711e-11
	-5.012183046404588e-07,1.408235305269749e-13
6		1.148153621496882e+00,0.000000000000000e+00
	-5.012183046404588e-03,1.441037319364882e-09
	1.000000000000000e+00,0.000000000000000e+00
	0.000000000000000e+00,0.000000000000000e+00
	5.631013236468609e-06,1.402818582652313e-13
	5.631013277561771e-06,1.467325111995228e-13
	5.012183046404584e-07,-1.441037319364873e-13
	1.688992089007930e-05,1.375723408445065e-11
	-3.003207080899494e-06,-7.783199285525419e-14
	-1.438793211382026e-05,-1.353529835965891e-11
	-5.012183046404588e-07,1.441037319364882e-13
	-1.688992089007857e-05,-1.375723408445065e-11
	-5.012183046404588e-07,1.441037319364882e-13
7		1.174897554939529e+00,0.000000000000000e+00
	-5.012183046404588e-03,1.474603390521127e-09
	1.000000000000000e+00,0.000000000000000e+00
	0.000000000000000e+00,0.000000000000000e+00
	5.631013236468608e-06,1.435494425069332e-13
	5.631013277561771e-06,1.501503504502289e-13
	5.012183046404584e-07,-1.474603390521112e-13
	1.688992089007930e-05,1.407768123178428e-11
	-3.003207080899494e-06,-7.964493286402732e-14
	-1.438793211382026e-05,-1.385057595986815e-11
	-5.012183046404588e-07,1.474603390521127e-13
	-1.688992089007857e-05,-1.407768123178429e-11
	-5.012183046404588e-07,1.474603390521127e-13
8		1.202264434617413e+00,0.000000000000000e+00
	-5.012183046404588e-03,1.508951315913710e-09
	1.000000000000000e+00,0.000000000000000e+00
	0.000000000000000e+00,0.000000000000000e+00
	5.631013236468608e-06,1.468931385631538e-13
	5.631013277561771e-06,1.536478014042187e-13
	5.012183046404550e-07,-1.508951315913715e-13
	1.688992089007930e-05,1.440559255204716e-11
	-3.003207080899494e-06,-8.150010167043030e-14
	-1.438793211382026e-05,-1.417319731878536e-11
	-5.012183046404588e-07,1.508951315913709e-13
	-1.688992089007857e-05,-1.440559255204715e-11
	-5.012183046404588e-07,1.508951315913709e-13
9		1.230268770812381e+00,0.000000000000000e+00
	-5.012183046404588e-03,1.544099307267321e-09
	1.000000000000000e+00,0.000000000000000e+00
	0.000000000000000e+00,0.000000000000000e+00
	5.631013236468607e-06,1.503147193058010e-13
	5.631013277561770e-06,1.572267184562820e-13
	5.012183046404550e-07,-1.544099307267308e-13
	1.688992089007930e-05,1.474114190816168e-11
	-3.003207080899493e-06,-8.339848290952030e-14
	-1.438793211382026e-05,-1.450333349452543e-11
	-5.012183046404588e-07,1.544099307267321e-13
	-1.688992089007857e-05,-1.474114190816168e-11
	-5.012183046404588e-07,1.544099307267321e-13
10		1.258925411794167e+00,0.000000000000000e+00
	-5.012183046404588e-03,1.580066000512217e-09
	1.000000000000000e+00,0.000000000000000e+00
	0.000000000000000e+00,0.000000000000000e+00
	5.631013236468606e-06,1.538159989022748e-13
	5.631013277561769e-06,1.608889991956125e-13
	5.012183046404550e-07,-1.580066000512195e-13
	1.688992089007930e-05,1.508450721283799e-11
	-3.003207080899492e-06,-8.534108312815837e-14
	-1.438793211382026e-05,-1.484115952965861e-11
	-5.012183046404588e-07,1.580066000512217e-13
	-1.688992089007857e-05,-1.508450721283799e-11
	-5.012183046404588e-07,1.580066000512217e-13
11		1.288249551693134e+00,0.000000000000000e+00
	-5.012183046404588e-03,1.616870465665230e-09
	1.000000000000000e+00,0.000000000000000e+00
	0.000000000000000e+00,0.000000000000000e+00
	5.631013236468605e-06,1.573988337773620e-13
	5.631013277561768e-06,1.646365854119342e-13
	5.012183046404550e-07,-1.616870465665225e-13
	1.688992089007930e-05,1.543587052290561e-11
	-3.003207080899492e-06,-8.732893231869379e-14
	-1.438793211382026e-05,-1.518685454402039e-11
	-5.012183046404588e-07,1.616870465665231e-13
	-1.688992089007857e-05,-1.543587052290561e-11
	-5.012183046404588e-07,1.616870465665231e-13
12		1.318256738556407e+00,0.000000000000000e+00
	-5.012183046404588e-03,1.654532216940950e-09
	1.000000000000000e+00,0.000000000000000e+00
	0.000000000000000e+00,0.000000000000000e+00
	5.631013236468604e-06,1.610651235975378e-13
	5.631013277561767e-06,1.684714641250641e-13
	5.012183046404584e-07,-1.654532216940944e-13
	1.688992089007930e-05,1.579541813584237e-11
	-3.003207080899492e-06,-8.936308446507961e-14
	-1.438793211382027e-05,-1.554060182968319e-11
	-5.012183046404587e-07,1.654532216940950e-13
	-1.688992089007857e-05,-1.579541813584236e-11
	-5.012183046404587e-07,1.654532216940950e-13
13		1.348962882591653e+00,0.000000000000000e+00
	-5.012183046404588e-03,1.693071223098414e-09
	1.000000000000000e+00,0.000000000000000e+00
	0.000000000000000e+00,0.000000000000000e+00
	5.631013236468603e-06,1.648168122781939e-13
	5.631013277561766e-06,1.723956686384565e-13
	5.012183046404550e-07,-1.693071223098416e-13
	1.688992089007930e-05,1.616334068855183e-11
	-3.003207080899492e-06,-9.144461810170909e-14
	-1.438793211382027e-05,-1.590258894814028e-11
	-5.012183046404587e-07,1.693071223098414e-13
	-1.688992089007857e-05,-1.616334068855183e-11
	-5.012183046404587e-07,1.693071223098414e-13
14		1.380384264602885e+00,0.000000000000000e+00
	-5.012183046404588e-03,1.732507918028813e-09
	1.000000000000000e+00,0.000000000000000e+00
	0.000000000000000e+00,0.000000000000000e+00
	5.631013236468602e-06,1.686558890143285e-13
	5.631013277561766e-06,1.764112796172876e-13
	5.012183046404550e-07,-1.732507918028796e-13
	1.688992089007930e-05,1.653983325844147e-11
	-3.003207080899491e-06,-9.357463688526872e-14
	-1.438793211382027e-05,-1.627300782975332e-11
	-5.012183046404587e-07,1.732507918028813e-13
	-1.688992089007857e-05,-1.653983325844147e-11
	-5.012183046404587e-07,1.732507918028813e-13
15		1.412537544622754e+00,0.000000000000000e+00
	-5.012183046404588e-03,1.772863211589803e-09
	1.000000000000000e+00,0.000000000000000e+00
	0.000000000000000e+00,0.000000000000000e+00
	5.631013236468602e-06,1.725843893352429e-13
	5.631013277561765e-06,1.805204261916510e-13
	5.012183046404550e-07,-1.772863211589782e-13
	1.688992089007930e-05,1.692509546685530e-11
	-3.003207080899490e-06,-9.575427017991167e-14
	-1.438793211382027e-05,-1.665205487551641e-11
	-5.012183046404587e-07,1.772863211589803e-13
	-1.688992089007857e-05,-1.692509546685530e-11
	-5.012183046404587e-07,1.772863211589803e-13
16		1.445439770745927e+00,0.000000000000000e+00
	-5.012183046404588e-03,1.814158500692197e-09
	1.000000000000000e+00,0.000000000000000e+00
	0.000000000000000e+00,0.000000000000000e+00
	5.631013236468601e-06,1.766043961838073e-13
	5.631013277561764e-06,1.847252870854515e-13
	5.012183046404550e-07,-1.814158500692177e-13
	1.688992089007930e-05,1.731933158491578e-11
	-3.003207080899489e-06,-9.798467365606154e-14
	-1.438793211382027e-05,-1.703993106119051e-11
	-5.012183046404587e-07,1.814158500692197e-13
	-1.688992089007857e-05,-1.731933158491579e-11
	-5.012183046404587e-07,1.814158500692197e-13
17		1.479108388168207e+00,0.000000000000000e+00
	-5.012183046404588e-03,1.856415680644885e-09
	1.000000000000000e+00,0.000000000000000e+00
	0.000000000000000e+00,0.000000000000000e+00
	5.631013236468599e-06,1.807180410208641e-13
	5.631013277561763e-06,1.890280917715931e-13
	5.012183046404550e-07,-1.856415680644881e-13
	1.688992089007930e-05,1.772275064183105e-11
	-3.003207080899489e-06,-1.002670299031644e-13
	-1.438793211382027e-05,-1.743684204386340e-11
	-5.012183046404587e-07,1.856415680644885e-13
	-1.688992089007857e-05,-1.772275064183105e-11
	-5.012183046404587e-07,1.856415680644885e-13
18		1.513561248436208e+00,0.000000000000000e+00
	-5.012183046404587e-03,1.899657156764017e-09
	1.000000000000000e+00,0.000000000000000e+00
	0.000000000000000e+00,0.000000000000000e+00
	5.631013236468598e-06,1.849275049553560e-13
	5.631013277561762e-06,1.934311216540744e-13
	5.012183046404584e-07,-1.899657156763984e-13
	1.688992089007931e-05,1.813556653572495e-11
	-3.003207080899489e-06,-1.026025490567130e-13
	-1.438793211382028e-05,-1.784299827099184e-11
	-5.012183046404587e-07,1.899657156764017e-13
	-1.688992089007857e-05,-1.813556653572495e-11
	-5.012183046404587e-07,1.899657156764017e-13
19		1.548816618912481e+00,0.000000000000000e+00
	-5.012183046404587e-03,1.943905856252600e-09
	1.000000000000000e+00,0.000000000000000e+00
	0.000000000000000e+00,0.000000000000000e+00
	5.631013236468597e-06,1.892350199007802e-13
	5.631013277561760e-06,1.979367112776203e-13
	5.012183046404584e-07,-1.943905856252596e-13
	1.688992089007931e-05,1.855799814704870e-11
	-3.003207080899488e-06,-1.049924694398766e-13
	-1.438793211382028e-05,-1.825861509198356e-11
	-5.012183046404587e-07,1.943905856252600e-13
	-1.688992089007857e-05,-1.855799814704870e-11
	-5.012183046404587e-07,1.943905856252600e-13
20		1.584893192461113e+00,0.000000000000000e+00
	-5.012183046404587e-03,1.989185240356805e-09
	1.000000000000000e+00,0.000000000000000e+00
	0.000000000000000e+00,0.000000000000000e+00
	5.631013236468596e-06,1.936428697585775e-13
	5.631013277561760e-06,2.025472495654879e-13
	5.012183046404584e-07,-1.989185240356820e-13
	1.688992089007931e-05,1.899026945463415e-11
	-3.003207080899488e-06,-1.074380582200770e-13
	-1.438793211382028e-05,-1.868391287237839e-11
	-5.012183046404587e-07,1.989185240356805e-13
	-1.688992089007857e-05,-1.899026945463415e-11
	-5.012183046404587e-07,1.989185240356805e-13
21		1.621810097358929e+00,0.000000000000000e+00
	-5.012183046404587e-03,2.035519316805426e-09
	1.000000000000000e+00,0.000000000000000e+00
	0.000000000000000e+00,0.000000000000000e+00
	5.631013236468595e-06,1.981533916290870e-13
	5.631013277561759e-06,2.072651810861047e-13
	5.012183046404550e-07,-2.035519316805394e-13
	1.688992089007931e-05,1.943260965445039e-11
	-3.003207080899487e-06,-1.099406120808565e-13
	-1.438793211382028e-05,-1.911911711068899e-11
	-5.012183046404587e-07,2.035519316805426e-13
	-1.688992089007857e-05,-1.943260965445038e-11
	-5.012183046404587e-07,2.035519316805426e-13
22		1.659586907437560e+00,0.000000000000000e+00
	-5.012183046404586e-03,2.082932652539101e-09
	1.000000000000000e+00,0.000000000000000e+00
	0.000000000000000e+00,0.000000000000000e+00
	5.631013236468592e-06,2.027689770507086e-13
	5.631013277561757e-06,2.120930073492125e-13
	5.012183046404584e-07,-2.082932652539088e-13
	1.688992089007931e-05,1.988525328112640e-11
	-3.003207080899486e-06,-1.125014579093973e-13
	-1.438793211382028e-05,-1.956445855796309e-11
	-5.012183046404586e-07,2.082932652539101e-13
	-1.688992089007857e-05,-1.988525328112641e-11
	-5.012183046404586e-07,2.082932652539101e-13
23		1.698243652461743e+00,0.000000000000000e+00
	-5.012183046404586e-03,2.131450386736025e-09
	1.000000000000000e+00,0.000000000000000e+00
	0.000000000000000e+00,0.000000000000000e+00
	5.631013236468591e-06,2.074920732679272e-13
	5.631013277561756e-06,2.170332881321996e-13
	5.012183046404584e-07,-2.131450386736014e-13
	1.688992089007931e-05,2.034844033230452e-11
	-3.003207080899486e-06,-1.151219535000544e-13
	-1.438793211382028e-05,-2.002017334013087e-11
	-5.012183046404586e-07,2.131450386736025e-13
	-1.688992089007857e-05,-2.034844033230452e-11
	-5.012183046404586e-07,2.131450386736025e-13
24		1.737800828749374e+00,0.000000000000000e+00
	-5.012183046404586e-03,2.181098244141077e-09
	1.000000000000000e+00,0.000000000000000e+00
	0.000000000000000e+00,0.000000000000000e+00
	5.631013236468590e-06,2.123251845288747e-13
	5.631013277561755e-06,2.220886428373296e-13
	5.012183046404550e-07,-2.181098244141062e-13
	1.688992089007931e-05,2.082241639589027e-11
	-3.003207080899485e-06,-1.178034882742765e-13
	-1.438793211382028e-05,-2.048650308320189e-11
	-5.012183046404586e-07,2.181098244141077e-13
	-1.688992089007857e-05,-2.082241639589027e-11
	-5.012183046404586e-07,2.181098244141077e-13
25		1.778279410038922e+00,0.000000000000000e+00
	-5.012183046404586e-03,2.231902548705422e-09
	1.000000000000000e+00,0.000000000000000e+00
	0.000000000000000e+00,0.000000000000000e+00
	5.631013236468588e-06,2.172708734131155e-13
	5.631013277561753e-06,2.272617518805827e-13
	5.012183046404550e-07,-2.231902548705397e-13
	1.688992089007931e-05,2.130743278026639e-11
	-3.003207080899484e-06,-1.205474840172952e-13
	-1.438793211382029e-05,-2.096369504137856e-11
	-5.012183046404586e-07,2.231902548705422e-13
	-1.688992089007857e-05,-2.130743278026639e-11
	-5.012183046404586e-07,2.231902548705422e-13
26		1.819700858609982e+00,0.000000000000000e+00
	-5.012183046404585e-03,2.283890237543813e-09
	1.000000000000000e+00,0.000000000000000e+00
	0.000000000000000e+00,0.000000000000000e+00
	5.631013236468586e-06,2.223317621903598e-13
	5.631013277561751e-06,2.325553581128478e-13
	5.012183046404584e-07,-2.283890237543777e-13
	1.688992089007931e-05,2.180374664753982e-11
	-3.003207080899483e-06,-1.233553956319743e-13
	-1.438793211382029e-05,-2.145200222815347e-11
	-5.012183046404585e-07,2.283890237543813e-13
	-1.688992089007857e-05,-2.180374664753982e-11
	-5.012183046404585e-07,2.283890237543813e-13
27		1.862087136662866e+00,0.000000000000000e+00
	-5.012183046404585e-03,2.337088875217010e-09
	1.000000000000000e+00,0.000000000000000e+00
	0.000000000000000e+00,0.000000000000000e+00
	5.631013236468585e-06,2.275105342108264e-13
	5.631013277561750e-06,2.379722682742183e-13
	5.012183046404550e-07,-2.337088875217018e-13
	1.688992089007931e-05,2.231162114989249e-11
	-3.003207080899482e-06,-1.262287119102193e-13
	-1.438793211382029e-05,-2.195168355046057e-11
	-5.012183046404585e-07,2.337088875217010e-13
	-1.688992089007857e-05,-2.231162114989249e-11
	-5.012183046404585e-07,2.337088875217010e-13
28		1.905460717963246e+00,0.000000000000000e+00
	-5.012183046404584e-03,2.391526668346876e-09
	1.000000000000000e+00,0.000000000000000e+00
	0.000000000000000e+00,0.000000000000000e+00
	5.631013236468583e-06,2.328099353279895e-13
	5.631013277561749e-06,2.435153544821633e-13
	5.012183046404550e-07,-2.391526668346855e-13
	1.688992089007932e-05,2.283132556910804e-11
	-3.003207080899482e-06,-1.291689563223536e-13
	-1.438793211382029e-05,-2.246300394595101e-11
	-5.012183046404584e-07,2.391526668346876e-13
	-1.688992089007857e-05,-2.283132556910804e-11
	-5.012183046404584e-07,2.391526668346876e-13
29		1.949844599758044e+00,0.000000000000000e+00
	-5.012183046404583e-03,2.447232480571898e-09
	1.000000000000000e+00,0.000000000000000e+00
	0.000000000000000e+00,0.000000000000000e+00
	5.631013236468581e-06,2.382327753544672e-13
	5.631013277561747e-06,2.491875557543614e-13
	5.012183046404584e-07,-2.447232480571903e-13
	1.688992089007932e-05,2.336313545934867e-11
	-3.003207080899481e-06,-1.321776878248832e-13
	-1.438793211382030e-05,-2.298623452346659e-11
	-5.012183046404583e-07,2.447232480571898e-13
	-1.688992089007857e-05,-2.336313545934867e-11
	-5.012183046404583e-07,2.447232480571898e-13
30		1.995262314968878e+00,0.000000000000000e+00
	-5.012183046404583e-03,2.504235847851070e-09
	1.000000000000000e+00,0.000000000000000e+00
	0.000000000000000e+00,0.000000000000000e+00
	5.631013236468578e-06,2.437819295518214e-13
	5.631013277561744e-06,2.549918795670077e-13
	5.012183046404550e-07,-2.504235847851045e-13
	1.688992089007932e-05,2.390733279325748e-11
	-3.003207080899479e-06,-1.352565016870762e-13
	-1.438793211382030e-05,-2.352165270678530e-11
	-5.012183046404583e-07,2.504235847851070e-13
	-1.688992089007857e-05,-2.390733279325748e-11
	-5.012183046404583e-07,2.504235847851070e-13
31		2.041737944669527e+00,0.000000000000000e+00
	-5.012183046404582e-03,2.562566994124252e-09
	1.000000000000000e+00,0.000000000000000e+00
	0.000000000000000e+00,0.000000000000000e+00
	5.631013236468576e-06,2.494603401550594e-13
	5.631013277561743e-06,2.609314034494170e-13
	5.012183046404618e-07,-2.562566994124223e-13
	1.688992089007932e-05,2.446420611146424e-11
	-3.003207080899478e-06,-1.384070303367950e-13
	-1.438793211382031e-05,-2.406954238171503e-11
	-5.012183046404582e-07,2.562566994124252e-13
	-1.688992089007857e-05,-2.446420611146425e-11
	-5.012183046404582e-07,2.562566994124252e-13
32		2.089296130854037e+00,0.000000000000000e+00
	-5.012183046404582e-03,2.622256847337303e-09
	1.000000000000000e+00,0.000000000000000e+00
	0.000000000000000e+00,0.000000000000000e+00
	5.631013236468575e-06,2.552710179326454e-13
