LTspice 24.0.9 for Windows
Circuit: * GA CMOS Amp | W=1e-06 L=8.053501148922855e-07 Vbias=1.4914675125577017
Start Time: Sat Sep  6 22:15:42 2025
solver = Normal
Maximum thread count: 2
tnom = 27
temp = 27
method = modified trap
AsciiRawFile = 1
Direct Newton iteration for .op point succeeded.
Semiconductor Device Operating Points:
                        --- BSIM4 MOSFETS ---
Name:      m1
Model:      n
Id:      5.34e-05
Vgs:     1.49e+00
Vds:     1.27e+00
Vbs:     0.00e+00
Vth:     2.39e-01
Vdsat:   8.63e-01
Gm:      2.56e-05
Gds:     4.09e-06
Gmb      2.90e-05
Cbd:     3.82e-16
Cbs:     8.00e-16


.measure op idd find i(vdd)
  Error: FIND can not be evaluated over an interval.

gain_db: MAX(db(v(out)/v(g)))=(29.5334dB,114.422°) FROM 1 TO 1e+09
gain_lin: MAX(mag(v(out)/v(g)))=(-4.22571dB,0°) FROM 1 TO 1e+09

Measurement "fc" FAIL'ed

Total elapsed time: 0.597 seconds.

