Title: * GA CMOS Amp | W=6.673451423825805e-06 L=5.013509548441638e-07 Vbias=1.2665083586115147
Date: Sat Sep  6 22:06:24 2025
Plotname: AC Analysis
Flags: complex forward log
No. Variables: 13
No. Points:          901
Offset:    0.0000000000000000e+00
Command: Linear Technology Corporation LTspice
Variables:
	0	frequency	frequency
	1	V(out)	voltage
	2	V(g)	voltage
	3	V(vdd)	voltage
	4	V(m1#dbody)	voltage
	5	V(m1#sbody)	voltage
	6	Id(M1)	device_current
	7	Ig(M1)	device_current
	8	Ib(M1)	device_current
	9	Is(M1)	device_current
	10	I(Rload)	device_current
	11	I(Vg)	device_current
	12	I(Vdd)	device_current
Values:
0		1.000000000000000e+00,0.000000000000000e+00
	3.146766834365982e-03,3.785097863338697e-10
	1.000000000000000e+00,0.000000000000000e+00
	0.000000000000000e+00,0.000000000000000e+00
	1.855256495880476e-05,3.052783839060254e-14
	1.855256493516368e-05,3.005247906087010e-14
	-3.146766834365980e-07,-3.785097863338705e-14
	1.382084170924964e-05,8.834721981372156e-13
	-9.894701307808302e-06,-1.606154647316555e-14
	-3.611463718004739e-06,-8.295596730306631e-13
	3.146766834365983e-07,3.785097863338697e-14
	-1.382084170931108e-05,-8.834721981372154e-13
	3.146766834365983e-07,3.785097863338697e-14
1		1.023292992280754e+00,0.000000000000000e+00
	3.146766834365982e-03,3.873264118651344e-10
	1.000000000000000e+00,0.000000000000000e+00
	0.000000000000000e+00,0.000000000000000e+00
	1.855256495880476e-05,3.123892309458296e-14
	1.855256493516368e-05,3.075249122365246e-14
	-3.146766834365980e-07,-3.873264118651350e-14
	1.382084170924964e-05,9.040509092286867e-13
	-9.894701307808302e-06,-1.643566795118197e-14
	-3.611463718004739e-06,-8.488826000909913e-13
	3.146766834365983e-07,3.873264118651344e-14
	-1.382084170931108e-05,-9.040509092286866e-13
	3.146766834365983e-07,3.873264118651344e-14
2		1.047128548050899e+00,0.000000000000000e+00
	3.146766834365982e-03,3.963484029868411e-10
	1.000000000000000e+00,0.000000000000000e+00
	0.000000000000000e+00,0.000000000000000e+00
	1.855256495880476e-05,3.196657108908416e-14
	1.855256493516368e-05,3.146880876433896e-14
	-3.146766834365984e-07,-3.963484029868424e-14
	1.382084170924964e-05,9.251089600787592e-13
	-9.894701307808302e-06,-1.681850383789789e-14
	-3.611463718004739e-06,-8.686556159421770e-13
	3.146766834365983e-07,3.963484029868411e-14
	-1.382084170931108e-05,-9.251089600787590e-13
	3.146766834365983e-07,3.963484029868411e-14
3		1.071519305237606e+00,0.000000000000000e+00
	3.146766834365982e-03,4.055805432781028e-10
	1.000000000000000e+00,0.000000000000000e+00
	0.000000000000000e+00,0.000000000000000e+00
	1.855256495880476e-05,3.271116818270436e-14
	1.855256493516368e-05,3.220181148397123e-14
	-3.146766834365984e-07,-4.055805432781034e-14
	1.382084170924964e-05,9.466575159447302e-13
	-9.894701307808302e-06,-1.721025711796788e-14
	-3.611463718004739e-06,-8.888892044989519e-13
	3.146766834365983e-07,4.055805432781028e-14
	-1.382084170931108e-05,-9.466575159447302e-13
	3.146766834365983e-07,4.055805432781028e-14
4		1.096478196143185e+00,0.000000000000000e+00
	3.146766834365982e-03,4.150277277419037e-10
	1.000000000000000e+00,0.000000000000000e+00
	0.000000000000000e+00,0.000000000000000e+00
	1.855256495880476e-05,3.347310917067854e-14
	1.855256493516368e-05,3.295188803029367e-14
	-3.146766834365984e-07,-4.150277277419032e-14
	1.382084170924964e-05,9.687080021561483e-13
	-9.894701307808302e-06,-1.761113550416649e-14
	-3.611463718004739e-06,-9.095940938777914e-13
	3.146766834365983e-07,4.150277277419038e-14
	-1.382084170931108e-05,-9.687080021561481e-13
	3.146766834365983e-07,4.150277277419038e-14
5		1.122018454301963e+00,0.000000000000000e+00
	3.146766834365982e-03,4.246949654004948e-10
	1.000000000000000e+00,0.000000000000000e+00
	0.000000000000000e+00,0.000000000000000e+00
	1.855256495880476e-05,3.425279804420400e-14
	1.855256493516368e-05,3.371943610381957e-14
	-3.146766834365984e-07,-4.246949654004954e-14
	1.382084170924964e-05,9.912721101726763e-13
	-9.894701307808302e-06,-1.802135154752036e-14
	-3.611463718004739e-06,-9.307812620851064e-13
	3.146766834365983e-07,4.246949654004948e-14
	-1.382084170931108e-05,-9.912721101726763e-13
	3.146766834365983e-07,4.246949654004948e-14
6		1.148153621496882e+00,0.000000000000000e+00
	3.146766834365983e-03,4.345873819512436e-10
	1.000000000000000e+00,0.000000000000000e+00
	0.000000000000000e+00,0.000000000000000e+00
	1.855256495880476e-05,3.505064820464187e-14
	1.855256493516368e-05,3.450486266869722e-14
	-3.146766834365980e-07,-4.345873819512431e-14
	1.382084170924964e-05,1.014361803783055e-12
	-9.894701307808302e-06,-1.844112275000551e-14
	-3.611463718004740e-06,-9.524619428379254e-13
	3.146766834365983e-07,4.345873819512436e-14
	-1.382084170931108e-05,-1.014361803783055e-12
	3.146766834365983e-07,4.345873819512436e-14
7		1.174897554939529e+00,0.000000000000000e+00
	3.146766834365983e-03,4.447102224843471e-10
	1.000000000000000e+00,0.000000000000000e+00
	0.000000000000000e+00,0.000000000000000e+00
	1.855256495880476e-05,3.586708268270802e-14
	1.855256493516368e-05,3.530858416848767e-14
	-3.146766834365980e-07,-4.447102224843478e-14
	1.382084170924964e-05,1.037989325448466e-12
	-9.894701307808302e-06,-1.887067167986982e-14
	-3.611463718004740e-06,-9.746476315201612e-13
	3.146766834365983e-07,4.447102224843471e-14
	-1.382084170931108e-05,-1.037989325448466e-12
	3.146766834365983e-07,4.447102224843471e-14
8		1.202264434617413e+00,0.000000000000000e+00
	3.146766834365983e-03,4.550688542638474e-10
	1.000000000000000e+00,0.000000000000000e+00
	0.000000000000000e+00,0.000000000000000e+00
	1.855256495880476e-05,3.670253436276952e-14
	1.855256493516368e-05,3.613102674696861e-14
	-3.146766834365980e-07,-4.550688542638482e-14
	1.382084170924964e-05,1.062167202793642e-12
	-9.894701307808302e-06,-1.931022608964168e-14
	-3.611463718004740e-06,-9.973500912776158e-13
	3.146766834365983e-07,4.550688542638474e-14
	-1.382084170931108e-05,-1.062167202793642e-12
	3.146766834365983e-07,4.550688542638474e-14
9		1.230268770812381e+00,0.000000000000000e+00
	3.146766834365983e-03,4.656687695734267e-10
	1.000000000000000e+00,0.000000000000000e+00
	0.000000000000000e+00,0.000000000000000e+00
	1.855256495880476e-05,3.755744621236562e-14
	1.855256493516368e-05,3.697262647408148e-14
	-3.146766834365980e-07,-4.656687695734287e-14
	1.382084170924964e-05,1.086908255249185e-12
	-9.894701307808302e-06,-1.976001903688732e-14
	-3.611463718004740e-06,-1.020581359254954e-12
	3.146766834365983e-07,4.656687695734267e-14
	-1.382084170931108e-05,-1.086908255249184e-12
	3.146766834365983e-07,4.656687695734267e-14
10		1.258925411794167e+00,0.000000000000000e+00
	3.146766834365983e-03,4.765155886284890e-10
	1.000000000000000e+00,0.000000000000000e+00
	0.000000000000000e+00,0.000000000000000e+00
	1.855256495880476e-05,3.843227151707509e-14
	1.855256493516368e-05,3.783382957714146e-14
	-3.146766834365980e-07,-4.765155886284898e-14
	1.382084170924964e-05,1.112225600848592e-12
	-9.894701307808302e-06,-2.022028900778109e-14
	-3.611463718004740e-06,-1.044353752977962e-12
	3.146766834365983e-07,4.765155886284890e-14
	-1.382084170931108e-05,-1.112225600848592e-12
	3.146766834365983e-07,4.765155886284890e-14
11		1.288249551693134e+00,0.000000000000000e+00
	3.146766834365983e-03,4.876150625560715e-10
	1.000000000000000e+00,0.000000000000000e+00
	0.000000000000000e+00,0.000000000000000e+00
	1.855256495880476e-05,3.932747412085417e-14
	1.855256493516368e-05,3.871509267743319e-14
	-3.146766834365980e-07,-4.876150625560704e-14
	1.382084170924964e-05,1.138132663183616e-12
	-9.894701307808302e-06,-2.069128004355396e-14
	-3.611463718004740e-06,-1.068679876884455e-12
	3.146766834365983e-07,4.876150625560715e-14
	-1.382084170931108e-05,-1.138132663183615e-12
	3.146766834365983e-07,4.876150625560715e-14
12		1.318256738556407e+00,0.000000000000000e+00
	3.146766834365983e-03,4.989730764441694e-10
	1.000000000000000e+00,0.000000000000000e+00
	0.000000000000000e+00,0.000000000000000e+00
	1.855256495880476e-05,4.024352867197278e-14
	1.855256493516368e-05,3.961688303231731e-14
	-3.146766834365980e-07,-4.989730764441707e-14
	1.382084170924964e-05,1.164643178521626e-12
	-9.894701307808302e-06,-2.117324186988738e-14
	-3.611463718004740e-06,-1.093572629007321e-12
	3.146766834365983e-07,4.989730764441694e-14
	-1.382084170931108e-05,-1.164643178521625e-12
	3.146766834365983e-07,4.989730764441694e-14
13		1.348962882591653e+00,0.000000000000000e+00
	3.146766834365983e-03,5.105956524620875e-10
	1.000000000000000e+00,0.000000000000000e+00
	0.000000000000000e+00,0.000000000000000e+00
	1.855256495880476e-05,4.118092087467936e-14
	1.855256493516368e-05,4.053967878297663e-14
	-3.146766834365980e-07,-5.105956524620897e-14
	1.382084170924964e-05,1.191771203088763e-12
	-9.894701307808302e-06,-2.166643002932121e-14
	-3.611463718004740e-06,-1.119045207813232e-12
	3.146766834365983e-07,5.105956524620875e-14
	-1.382084170931108e-05,-1.191771203088762e-12
	3.146766834365983e-07,5.105956524620875e-14
14		1.380384264602885e+00,0.000000000000000e+00
	3.146766834365983e-03,5.224889530534736e-10
	1.000000000000000e+00,0.000000000000000e+00
	0.000000000000000e+00,0.000000000000000e+00
	1.855256495880476e-05,4.214014774672761e-14
	1.855256493516368e-05,4.148396920793275e-14
	-3.146766834365980e-07,-5.224889530534752e-14
	1.382084170924964e-05,1.219531120522734e-12
	-9.894701307808302e-06,-2.217110601674569e-14
	-3.611463718004740e-06,-1.145111119200641e-12
	3.146766834365983e-07,5.224889530534736e-14
	-1.382084170931108e-05,-1.219531120522734e-12
	3.146766834365983e-07,5.224889530534736e-14
15		1.412537544622754e+00,0.000000000000000e+00
	3.146766834365983e-03,5.346592842037276e-10
	1.000000000000000e+00,0.000000000000000e+00
	0.000000000000000e+00,0.000000000000000e+00
	1.855256495880476e-05,4.312171788290197e-14
	1.855256493516368e-05,4.245025498246817e-14
	-3.146766834365980e-07,-5.346592842037269e-14
	1.382084170924964e-05,1.247937649499210e-12
	-9.894701307808302e-06,-2.268753741804952e-14
	-3.611463718004740e-06,-1.171784183660787e-12
	3.146766834365983e-07,5.346592842037277e-14
	-1.382084170931108e-05,-1.247937649499210e-12
	3.146766834365983e-07,5.346592842037277e-14
16		1.445439770745927e+00,0.000000000000000e+00
	3.146766834365983e-03,5.471130987835185e-10
	1.000000000000000e+00,0.000000000000000e+00
	0.000000000000000e+00,0.000000000000000e+00
	1.855256495880476e-05,4.412615172468126e-14
	1.855256493516368e-05,4.343904844409084e-14
	-3.146766834365980e-07,-5.471130987835175e-14
	1.382084170924964e-05,1.277005851535857e-12
	-9.894701307808302e-06,-2.321599805199747e-14
	-3.611463718004740e-06,-1.199078543605508e-12
	3.146766834365983e-07,5.471130987835185e-14
	-1.382084170931108e-05,-1.277005851535857e-12
	3.146766834365983e-07,5.471130987835185e-14
17		1.479108388168207e+00,0.000000000000000e+00
	3.146766834365983e-03,5.598569999701823e-10
	1.000000000000000e+00,0.000000000000000e+00
	0.000000000000000e+00,0.000000000000000e+00
	1.855256495880476e-05,4.515398183618363e-14
	1.855256493516368e-05,4.445087386418234e-14
	-3.146766834365980e-07,-5.598569999701832e-14
	1.382084170924964e-05,1.306751138978160e-12
	-9.894701307808302e-06,-2.375676811541265e-14
	-3.611463718004740e-06,-1.227008670865729e-12
	3.146766834365983e-07,5.598569999701823e-14
	-1.382084170931108e-05,-1.306751138978159e-12
	3.146766834365983e-07,5.598569999701823e-14
18		1.513561248436208e+00,0.000000000000000e+00
	3.146766834365983e-03,5.728977447488138e-10
	1.000000000000000e+00,0.000000000000000e+00
	0.000000000000000e+00,0.000000000000000e+00
	1.855256495880476e-05,4.620575318653917e-14
	1.855256493516368e-05,4.548626772597352e-14
	-3.146766834365980e-07,-5.728977447488150e-14
	1.382084170924964e-05,1.337189283171244e-12
	-9.894701307808302e-06,-2.431013433174062e-14
	-3.611463718004740e-06,-1.255589374364622e-12
	3.146766834365983e-07,5.728977447488138e-14
	-1.382084170931108e-05,-1.337189283171245e-12
	3.146766834365983e-07,5.728977447488138e-14
19		1.548816618912481e+00,0.000000000000000e+00
	3.146766834365983e-03,5.862422474949096e-10
	1.000000000000000e+00,0.000000000000000e+00
	0.000000000000000e+00,0.000000000000000e+00
	1.855256495880476e-05,4.728202343883966e-14
	1.855256493516368e-05,4.654577900899494e-14
	-3.146766834365980e-07,-5.862422474949082e-14
	1.382084170924964e-05,1.368336422822059e-12
	-9.894701307808302e-06,-2.487639010307395e-14
	-3.611463718004740e-06,-1.284835807969495e-12
	3.146766834365983e-07,5.862422474949097e-14
	-1.382084170931108e-05,-1.368336422822059e-12
	3.146766834365983e-07,5.862422474949097e-14
20		1.584893192461113e+00,0.000000000000000e+00
	3.146766834365983e-03,5.998975836404603e-10
	1.000000000000000e+00,0.000000000000000e+00
	0.000000000000000e+00,0.000000000000000e+00
	1.855256495880476e-05,4.838336324581900e-14
	1.855256493516368e-05,4.762996948015315e-14
	-3.146766834365980e-07,-5.998975836404614e-14
	1.382084170924964e-05,1.400209072556328e-12
	-9.894701307808302e-06,-2.545583566571788e-14
	-3.611463718004740e-06,-1.314763478526564e-12
	3.146766834365983e-07,5.998975836404603e-14
	-1.382084170931108e-05,-1.400209072556328e-12
	3.146766834365983e-07,5.998975836404603e-14
21		1.621810097358929e+00,0.000000000000000e+00
	3.146766834365983e-03,6.138709934254406e-10
	1.000000000000000e+00,0.000000000000000e+00
	0.000000000000000e+00,0.000000000000000e+00
	1.855256495880476e-05,4.951035655242077e-14
	1.855256493516368e-05,4.873941399158689e-14
	-3.146766834365980e-07,-6.138709934254423e-14
	1.382084170924964e-05,1.432824131674825e-12
	-9.894701307808302e-06,-2.604877824937959e-14
	-3.611463718004740e-06,-1.345388254082901e-12
	3.146766834365983e-07,6.138709934254406e-14
	-1.382084170931108e-05,-1.432824131674825e-12
	3.146766834365983e-07,6.138709934254406e-14
22		1.659586907437560e+00,0.000000000000000e+00
	3.146766834365983e-03,6.281698857366784e-10
	1.000000000000000e+00,0.000000000000000e+00
	0.000000000000000e+00,0.000000000000000e+00
	1.855256495880476e-05,5.066360090541370e-14
	1.855256493516368e-05,4.987470078546143e-14
	-3.146766834365980e-07,-6.281698857366782e-14
	1.382084170924964e-05,1.466198893113605e-12
	-9.894701307808302e-06,-2.665553224006547e-14
	-3.611463718004740e-06,-1.376726372299872e-12
	3.146766834365983e-07,6.281698857366785e-14
	-1.382084170931108e-05,-1.466198893113604e-12
	3.146766834365983e-07,6.281698857366785e-14
23		1.698243652461743e+00,0.000000000000000e+00
	3.146766834365983e-03,6.428018420361449e-10
	1.000000000000000e+00,0.000000000000000e+00
	0.000000000000000e+00,0.000000000000000e+00
	1.855256495880476e-05,5.184370777021871e-14
	1.855256493516368e-05,5.103643180586210e-14
	-3.146766834365980e-07,-6.428018420361449e-14
	1.382084170924964e-05,1.500351052612950e-12
	-9.894701307808302e-06,-2.727641934677270e-14
	-3.611463718004740e-06,-1.408794449062563e-12
	3.146766834365983e-07,6.428018420361449e-14
	-1.382084170931108e-05,-1.500351052612950e-12
	3.146766834365983e-07,6.428018420361449e-14
24		1.737800828749374e+00,0.000000000000000e+00
	3.146766834365983e-03,6.577746203807473e-10
	1.000000000000000e+00,0.000000000000000e+00
	0.000000000000000e+00,0.000000000000000e+00
	1.855256495880476e-05,5.305130285511608e-14
	1.855256493516368e-05,5.222522301795327e-14
	-3.146766834365980e-07,-6.577746203807476e-14
	1.382084170924964e-05,1.535298718099885e-12
	-9.894701307808302e-06,-2.791176877206369e-14
	-3.611463718004740e-06,-1.441609487289746e-12
	3.146766834365983e-07,6.577746203807473e-14
	-1.382084170931108e-05,-1.535298718099885e-12
	3.146766834365983e-07,6.577746203807473e-14
25		1.778279410038922e+00,0.000000000000000e+00
	3.146766834365983e-03,6.730961595357521e-10
	1.000000000000000e+00,0.000000000000000e+00
	0.000000000000000e+00,0.000000000000000e+00
	1.855256495880476e-05,5.428702644300425e-14
	1.855256493516368e-05,5.344170473457112e-14
	-3.146766834365980e-07,-6.730961595357531e-14
	1.382084170924964e-05,1.571060419289237e-12
	-9.894701307808302e-06,-2.856191738661357e-14
	-3.611463718004740e-06,-1.475188885949048e-12
	3.146766834365983e-07,6.730961595357521e-14
	-1.382084170931108e-05,-1.571060419289237e-12
	3.146766834365983e-07,6.730961595357521e-14
26		1.819700858609982e+00,0.000000000000000e+00
	3.146766834365983e-03,6.887745831840234e-10
	1.000000000000000e+00,0.000000000000000e+00
	0.000000000000000e+00,0.000000000000000e+00
	1.855256495880476e-05,5.555153373088623e-14
	1.855256493516368e-05,5.468652195042382e-14
	-3.146766834365984e-07,-6.887745831840243e-14
	1.382084170924964e-05,1.607655117508339e-12
	-9.894701307808302e-06,-2.922720990782349e-14
	-3.611463718004740e-06,-1.509550449282113e-12
	3.146766834365983e-07,6.887745831840234e-14
	-1.382084170931108e-05,-1.607655117508339e-12
	3.146766834365983e-07,6.887745831840234e-14
27		1.862087136662866e+00,0.000000000000000e+00
	3.146766834365983e-03,7.048182042333086e-10
	1.000000000000000e+00,0.000000000000000e+00
	0.000000000000000e+00,0.000000000000000e+00
	1.855256495880476e-05,5.684549517726383e-14
	1.855256493516368e-05,5.596033468407634e-14
	-3.146766834365984e-07,-7.048182042333080e-14
	1.382084170924964e-05,1.645102215750576e-12
	-9.894701307808302e-06,-2.990799908259440e-14
	-3.611463718004740e-06,-1.544712396244651e-12
	3.146766834365983e-07,7.048182042333086e-14
	-1.382084170931108e-05,-1.645102215750576e-12
	3.146766834365983e-07,7.048182042333086e-14
28		1.905460717963246e+00,0.000000000000000e+00
	3.146766834365983e-03,7.212355292238498e-10
	1.000000000000000e+00,0.000000000000000e+00
	0.000000000000000e+00,0.000000000000000e+00
	1.855256495880476e-05,5.816959685762348e-14
	1.855256493516368e-05,5.726381832790095e-14
	-3.146766834365984e-07,-7.212355292238511e-14
	1.382084170924964e-05,1.683421568963106e-12
	-9.894701307808302e-06,-3.060464587435808e-14
	-3.611463718004740e-06,-1.580693370166362e-12
	3.146766834365983e-07,7.212355292238498e-14
	-1.382084170931108e-05,-1.683421568963105e-12
	3.146766834365983e-07,7.212355292238498e-14
29		1.949844599758044e+00,0.000000000000000e+00
	3.146766834365983e-03,7.380352628386668e-10
	1.000000000000000e+00,0.000000000000000e+00
	0.000000000000000e+00,0.000000000000000e+00
	1.855256495880476e-05,5.952454082820267e-14
	1.855256493516368e-05,5.859766400617924e-14
	-3.146766834365980e-07,-7.380352628386697e-14
	1.382084170924964e-05,1.722633494574219e-12
	-9.894701307808302e-06,-3.131751965446471e-14
	-3.611463718004740e-06,-1.617512448635887e-12
	3.146766834365983e-07,7.380352628386668e-14
	-1.382084170931108e-05,-1.722633494574218e-12
	3.146766834365983e-07,7.380352628386668e-14
30		1.995262314968878e+00,0.000000000000000e+00
	3.146766834365983e-03,7.552263125188920e-10
	1.000000000000000e+00,0.000000000000000e+00
	0.000000000000000e+00,0.000000000000000e+00
	1.855256495880476e-05,6.091104549822944e-14
	1.855256493516368e-05,5.996257894154539e-14
	-3.146766834365980e-07,-7.552263125188920e-14
	1.382084170924964e-05,1.762758783265904e-12
	-9.894701307808302e-06,-3.204699839802852e-14
	-3.611463718004740e-06,-1.655189153615986e-12
	3.146766834365983e-07,7.552263125188921e-14
	-1.382084170931108e-05,-1.762758783265904e-12
	3.146766834365983e-07,7.552263125188921e-14
31		2.041737944669527e+00,0.000000000000000e+00
	3.146766834365983e-03,7.728177931866169e-10
	1.000000000000000e+00,0.000000000000000e+00
	0.000000000000000e+00,0.000000000000000e+00
	1.855256495880476e-05,6.232984601083232e-14
	1.855256493516368e-05,6.135928682996489e-14
	-3.146766834365980e-07,-7.728177931866168e-14
	1.382084170924964e-05,1.803818709997348e-12
	-9.894701307808302e-06,-3.279346888433512e-14
	-3.611463718004740e-06,-1.693743461794351e-12
	3.146766834365983e-07,7.728177931866170e-14
	-1.382084170931108e-05,-1.803818709997348e-12
	3.146766834365983e-07,7.728177931866170e-14
32		2.089296130854037e+00,0.000000000000000e+00
	3.146766834365983e-03,7.908190320777422e-10
	1.000000000000000e+00,0.000000000000000e+00
	0.000000000000000e+00,0.000000000000000e+00
	1.855256495880476e-05,6.378169463282325e-14
	1.855256493516368e-05,6.278852822444787e-14
