Title: * GA CMOS Amp | W=4.813533684846428e-05 L=5.9170462381803e-07 Vbias=0.7111949823564593
Date: Sat Sep  6 22:38:17 2025
Plotname: AC Analysis
Flags: complex forward log
No. Variables: 13
No. Points:          901
Offset:    0.0000000000000000e+00
Command: Linear Technology Corporation LTspice
Variables:
	0	frequency	frequency
	1	V(out)	voltage
	2	V(g)	voltage
	3	V(vdd)	voltage
	4	V(m1#dbody)	voltage
	5	V(m1#sbody)	voltage
	6	Id(M1)	device_current
	7	Ig(M1)	device_current
	8	Ib(M1)	device_current
	9	Is(M1)	device_current
	10	I(Rload)	device_current
	11	I(Vg)	device_current
	12	I(Vdd)	device_current
Values:
0		1.000000000000000e+00,0.000000000000000e+00
	-1.894193844284625e-02,5.183993063650718e-10
	1.000000000000000e+00,0.000000000000000e+00
	0.000000000000000e+00,0.000000000000000e+00
	6.550620344182706e-08,1.579149834788519e-14
	6.550636647193422e-08,3.710094678080791e-14
	1.894193844284624e-06,-5.183993063650751e-14
	3.005861731924449e-06,7.204105656205711e-12
	-3.493671794279705e-08,-1.836658928244494e-14
	-4.865118858266276e-06,-7.133899136286758e-12
	-1.894193844284626e-06,5.183993063650718e-14
	-3.005861731936177e-06,-7.204105656205709e-12
	-1.894193844284626e-06,5.183993063650718e-14
1		1.023292992280754e+00,0.000000000000000e+00
	-1.894193844284625e-02,5.304743774065817e-10
	1.000000000000000e+00,0.000000000000000e+00
	0.000000000000000e+00,0.000000000000000e+00
	6.550620344182690e-08,1.615932959700404e-14
	6.550636647193409e-08,3.796513884778195e-14
	1.894193844284624e-06,-5.304743774065806e-14
	3.005861731924449e-06,7.371910833645446e-12
	-3.493671794279698e-08,-1.879440210482473e-14
	-4.865118858266276e-06,-7.300068993799964e-12
	-1.894193844284626e-06,5.304743774065817e-14
	-3.005861731936177e-06,-7.371910833645448e-12
	-1.894193844284626e-06,5.304743774065817e-14
2		1.047128548050899e+00,0.000000000000000e+00
	-1.894193844284625e-02,5.428307129846508e-10
	1.000000000000000e+00,0.000000000000000e+00
	0.000000000000000e+00,0.000000000000000e+00
	6.550620344182674e-08,1.653572873656917e-14
	6.550636647193396e-08,3.884946053390104e-14
	1.894193844284624e-06,-5.428307129846592e-14
	3.005861731924448e-06,7.543624695787955e-12
	-3.493671794279691e-08,-1.923217996797377e-14
	-4.865118858266276e-06,-7.470109444521516e-12
	-1.894193844284626e-06,5.428307129846508e-14
	-3.005861731936177e-06,-7.543624695787955e-12
	-1.894193844284626e-06,5.428307129846508e-14
3		1.071519305237606e+00,0.000000000000000e+00
	-1.894193844284625e-02,5.554748645919586e-10
	1.000000000000000e+00,0.000000000000000e+00
	0.000000000000000e+00,0.000000000000000e+00
	6.550620344182657e-08,1.692089533838670e-14
	6.550636647193383e-08,3.975438071822864e-14
	1.894193844284624e-06,-5.554748645919663e-14
	3.005861731924448e-06,7.719338287595851e-12
	-3.493671794279683e-08,-1.968015498750984e-14
	-4.865118858266276e-06,-7.644110646149145e-12
	-1.894193844284626e-06,5.554748645919587e-14
	-3.005861731936177e-06,-7.719338287595851e-12
	-1.894193844284626e-06,5.554748645919587e-14
4		1.096478196143185e+00,0.000000000000000e+00
	-1.894193844284625e-02,5.684135363250520e-10
	1.000000000000000e+00,0.000000000000000e+00
	0.000000000000000e+00,0.000000000000000e+00
	6.550620344182640e-08,1.731503362288720e-14
	6.550636647193368e-08,4.068037920142450e-14
	1.894193844284624e-06,-5.684135363250546e-14
	3.005861731924448e-06,7.899144774741349e-12
	-3.493671794279675e-08,-2.013856468571796e-14
	-4.865118858266276e-06,-7.822164856423126e-12
	-1.894193844284626e-06,5.684135363250520e-14
	-3.005861731936177e-06,-7.899144774741349e-12
	-1.894193844284626e-06,5.684135363250520e-14
5		1.122018454301963e+00,0.000000000000000e+00
	-1.894193844284625e-02,5.816535884389478e-10
	1.000000000000000e+00,0.000000000000000e+00
	0.000000000000000e+00,0.000000000000000e+00
	6.550620344182623e-08,1.771835256740612e-14
	6.550636647193353e-08,4.162794696014145e-14
	1.894193844284624e-06,-5.816535884389450e-14
	3.005861731924448e-06,8.083139493003962e-12
	-3.493671794279668e-08,-2.060765211748786e-14
	-4.865118858266276e-06,-8.004366482042580e-12
	-1.894193844284626e-06,5.816535884389478e-14
	-3.005861731936177e-06,-8.083139493003961e-12
	-1.894193844284626e-06,5.816535884389478e-14
6		1.148153621496882e+00,0.000000000000000e+00
	-1.894193844284625e-02,5.952020409845289e-10
	1.000000000000000e+00,0.000000000000000e+00
	0.000000000000000e+00,0.000000000000000e+00
	6.550620344182603e-08,1.813106601698640e-14
	6.550636647193338e-08,4.259758640734768e-14
	1.894193844284624e-06,-5.952020409845319e-14
	3.005861731924448e-06,8.271419998818760e-12
	-3.493671794279659e-08,-2.108766599918498e-14
	-4.865118858266276e-06,-8.190812128721123e-12
	-1.894193844284626e-06,5.952020409845289e-14
	-3.005861731936177e-06,-8.271419998818759e-12
	-1.894193844284626e-06,5.952020409845289e-14
7		1.174897554939529e+00,0.000000000000000e+00
	-1.894193844284625e-02,6.090660775306706e-10
	1.000000000000000e+00,0.000000000000000e+00
	0.000000000000000e+00,0.000000000000000e+00
	6.550620344182583e-08,1.855339279776190e-14
	6.550636647193322e-08,4.358981165871277e-14
	1.894193844284624e-06,-6.090660775306699e-14
	3.005861731924448e-06,8.464086121002120e-12
	-3.493671794279650e-08,-2.157886084052311e-14
	-4.865118858266276e-06,-8.381600652408530e-12
	-1.894193844284626e-06,6.090660775306707e-14
	-3.005861731936177e-06,-8.464086121002121e-12
	-1.894193844284626e-06,6.090660775306707e-14
8		1.202264434617413e+00,0.000000000000000e+00
	-1.894193844284625e-02,6.232530489730619e-10
	1.000000000000000e+00,0.000000000000000e+00
	0.000000000000000e+00,0.000000000000000e+00
	6.550620344182561e-08,1.898555683298199e-14
	6.550636647193303e-08,4.460514880519871e-14
	1.894193844284624e-06,-6.232530489730496e-14
	3.005861731924448e-06,8.661240013682263e-12
	-3.493671794279640e-08,-2.208149707950889e-14
	-4.865118858266276e-06,-8.576833211705448e-12
	-1.894193844284626e-06,6.232530489730619e-14
	-3.005861731936177e-06,-8.661240013682261e-12
	-1.894193844284626e-06,6.232530489730619e-14
9		1.230268770812381e+00,0.000000000000000e+00
	-1.894193844284625e-02,6.377704774317477e-10
	1.000000000000000e+00,0.000000000000000e+00
	0.000000000000000e+00,0.000000000000000e+00
	6.550620344182539e-08,1.942778726173848e-14
	6.550636647193286e-08,4.564413619200012e-14
	1.894193844284624e-06,-6.377704774317530e-14
	3.005861731924448e-06,8.862986210462721e-12
	-3.493671794279630e-08,-2.259584122052940e-14
	-4.865118858266276e-06,-8.776613321499016e-12
	-1.894193844284626e-06,6.377704774317478e-14
	-3.005861731936177e-06,-8.862986210462721e-12
	-1.894193844284626e-06,6.377704774317478e-14
10		1.258925411794167e+00,0.000000000000000e+00
	-1.894193844284625e-02,6.526260602394582e-10
	1.000000000000000e+00,0.000000000000000e+00
	0.000000000000000e+00,0.000000000000000e+00
	6.550620344182517e-08,1.988031856045831e-14
	6.550636647193267e-08,4.670732470398210e-14
	1.894193844284624e-06,-6.526260602394761e-14
	3.005861731924448e-06,9.069431679847461e-12
	-3.493671794279620e-08,-2.312216597565635e-14
	-4.865118858266276e-06,-8.981046907847856e-12
	-1.894193844284626e-06,6.526260602394583e-14
	-3.005861731936177e-06,-9.069431679847459e-12
	-1.894193844284626e-06,6.526260602394583e-14
11		1.288249551693134e+00,0.000000000000000e+00
	-1.894193844284625e-02,6.678276740228350e-10
	1.000000000000000e+00,0.000000000000000e+00
	0.000000000000000e+00,0.000000000000000e+00
	6.550620344182493e-08,2.034339066722592e-14
	6.550636647193248e-08,4.779527805776656e-14
	1.894193844284624e-06,-6.678276740228411e-14
	3.005861731924448e-06,9.280685881956975e-12
	-3.493671794279609e-08,-2.366075040924159e-14
	-4.865118858266276e-06,-9.190242364145450e-12
	-1.894193844284626e-06,6.678276740228351e-14
	-3.005861731936177e-06,-9.280685881956977e-12
	-1.894193844284626e-06,6.678276740228351e-14
12		1.318256738556407e+00,0.000000000000000e+00
	-1.894193844284625e-02,6.833833788787230e-10
	1.000000000000000e+00,0.000000000000000e+00
	0.000000000000000e+00,0.000000000000000e+00
	6.550620344182467e-08,2.081724910900203e-14
	6.550636647193226e-08,4.890857310062265e-14
	1.894193844284624e-06,-6.833833788787050e-14
	3.005861731924448e-06,9.496860826565498e-12
	-3.493671794279597e-08,-2.421188008588093e-14
	-4.865118858266276e-06,-9.404310608591747e-12
	-1.894193844284626e-06,6.833833788787231e-14
	-3.005861731936177e-06,-9.496860826565503e-12
	-1.894193844284626e-06,6.833833788787231e-14
13		1.348962882591653e+00,0.000000000000000e+00
	-1.894193844284625e-02,6.993014226477408e-10
	1.000000000000000e+00,0.000000000000000e+00
	0.000000000000000e+00,0.000000000000000e+00
	6.550620344182443e-08,2.130214513180453e-14
	6.550636647193206e-08,5.004780011631814e-14
	1.894193844284624e-06,-6.993014226477436e-14
	3.005861731924448e-06,9.718071132490090e-12
	-3.493671794279587e-08,-2.477584722182389e-14
	-4.865118858266276e-06,-9.623365143003490e-12
	-1.894193844284626e-06,6.993014226477408e-14
	-3.005861731936177e-06,-9.718071132490088e-12
	-1.894193844284626e-06,6.993014226477408e-14
14		1.380384264602885e+00,0.000000000000000e+00
	-1.894193844284625e-02,7.155902452873950e-10
	1.000000000000000e+00,0.000000000000000e+00
	0.000000000000000e+00,0.000000000000000e+00
	6.550620344182414e-08,2.179833583392319e-14
	6.550636647193183e-08,5.121356313809630e-14
	1.894193844284624e-06,-7.155902452873928e-14
	3.005861731924448e-06,9.944434088363001e-12
	-3.493671794279574e-08,-2.535295083991100e-14
	-4.865118858266276e-06,-9.847522112994350e-12
	-1.894193844284626e-06,7.155902452873950e-14
	-3.005861731936177e-06,-9.944434088362999e-12
	-1.894193844284626e-06,7.155902452873950e-14
15		1.412537544622754e+00,0.000000000000000e+00
	-1.894193844284625e-02,7.322584833470575e-10
	1.000000000000000e+00,0.000000000000000e+00
	0.000000000000000e+00,0.000000000000000e+00
	6.550620344182385e-08,2.230608430223602e-14
	6.550636647193159e-08,5.240648026894186e-14
	1.894193844284624e-06,-7.322584833470419e-14
	3.005861731924447e-06,1.017606971481971e-11
	-3.493671794279561e-08,-2.594349692811937e-14
	-4.865118858266276e-06,-1.007690036955688e-11
	-1.894193844284626e-06,7.322584833470575e-14
	-3.005861731936177e-06,-1.017606971481971e-11
	-1.894193844284626e-06,7.322584833470575e-14
16		1.445439770745927e+00,0.000000000000000e+00
	-1.894193844284625e-02,7.493149745471768e-10
	1.000000000000000e+00,0.000000000000000e+00
	0.000000000000000e+00,0.000000000000000e+00
	6.550620344182356e-08,2.282565975170182e-14
	6.550636647193135e-08,5.362718400930778e-14
	1.894193844284624e-06,-7.493149745471883e-14
	3.005861731924447e-06,1.041310082813542e-11
	-3.493671794279548e-08,-2.654779860180180e-14
	-4.865118858266276e-06,-1.031162153207890e-11
	-1.894193844284626e-06,7.493149745471768e-14
	-3.005861731936177e-06,-1.041310082813542e-11
	-1.894193844284626e-06,7.493149745471768e-14
17		1.479108388168207e+00,0.000000000000000e+00
	-1.894193844284625e-02,7.667687624651578e-10
	1.000000000000000e+00,0.000000000000000e+00
	0.000000000000000e+00,0.000000000000000e+00
	6.550620344182324e-08,2.335733766810135e-14
	6.550636647193109e-08,5.487632159247517e-14
	1.894193844284624e-06,-7.667687624651498e-14
	3.005861731924447e-06,1.065565310534389e-11
	-3.493671794279533e-08,-2.716617626970459e-14
	-4.865118858266276e-06,-1.055181005282767e-11
	-1.894193844284626e-06,7.667687624651578e-14
	-3.005861731936177e-06,-1.065565310534389e-11
	-1.894193844284626e-06,7.667687624651578e-14
18		1.513561248436208e+00,0.000000000000000e+00
	-1.894193844284625e-02,7.846291013303821e-10
	1.000000000000000e+00,0.000000000000000e+00
	0.000000000000000e+00,0.000000000000000e+00
	6.550620344182289e-08,2.390139995410341e-14
	6.550636647193081e-08,5.615455532772490e-14
	1.894193844284624e-06,-7.846291013303693e-14
	3.005861731924447e-06,1.090385515087306e-11
	-3.493671794279518e-08,-2.779895780385244e-14
	-4.865118858266276e-06,-1.079759328293617e-11
	-1.894193844284626e-06,7.846291013303822e-14
	-3.005861731936177e-06,-1.090385515087306e-11
	-1.894193844284626e-06,7.846291013303822e-14
19		1.548816618912481e+00,0.000000000000000e+00
	-1.894193844284625e-02,8.029054609309256e-10
	1.000000000000000e+00,0.000000000000000e+00
	0.000000000000000e+00,0.000000000000000e+00
	6.550620344182255e-08,2.445813507873352e-14
	6.550636647193053e-08,5.746256295150274e-14
	1.894193844284624e-06,-8.029054609309366e-14
	3.005861731924447e-06,1.115783856473280e-11
	-3.493671794279503e-08,-2.844647871339056e-14
	-4.865118858266276e-06,-1.104910153992632e-11
	-1.894193844284626e-06,8.029054609309256e-14
	-3.005861731936177e-06,-1.115783856473281e-11
	-1.894193844284626e-06,8.029054609309256e-14
20		1.584893192461113e+00,0.000000000000000e+00
	-1.894193844284625e-02,8.216075316345650e-10
	1.000000000000000e+00,0.000000000000000e+00
	0.000000000000000e+00,0.000000000000000e+00
	6.550620344182218e-08,2.502783823032414e-14
	6.550636647193023e-08,5.880103798676448e-14
	1.894193844284624e-06,-8.216075316345668e-14
	3.005861731924446e-06,1.141773801229103e-11
	-3.493671794279486e-08,-2.910908232247622e-14
	-4.865118858266276e-06,-1.130646817680509e-11
	-1.894193844284626e-06,8.216075316345651e-14
	-3.005861731936177e-06,-1.141773801229103e-11
	-1.894193844284626e-06,8.216075316345651e-14
21		1.621810097358929e+00,0.000000000000000e+00
	-1.894193844284625e-02,8.407452295267383e-10
	1.000000000000000e+00,0.000000000000000e+00
	0.000000000000000e+00,0.000000000000000e+00
	6.550620344182179e-08,2.561081147302703e-14
	6.550636647192991e-08,6.017069011069049e-14
	1.894193844284624e-06,-8.407452295267492e-14
	3.005861731924446e-06,1.168369129567500e-11
	-3.493671794279469e-08,-2.978711995231348e-14
	-4.865118858266276e-06,-1.156982965277001e-11
	-1.894193844284626e-06,8.407452295267384e-14
	-3.005861731936177e-06,-1.168369129567499e-11
	-1.894193844284626e-06,8.407452295267384e-14
22		1.659586907437560e+00,0.000000000000000e+00
	-1.894193844284625e-02,8.603287016681854e-10
	1.000000000000000e+00,0.000000000000000e+00
	0.000000000000000e+00,0.000000000000000e+00
	6.550620344182140e-08,2.620736390697215e-14
	6.550636647192958e-08,6.157224553096651e-14
	1.894193844284624e-06,-8.603287016682067e-14
	3.005861731924446e-06,1.195583942683587e-11
	-3.493671794279450e-08,-3.048095110742865e-14
	-4.865118858266276e-06,-1.183932560556162e-11
	-1.894193844284626e-06,8.603287016681855e-14
	-3.005861731936177e-06,-1.195583942683587e-11
	-1.894193844284626e-06,8.603287016681855e-14
23		1.698243652461743e+00,0.000000000000000e+00
	-1.894193844284625e-02,8.803683314750539e-10
	1.000000000000000e+00,0.000000000000000e+00
	0.000000000000000e+00,0.000000000000000e+00
	6.550620344182097e-08,2.681781183215614e-14
	6.550636647192923e-08,6.300644737082799e-14
	1.894193844284624e-06,-8.803683314750516e-14
	3.005861731924446e-06,1.223432670231509e-11
	-3.493671794279432e-08,-3.119094366628402e-14
	-4.865118858266276e-06,-1.211509892550130e-11
	-1.894193844284626e-06,8.803683314750539e-14
	-3.005861731936177e-06,-1.223432670231509e-11
	-1.894193844284626e-06,8.803683314750539e-14
24		1.737800828749374e+00,0.000000000000000e+00
	-1.894193844284625e-02,9.008747442243226e-10
	1.000000000000000e+00,0.000000000000000e+00
	0.000000000000000e+00,0.000000000000000e+00
	6.550620344182055e-08,2.744247891614919e-14
	6.550636647192889e-08,6.447405606307437e-14
	1.894193844284624e-06,-9.008747442243187e-14
	3.005861731924446e-06,1.251930077975234e-11
	-3.493671794279413e-08,-3.191747407633217e-14
	-4.865118858266276e-06,-1.239729583125358e-11
	-1.894193844284626e-06,9.008747442243226e-14
	-3.005861731936177e-06,-1.251930077975234e-11
	-1.894193844284626e-06,9.008747442243226e-14
25		1.778279410038922e+00,0.000000000000000e+00
	-1.894193844284625e-02,9.218588126874660e-10
	1.000000000000000e+00,0.000000000000000e+00
	0.000000000000000e+00,0.000000000000000e+00
	6.550620344182010e-08,2.808169636570792e-14
	6.550636647192852e-08,6.597584975326054e-14
	1.894193844284624e-06,-9.218588126874614e-14
	3.005861731924445e-06,1.281091275617555e-11
	-3.493671794279392e-08,-3.266092755361339e-14
	-4.865118858266276e-06,-1.268606594735319e-11
	-1.894193844284626e-06,9.218588126874661e-14
	-3.005861731936177e-06,-1.281091275617555e-11
	-1.894193844284626e-06,9.218588126874661e-14
26		1.819700858609982e+00,0.000000000000000e+00
	-1.894193844284625e-02,9.433316628953402e-10
	1.000000000000000e+00,0.000000000000000e+00
	0.000000000000000e+00,0.000000000000000e+00
	6.550620344181961e-08,2.873580310238480e-14
	6.550636647192812e-08,6.751262471227939e-14
	1.894193844284624e-06,-9.433316628953559e-14
	3.005861731924445e-06,1.310931724811456e-11
	-3.493671794279371e-08,-3.342169828700196e-14
	-4.865118858266276e-06,-1.298156238353802e-11
	-1.894193844284626e-06,9.433316628953403e-14
	-3.005861731936177e-06,-1.310931724811456e-11
	-1.894193844284626e-06,9.433316628953403e-14
27		1.862087136662866e+00,0.000000000000000e+00
	-1.894193844284625e-02,9.653046800373525e-10
	1.000000000000000e+00,0.000000000000000e+00
	0.000000000000000e+00,0.000000000000000e+00
	6.550620344181911e-08,2.940514594222991e-14
	6.550636647192771e-08,6.908519575855596e-14
	1.894193844284624e-06,-9.653046800373431e-14
	3.005861731924445e-06,1.341467247358085e-11
	-3.493671794279348e-08,-3.420018964721078e-14
	-4.865118858266276e-06,-1.328394181592990e-11
	-1.894193844284626e-06,9.653046800373526e-14
	-3.005861731936177e-06,-1.341467247358085e-11
	-1.894193844284626e-06,9.653046800373526e-14
28		1.905460717963246e+00,0.000000000000000e+00
	-1.894193844284625e-02,9.877895144980380e-10
	1.000000000000000e+00,0.000000000000000e+00
	0.000000000000000e+00,0.000000000000000e+00
	6.550620344181858e-08,3.009007977967672e-14
	6.550636647192727e-08,7.069439669007439e-14
	1.894193844284624e-06,-9.877895144980397e-14
	3.005861731924445e-06,1.372714033595681e-11
	-3.493671794279324e-08,-3.499681440066359e-14
	-4.865118858266276e-06,-1.359336457010634e-11
	-1.894193844284626e-06,9.877895144980381e-14
	-3.005861731936177e-06,-1.372714033595681e-11
	-1.894193844284626e-06,9.877895144980381e-14
29		1.949844599758044e+00,0.000000000000000e+00
	-1.894193844284625e-02,1.010798088034251e-09
	1.000000000000000e+00,0.000000000000000e+00
	0.000000000000000e+00,0.000000000000000e+00
	6.550620344181802e-08,3.079096777571199e-14
	6.550636647192682e-08,7.234108072646885e-14
	1.894193844284624e-06,-1.010798088034236e-13
	3.005861731924445e-06,1.404688650983908e-11
	-3.493671794279300e-08,-3.581199492834923e-14
	-4.865118858266276e-06,-1.390999470610731e-11
	-1.894193844284626e-06,1.010798088034251e-13
	-3.005861731936177e-06,-1.404688650983908e-11
	-1.894193844284626e-06,1.010798088034251e-13
30		1.995262314968878e+00,0.000000000000000e+00
	-1.894193844284625e-02,1.034342600096234e-09
	1.000000000000000e+00,0.000000000000000e+00
	0.000000000000000e+00,0.000000000000000e+00
	6.550620344181745e-08,3.150818155042859e-14
	6.550636647192635e-08,7.402612096141189e-14
	1.894193844284624e-06,-1.034342600096231e-13
	3.005861731924444e-06,1.437408052888139e-11
	-3.493671794279274e-08,-3.664616344977366e-14
	-4.865118858266276e-06,-1.423400010542200e-11
	-1.894193844284626e-06,1.034342600096234e-13
	-3.005861731936177e-06,-1.437408052888139e-11
	-1.894193844284626e-06,1.034342600096234e-13
31		2.041737944669527e+00,0.000000000000000e+00
	-1.894193844284625e-02,1.058435534295930e-09
	1.000000000000000e+00,0.000000000000000e+00
	0.000000000000000e+00,0.000000000000000e+00
	6.550620344181683e-08,3.224210138006327e-14
	6.550636647192584e-08,7.575041082554017e-14
	1.894193844284624e-06,-1.058435534295925e-13
	3.005861731924444e-06,1.470889587568356e-11
	-3.493671794279245e-08,-3.749976225212847e-14
	-4.865118858266276e-06,-1.456555256000184e-11
	-1.894193844284626e-06,1.058435534295930e-13
	-3.005861731936177e-06,-1.470889587568356e-11
	-1.894193844284626e-06,1.058435534295930e-13
32		2.089296130854037e+00,0.000000000000000e+00
	-1.894193844284625e-02,1.083089665025961e-09
	1.000000000000000e+00,0.000000000000000e+00
	0.000000000000000e+00,0.000000000000000e+00
	6.550620344181622e-08,3.299311639862445e-14
