Title: * GA CMOS Amp | W=4.39347661432509e-05 L=1.425324461121198e-07 Vbias=1.2864388416138943
Date: Sat Sep  6 22:34:54 2025
Plotname: AC Analysis
Flags: complex forward log
No. Variables: 13
No. Points:          901
Offset:    0.0000000000000000e+00
Command: Linear Technology Corporation LTspice
Variables:
	0	frequency	frequency
	1	V(out)	voltage
	2	V(g)	voltage
	3	V(vdd)	voltage
	4	V(m1#dbody)	voltage
	5	V(m1#sbody)	voltage
	6	Id(M1)	device_current
	7	Ig(M1)	device_current
	8	Ib(M1)	device_current
	9	Is(M1)	device_current
	10	I(Rload)	device_current
	11	I(Vg)	device_current
	12	I(Vdd)	device_current
Values:
0		1.000000000000000e+00,0.000000000000000e+00
	6.158950193532099e-05,3.477418358802776e-11
	1.000000000000000e+00,0.000000000000000e+00
	0.000000000000000e+00,0.000000000000000e+00
	1.984708471149360e-05,7.227479111286369e-15
	1.984708471091047e-05,7.151489944642441e-15
	-6.158950193532629e-09,-3.477418358802767e-15
	1.779885722586492e-05,1.869703862845864e-12
	-1.058511185386730e-05,-3.832343029671880e-15
	-7.207586421804087e-06,-1.862394101457389e-12
	6.158950193532100e-09,3.477418358802776e-15
	-1.779885722586610e-05,-1.869703862845865e-12
	6.158950193532100e-09,3.477418358802776e-15
1		1.023292992280754e+00,0.000000000000000e+00
	6.158950193532099e-05,3.558417837791321e-11
	1.000000000000000e+00,0.000000000000000e+00
	0.000000000000000e+00,0.000000000000000e+00
	1.984708471149360e-05,7.395828726434874e-15
	1.984708471091047e-05,7.318069544718887e-15
	-6.158950193532629e-09,-3.558417837791373e-15
	1.779885722586492e-05,1.913254860490429e-12
	-1.058511185386730e-05,-3.921609766279229e-15
	-7.207586421804087e-06,-1.905774832886359e-12
	6.158950193532100e-09,3.558417837791322e-15
	-1.779885722586610e-05,-1.913254860490429e-12
	6.158950193532100e-09,3.558417837791322e-15
2		1.047128548050899e+00,0.000000000000000e+00
	6.158950193532099e-05,3.641304037018692e-11
	1.000000000000000e+00,0.000000000000000e+00
	0.000000000000000e+00,0.000000000000000e+00
	1.984708471149360e-05,7.568099707869502e-15
	1.984708471091047e-05,7.488529282134047e-15
	-6.158950193532629e-09,-3.641304037018746e-15
	1.779885722586492e-05,1.957820291186948e-12
	-1.058511185386730e-05,-4.012955792293301e-15
	-7.207586421804087e-06,-1.950166031357636e-12
	6.158950193532100e-09,3.641304037018691e-15
	-1.779885722586610e-05,-1.957820291186948e-12
	6.158950193532100e-09,3.641304037018691e-15
3		1.071519305237606e+00,0.000000000000000e+00
	6.158950193532099e-05,3.726120903844847e-11
	1.000000000000000e+00,0.000000000000000e+00
	0.000000000000000e+00,0.000000000000000e+00
	1.984708471149360e-05,7.744383395944881e-15
	1.984708471091047e-05,7.662959536896993e-15
	-6.158950193532629e-09,-3.726120903844834e-15
	1.779885722586492e-05,2.003423784116669e-12
	-1.058511185386730e-05,-4.106429540586195e-15
	-7.207586421804087e-06,-1.995591233672238e-12
	6.158950193532100e-09,3.726120903844847e-15
	-1.779885722586610e-05,-2.003423784116669e-12
	6.158950193532100e-09,3.726120903844847e-15
4		1.096478196143185e+00,0.000000000000000e+00
	6.158950193532099e-05,3.812913409295260e-11
	1.000000000000000e+00,0.000000000000000e+00
	0.000000000000000e+00,0.000000000000000e+00
	1.984708471149360e-05,7.924773258605827e-15
	1.984708471091047e-05,7.841452794237666e-15
	-6.158950193532629e-09,-3.812913409295076e-15
	1.779885722586492e-05,2.050089518855177e-12
	-1.058511185386730e-05,-4.202080572176530e-15
	-7.207586421804087e-06,-2.042074524873705e-12
	6.158950193532100e-09,3.812913409295261e-15
	-1.779885722586610e-05,-2.050089518855177e-12
	6.158950193532100e-09,3.812913409295261e-15
5		1.122018454301963e+00,0.000000000000000e+00
	6.158950193532099e-05,3.901727571905160e-11
	1.000000000000000e+00,0.000000000000000e+00
	0.000000000000000e+00,0.000000000000000e+00
	1.984708471149360e-05,8.109364940945256e-15
	1.984708471091047e-05,8.024103693643742e-15
	-6.158950193532629e-09,-3.901727571905059e-15
	1.779885722586492e-05,2.097842238192726e-12
	-1.058511185386730e-05,-4.299959602507345e-15
	-7.207586421804087e-06,-2.089640551018314e-12
	6.158950193532100e-09,3.901727571905161e-15
	-1.779885722586610e-05,-2.097842238192727e-12
	6.158950193532100e-09,3.901727571905161e-15
6		1.148153621496882e+00,0.000000000000000e+00
	6.158950193532099e-05,3.992610482119152e-11
	1.000000000000000e+00,0.000000000000000e+00
	0.000000000000000e+00,0.000000000000000e+00
	1.984708471149360e-05,8.298256315916515e-15
	1.984708471091047e-05,8.211009079039759e-15
	-6.158950193532629e-09,-3.992610482119108e-15
	1.779885722586492e-05,2.146707261253189e-12
	-1.058511185386730e-05,-4.400118528336104e-15
	-7.207586421804087e-06,-2.138314532242734e-12
	6.158950193532100e-09,3.992610482119152e-15
	-1.779885722586610e-05,-2.146707261253190e-12
	6.158950193532100e-09,3.992610482119152e-15
7		1.174897554939529e+00,0.000000000000000e+00
	6.158950193532099e-05,4.085610327259211e-11
	1.000000000000000e+00,0.000000000000000e+00
	0.000000000000000e+00,0.000000000000000e+00
	1.984708471149360e-05,8.491547536226876e-15
	1.984708471091047e-05,8.402268050135034e-15
	-6.158950193532629e-09,-4.085610327259394e-15
	1.779885722586492e-05,2.196710496918598e-12
	-1.058511185386730e-05,-4.502610455251040e-15
	-7.207586421804087e-06,-2.188122276136088e-12
	6.158950193532100e-09,4.085610327259211e-15
	-1.779885722586610e-05,-2.196710496918599e-12
	6.158950193532100e-09,4.085610327259211e-15
8		1.202264434617413e+00,0.000000000000000e+00
	6.158950193532099e-05,4.180776417074230e-11
	1.000000000000000e+00,0.000000000000000e+00
	0.000000000000000e+00,0.000000000000000e+00
	1.984708471149360e-05,8.689341087439866e-15
	1.984708471091047e-05,8.597982014967654e-15
	-6.158950193532629e-09,-4.180776417074421e-15
	1.779885722586492e-05,2.247878457566376e-12
	-1.058511185386730e-05,-4.607489725828445e-15
	-7.207586421804087e-06,-2.239090191423473e-12
	6.158950193532100e-09,4.180776417074230e-15
	-1.779885722586610e-05,-2.247878457566375e-12
	6.158950193532100e-09,4.180776417074230e-15
9		1.230268770812381e+00,0.000000000000000e+00
	6.158950193532099e-05,4.278159209884698e-11
	1.000000000000000e+00,0.000000000000000e+00
	0.000000000000000e+00,0.000000000000000e+00
	1.984708471149360e-05,8.891741842314440e-15
	1.984708471091047e-05,8.798254743672357e-15
	-6.158950193532840e-09,-4.278159209885486e-15
	1.779885722586492e-05,2.300238273126543e-12
	-1.058511185386730e-05,-4.714811948445820e-15
	-7.207586421804087e-06,-2.291245301968212e-12
	6.158950193532100e-09,4.278159209884698e-15
	-1.779885722586610e-05,-2.300238273126542e-12
	6.158950193532100e-09,4.278159209884698e-15
10		1.258925411794167e+00,0.000000000000000e+00
	6.158950193532099e-05,4.377810339336380e-11
	1.000000000000000e+00,0.000000000000000e+00
	0.000000000000000e+00,0.000000000000000e+00
	1.984708471149360e-05,9.098857116409933e-15
	1.984708471091047e-05,9.003192423500830e-15
	-6.158950193532840e-09,-4.377810339336564e-15
	1.779885722586492e-05,2.353817705466374e-12
	-1.058511185386730e-05,-4.824634026766176e-15
	-7.207586421804087e-06,-2.344615261100271e-12
	6.158950193532100e-09,4.377810339336379e-15
	-1.779885722586610e-05,-2.353817705466374e-12
	6.158950193532100e-09,4.377810339336379e-15
11		1.288249551693134e+00,0.000000000000000e+00
	6.158950193532099e-05,4.479782641777149e-11
	1.000000000000000e+00,0.000000000000000e+00
	0.000000000000000e+00,0.000000000000000e+00
	1.984708471149360e-05,9.310796724986152e-15
	1.984708471091047e-05,9.212903715123578e-15
	-6.158950193532840e-09,-4.479782641777094e-15
	1.779885722586492e-05,2.408645163110105e-12
	-1.058511185386730e-05,-4.937014189909104e-15
	-7.207586421804087e-06,-2.399228366278419e-12
	6.158950193532100e-09,4.479782641777149e-15
	-1.779885722586610e-05,-2.408645163110105e-12
	6.158950193532100e-09,4.479782641777149e-15
12		1.318256738556407e+00,0.000000000000000e+00
	6.158950193532099e-05,4.584130184271520e-11
	1.000000000000000e+00,0.000000000000000e+00
	0.000000000000000e+00,0.000000000000000e+00
	1.984708471149360e-05,9.527673041228926e-15
	1.984708471091047e-05,9.427499810243281e-15
	-6.158950193532840e-09,-4.584130184271615e-15
	1.779885722586492e-05,2.464749716301504e-12
	-1.058511185386730e-05,-5.052012023324631e-15
	-7.207586421804087e-06,-2.455113574093908e-12
	6.158950193532100e-09,4.584130184271520e-15
	-1.779885722586610e-05,-2.464749716301505e-12
	6.158950193532100e-09,4.584130184271520e-15
13		1.348962882591653e+00,0.000000000000000e+00
	6.158950193532099e-05,4.690908293267729e-11
	1.000000000000000e+00,0.000000000000000e+00
	0.000000000000000e+00,0.000000000000000e+00
	1.984708471149360e-05,9.749601055831820e-15
	1.984708471091047e-05,9.647094490550090e-15
	-6.158950193532840e-09,-4.690908293267754e-15
	1.779885722586492e-05,2.522161112417306e-12
	-1.058511185386730e-05,-5.169688500386209e-15
	-7.207586421804087e-06,-2.512300515623652e-12
	6.158950193532100e-09,4.690908293267729e-15
	-1.779885722586610e-05,-2.522161112417306e-12
	6.158950193532100e-09,4.690908293267729e-15
14		1.380384264602885e+00,0.000000000000000e+00
	6.158950193532099e-05,4.800173583932539e-11
	1.000000000000000e+00,0.000000000000000e+00
	0.000000000000000e+00,0.000000000000000e+00
	1.984708471149360e-05,9.976698437965746e-15
	1.984708471091047e-05,9.871804188050179e-15
	-6.158950193532840e-09,-4.800173583932869e-15
	1.779885722586492e-05,2.580909791739662e-12
	-1.058511185386730e-05,-5.290106014719609e-15
	-7.207586421804087e-06,-2.570819512141009e-12
	6.158950193532100e-09,4.800173583932539e-15
	-1.779885722586610e-05,-2.580909791739661e-12
	6.158950193532100e-09,4.800173583932539e-15
15		1.412537544622754e+00,0.000000000000000e+00
	6.158950193532099e-05,4.911983990169361e-11
	1.000000000000000e+00,0.000000000000000e+00
	0.000000000000000e+00,0.000000000000000e+00
	1.984708471149360e-05,1.020908559766869e-14
	1.984708471091047e-05,1.010174804679955e-14
	-6.158950193532840e-09,-4.911983990169226e-15
	1.779885722586492e-05,2.641026903595976e-12
	-1.058511185386730e-05,-5.413328413284844e-15
	-7.207586421804087e-06,-2.630701591192522e-12
	6.158950193532100e-09,4.911983990169361e-15
	-1.779885722586610e-05,-2.641026903595976e-12
	6.158950193532100e-09,4.911983990169361e-15
16		1.445439770745927e+00,0.000000000000000e+00
	6.158950193532099e-05,5.026398795335561e-11
	1.000000000000000e+00,0.000000000000000e+00
	0.000000000000000e+00,0.000000000000000e+00
	1.984708471149360e-05,1.044688574968875e-14
	1.984708471091047e-05,1.033704798607577e-14
	-6.158950193533052e-09,-5.026398795335809e-15
	1.779885722586492e-05,2.702544322874700e-12
	-1.058511185386730e-05,-5.539421030228673e-15
	-7.207586421804087e-06,-2.691978503049136e-12
	6.158950193532100e-09,5.026398795335561e-15
	-1.779885722586610e-05,-2.702544322874700e-12
	6.158950193532100e-09,5.026398795335561e-15
17		1.479108388168207e+00,0.000000000000000e+00
	6.158950193532099e-05,5.143478663675304e-11
	1.000000000000000e+00,0.000000000000000e+00
	0.000000000000000e+00,0.000000000000000e+00
	1.984708471149360e-05,1.069022497881416e-14
	1.984708471091047e-05,1.057782876502122e-14
	-6.158950193533052e-09,-5.143478663675529e-15
	1.779885722586492e-05,2.765494666925816e-12
	-1.058511185386730e-05,-5.668450721525635e-15
	-7.207586421804087e-06,-2.754682737540615e-12
	6.158950193532100e-09,5.143478663675304e-15
	-1.779885722586610e-05,-2.765494666925816e-12
	6.158950193532100e-09,5.143478663675304e-15
18		1.513561248436208e+00,0.000000000000000e+00
	6.158950193532099e-05,5.263285672484517e-11
	1.000000000000000e+00,0.000000000000000e+00
	0.000000000000000e+00,0.000000000000000e+00
	1.984708471149360e-05,1.093923230672521e-14
	1.984708471091047e-05,1.082421804879200e-14
	-6.158950193533052e-09,-5.263285672484790e-15
	1.779885722586492e-05,2.829911312854986e-12
	-1.058511185386730e-05,-5.800485900425970e-15
	-7.207586421804087e-06,-2.818847541282076e-12
	6.158950193532100e-09,5.263285672484517e-15
	-1.779885722586610e-05,-2.829911312854986e-12
	6.158950193532100e-09,5.263285672484517e-15
19		1.548816618912481e+00,0.000000000000000e+00
	6.158950193532099e-05,5.385883345025102e-11
	1.000000000000000e+00,0.000000000000000e+00
	0.000000000000000e+00,0.000000000000000e+00
	1.984708471149360e-05,1.119403976040313e-14
	1.984708471091047e-05,1.107634647624771e-14
	-6.158950193533052e-09,-5.385883345025425e-15
	1.779885722586492e-05,2.895828415220537e-12
	-1.058511185386730e-05,-5.935596573729213e-15
	-7.207586421804087e-06,-2.884506935301782e-12
	6.158950193532100e-09,5.385883345025102e-15
	-1.779885722586610e-05,-2.895828415220535e-12
	6.158950193532100e-09,5.385883345025102e-15
20		1.584893192461113e+00,0.000000000000000e+00
	6.158950193532099e-05,5.511336684205814e-11
	1.000000000000000e+00,0.000000000000000e+00
	0.000000000000000e+00,0.000000000000000e+00
	1.984708471149360e-05,1.145478244213266e-14
	1.984708471091047e-05,1.133434772921790e-14
	-6.158950193533052e-09,-5.511336684206256e-15
	1.779885722586492e-05,2.963280924142657e-12
	-1.058511185386730e-05,-6.073854378902759e-15
	-7.207586421804087e-06,-2.951695733079548e-12
	6.158950193532100e-09,5.511336684205814e-15
	-1.779885722586610e-05,-2.963280924142656e-12
	6.158950193532100e-09,5.511336684205814e-15
21		1.621810097358929e+00,0.000000000000000e+00
	6.158950193532099e-05,5.639712207047657e-11
	1.000000000000000e+00,0.000000000000000e+00
	0.000000000000000e+00,0.000000000000000e+00
	1.984708471149360e-05,1.172159860113497e-14
	1.984708471091047e-05,1.159835860338196e-14
	-6.158950193533052e-09,-5.639712207048008e-15
	1.779885722586492e-05,3.032304603834417e-12
	-1.058511185386730e-05,-6.215332622064964e-15
	-7.207586421804087e-06,-3.020449559005304e-12
	6.158950193532100e-09,5.639712207047657e-15
	-1.779885722586610e-05,-3.032304603834418e-12
	6.158950193532100e-09,5.639712207047657e-15
22		1.659586907437560e+00,0.000000000000000e+00
	6.158950193532099e-05,5.771077979952094e-11
	1.000000000000000e+00,0.000000000000000e+00
	0.000000000000000e+00,0.000000000000000e+00
	1.984708471149360e-05,1.199462970686931e-14
	1.984708471091047e-05,1.186851908079995e-14
	-6.158950193533052e-09,-5.771077979952184e-15
	1.779885722586492e-05,3.102936051564428e-12
	-1.058511185386730e-05,-6.360106316853044e-15
	-7.207586421804087e-06,-3.090804867267622e-12
	6.158950193532100e-09,5.771077979952094e-15
	-1.779885722586610e-05,-3.102936051564428e-12
	6.158950193532100e-09,5.771077979952094e-15
23		1.698243652461743e+00,0.000000000000000e+00
	6.158950193532099e-05,5.905503654790747e-11
	1.000000000000000e+00,0.000000000000000e+00
	0.000000000000000e+00,0.000000000000000e+00
	1.984708471149360e-05,1.227402052404192e-14
	1.984708471091047e-05,1.214497240413301e-14
	-6.158950193533052e-09,-5.905503654791059e-15
	1.779885722586492e-05,3.175212717061192e-12
	-1.058511185386730e-05,-6.508252224196277e-15
	-7.207586421804087e-06,-3.162798961182204e-12
	6.158950193532100e-09,5.905503654790748e-15
	-1.779885722586610e-05,-3.175212717061191e-12
	6.158950193532100e-09,5.905503654790748e-15
24		1.737800828749374e+00,0.000000000000000e+00
	6.158950193532099e-05,6.043060505835753e-11
	1.000000000000000e+00,0.000000000000000e+00
	0.000000000000000e+00,0.000000000000000e+00
	1.984708471149360e-05,1.255991918936224e-14
	1.984708471091047e-05,1.242786515259245e-14
	-6.158950193533052e-09,-6.043060505835961e-15
	1.779885722586492e-05,3.249172922369449e-12
	-1.058511185386730e-05,-6.659848893015681e-15
	-7.207586421804087e-06,-3.236470012970598e-12
	6.158950193532100e-09,6.043060505835753e-15
	-1.779885722586610e-05,-3.249172922369449e-12
	6.158950193532100e-09,6.043060505835753e-15
25		1.778279410038922e+00,0.000000000000000e+00
	6.158950193532099e-05,6.183821467550316e-11
	1.000000000000000e+00,0.000000000000000e+00
	0.000000000000000e+00,0.000000000000000e+00
	1.984708471149360e-05,1.285247729008696e-14
	1.984708471091047e-05,1.271734731965804e-14
	-6.158950193533052e-09,-6.183821467550505e-15
	1.779885722586492e-05,3.324855882169037e-12
	-1.058511185386730e-05,-6.814976701871684e-15
	-7.207586421804087e-06,-3.311857083999615e-12
	6.158950193532100e-09,6.183821467550316e-15
	-1.779885722586610e-05,-3.324855882169037e-12
	6.158950193532100e-09,6.183821467550316e-15
26		1.819700858609982e+00,0.000000000000000e+00
	6.158950193532099e-05,6.327861173259526e-11
	1.000000000000000e+00,0.000000000000000e+00
	0.000000000000000e+00,0.000000000000000e+00
	1.984708471149360e-05,1.315184994439352e-14
	1.984708471091047e-05,1.301357239260651e-14
	-6.158950193533052e-09,-6.327861173259663e-15
	1.779885722586492e-05,3.402301724567020e-12
	-1.058511185386730e-05,-6.973717901581902e-15
	-7.207586421804087e-06,-3.389000145492178e-12
	6.158950193532100e-09,6.327861173259526e-15
	-1.779885722586610e-05,-3.402301724567019e-12
	6.158950193532100e-09,6.327861173259526e-15
27		1.862087136662866e+00,0.000000000000000e+00
	6.158950193532099e-05,6.475255994721944e-11
	1.000000000000000e+00,0.000000000000000e+00
	0.000000000000000e+00,0.000000000000000e+00
	1.984708471149360e-05,1.345819588362591e-14
	1.984708471091047e-05,1.331669743389252e-14
	-6.158950193533052e-09,-6.475255994721962e-15
	1.779885722586492e-05,3.481551512374155e-12
	-1.058511185386730e-05,-7.136156658831605e-15
	-7.207586421804087e-06,-3.467940099720602e-12
	6.158950193532100e-09,6.475255994721944e-15
	-1.779885722586610e-05,-3.481551512374156e-12
	6.158950193532100e-09,6.475255994721944e-15
28		1.905460717963246e+00,0.000000000000000e+00
	6.158950193532101e-05,6.626084082622909e-11
	1.000000000000000e+00,0.000000000000000e+00
	0.000000000000000e+00,0.000000000000000e+00
	1.984708471149360e-05,1.377167753645609e-14
	1.984708471091047e-05,1.362688316442531e-14
	-6.158950193532629e-09,-6.626084082622758e-15
	1.779885722586492e-05,3.562647264876934e-12
	-1.058511185386730e-05,-7.302379100800020e-15
	-7.207586421804087e-06,-3.548718801693511e-12
	6.158950193532101e-09,6.626084082622909e-15
	-1.779885722586610e-05,-3.562647264876935e-12
	6.158950193532101e-09,6.626084082622909e-15
29		1.949844599758044e+00,0.000000000000000e+00
	6.158950193532101e-05,6.780425408011072e-11
	1.000000000000000e+00,0.000000000000000e+00
	0.000000000000000e+00,0.000000000000000e+00
	1.984708471149360e-05,1.409246111500580e-14
	1.984708471091047e-05,1.394429404878502e-14
	-6.158950193532629e-09,-6.780425408011018e-15
	1.779885722586492e-05,3.645631980116763e-12
	-1.058511185386730e-05,-7.472473360826097e-15
	-7.207586421804087e-06,-3.631379081347925e-12
	6.158950193532101e-09,6.780425408011073e-15
	-1.779885722586610e-05,-3.645631980116762e-12
	6.158950193532101e-09,6.780425408011073e-15
30		1.995262314968878e+00,0.000000000000000e+00
	6.158950193532101e-05,6.938361804700103e-11
	1.000000000000000e+00,0.000000000000000e+00
	0.000000000000000e+00,0.000000000000000e+00
	1.984708471149360e-05,1.442071670297444e-14
	1.984708471091047e-05,1.426909838242393e-14
	-6.158950193532629e-09,-6.938361804699596e-15
	1.779885722586492e-05,3.730549657688092e-12
	-1.058511185386730e-05,-7.646529625137958e-15
	-7.207586421804087e-06,-3.715964766258254e-12
	6.158950193532101e-09,6.938361804700103e-15
	-1.779885722586610e-05,-3.730549657688092e-12
	6.158950193532101e-09,6.938361804700103e-15
31		2.041737944669527e+00,0.000000000000000e+00
	6.158950193532101e-05,7.099977012658060e-11
	1.000000000000000e+00,0.000000000000000e+00
	0.000000000000000e+00,0.000000000000000e+00
	1.984708471149360e-05,1.475661834581978e-14
	1.984708471091047e-05,1.460146838089905e-14
	-6.158950193532629e-09,-7.099977012657886e-15
	1.779885722586492e-05,3.817445322067591e-12
	-1.058511185386730e-05,-7.824640180670856e-15
	-7.207586421804087e-06,-3.802520704874262e-12
	6.158950193532101e-09,7.099977012658061e-15
	-1.779885722586610e-05,-3.817445322067591e-12
	6.158950193532101e-09,7.099977012658061e-15
32		2.089296130854037e+00,0.000000000000000e+00
	6.158950193532101e-05,7.265356722407437e-11
	1.000000000000000e+00,0.000000000000000e+00
	0.000000000000000e+00,0.000000000000000e+00
	1.984708471149360e-05,1.510034414303899e-14
	1.984708471091047e-05,1.494158027118300e-14
	-6.158950193532629e-09,-7.265356722407143e-15
