LTspice 24.0.9 for Windows
Circuit: * GA CMOS Amp | W=3.275619590864829e-05 L=2.923022972129971e-07 Vbias=0.876817443989967
Start Time: Mon Sep  8 18:46:57 2025
solver = Normal
Maximum thread count: 2
tnom = 27
temp = 27
method = modified trap
AsciiRawFile = 1
Instance "m1": Length shorter than recommended for a level 3 MOSFET.
Direct Newton iteration for .op point succeeded.
Semiconductor Device Operating Points:
                        --- MOSFET Transistors ---
Name:          m1
Model:        n_1u
Id:          1.79e-04
Vgs:         8.77e-01
Vds:         8.66e-03
Vbs:         0.00e+00
Vth:         3.79e-01
Vdsat:       1.30e-01
Gm:          3.14e-04
Gds:         1.94e-02
Gmb:        -8.63e-05
Cbd:         0.00e+00
Cbs:         0.00e+00
Cgsov:       6.55e-15
Cgdov:       6.55e-15
Cgbov:       9.23e-18
Cgs:         2.67e-15
Cgd:         2.55e-15
Cgb:         0.00e+00



gain_db: MAX(db(v(out)/v(g)))=(33.0749dB,142.724°) FROM 1 TO 1e+09
gain_lin: MAX(mag(v(out)/v(g)))=(-35.7085dB,0°) FROM 1 TO 1e+09

Measurement "fc" FAIL'ed

Total elapsed time: 0.522 seconds.

