LTspice 24.0.9 for Windows
Circuit: * GA CMOS Amp | W=3.1159311620136456e-06 L=9.141388303584319e-07 Vbias=1.4795962239733482
Start Time: Sat Sep  6 22:16:19 2025
solver = Normal
Maximum thread count: 2
tnom = 27
temp = 27
method = modified trap
AsciiRawFile = 1
Direct Newton iteration for .op point succeeded.
Semiconductor Device Operating Points:
                        --- BSIM4 MOSFETS ---
Name:      m1
Model:      n
Id:      1.23e-04
Vgs:     1.48e+00
Vds:     5.68e-01
Vbs:     0.00e+00
Vth:     2.37e-01
Vdsat:   8.57e-01
Gm:      2.21e-05
Gds:     1.11e-04
Gmb      6.34e-05
Cbd:     1.34e-15
Cbs:     2.49e-15


.measure op idd find i(vdd)
  Error: FIND can not be evaluated over an interval.

gain_db: MAX(db(v(out)/v(g)))=(30.7196dB,127.411°) FROM 1 TO 1e+09
gain_lin: MAX(mag(v(out)/v(g)))=(0.436361dB,0°) FROM 1 TO 1e+09
fc: mag(v(out)/v(g))=1 AT 9.34944e+08

Total elapsed time: 0.784 seconds.

