Title: * GA CMOS Amp | W=3.846945017702151e-05 L=6.994205494637503e-07 Vbias=0.8371824274134638
Date: Mon Sep  8 18:43:32 2025
Plotname: AC Analysis
Flags: complex forward log
No. Variables: 11
No. Points:          901
Offset:    0.0000000000000000e+00
Command: Linear Technology Corporation LTspice
Variables:
	0	frequency	frequency
	1	V(out)	voltage
	2	V(g)	voltage
	3	V(vdd)	voltage
	4	Id(M1)	device_current
	5	Ig(M1)	device_current
	6	Ib(M1)	device_current
	7	Is(M1)	device_current
	8	I(Rload)	device_current
	9	I(Vg)	device_current
	10	I(Vdd)	device_current
Values:
0		1.000000000000000e+00,0.000000000000000e+00
	-7.973011386320287e+00,3.885604538053483e-09
	1.000000000000000e+00,0.000000000000000e+00
	0.000000000000000e+00,0.000000000000000e+00
	7.973011386320289e-04,-3.885604538053483e-13
	1.878384262283953e-22,6.268380446529709e-13
	7.973011357034765e-12,-5.772290902676660e-15
	-7.973011466050402e-04,-2.325052999449459e-13
	-7.973011386320288e-04,3.885604538053484e-13
	-1.878384262283953e-22,-6.268380446529710e-13
	-7.973011386320288e-04,3.885604538053484e-13
1		1.023292992280754e+00,0.000000000000000e+00
	-7.973011386320287e+00,3.976111894564427e-09
	1.000000000000000e+00,0.000000000000000e+00
	0.000000000000000e+00,0.000000000000000e+00
	7.973011386320289e-04,-3.976111894564426e-13
	1.966909785247056e-22,6.414389783883557e-13
	7.973011357034765e-12,-5.906744830115077e-15
	-7.973011466050402e-04,-2.379210441017980e-13
	-7.973011386320288e-04,3.976111894564427e-13
	-1.966909785247056e-22,-6.414389783883557e-13
	-7.973011386320288e-04,3.976111894564427e-13
2		1.047128548050899e+00,0.000000000000000e+00
	-7.973011386320287e+00,4.068727438231930e-09
	1.000000000000000e+00,0.000000000000000e+00
	0.000000000000000e+00,0.000000000000000e+00
	7.973011386320289e-04,-4.068727438231930e-13
	2.059607387572855e-22,6.563800115605303e-13
	7.973011357034765e-12,-6.044330591847231e-15
	-7.973011466050402e-04,-2.434629371454901e-13
	-7.973011386320288e-04,4.068727438231930e-13
	-2.059607387572855e-22,-6.563800115605304e-13
	-7.973011386320288e-04,4.068727438231930e-13
3		1.071519305237606e+00,0.000000000000000e+00
	-7.973011386320287e+00,4.163500275043158e-09
	1.000000000000000e+00,0.000000000000000e+00
	0.000000000000000e+00,0.000000000000000e+00
	7.973011386320289e-04,-4.163500275043159e-13
	2.156673693304070e-22,6.716690661030511e-13
	7.973011357034765e-12,-6.185121137665528e-15
	-7.973011466050402e-04,-2.491339174610697e-13
	-7.973011386320288e-04,4.163500275043159e-13
	-2.156673693304070e-22,-6.716690661030511e-13
	-7.973011386320288e-04,4.163500275043159e-13
4		1.096478196143185e+00,0.000000000000000e+00
	-7.973011386320287e+00,4.260480654810656e-09
	1.000000000000000e+00,0.000000000000000e+00
	0.000000000000000e+00,0.000000000000000e+00
	7.973011386320289e-04,-4.260480654810656e-13
	2.258314593089061e-22,6.873142484750106e-13
	7.973011357034765e-12,-6.329191116580676e-15
	-7.973011466050402e-04,-2.549369918773644e-13
	-7.973011386320288e-04,4.260480654810656e-13
	-2.258314593089061e-22,-6.873142484750107e-13
	-7.973011386320288e-04,4.260480654810656e-13
5		1.122018454301963e+00,0.000000000000000e+00
	-7.973011386320287e+00,4.359719997815464e-09
	1.000000000000000e+00,0.000000000000000e+00
	0.000000000000000e+00,0.000000000000000e+00
	7.973011386320289e-04,-4.359719997815463e-13
	2.364745680903508e-22,7.033238539591914e-13
	7.973011357034765e-12,-6.476616916402565e-15
	-7.973011466050402e-04,-2.608752372612425e-13
	-7.973011386320288e-04,4.359719997815464e-13
	-2.364745680903508e-22,-7.033238539591915e-13
	-7.973011386320288e-04,4.359719997815464e-13
6		1.148153621496882e+00,0.000000000000000e+00
	-7.973011386320287e+00,4.461270922070828e-09
	1.000000000000000e+00,0.000000000000000e+00
	0.000000000000000e+00,0.000000000000000e+00
	7.973011386320289e-04,-4.461270922070828e-13
	2.476192711354125e-22,7.197063710603331e-13
	7.973011357034765e-12,-6.627476704241771e-15
	-7.973011466050402e-04,-2.669518021490086e-13
	-7.973011386320288e-04,4.461270922070828e-13
	-2.476192711354125e-22,-7.197063710603332e-13
	-7.973011386320288e-04,4.461270922070828e-13
7		1.174897554939529e+00,0.000000000000000e+00
	-7.973011386320287e+00,4.565187271220975e-09
	1.000000000000000e+00,0.000000000000000e+00
	0.000000000000000e+00,0.000000000000000e+00
	7.973011386320289e-04,-4.565187271220977e-13
	2.592892078534464e-22,7.364704860058510e-13
	7.973011357034765e-12,-6.781850467954465e-15
	-7.973011466050402e-04,-2.731699084157988e-13
	-7.973011386320288e-04,4.565187271220976e-13
	-2.592892078534464e-22,-7.364704860058511e-13
	-7.973011386320288e-04,4.565187271220976e-13
8		1.202264434617413e+00,0.000000000000000e+00
	-7.973011386320287e+00,4.671524143089723e-09
	1.000000000000000e+00,0.000000000000000e+00
	0.000000000000000e+00,0.000000000000000e+00
	7.973011386320289e-04,-4.671524143089724e-13
	2.715091317448473e-22,7.536250873513885e-13
	7.973011357034765e-12,-6.939820058553751e-15
	-7.973011466050402e-04,-2.795328529838624e-13
	-7.973011386320288e-04,4.671524143089724e-13
	-2.715091317448473e-22,-7.536250873513886e-13
	-7.973011386320288e-04,4.671524143089724e-13
9		1.230268770812381e+00,0.000000000000000e+00
	-7.973011386320287e+00,4.780337918894070e-09
	1.000000000000000e+00,0.000000000000000e+00
	0.000000000000000e+00,0.000000000000000e+00
	7.973011386320289e-04,-4.780337918894070e-13
	2.843049629065424e-22,7.711792706936472e-13
	7.973011357034765e-12,-7.101469233607611e-15
	-7.973011466050402e-04,-2.860440095706326e-13
	-7.973011386320288e-04,4.780337918894070e-13
	-2.843049629065424e-22,-7.711792706936472e-13
	-7.973011386320288e-04,4.780337918894070e-13
10		1.258925411794167e+00,0.000000000000000e+00
	-7.973011386320287e+00,4.891686293138264e-09
	1.000000000000000e+00,0.000000000000000e+00
	0.000000000000000e+00,0.000000000000000e+00
	7.973011386320289e-04,-4.891686293138265e-13
	2.977038430119925e-22,7.891423434929918e-13
	7.973011357034765e-12,-7.266883701648069e-15
	-7.973011466050402e-04,-2.927068304775173e-13
	-7.973011386320288e-04,4.891686293138264e-13
	-2.977038430119925e-22,-7.891423434929919e-13
	-7.973011386320288e-04,4.891686293138264e-13
11		1.288249551693134e+00,0.000000000000000e+00
	-7.973011386320287e+00,5.005628304204206e-09
	1.000000000000000e+00,0.000000000000000e+00
	0.000000000000000e+00,0.000000000000000e+00
	7.973011386320289e-04,-5.005628304204205e-13
	3.117341928823208e-22,8.075238300083904e-13
	7.973011357034765e-12,-7.436151167615735e-15
	-7.973011466050402e-04,-2.995248484203542e-13
	-7.973011386320288e-04,5.005628304204206e-13
	-3.117341928823208e-22,-8.075238300083905e-13
	-7.973011386320288e-04,5.005628304204206e-13
12		1.318256738556407e+00,0.000000000000000e+00
	-7.973011386320287e+00,5.122224365654358e-09
	1.000000000000000e+00,0.000000000000000e+00
	0.000000000000000e+00,0.000000000000000e+00
	7.973011386320289e-04,-5.122224365654358e-13
	3.264257727706835e-22,8.263334763473008e-13
	7.973011357034765e-12,-7.609361379361556e-15
	-7.973011466050402e-04,-3.065016784025035e-13
	-7.973011386320288e-04,5.122224365654359e-13
	-3.264257727706835e-22,-8.263334763473009e-13
	-7.973011386320288e-04,5.122224365654359e-13
13		1.348962882591653e+00,0.000000000000000e+00
	-7.973011386320287e+00,5.241536298263836e-09
	1.000000000000000e+00,0.000000000000000e+00
	0.000000000000000e+00,0.000000000000000e+00
	7.973011386320289e-04,-5.241536298263836e-13
	3.418097454877587e-22,8.455812556331872e-13
	7.973011357034765e-12,-7.786606175232415e-15
	-7.973011466050402e-04,-3.136410196315712e-13
	-7.973011386320288e-04,5.241536298263836e-13
	-3.418097454877587e-22,-8.455812556331872e-13
	-7.973011386320288e-04,5.241536298263836e-13
14		1.380384264602885e+00,0.000000000000000e+00
	-7.973011386320287e+00,5.363627362798589e-09
	1.000000000000000e+00,0.000000000000000e+00
	0.000000000000000e+00,0.000000000000000e+00
	7.973011386320289e-04,-5.363627362798588e-13
	3.579187425022444e-22,8.652773732934015e-13
	7.973011357034765e-12,-7.967979532765436e-15
	-7.973011466050402e-04,-3.209466574807773e-13
	-7.973011386320288e-04,5.363627362798589e-13
	-3.579187425022444e-22,-8.652773732934016e-13
	-7.973011386320288e-04,5.363627362798589e-13
15		1.412537544622754e+00,0.000000000000000e+00
	-7.973011386320287e+00,5.488562293557097e-09
	1.000000000000000e+00,0.000000000000000e+00
	0.000000000000000e+00,0.000000000000000e+00
	7.973011386320289e-04,-5.488562293557097e-13
	3.747869331565788e-22,8.854322724702358e-13
	7.973011357034765e-12,-8.153577618515217e-15
	-7.973011466050402e-04,-3.284224654960109e-13
	-7.973011386320288e-04,5.488562293557097e-13
	-3.747869331565788e-22,-8.854322724702359e-13
	-7.973011386320288e-04,5.488562293557097e-13
16		1.445439770745927e+00,0.000000000000000e+00
	-7.973011386320287e+00,5.616407332693361e-09
	1.000000000000000e+00,0.000000000000000e+00
	0.000000000000000e+00,0.000000000000000e+00
	7.973011386320289e-04,-5.616407332693360e-13
	3.924500971446979e-22,9.060566395580155e-13
	7.973011357034765e-12,-8.343498839043876e-15
	-7.973011466050402e-04,-3.360724074496356e-13
	-7.973011386320288e-04,5.616407332693361e-13
	-3.924500971446979e-22,-9.060566395580156e-13
	-7.973011386320288e-04,5.616407332693361e-13
17		1.479108388168207e+00,0.000000000000000e+00
	-7.973011386320287e+00,5.747230265339357e-09
	1.000000000000000e+00,0.000000000000000e+00
	0.000000000000000e+00,0.000000000000000e+00
	7.973011386320289e-04,-5.747230265339357e-13
	4.109457004055618e-22,9.271614098691663e-13
	7.973011357034765e-12,-8.537843893096136e-15
	-7.973011466050402e-04,-3.439005394421344e-13
	-7.973011386320288e-04,5.747230265339357e-13
	-4.109457004055618e-22,-9.271614098691663e-13
	-7.973011386320288e-04,5.747230265339357e-13
18		1.513561248436208e+00,0.000000000000000e+00
	-7.973011386320287e+00,5.881100455545624e-09
	1.000000000000000e+00,0.000000000000000e+00
	0.000000000000000e+00,0.000000000000000e+00
	7.973011386320289e-04,-5.881100455545624e-13
	4.303129745934360e-22,9.487577734322619e-13
	7.973011357034765e-12,-8.736715824992263e-15
	-7.973011466050402e-04,-3.519110120527073e-13
	-7.973011386320288e-04,5.881100455545624e-13
	-4.303129745934360e-22,-9.487577734322621e-13
	-7.973011386320288e-04,5.881100455545624e-13
19		1.548816618912481e+00,0.000000000000000e+00
	-7.973011386320287e+00,6.018088883058986e-09
	1.000000000000000e+00,0.000000000000000e+00
	0.000000000000000e+00,0.000000000000000e+00
	7.973011386320289e-04,-6.018088883058987e-13
	4.505930002934881e-22,9.708571809251250e-13
	7.973011357034765e-12,-8.940220079262973e-15
	-7.973011466050402e-04,-3.601080725399633e-13
	-7.973011386320288e-04,6.018088883058987e-13
	-4.505930002934881e-22,-9.708571809251252e-13
	-7.973011386320288e-04,6.018088883058987e-13
20		1.584893192461113e+00,0.000000000000000e+00
	-7.973011386320287e+00,6.158268180956973e-09
	1.000000000000000e+00,0.000000000000000e+00
	0.000000000000000e+00,0.000000000000000e+00
	7.973011386320289e-04,-6.158268180956973e-13
	4.718287941592190e-22,9.934713497461288e-13
	7.973011357034765e-12,-9.148464556557540e-15
	-7.973011466050402e-04,-3.684960670938739e-13
	-7.973011386320288e-04,6.158268180956973e-13
	-4.718287941592190e-22,-9.934713497461288e-13
	-7.973011386320288e-04,6.158268180956973e-13
21		1.621810097358929e+00,0.000000000000000e+00
	-7.973011386320287e+00,6.301712674158817e-09
	1.000000000000000e+00,0.000000000000000e+00
	0.000000000000000e+00,0.000000000000000e+00
	7.973011386320289e-04,-6.301712674158817e-13
	4.940654001565495e-22,1.016612270226916e-12
	7.973011357034765e-12,-9.361559670854055e-15
	-7.973011466050402e-04,-3.770794431401798e-13
	-7.973011386320288e-04,6.301712674158817e-13
	-4.940654001565495e-22,-1.016612270226916e-12
	-7.973011386320288e-04,6.301712674158817e-13
22		1.659586907437560e+00,0.000000000000000e+00
	-7.973011386320287e+00,6.448498418833529e-09
	1.000000000000000e+00,0.000000000000000e+00
	0.000000000000000e+00,0.000000000000000e+00
	7.973011386320289e-04,-6.448498418833529e-13
	5.173499851081144e-22,1.040292211989831e-12
	7.973011357034765e-12,-9.579618408003254e-15
	-7.973011466050402e-04,-3.858627516984750e-13
	-7.973011386320288e-04,6.448498418833529e-13
	-5.173499851081144e-22,-1.040292211989831e-12
	-7.973011386320288e-04,6.448498418833529e-13
23		1.698243652461743e+00,0.000000000000000e+00
	-7.973011386320287e+00,6.598703242725874e-09
	1.000000000000000e+00,0.000000000000000e+00
	0.000000000000000e+00,0.000000000000000e+00
	7.973011386320289e-04,-6.598703242725873e-13
	5.417319387404144e-22,1.064523730453439e-12
	7.973011357034765e-12,-9.802756385633482e-15
	-7.973011466050402e-04,-3.948506497952182e-13
	-7.973011386320288e-04,6.598703242725874e-13
	-5.417319387404144e-22,-1.064523730453439e-12
	-7.973011386320288e-04,6.598703242725874e-13
24		1.737800828749374e+00,0.000000000000000e+00
	-7.973011386320287e+00,6.752406786421672e-09
	1.000000000000000e+00,0.000000000000000e+00
	0.000000000000000e+00,0.000000000000000e+00
	7.973011386320289e-04,-6.752406786421673e-13
	5.672629784460486e-22,1.089319673489570e-12
	7.973011357034765e-12,-1.003109191445415e-14
	-7.973011466050402e-04,-4.040479029329489e-13
	-7.973011386320288e-04,6.752406786421673e-13
	-5.672629784460486e-22,-1.089319673489570e-12
	-7.973011386320288e-04,6.752406786421673e-13
25		1.778279410038922e+00,0.000000000000000e+00
	-7.973011386320287e+00,6.909690545574304e-09
	1.000000000000000e+00,0.000000000000000e+00
	0.000000000000000e+00,0.000000000000000e+00
	7.973011386320289e-04,-6.909690545574305e-13
	5.939972589832396e-22,1.114693188235436e-12
	7.973011357034765e-12,-1.026474606098492e-14
	-7.973011466050402e-04,-4.134593876170210e-13
	-7.973011386320288e-04,6.909690545574304e-13
	-5.939972589832396e-22,-1.114693188235437e-12
	-7.973011386320288e-04,6.909690545574304e-13
26		1.819700858609982e+00,0.000000000000000e+00
	-7.973011386320287e+00,7.070637914114766e-09
	1.000000000000000e+00,0.000000000000000e+00
	0.000000000000000e+00,0.000000000000000e+00
	7.973011386320289e-04,-7.070637914114766e-13
	6.219914873453339e-22,1.140657728064414e-12
	7.973011357034765e-12,-1.050384271174748e-14
	-7.973011466050402e-04,-4.230900939411895e-13
	-7.973011386320288e-04,7.070637914114767e-13
	-6.219914873453339e-22,-1.140657728064414e-12
	-7.973011386320288e-04,7.070637914114767e-13
27		1.862087136662866e+00,0.000000000000000e+00
	-7.973011386320287e+00,7.235334228468249e-09
	1.000000000000000e+00,0.000000000000000e+00
	0.000000000000000e+00,0.000000000000000e+00
	7.973011386320289e-04,-7.235334228468248e-13
	6.513050430439389e-22,1.167227059719201e-12
	7.973011357034765e-12,-1.074850863895049e-14
	-7.973011466050402e-04,-4.329451282334252e-13
	-7.973011386320288e-04,7.235334228468249e-13
	-6.513050430439389e-22,-1.167227059719201e-12
	-7.973011386320288e-04,7.235334228468249e-13
28		1.905460717963246e+00,0.000000000000000e+00
	-7.973011386320287e+00,7.403866812800636e-09
	1.000000000000000e+00,0.000000000000000e+00
	0.000000000000000e+00,0.000000000000000e+00
	7.973011386320289e-04,-7.403866812800636e-13
	6.820001040608282e-22,1.194415270611127e-12
	7.973011357034765e-12,-1.099887356770709e-14
	-7.973011466050402e-04,-4.430297157633564e-13
	-7.973011386320288e-04,7.403866812800636e-13
	-6.820001040608282e-22,-1.194415270611127e-12
	-7.973011386320288e-04,7.403866812800636e-13
29		1.949844599758044e+00,0.000000000000000e+00
	-7.973011386320287e+00,7.576325025318932e-09
	1.000000000000000e+00,0.000000000000000e+00
	0.000000000000000e+00,0.000000000000000e+00
	7.973011386320289e-04,-7.576325025318933e-13
	7.141417787357775e-22,1.222236776289487e-12
	7.973011357034765e-12,-1.125507024481662e-14
	-7.973011466050402e-04,-4.533492035127770e-13
	-7.973011386320288e-04,7.576325025318932e-13
	-7.141417787357775e-22,-1.222236776289487e-12
	-7.973011386320288e-04,7.576325025318932e-13
30		1.995262314968878e+00,0.000000000000000e+00
	-7.973011386320287e+00,7.752800305650171e-09
	1.000000000000000e+00,0.000000000000000e+00
	0.000000000000000e+00,0.000000000000000e+00
	7.973011386320289e-04,-7.752800305650171e-13
	7.477982438700814e-22,1.250706328084852e-12
	7.973011357034765e-12,-1.151723450914841e-14
	-7.973011466050402e-04,-4.639090630106861e-13
	-7.973011386320288e-04,7.752800305650171e-13
	-7.477982438700814e-22,-1.250706328084852e-12
	-7.973011386320288e-04,7.752800305650171e-13
31		2.041737944669527e+00,0.000000000000000e+00
	-7.973011386320287e+00,7.933386223323907e-09
	1.000000000000000e+00,0.000000000000000e+00
	0.000000000000000e+00,0.000000000000000e+00
	7.973011386320289e-04,-7.933386223323906e-13
	7.830408893386905e-22,1.279839020930422e-12
	7.973011357034765e-12,-1.178550536366570e-14
	-7.973011466050402e-04,-4.747148932343659e-13
	-7.973011386320288e-04,7.933386223323907e-13
	-7.830408893386905e-22,-1.279839020930422e-12
	-7.973011386320288e-04,7.933386223323907e-13
32		2.089296130854037e+00,0.000000000000000e+00
	-7.973011386320287e+00,8.118178527384032e-09
	1.000000000000000e+00,0.000000000000000e+00
	0.000000000000000e+00,0.000000000000000e+00
	7.973011386320289e-04,-8.118178527384032e-13
	8.199444695177081e-22,1.309650301365563e-12
	7.973011357034765e-12,-1.206002504912654e-14
	-7.973011466050402e-04,-4.857724235780330e-13
	-7.973011386320288e-04,8.118178527384033e-13
	-8.199444695177081e-22,-1.309650301365563e-12
	-7.973011386320288e-04,8.118178527384033e-13
33		2.137962089502230e+00,0.000000000000000e+00
	-7.973011386320287e+00,8.307275197156171e-09
	1.000000000000000e+00,0.000000000000000e+00
	0.000000000000000e+00,0.000000000000000e+00
	7.973011386320289e-04,-8.307275197156172e-13
	8.585872618484425e-22,1.340155975725758e-12
	7.973011357034765e-12,-1.234093911950156e-14
	-7.973011466050402e-04,-4.970875168906393e-13
	-7.973011386320288e-04,8.307275197156172e-13
	-8.585872618484425e-22,-1.340155975725758e-12
	-7.973011386320288e-04,8.307275197156172e-13
34		2.187761623949550e+00,0.000000000000000e+00
	-7.973011386320287e+00,8.500776494197630e-09
	1.000000000000000e+00,0.000000000000000e+00
	0.000000000000000e+00,0.000000000000000e+00
	7.973011386320289e-04,-8.500776494197630e-13
	8.990512328743572e-22,1.371372218523345e-12
	7.973011357034765e-12,-1.262839651914937e-14
	-7.973011466050402e-04,-5.086661725844322e-13
	-7.973011386320288e-04,8.500776494197631e-13
	-8.990512328743572e-22,-1.371372218523345e-12
	-7.973011386320288e-04,8.500776494197631e-13
35		2.238721138568337e+00,0.000000000000000e+00
	-7.973011386320287e+00,8.698785015457392e-09
	1.000000000000000e+00,0.000000000000000e+00
	0.000000000000000e+00,0.000000000000000e+00
	7.973011386320289e-04,-8.698785015457392e-13
	9.414222121030967e-22,1.403315581023449e-12
	7.973011357034765e-12,-1.292254966178811e-14
	-7.973011466050402e-04,-5.205145298159221e-13
	-7.973011386320288e-04,8.698785015457392e-13
	-9.414222121030967e-22,-1.403315581023450e-12
	-7.973011386320288e-04,8.698785015457392e-13
36		2.290867652767770e+00,0.000000000000000e+00
	-7.973011386320287e+00,8.901405747674381e-09
	1.000000000000000e+00,0.000000000000000e+00
	0.000000000000000e+00,0.000000000000000e+00
	7.973011386320289e-04,-8.901405747674381e-13
	9.857900740623818e-22,1.436003000019691e-12
	7.973011357034765e-12,-1.322355451130780e-14
	-7.973011466050402e-04,-5.326388707409448e-13
	-7.973011386320288e-04,8.901405747674382e-13
	-9.857900740623818e-22,-1.436003000019691e-12
	-7.973011386320288e-04,8.901405747674382e-13
37		2.344228815319919e+00,0.000000000000000e+00
	-7.973011386320287e+00,9.108746123042819e-09
	1.000000000000000e+00,0.000000000000000e+00
	0.000000000000000e+00,0.000000000000000e+00
	7.973011386320289e-04,-9.108746123042821e-13
	1.032248928935930e-21,1.469451806814289e-12
	7.973011357034765e-12,-1.353157066446383e-14
	-7.973011466050402e-04,-5.450456238455431e-13
	-7.973011386320288e-04,9.108746123042819e-13
	-1.032248928935930e-21,-1.469451806814289e-12
	-7.973011386320288e-04,9.108746123042819e-13
38		2.398832919019488e+00,0.000000000000000e+00
	-7.973011386320287e+00,9.320916076174205e-09
	1.000000000000000e+00,0.000000000000000e+00
