LTspice 24.0.9 for Windows
Circuit: * GA CMOS Amp | W=1.0790134607209642e-05 L=6.929057962337064e-07 Vbias=1.4426397206337098
Start Time: Sat Sep  6 22:34:37 2025
solver = Normal
Maximum thread count: 2
tnom = 27
temp = 27
method = modified trap
AsciiRawFile = 1
Direct Newton iteration for .op point succeeded.
Semiconductor Device Operating Points:
                        --- BSIM4 MOSFETS ---
Name:      m1
Model:      n
Id:      1.68e-04
Vgs:     1.44e+00
Vds:     1.23e-01
Vbs:     0.00e+00
Vth:     2.42e-01
Vdsat:   8.31e-01
Gm:     -1.92e-05
Gds:     1.27e-03
Gmb      8.22e-05
Cbd:     5.19e-15
Cbs:     8.63e-15


.measure op idd find i(vdd)
  Error: FIND can not be evaluated over an interval.

gain_db: MAX(db(v(out)/v(g)))=(30.5771dB,180°) FROM 1 TO 1e+09
gain_lin: MAX(mag(v(out)/v(g)))=(-5.38113dB,0°) FROM 1 TO 1e+09

Measurement "fc" FAIL'ed

Total elapsed time: 1.491 seconds.

