LTspice 24.0.9 for Windows
Circuit: * GA CMOS Amp | W=1e-06 L=8.208244055546704e-07 Vbias=1.295521358805995
Start Time: Sat Sep  6 22:06:12 2025
solver = Normal
Maximum thread count: 2
tnom = 27
temp = 27
method = modified trap
AsciiRawFile = 1
Direct Newton iteration for .op point succeeded.
Semiconductor Device Operating Points:
                        --- BSIM4 MOSFETS ---
Name:      m1
Model:      n
Id:      4.73e-05
Vgs:     1.30e+00
Vds:     1.33e+00
Vbs:     0.00e+00
Vth:     2.39e-01
Vdsat:   7.38e-01
Gm:      3.04e-05
Gds:     3.72e-06
Gmb      3.00e-05
Cbd:     3.78e-16
Cbs:     8.00e-16


.measure op idd find i(vdd)
  Error: FIND can not be evaluated over an interval.

gain_db: MAX(db(v(out)/v(g)))=(29.3458dB,111.502°) FROM 1 TO 1e+09
gain_lin: MAX(mag(v(out)/v(g)))=(-3.86836dB,0°) FROM 1 TO 1e+09

Measurement "fc" FAIL'ed

Total elapsed time: 4.628 seconds.

