LTspice 24.0.9 for Windows
Circuit: * GA CMOS Amp | W=4.119522269276747e-05 L=9.534286020393814e-07 Vbias=1.1601538821834971
Start Time: Mon Sep  8 18:43:21 2025
solver = Normal
Maximum thread count: 2
tnom = 27
temp = 27
method = modified trap
AsciiRawFile = 1
Instance "m1": Length shorter than recommended for a level 3 MOSFET.
Direct Newton iteration for .op point succeeded.
Semiconductor Device Operating Points:
                        --- MOSFET Transistors ---
Name:          m1
Model:        n_1u
Id:          1.72e-04
Vgs:         1.16e+00
Vds:         7.89e-02
Vbs:         0.00e+00
Vth:         8.03e-01
Vdsat:       3.11e-01
Gm:          4.51e-04
Gds:         1.78e-03
Gmb:         1.09e-04
Cbd:         0.00e+00
Cbs:         0.00e+00
Cgsov:       8.24e-15
Cgdov:       8.24e-15
Cgbov:       7.53e-17
Cgs:         2.92e-14
Cgd:         2.40e-14
Cgb:         0.00e+00



gain_db: MAX(db(v(out)/v(g)))=(29.5355dB,114.452°) FROM 1 TO 1e+09
gain_lin: MAX(mag(v(out)/v(g)))=(-11.6055dB,0°) FROM 1 TO 1e+09

Measurement "fc" FAIL'ed

Total elapsed time: 0.591 seconds.

