Title: * GA CMOS Amp | W=4.216074529571602e-06 L=6.545368872891412e-07 Vbias=0.6440825643619259
Date: Mon Sep  8 18:45:17 2025
Plotname: AC Analysis
Flags: complex forward log
No. Variables: 11
No. Points:          901
Offset:    0.0000000000000000e+00
Command: Linear Technology Corporation LTspice
Variables:
	0	frequency	frequency
	1	V(out)	voltage
	2	V(g)	voltage
	3	V(vdd)	voltage
	4	Id(M1)	device_current
	5	Ig(M1)	device_current
	6	Ib(M1)	device_current
	7	Is(M1)	device_current
	8	I(Rload)	device_current
	9	I(Vg)	device_current
	10	I(Vdd)	device_current
Values:
0		1.000000000000000e+00,0.000000000000000e+00
	-1.645221314808556e-02,5.384581663407848e-11
	1.000000000000000e+00,0.000000000000000e+00
	0.000000000000000e+00,0.000000000000000e+00
	1.645221314808556e-06,-5.384581663407848e-15
	2.852792022976528e-25,2.537297200020145e-14
	1.645221316088708e-14,-8.300561487727137e-16
	-1.645221331260770e-06,-1.915833418802089e-14
	-1.645221314808557e-06,5.384581663407848e-15
	-2.852792022976528e-25,-2.537297200020145e-14
	-1.645221314808557e-06,5.384581663407848e-15
1		1.023292992280754e+00,0.000000000000000e+00
	-1.645221314808556e-02,5.510004682528697e-11
	1.000000000000000e+00,0.000000000000000e+00
	0.000000000000000e+00,0.000000000000000e+00
	1.645221314808556e-06,-5.510004682528698e-15
	2.987239968910600e-25,2.596398444114193e-14
	1.645221316088708e-14,-8.493906402386668e-16
	-1.645221331260770e-06,-1.960458911837457e-14
	-1.645221314808557e-06,5.510004682528698e-15
	-2.987239968910600e-25,-2.596398444114193e-14
	-1.645221314808557e-06,5.510004682528698e-15
2		1.047128548050899e+00,0.000000000000000e+00
	-1.645221314808556e-02,5.638349179065757e-11
	1.000000000000000e+00,0.000000000000000e+00
	0.000000000000000e+00,0.000000000000000e+00
	1.645221314808556e-06,-5.638349179065757e-15
	3.128024251324971e-25,2.656876333030707e-14
	1.645221316088708e-14,-8.691754898650887e-16
	-1.645221331260770e-06,-2.006123866137622e-14
	-1.645221314808557e-06,5.638349179065758e-15
	-3.128024251324971e-25,-2.656876333030707e-14
	-1.645221314808557e-06,5.638349179065758e-15
3		1.071519305237606e+00,0.000000000000000e+00
	-1.645221314808556e-02,5.769683202969931e-11
	1.000000000000000e+00,0.000000000000000e+00
	0.000000000000000e+00,0.000000000000000e+00
	1.645221314808556e-06,-5.769683202969932e-15
	3.275443492557918e-25,2.718762932946909e-14
	1.645221316088708e-14,-8.894211878411361e-16
	-1.645221331260770e-06,-2.052852493865802e-14
	-1.645221314808557e-06,5.769683202969932e-15
	-3.275443492557918e-25,-2.718762932946909e-14
	-1.645221314808557e-06,5.769683202969932e-15
4		1.096478196143185e+00,0.000000000000000e+00
	-1.645221314808556e-02,5.904076389279106e-11
	1.000000000000000e+00,0.000000000000000e+00
	0.000000000000000e+00,0.000000000000000e+00
	1.645221314808556e-06,-5.904076389279106e-15
	3.429810388584939e-25,2.782091056957242e-14
	1.645221316088708e-14,-9.101384687038618e-16
	-1.645221331260770e-06,-2.100669571158945e-14
	-1.645221314808557e-06,5.904076389279106e-15
	-3.429810388584939e-25,-2.782091056957242e-14
	-1.645221314808557e-06,5.904076389279106e-15
5		1.122018454301963e+00,0.000000000000000e+00
	-1.645221314808556e-02,6.041599995039569e-11
	1.000000000000000e+00,0.000000000000000e+00
	0.000000000000000e+00,0.000000000000000e+00
	1.645221314808556e-06,-6.041599995039567e-15
	3.591452372288840e-25,2.846894282471302e-14
	1.645221316088708e-14,-9.313383170297984e-16
	-1.645221331260770e-06,-2.149600451264366e-14
	-1.645221314808557e-06,6.041599995039569e-15
	-3.591452372288840e-25,-2.846894282471302e-14
	-1.645221314808557e-06,6.041599995039569e-15
6		1.148153621496882e+00,0.000000000000000e+00
	-1.645221314808556e-02,6.182326937087429e-11
	1.000000000000000e+00,0.000000000000000e+00
	0.000000000000000e+00,0.000000000000000e+00
	1.645221314808556e-06,-6.182326937087428e-15
	3.760712307988771e-25,2.913206969017029e-14
	1.645221316088708e-14,-9.530319732591402e-16
	-1.645221331260770e-06,-2.199671077982372e-14
	-1.645221314808557e-06,6.182326937087429e-15
	-3.760712307988771e-25,-2.913206969017029e-14
	-1.645221314808557e-06,6.182326937087429e-15
7		1.174897554939529e+00,0.000000000000000e+00
	-1.645221314808556e-02,6.326331830710104e-11
	1.000000000000000e+00,0.000000000000000e+00
	0.000000000000000e+00,0.000000000000000e+00
	1.645221314808556e-06,-6.326331830710103e-15
	3.937949218701429e-25,2.981064276458581e-14
	1.645221316088708e-14,-9.752309396555744e-16
	-1.645221331260770e-06,-2.250907999422013e-14
	-1.645221314808557e-06,6.326331830710104e-15
	-3.937949218701429e-25,-2.981064276458581e-14
	-1.645221314808557e-06,6.326331830710104e-15
8		1.202264434617413e+00,0.000000000000000e+00
	-1.645221314808556e-02,6.473691029208324e-11
	1.000000000000000e+00,0.000000000000000e+00
	0.000000000000000e+00,0.000000000000000e+00
	1.645221314808556e-06,-6.473691029208324e-15
	4.123539047677002e-25,3.050502183638564e-14
	1.645221316088708e-14,-9.979469864049314e-16
	-1.645221331260770e-06,-2.303338382077238e-14
	-1.645221314808557e-06,6.473691029208324e-15
	-4.123539047677002e-25,-3.050502183638564e-14
	-1.645221314808557e-06,6.473691029208324e-15
9		1.230268770812381e+00,0.000000000000000e+00
	-1.645221314808556e-02,6.624482664379661e-11
	1.000000000000000e+00,0.000000000000000e+00
	0.000000000000000e+00,0.000000000000000e+00
	1.645221314808556e-06,-6.624482664379660e-15
	4.317875455825208e-25,3.121557507454480e-14
	1.645221316088708e-14,-1.021192157855859e-15
	-1.645221331260770e-06,-2.356990025230928e-14
	-1.645221314808557e-06,6.624482664379661e-15
	-4.317875455825208e-25,-3.121557507454480e-14
	-1.645221314808557e-06,6.624482664379661e-15
10		1.258925411794167e+00,0.000000000000000e+00
	-1.645221314808556e-02,6.778786687945045e-11
	1.000000000000000e+00,0.000000000000000e+00
	0.000000000000000e+00,0.000000000000000e+00
	1.645221314808556e-06,-6.778786687945045e-15
	4.521370656722866e-25,3.194267922379548e-14
	1.645221316088708e-14,-1.044978778905964e-15
	-1.645221331260770e-06,-2.411891375694447e-14
	-1.645221314808557e-06,6.778786687945045e-15
	-4.521370656722866e-25,-3.194267922379548e-14
	-1.645221314808557e-06,6.778786687945045e-15
11		1.288249551693134e+00,0.000000000000000e+00
	-1.645221314808556e-02,6.936684913940229e-11
	1.000000000000000e+00,0.000000000000000e+00
	0.000000000000000e+00,0.000000000000000e+00
	1.645221314808556e-06,-6.936684913940229e-15
	4.734456290974158e-25,3.268671980438195e-14
	1.645221316088708e-14,-1.069319461536574e-15
	-1.645221331260770e-06,-2.468071542890515e-14
	-1.645221314808557e-06,6.936684913940230e-15
	-4.734456290974158e-25,-3.268671980438195e-14
	-1.645221314808557e-06,6.936684913940230e-15
12		1.318256738556407e+00,0.000000000000000e+00
	-1.645221314808556e-02,7.098261062094662e-11
	1.000000000000000e+00,0.000000000000000e+00
	0.000000000000000e+00,0.000000000000000e+00
	1.645221314808556e-06,-7.098261062094662e-15
	4.957584341778216e-25,3.344809131646859e-14
	1.645221316088708e-14,-1.094227111499805e-15
	-1.645221331260770e-06,-2.525560314287413e-14
	-1.645221314808557e-06,7.098261062094662e-15
	-4.957584341778216e-25,-3.344809131646859e-14
	-1.645221314808557e-06,7.098261062094662e-15
13		1.348962882591653e+00,0.000000000000000e+00
	-1.645221314808556e-02,7.263600802220811e-11
	1.000000000000000e+00,0.000000000000000e+00
	0.000000000000000e+00,0.000000000000000e+00
	1.645221314808556e-06,-7.263600802220810e-15
	5.191228093646098e-25,3.422719744930905e-14
	1.645221316088708e-14,-1.119714935161359e-15
	-1.645221331260770e-06,-2.584388171192688e-14
	-1.645221314808557e-06,7.263600802220811e-15
	-5.191228093646098e-25,-3.422719744930905e-14
	-1.645221314808557e-06,7.263600802220811e-15
14		1.380384264602885e+00,0.000000000000000e+00
	-1.645221314808556e-02,7.432791799637420e-11
	1.000000000000000e+00,0.000000000000000e+00
	0.000000000000000e+00,0.000000000000000e+00
	1.645221314808556e-06,-7.432791799637419e-15
	5.435883136300678e-25,3.502445129528766e-14
	1.645221316088708e-14,-1.145796446502722e-15
	-1.645221331260770e-06,-2.644586304914752e-14
	-1.645221314808557e-06,7.432791799637421e-15
	-5.435883136300678e-25,-3.502445129528766e-14
	-1.645221314808557e-06,7.432791799637421e-15
15		1.412537544622754e+00,0.000000000000000e+00
	-1.645221314808556e-02,7.605923761650827e-11
	1.000000000000000e+00,0.000000000000000e+00
	0.000000000000000e+00,0.000000000000000e+00
	1.645221314808556e-06,-7.605923761650826e-15
	5.692068415888899e-25,3.584027556894644e-14
	1.645221316088708e-14,-1.172485474286421e-15
	-1.645221331260770e-06,-2.706186633300920e-14
	-1.645221314808557e-06,7.605923761650828e-15
	-5.692068415888899e-25,-3.584027556894644e-14
	-1.645221314808557e-06,7.605923761650828e-15
16		1.445439770745927e+00,0.000000000000000e+00
	-1.645221314808556e-02,7.783088485118963e-11
	1.000000000000000e+00,0.000000000000000e+00
	0.000000000000000e+00,0.000000000000000e+00
	1.645221314808556e-06,-7.783088485118961e-15
	5.960327335736125e-25,3.667510283111401e-14
	1.645221316088708e-14,-1.199796169388274e-15
	-1.645221331260770e-06,-2.769221817660677e-14
	-1.645221314808557e-06,7.783088485118963e-15
	-5.960327335736125e-25,-3.667510283111401e-14
	-1.645221314808557e-06,7.783088485118963e-15
17		1.479108388168207e+00,0.000000000000000e+00
	-1.645221314808556e-02,7.964379905123266e-11
	1.000000000000000e+00,0.000000000000000e+00
	0.000000000000000e+00,0.000000000000000e+00
	1.645221314808556e-06,-7.964379905123265e-15
	6.241228908977455e-25,3.752937571825501e-14
	1.645221316088708e-14,-1.227743012300311e-15
	-1.645221331260770e-06,-2.833725280083143e-14
	-1.645221314808557e-06,7.964379905123267e-15
	-6.241228908977455e-25,-3.752937571825501e-14
	-1.645221314808557e-06,7.964379905123267e-15
18		1.513561248436208e+00,0.000000000000000e+00
	-1.645221314808556e-02,8.149894144774294e-11
	1.000000000000000e+00,0.000000000000000e+00
	0.000000000000000e+00,0.000000000000000e+00
	1.645221314808556e-06,-8.149894144774294e-15
	6.535368965510861e-25,3.840354717716185e-14
	1.645221316088708e-14,-1.256340820808579e-15
	-1.645221331260770e-06,-2.899731221157898e-14
	-1.645221314808557e-06,8.149894144774295e-15
	-6.535368965510861e-25,-3.840354717716185e-14
	-1.645221314808557e-06,8.149894144774295e-15
19		1.548816618912481e+00,0.000000000000000e+00
	-1.645221314808556e-02,8.339729566177484e-11
	1.000000000000000e+00,0.000000000000000e+00
	0.000000000000000e+00,0.000000000000000e+00
	1.645221314808556e-06,-8.339729566177485e-15
	6.843371415832296e-25,3.929808070511305e-14
	1.645221316088708e-14,-1.285604757849662e-15
	-1.645221331260770e-06,-2.967274638108590e-14
	-1.645221314808557e-06,8.339729566177483e-15
	-6.843371415832296e-25,-3.929808070511305e-14
	-1.645221314808557e-06,8.339729566177483e-15
20		1.584893192461113e+00,0.000000000000000e+00
	-1.645221314808556e-02,8.533986822586035e-11
	1.000000000000000e+00,0.000000000000000e+00
	0.000000000000000e+00,0.000000000000000e+00
	1.645221314808556e-06,-8.533986822586034e-15
	7.165889574433503e-25,4.021345059562570e-14
	1.645221316088708e-14,-1.315550339550351e-15
	-1.645221331260770e-06,-3.036391343348931e-14
	-1.645221314808557e-06,8.533986822586035e-15
	-7.165889574433503e-25,-4.021345059562570e-14
	-1.645221314808557e-06,8.533986822586035e-15
21		1.621810097358929e+00,0.000000000000000e+00
	-1.645221314808556e-02,8.732768911768587e-11
	1.000000000000000e+00,0.000000000000000e+00
	0.000000000000000e+00,0.000000000000000e+00
	1.645221314808556e-06,-8.732768911768586e-15
	7.503607545569630e-25,4.115014218993210e-14
	1.645221316088708e-14,-1.346193443454448e-15
	-1.645221331260770e-06,-3.107117983470906e-14
	-1.645221314808557e-06,8.732768911768588e-15
	-7.503607545569630e-25,-4.115014218993210e-14
	-1.645221314808557e-06,8.732768911768588e-15
22		1.659586907437560e+00,0.000000000000000e+00
	-1.645221314808556e-02,8.936181230620023e-11
	1.000000000000000e+00,0.000000000000000e+00
	0.000000000000000e+00,0.000000000000000e+00
	1.645221314808556e-06,-8.936181230620023e-15
	7.857241674336102e-25,4.210865213431413e-14
	1.645221316088708e-14,-1.377550316941236e-15
	-1.645221331260770e-06,-3.179492058675287e-14
	-1.645221314808557e-06,8.936181230620023e-15
	-7.857241674336102e-25,-4.210865213431413e-14
	-1.645221314808557e-06,8.936181230620023e-15
23		1.698243652461743e+00,0.000000000000000e+00
	-1.645221314808556e-02,9.144331631044274e-11
	1.000000000000000e+00,0.000000000000000e+00
	0.000000000000000e+00,0.000000000000000e+00
	1.645221314808556e-06,-9.144331631044276e-15
	8.227542066132580e-25,4.308948864343166e-14
	1.645221316088708e-14,-1.409637585840094e-15
	-1.645221331260770e-06,-3.253551942654729e-14
	-1.645221314808557e-06,9.144331631044274e-15
	-8.227542066132580e-25,-4.308948864343166e-14
	-1.645221314808557e-06,9.144331631044274e-15
24		1.737800828749374e+00,0.000000000000000e+00
	-1.645221314808556e-02,9.357330477138843e-11
	1.000000000000000e+00,0.000000000000000e+00
	0.000000000000000e+00,0.000000000000000e+00
	1.645221314808556e-06,-9.357330477138844e-15
	8.615294177737103e-25,4.409317176978475e-14
	1.645221316088708e-14,-1.442472263245738e-15
	-1.645221331260770e-06,-3.329336902940017e-14
	-1.645221314808557e-06,9.357330477138844e-15
	-8.615294177737103e-25,-4.409317176978475e-14
	-1.645221314808557e-06,9.357330477138844e-15
25		1.778279410038922e+00,0.000000000000000e+00
	-1.645221314808556e-02,9.575290703711303e-11
	1.000000000000000e+00,0.000000000000000e+00
	0.000000000000000e+00,0.000000000000000e+00
	1.645221314808556e-06,-9.575290703711304e-15
	9.021320483365220e-25,4.512023367945231e-14
	1.645221316088708e-14,-1.476071758538709e-15
	-1.645221331260770e-06,-3.406887121720230e-14
	-1.645221314808557e-06,9.575290703711304e-15
	-9.021320483365220e-25,-4.512023367945231e-14
	-1.645221314808557e-06,9.575290703711304e-15
26		1.819700858609982e+00,0.000000000000000e+00
	-1.645221314808556e-02,9.798327876158828e-11
	1.000000000000000e+00,0.000000000000000e+00
	0.000000000000000e+00,0.000000000000000e+00
	1.645221314808556e-06,-9.798327876158828e-15
	9.446482219248064e-25,4.617121893425361e-14
	1.645221316088708e-14,-1.510453886616199e-15
	-1.645221331260770e-06,-3.486243717147859e-14
	-1.645221314808557e-06,9.798327876158828e-15
	-9.446482219248064e-25,-4.617121893425361e-14
	-1.645221314808557e-06,9.798327876158828e-15
27		1.862087136662866e+00,0.000000000000000e+00
	-1.645221314808556e-02,1.002656025174249e-10
	1.000000000000000e+00,0.000000000000000e+00
	0.000000000000000e+00,0.000000000000000e+00
	1.645221314808556e-06,-1.002656025174249e-14
	9.891681210429863e-25,4.724668478048220e-14
	1.645221316088708e-14,-1.545636877337585e-15
	-1.645221331260770e-06,-3.567448765140212e-14
	-1.645221314808557e-06,1.002656025174249e-14
	-9.891681210429863e-25,-4.724668478048220e-14
	-1.645221314808557e-06,1.002656025174249e-14
28		1.905460717963246e+00,0.000000000000000e+00
	-1.645221314808556e-02,1.026010884228885e-10
	1.000000000000000e+00,0.000000000000000e+00
	0.000000000000000e+00,0.000000000000000e+00
	1.645221314808556e-06,-1.026010884228884e-14
	1.035786178365979e-24,4.834720144436518e-14
	1.645221316088708e-14,-1.581639385190258e-15
	-1.645221331260770e-06,-3.650545321688608e-14
	-1.645221314808557e-06,1.026010884228885e-14
	-1.035786178365979e-24,-4.834720144436518e-14
	-1.645221314808557e-06,1.026010884228885e-14
29		1.949844599758044e+00,0.000000000000000e+00
	-1.645221314808556e-02,1.049909747835198e-10
	1.000000000000000e+00,0.000000000000000e+00
	0.000000000000000e+00,0.000000000000000e+00
	1.645221314808556e-06,-1.049909747835198e-14
	1.084601277043557e-24,4.947335243440485e-14
	1.645221316088708e-14,-1.618480499180434e-15
	-1.645221331260770e-06,-3.735577445687244e-14
	-1.645221314808557e-06,1.049909747835198e-14
	-1.084601277043557e-24,-4.947335243440485e-14
	-1.645221314808557e-06,1.049909747835198e-14
30		1.995262314968878e+00,0.000000000000000e+00
	-1.645221314808556e-02,1.074365287487012e-10
	1.000000000000000e+00,0.000000000000000e+00
	0.000000000000000e+00,0.000000000000000e+00
	1.645221314808556e-06,-1.074365287487012e-14
	1.135716960444771e-24,5.062573485076247e-14
	1.645221316088708e-14,-1.656179752954392e-15
	-1.645221331260770e-06,-3.822590222293796e-14
	-1.645221314808557e-06,1.074365287487012e-14
	-1.135716960444771e-24,-5.062573485076247e-14
	-1.645221314808557e-06,1.074365287487012e-14
31		2.041737944669527e+00,0.000000000000000e+00
	-1.645221314808556e-02,1.099390469835156e-10
	1.000000000000000e+00,0.000000000000000e+00
	0.000000000000000e+00,0.000000000000000e+00
	1.645221314808556e-06,-1.099390469835156e-14
	1.189241651787314e-24,5.180495970184877e-14
	1.645221316088708e-14,-1.694757135155494e-15
	-1.645221331260770e-06,-3.911629786834171e-14
	-1.645221314808557e-06,1.099390469835156e-14
	-1.189241651787314e-24,-5.180495970184877e-14
	-1.645221314808557e-06,1.099390469835156e-14
32		2.089296130854037e+00,0.000000000000000e+00
	-1.645221314808556e-02,1.124998563562561e-10
	1.000000000000000e+00,0.000000000000000e+00
	0.000000000000000e+00,0.000000000000000e+00
	1.645221314808556e-06,-1.124998563562561e-14
	1.245288884117704e-24,5.301165222828872e-14
	1.645221316088708e-14,-1.734233100022436e-15
	-1.645221331260770e-06,-4.002743349264067e-14
	-1.645221314808557e-06,1.124998563562562e-14
	-1.245288884117704e-24,-5.301165222828872e-14
	-1.645221314808557e-06,1.124998563562562e-14
33		2.137962089502230e+00,0.000000000000000e+00
	-1.645221314808556e-02,1.151203146419484e-10
	1.000000000000000e+00,0.000000000000000e+00
	0.000000000000000e+00,0.000000000000000e+00
	1.645221314808556e-06,-1.151203146419484e-14
	1.303977541130096e-24,5.424645223443227e-14
	1.645221316088708e-14,-1.774628578234277e-15
	-1.645221331260770e-06,-4.095979219200316e-14
	-1.645221314808557e-06,1.151203146419484e-14
	-1.303977541130096e-24,-5.424645223443227e-14
	-1.645221314808557e-06,1.151203146419484e-14
34		2.187761623949550e+00,0.000000000000000e+00
	-1.645221314808556e-02,1.178018112422612e-10
	1.000000000000000e+00,0.000000000000000e+00
	0.000000000000000e+00,0.000000000000000e+00
	1.645221314808556e-06,-1.178018112422613e-14
	1.365432109334539e-24,5.551001442758720e-14
	1.645221316088708e-14,-1.815964988008296e-15
	-1.645221331260770e-06,-4.191386831535278e-14
	-1.645221314808557e-06,1.178018112422612e-14
	-1.365432109334539e-24,-5.551001442758720e-14
	-1.645221314808557e-06,1.178018112422612e-14
35		2.238721138568337e+00,0.000000000000000e+00
	-1.645221314808556e-02,1.205457679221861e-10
	1.000000000000000e+00,0.000000000000000e+00
	0.000000000000000e+00,0.000000000000000e+00
	1.645221314808556e-06,-1.205457679221861e-14
	1.429782942109553e-24,5.680300876515353e-14
	1.645221316088708e-14,-1.858264246456092e-15
	-1.645221331260770e-06,-4.289016772647883e-14
	-1.645221314808557e-06,1.205457679221861e-14
	-1.429782942109553e-24,-5.680300876515353e-14
	-1.645221314808557e-06,1.205457679221861e-14
36		2.290867652767770e+00,0.000000000000000e+00
	-1.645221314808556e-02,1.233536395638752e-10
	1.000000000000000e+00,0.000000000000000e+00
	0.000000000000000e+00,0.000000000000000e+00
	1.645221314808556e-06,-1.233536395638752e-14
	1.497166536199120e-24,5.812612080984387e-14
	1.645221316088708e-14,-1.901548781204403e-15
	-1.645221331260770e-06,-4.388920807225195e-14
	-1.645221314808557e-06,1.233536395638752e-14
	-1.497166536199120e-24,-5.812612080984387e-14
	-1.645221314808557e-06,1.233536395638752e-14
37		2.344228815319919e+00,0.000000000000000e+00
	-1.645221314808556e-02,1.262269149380394e-10
	1.000000000000000e+00,0.000000000000000e+00
	0.000000000000000e+00,0.000000000000000e+00
	1.645221314808556e-06,-1.262269149380394e-14
	1.567725821240579e-24,5.948005209317773e-14
	1.645221316088708e-14,-1.945841542286464e-15
	-1.645221331260770e-06,-4.491151905708733e-14
	-1.645221314808557e-06,1.262269149380394e-14
	-1.567725821240579e-24,-5.948005209317773e-14
	-1.645221314808557e-06,1.262269149380394e-14
38		2.398832919019488e+00,0.000000000000000e+00
	-1.645221314808556e-02,1.291671174933146e-10
	1.000000000000000e+00,0.000000000000000e+00
