Title: * GA CMOS Amp | W=1.5119362730592628e-05 L=7.075055158117835e-07 Vbias=1.0051471172081066
Date: Mon Sep  8 18:44:43 2025
Plotname: AC Analysis
Flags: complex forward log
No. Variables: 11
No. Points:          901
Offset:    0.0000000000000000e+00
Command: Linear Technology Corporation LTspice
Variables:
	0	frequency	frequency
	1	V(out)	voltage
	2	V(g)	voltage
	3	V(vdd)	voltage
	4	Id(M1)	device_current
	5	Ig(M1)	device_current
	6	Ib(M1)	device_current
	7	Is(M1)	device_current
	8	I(Rload)	device_current
	9	I(Vg)	device_current
	10	I(Vdd)	device_current
Values:
0		1.000000000000000e+00,0.000000000000000e+00
	-4.576769737268704e+00,1.907113777517742e-09
	1.000000000000000e+00,0.000000000000000e+00
	0.000000000000000e+00,0.000000000000000e+00
	4.576769737268703e-04,-1.907113777517742e-13
	6.839843829161000e-23,2.742742058470957e-13
	4.576769735767372e-12,5.288178246312094e-15
	-4.576769783036400e-04,-8.885100634163367e-14
	-4.576769737268704e-04,1.907113777517742e-13
	-6.839843829161000e-23,-2.742742058470957e-13
	-4.576769737268704e-04,1.907113777517742e-13
1		1.023292992280754e+00,0.000000000000000e+00
	-4.576769737268704e+00,1.951536164015983e-09
	1.000000000000000e+00,0.000000000000000e+00
	0.000000000000000e+00,0.000000000000000e+00
	4.576769737268703e-04,-1.951536164015982e-13
	7.162195737724263e-23,2.806628728067021e-13
	4.576769735767372e-12,5.411355741382726e-15
	-4.576769783036400e-04,-9.092061214648661e-14
	-4.576769737268704e-04,1.951536164015983e-13
	-7.162195737724263e-23,-2.806628728067021e-13
	-4.576769737268704e-04,1.951536164015983e-13
2		1.047128548050899e+00,0.000000000000000e+00
	-4.576769737268704e+00,1.996993280820020e-09
	1.000000000000000e+00,0.000000000000000e+00
	0.000000000000000e+00,0.000000000000000e+00
	4.576769737268703e-04,-1.996993280820019e-13
	7.499739623699546e-23,2.872003509364829e-13
	4.576769735767372e-12,5.537402408895178e-15
	-4.576769783036400e-04,-9.303842526337614e-14
	-4.576769737268704e-04,1.996993280820020e-13
	-7.499739623699546e-23,-2.872003509364829e-13
	-4.576769737268704e-04,1.996993280820020e-13
3		1.071519305237606e+00,0.000000000000000e+00
	-4.576769737268704e+00,2.043509229894878e-09
	1.000000000000000e+00,0.000000000000000e+00
	0.000000000000000e+00,0.000000000000000e+00
	4.576769737268703e-04,-2.043509229894878e-13
	7.853191462924303e-23,2.938901064938762e-13
	4.576769735767372e-12,5.666385080460988e-15
	-4.576769783036400e-04,-9.520556858484945e-14
	-4.576769737268704e-04,2.043509229894878e-13
	-7.853191462924303e-23,-2.938901064938762e-13
	-4.576769737268704e-04,2.043509229894878e-13
4		1.096478196143185e+00,0.000000000000000e+00
	-4.576769737268704e+00,2.091108674612469e-09
	1.000000000000000e+00,0.000000000000000e+00
	0.000000000000000e+00,0.000000000000000e+00
	4.576769737268703e-04,-2.091108674612469e-13
	8.223300974137644e-23,3.007356864758280e-13
	4.576769735767372e-12,5.798372144399967e-15
	-4.576769783036400e-04,-9.742319115898115e-14
	-4.576769737268704e-04,2.091108674612469e-13
	-8.223300974137644e-23,-3.007356864758280e-13
	-4.576769737268704e-04,2.091108674612469e-13
5		1.122018454301963e+00,0.000000000000000e+00
	-4.576769737268704e+00,2.139816852828435e-09
	1.000000000000000e+00,0.000000000000000e+00
	0.000000000000000e+00,0.000000000000000e+00
	4.576769737268703e-04,-2.139816852828435e-13
	8.610853209234301e-23,3.077407204994569e-13
	4.576769735767372e-12,5.933433582000409e-15
	-4.576769783036400e-04,-9.969246879861376e-14
	-4.576769737268704e-04,2.139816852828435e-13
	-8.610853209234301e-23,-3.077407204994569e-13
	-4.576769737268704e-04,2.139816852828435e-13
6		1.148153621496882e+00,0.000000000000000e+00
	-4.576769737268704e+00,2.189659590263595e-09
	1.000000000000000e+00,0.000000000000000e+00
	0.000000000000000e+00,0.000000000000000e+00
	4.576769737268703e-04,-2.189659590263595e-13
	9.016670218464940e-23,3.149089227265244e-13
	4.576769735767372e-12,6.071641004624310e-15
	-4.576769783036400e-04,-1.020146047047892e-13
	-4.576769737268704e-04,2.189659590263595e-13
	-9.016670218464940e-23,-3.149089227265244e-13
	-4.576769737268704e-04,2.189659590263595e-13
7		1.174897554939529e+00,0.000000000000000e+00
	-4.576769737268704e+00,2.240663314197084e-09
	1.000000000000000e+00,0.000000000000000e+00
	0.000000000000000e+00,0.000000000000000e+00
	4.576769737268703e-04,-2.240663314197084e-13
	9.441612794114978e-23,3.222440938327339e-13
	4.576769735767372e-12,6.213067691676463e-15
	-4.576769783036400e-04,-1.043908301047020e-13
	-4.576769737268704e-04,2.240663314197084e-13
	-9.441612794114978e-23,-3.222440938327339e-13
	-4.576769737268704e-04,2.240663314197084e-13
8		1.202264434617413e+00,0.000000000000000e+00
	-4.576769737268704e+00,2.292855067478446e-09
	1.000000000000000e+00,0.000000000000000e+00
	0.000000000000000e+00,0.000000000000000e+00
	4.576769737268703e-04,-2.292855067478445e-13
	9.886582296360415e-23,3.297501230228984e-13
	4.576769735767372e-12,6.357788629458450e-15
	-4.576769783036400e-04,-1.068224049045124e-13
	-4.576769737268704e-04,2.292855067478446e-13
	-9.886582296360415e-23,-3.297501230228984e-13
	-4.576769737268704e-04,2.292855067478446e-13
9		1.230268770812381e+00,0.000000000000000e+00
	-4.576769737268704e+00,2.346262522866109e-09
	1.000000000000000e+00,0.000000000000000e+00
	0.000000000000000e+00,0.000000000000000e+00
	4.576769737268703e-04,-2.346262522866109e-13
	1.035252256517361e-22,3.374309900930485e-13
	4.576769735767372e-12,6.505880550927152e-15
	-4.576769783036400e-04,-1.093106183573647e-13
	-4.576769737268704e-04,2.346262522866109e-13
	-1.035252256517361e-22,-3.374309900930485e-13
	-4.576769737268704e-04,2.346262522866109e-13
10		1.258925411794167e+00,0.000000000000000e+00
	-4.576769737268704e+00,2.400913997699852e-09
	1.000000000000000e+00,0.000000000000000e+00
	0.000000000000000e+00,0.000000000000000e+00
	4.576769737268703e-04,-2.400913997699853e-13
	1.084042192233442e-22,3.452907675405732e-13
	4.576769735767372e-12,6.657421976379426e-15
	-4.576769783036400e-04,-1.118567897469673e-13
	-4.576769737268704e-04,2.400913997699853e-13
	-1.084042192233442e-22,-3.452907675405732e-13
	-4.576769737268704e-04,2.400913997699853e-13
11		1.288249551693134e+00,0.000000000000000e+00
	-4.576769737268704e+00,2.456838468915030e-09
	1.000000000000000e+00,0.000000000000000e+00
	0.000000000000000e+00,0.000000000000000e+00
	4.576769737268703e-04,-2.456838468915029e-13
	1.135131526779318e-22,3.533336227235114e-13
	4.576769735767372e-12,6.812493255084949e-15
	-4.576769783036400e-04,-1.144622690870934e-13
	-4.576769737268704e-04,2.456838468915030e-13
	-1.135131526779318e-22,-3.533336227235114e-13
	-4.576769737268704e-04,2.456838468915030e-13
12		1.318256738556407e+00,0.000000000000000e+00
	-4.576769737268704e+00,2.514065588406527e-09
	1.000000000000000e+00,0.000000000000000e+00
	0.000000000000000e+00,0.000000000000000e+00
	4.576769737268703e-04,-2.514065588406528e-13
	1.188628627483228e-22,3.615638200701410e-13
	4.576769735767372e-12,6.971176607888398e-15
	-4.576769783036400e-04,-1.171284378373766e-13
	-4.576769737268704e-04,2.514065588406528e-13
	-1.188628627483228e-22,-3.615638200701410e-13
	-4.576769737268704e-04,2.514065588406528e-13
13		1.348962882591653e+00,0.000000000000000e+00
	-4.576769737268704e+00,2.572625698750591e-09
	1.000000000000000e+00,0.000000000000000e+00
	0.000000000000000e+00,0.000000000000000e+00
	4.576769737268703e-04,-2.572625698750591e-13
	1.244646968868246e-22,3.699857233400348e-13
	4.576769735767372e-12,7.133556170803741e-15
	-4.576769783036400e-04,-1.198567096357795e-13
	-4.576769737268704e-04,2.572625698750591e-13
	-1.244646968868246e-22,-3.699857233400348e-13
	-4.576769737268704e-04,2.572625698750591e-13
14		1.380384264602885e+00,0.000000000000000e+00
	-4.576769737268704e+00,2.632549849292858e-09
	1.000000000000000e+00,0.000000000000000e+00
	0.000000000000000e+00,0.000000000000000e+00
	4.576769737268703e-04,-2.632549849292857e-13
	1.303305373346960e-22,3.786037979377835e-13
	4.576769735767372e-12,7.299718039624437e-15
	-4.576769783036400e-04,-1.226485310481222e-13
	-4.576769737268704e-04,2.632549849292858e-13
	-1.303305373346960e-22,-3.786037979377835e-13
	-4.576769737268704e-04,2.632549849292858e-13
15		1.412537544622754e+00,0.000000000000000e+00
	-4.576769737268704e+00,2.693869812611137e-09
	1.000000000000000e+00,0.000000000000000e+00
	0.000000000000000e+00,0.000000000000000e+00
	4.576769737268703e-04,-2.693869812611137e-13
	1.364728263259738e-22,3.874226132806125e-13
	4.576769735767372e-12,7.469750315573165e-15
	-4.576769783036400e-04,-1.255053823350720e-13
	-4.576769737268704e-04,2.693869812611137e-13
	-1.364728263259738e-22,-3.874226132806125e-13
	-4.576769737268704e-04,2.693869812611137e-13
16		1.445439770745927e+00,0.000000000000000e+00
	-4.576769737268704e+00,2.756618101361643e-09
	1.000000000000000e+00,0.000000000000000e+00
	0.000000000000000e+00,0.000000000000000e+00
	4.576769737268703e-04,-2.756618101361644e-13
	1.429045924791194e-22,3.964468452211473e-13
	4.576769735767372e-12,7.643743152012986e-15
	-4.576769783036400e-04,-1.284287782369959e-13
	-4.576769737268704e-04,2.756618101361643e-13
	-1.429045924791194e-22,-3.964468452211473e-13
	-4.576769737268704e-04,2.756618101361643e-13
17		1.479108388168207e+00,0.000000000000000e+00
	-4.576769737268704e+00,2.820827985517647e-09
	1.000000000000000e+00,0.000000000000000e+00
	0.000000000000000e+00,0.000000000000000e+00
	4.576769737268703e-04,-2.820827985517648e-13
	1.496394784324658e-22,4.056812785266128e-13
	4.576769735767372e-12,7.821788802248839e-15
	-4.576769783036400e-04,-1.314202687770969e-13
	-4.576769737268704e-04,2.820827985517647e-13
	-1.496394784324658e-22,-4.056812785266128e-13
	-4.576769737268704e-04,2.820827985517647e-13
18		1.513561248436208e+00,0.000000000000000e+00
	-4.576769737268704e+00,2.886533510009645e-09
	1.000000000000000e+00,0.000000000000000e+00
	0.000000000000000e+00,0.000000000000000e+00
	4.576769737268703e-04,-2.886533510009645e-13
	1.566917697820818e-22,4.151308094157797e-13
	4.576769735767372e-12,8.003981668441250e-15
	-4.576769783036400e-04,-1.344814400832564e-13
	-4.576769737268704e-04,2.886533510009646e-13
	-1.566917697820818e-22,-4.151308094157797e-13
	-4.576769737268704e-04,2.886533510009646e-13
19		1.548816618912481e+00,0.000000000000000e+00
	-4.576769737268704e+00,2.953769512776439e-09
	1.000000000000000e+00,0.000000000000000e+00
	0.000000000000000e+00,0.000000000000000e+00
	4.576769737268703e-04,-2.953769512776438e-13
	1.640764253834372e-22,4.248004481550046e-13
	4.576769735767372e-12,8.190418351659703e-15
	-4.576769783036400e-04,-1.376139152290205e-13
	-4.576769737268704e-04,2.953769512776439e-13
	-1.640764253834372e-22,-4.248004481550046e-13
	-4.576769737268704e-04,2.953769512776439e-13
20		1.584893192461113e+00,0.000000000000000e+00
	-4.576769737268704e+00,3.022571643236666e-09
	1.000000000000000e+00,0.000000000000000e+00
	0.000000000000000e+00,0.000000000000000e+00
	4.576769737268703e-04,-3.022571643236666e-13
	1.718091090811403e-22,4.346953217147400e-13
	4.576769735767372e-12,8.381197703100987e-15
	-4.576769783036400e-04,-1.408193550941744e-13
	-4.576769737268704e-04,3.022571643236667e-13
	-1.718091090811403e-22,-4.346953217147400e-13
	-4.576769737268704e-04,3.022571643236667e-13
21		1.621810097358929e+00,0.000000000000000e+00
	-4.576769737268704e+00,3.092976381190605e-09
	1.000000000000000e+00,0.000000000000000e+00
	0.000000000000000e+00,0.000000000000000e+00
	4.576769737268703e-04,-3.092976381190604e-13
	1.799062229340530e-22,4.448206764879213e-13
	4.576769735767372e-12,8.576420876502835e-15
	-4.576769783036400e-04,-1.440994592453638e-13
	-4.576769737268704e-04,3.092976381190605e-13
	-1.799062229340530e-22,-4.448206764879213e-13
	-4.576769737268704e-04,3.092976381190605e-13
22		1.659586907437560e+00,0.000000000000000e+00
	-4.576769737268704e+00,3.165021056162232e-09
	1.000000000000000e+00,0.000000000000000e+00
	0.000000000000000e+00,0.000000000000000e+00
	4.576769737268703e-04,-3.165021056162232e-13
	1.883849420062564e-22,4.551818810716743e-13
	4.576769735767372e-12,8.776191381775760e-15
	-4.576769783036400e-04,-1.474559668372269e-13
	-4.576769737268704e-04,3.165021056162233e-13
	-1.883849420062564e-22,-4.551818810716743e-13
	-4.576769737268704e-04,3.165021056162233e-13
23		1.698243652461743e+00,0.000000000000000e+00
	-4.576769737268704e+00,3.238743867191843e-09
	1.000000000000000e+00,0.000000000000000e+00
	0.000000000000000e+00,0.000000000000000e+00
	4.576769737268703e-04,-3.238743867191843e-13
	1.972632507976642e-22,4.657844291138160e-13
	4.576769735767372e-12,8.980615139885864e-15
	-4.576769783036400e-04,-1.508906575345175e-13
	-4.576769737268704e-04,3.238743867191843e-13
	-1.972632507976642e-22,-4.657844291138160e-13
	-4.576769737268704e-04,3.238743867191843e-13
24		1.737800828749374e+00,0.000000000000000e+00
	-4.576769737268704e+00,3.314183903089682e-09
	1.000000000000000e+00,0.000000000000000e+00
	0.000000000000000e+00,0.000000000000000e+00
	4.576769737268703e-04,-3.314183903089682e-13
	2.065599813915584e-22,4.766339422256595e-13
	4.576769735767372e-12,9.189800539015626e-15
	-4.576769783036400e-04,-1.544053524557069e-13
	-4.576769737268704e-04,3.314183903089682e-13
	-2.065599813915584e-22,-4.766339422256595e-13
	-4.576769737268704e-04,3.314183903089682e-13
25		1.778279410038922e+00,0.000000000000000e+00
	-4.576769737268704e+00,3.391381163161350e-09
	1.000000000000000e+00,0.000000000000000e+00
	0.000000000000000e+00,0.000000000000000e+00
	4.576769737268703e-04,-3.391381163161350e-13
	2.162948533999635e-22,4.877361729626672e-13
	4.576769735767372e-12,9.403858492032605e-15
	-4.576769783036400e-04,-1.580019151385648e-13
	-4.576769737268704e-04,3.391381163161350e-13
	-2.162948533999635e-22,-4.877361729626672e-13
	-4.576769737268704e-04,3.391381163161350e-13
26		1.819700858609982e+00,0.000000000000000e+00
	-4.576769737268704e+00,3.470376578415962e-09
	1.000000000000000e+00,0.000000000000000e+00
	0.000000000000000e+00,0.000000000000000e+00
	4.576769737268703e-04,-3.470376578415961e-13
	2.264885157915859e-22,4.990970078745312e-13
	4.576769735767372e-12,9.622902495296665e-15
	-4.576769783036400e-04,-1.616822525282318e-13
	-4.576769737268704e-04,3.470376578415962e-13
	-2.264885157915859e-22,-4.990970078745312e-13
	-4.576769737268704e-04,3.470376578415962e-13
27		1.862087136662866e+00,0.000000000000000e+00
	-4.576769737268704e+00,3.551212033268314e-09
	1.000000000000000e+00,0.000000000000000e+00
	0.000000000000000e+00,0.000000000000000e+00
	4.576769737268703e-04,-3.551212033268314e-13
	2.371625906910465e-22,5.107224706263001e-13
	4.576769735767372e-12,9.847048688838169e-15
	-4.576769783036400e-04,-1.654483159883068e-13
	-4.576769737268704e-04,3.551212033268315e-13
	-2.371625906910465e-22,-5.107224706263001e-13
	-4.576769737268704e-04,3.551212033268315e-13
28		1.905460717963246e+00,0.000000000000000e+00
	-4.576769737268704e+00,3.633930387746554e-09
	1.000000000000000e+00,0.000000000000000e+00
	0.000000000000000e+00,0.000000000000000e+00
	4.576769737268703e-04,-3.633930387746554e-13
	2.483397192423053e-22,5.226187251922061e-13
	4.576769735767372e-12,1.007641591793548e-14
	-4.576769783036400e-04,-1.693021023354862e-13
	-4.576769737268704e-04,3.633930387746554e-13
	-2.483397192423053e-22,-5.226187251922061e-13
	-4.576769737268704e-04,3.633930387746554e-13
29		1.949844599758044e+00,0.000000000000000e+00
	-4.576769737268704e+00,3.718575500217133e-09
	1.000000000000000e+00,0.000000000000000e+00
	0.000000000000000e+00,0.000000000000000e+00
	4.576769737268703e-04,-3.718575500217133e-13
	2.600436096335632e-22,5.347920791238858e-13
	4.576769735767372e-12,1.031112579612966e-14
	-4.576769783036400e-04,-1.732456548983021e-13
	-4.576769737268704e-04,3.718575500217133e-13
	-2.600436096335632e-22,-5.347920791238858e-13
	-4.576769737268704e-04,3.718575500217133e-13
30		1.995262314968878e+00,0.000000000000000e+00
	-4.576769737268704e+00,3.805192250639091e-09
	1.000000000000000e+00,0.000000000000000e+00
	0.000000000000000e+00,0.000000000000000e+00
	4.576769737268703e-04,-3.805192250639091e-13
	2.722990873855079e-22,5.472489868947269e-13
	4.576769735767372e-12,1.055130276970471e-14
	-4.576769783036400e-04,-1.772810646005225e-13
	-4.576769737268704e-04,3.805192250639092e-13
	-2.722990873855079e-22,-5.472489868947269e-13
	-4.576769737268704e-04,3.805192250639092e-13
31		2.041737944669527e+00,0.000000000000000e+00
	-4.576769737268704e+00,3.893826564360013e-09
	1.000000000000000e+00,0.000000000000000e+00
	0.000000000000000e+00,0.000000000000000e+00
	4.576769737268703e-04,-3.893826564360013e-13
	2.851321480095718e-22,5.599960533221162e-13
	4.576769735767372e-12,1.079707418367143e-14
	-4.576769783036400e-04,-1.814104710697863e-13
	-4.576769737268704e-04,3.893826564360013e-13
	-2.851321480095718e-22,-5.599960533221162e-13
	-4.576769737268704e-04,3.893826564360013e-13
32		2.089296130854037e+00,0.000000000000000e+00
	-4.576769737268704e+00,3.984525436466246e-09
	1.000000000000000e+00,0.000000000000000e+00
	0.000000000000000e+00,0.000000000000000e+00
	4.576769737268703e-04,-3.984525436466246e-13
	2.985700121478971e-22,5.730400370694011e-13
	4.576769735767372e-12,1.104857034928628e-14
	-4.576769783036400e-04,-1.856360637720628e-13
	-4.576769737268704e-04,3.984525436466247e-13
	-2.985700121478971e-22,-5.730400370694011e-13
	-4.576769737268704e-04,3.984525436466247e-13
33		2.137962089502230e+00,0.000000000000000e+00
	-4.576769737268704e+00,4.077336956700323e-09
	1.000000000000000e+00,0.000000000000000e+00
	0.000000000000000e+00,0.000000000000000e+00
	4.576769737268703e-04,-4.077336956700322e-13
	3.126411833119670e-22,5.863878542294216e-13
	4.576769735767372e-12,1.130592461314564e-14
	-4.576769783036400e-04,-1.899600831725350e-13
	-4.576769737268704e-04,4.077336956700323e-13
	-3.126411833119670e-22,-5.863878542294216e-13
	-4.576769737268704e-04,4.077336956700323e-13
34		2.187761623949550e+00,0.000000000000000e+00
	-4.576769737268704e+00,4.172310334958777e-09
	1.000000000000000e+00,0.000000000000000e+00
	0.000000000000000e+00,0.000000000000000e+00
	4.576769737268703e-04,-4.172310334958776e-13
	3.273755083423750e-22,6.000465819915155e-13
	4.576769735767372e-12,1.156927342788640e-14
	-4.576769783036400e-04,-1.943848219235243e-13
	-4.576769737268704e-04,4.172310334958777e-13
	-3.273755083423750e-22,-6.000465819915155e-13
	-4.576769737268704e-04,4.172310334958777e-13
35		2.238721138568337e+00,0.000000000000000e+00
	-4.576769737268704e+00,4.269495927383882e-09
	1.000000000000000e+00,0.000000000000000e+00
	0.000000000000000e+00,0.000000000000000e+00
	4.576769737268703e-04,-4.269495927383882e-13
	3.428042407179763e-22,6.140234623939367e-13
	4.576769735767372e-12,1.183875642453624e-14
	-4.576769783036400e-04,-1.989126260800847e-13
	-4.576769737268704e-04,4.269495927383882e-13
	-3.428042407179763e-22,-6.140234623939367e-13
	-4.576769737268704e-04,4.269495927383882e-13
36		2.290867652767770e+00,0.000000000000000e+00
	-4.576769737268704e+00,4.368945263063146e-09
	1.000000000000000e+00,0.000000000000000e+00
	0.000000000000000e+00,0.000000000000000e+00
	4.576769737268703e-04,-4.368945263063145e-13
	3.589601068487055e-22,6.283259061636806e-13
	4.576769735767372e-12,1.211451648654659e-14
	-4.576769783036400e-04,-2.035458963439126e-13
	-4.576769737268704e-04,4.368945263063146e-13
	-3.589601068487055e-22,-6.283259061636806e-13
	-4.576769737268704e-04,4.368945263063146e-13
37		2.344228815319919e+00,0.000000000000000e+00
	-4.576769737268704e+00,4.470711071350713e-09
	1.000000000000000e+00,0.000000000000000e+00
	0.000000000000000e+00,0.000000000000000e+00
	4.576769737268703e-04,-4.470711071350713e-13
	3.758773754926808e-22,6.429614966457491e-13
	4.576769735767372e-12,1.239669982555278e-14
	-4.576769783036400e-04,-2.082870893362306e-13
	-4.576769737268704e-04,4.470711071350714e-13
	-3.758773754926808e-22,-6.429614966457491e-13
	-4.576769737268704e-04,4.470711071350714e-13
38		2.398832919019488e+00,0.000000000000000e+00
	-4.576769737268704e+00,4.574847309825167e-09
	1.000000000000000e+00,0.000000000000000e+00
	0.000000000000000e+00,0.000000000000000e+00
