Title: * GA CMOS Amp | W=1.4529457657603664e-05 L=9.81230286273689e-07 Vbias=0.8765304559112707
Date: Mon Sep  8 18:45:45 2025
Plotname: AC Analysis
Flags: complex forward log
No. Variables: 11
No. Points:          901
Offset:    0.0000000000000000e+00
Command: Linear Technology Corporation LTspice
Variables:
	0	frequency	frequency
	1	V(out)	voltage
	2	V(g)	voltage
	3	V(vdd)	voltage
	4	Id(M1)	device_current
	5	Ig(M1)	device_current
	6	Ib(M1)	device_current
	7	Is(M1)	device_current
	8	I(Rload)	device_current
	9	I(Vg)	device_current
	10	I(Vdd)	device_current
Values:
0		1.000000000000000e+00,0.000000000000000e+00
	-2.142313152155521e+00,5.667336832161539e-10
	1.000000000000000e+00,0.000000000000000e+00
	0.000000000000000e+00,0.000000000000000e+00
	2.142313152155521e-04,-5.667336832161540e-14
	1.034756809114299e-23,1.614393629590251e-13
	2.142313155215417e-12,-3.715780597625552e-15
	-2.142313173578653e-04,-1.010502140397841e-13
	-2.142313152155521e-04,5.667336832161540e-14
	-1.034756809114299e-23,-1.614393629590251e-13
	-2.142313152155521e-04,5.667336832161540e-14
1		1.023292992280754e+00,0.000000000000000e+00
	-2.142313152155521e+00,5.799346065245512e-10
	1.000000000000000e+00,0.000000000000000e+00
	0.000000000000000e+00,0.000000000000000e+00
	2.142313152155521e-04,-5.799346065245513e-14
	1.083523395113638e-23,1.651997687942395e-13
	2.142313155215417e-12,-3.802332246403029e-15
	-2.142313173578653e-04,-1.034039758953814e-13
	-2.142313152155521e-04,5.799346065245513e-14
	-1.083523395113638e-23,-1.651997687942395e-13
	-2.142313152155521e-04,5.799346065245513e-14
2		1.047128548050899e+00,0.000000000000000e+00
	-2.142313152155521e+00,5.934430188376696e-10
	1.000000000000000e+00,0.000000000000000e+00
	0.000000000000000e+00,0.000000000000000e+00
	2.142313152155521e-04,-5.934430188376697e-14
	1.134588279504525e-23,1.690477657335460e-13
	2.142313155215417e-12,-3.890899942067329e-15
	-2.142313173578653e-04,-1.058125639077117e-13
	-2.142313152155521e-04,5.934430188376696e-14
	-1.134588279504525e-23,-1.690477657335460e-13
	-2.142313152155521e-04,5.934430188376696e-14
3		1.071519305237606e+00,0.000000000000000e+00
	-2.142313152155521e+00,6.072660824945228e-10
	1.000000000000000e+00,0.000000000000000e+00
	0.000000000000000e+00,0.000000000000000e+00
	2.142313152155521e-04,-6.072660824945228e-14
	1.188059777753141e-23,1.729853940358563e-13
	2.142313155215417e-12,-3.981530644383102e-15
	-2.142313173578653e-04,-1.082772551420209e-13
	-2.142313152155521e-04,6.072660824945228e-14
	-1.188059777753141e-23,-1.729853940358563e-13
	-2.142313152155521e-04,6.072660824945228e-14
4		1.096478196143185e+00,0.000000000000000e+00
	-2.142313152155521e+00,6.214111266664315e-10
	1.000000000000000e+00,0.000000000000000e+00
	0.000000000000000e+00,0.000000000000000e+00
	2.142313152155521e-04,-6.214111266664315e-14
	1.244051310076321e-23,1.770147414838166e-13
	2.142313155215417e-12,-4.074272406948302e-15
	-2.142313173578653e-04,-1.107993564102252e-13
	-2.142313152155521e-04,6.214111266664315e-14
	-1.244051310076321e-23,-1.770147414838166e-13
	-2.142313152155521e-04,6.214111266664315e-14
5		1.122018454301963e+00,0.000000000000000e+00
	-2.142313152155521e+00,6.358856512430475e-10
	1.000000000000000e+00,0.000000000000000e+00
	0.000000000000000e+00,0.000000000000000e+00
	2.142313152155521e-04,-6.358856512430476e-14
	1.302681642021037e-23,1.811379444907789e-13
	2.142313155215417e-12,-4.169174402673020e-15
	-2.142313173578653e-04,-1.133802049638011e-13
	-2.142313152155521e-04,6.358856512430476e-14
	-1.302681642021037e-23,-1.811379444907789e-13
	-2.142313152155521e-04,6.358856512430476e-14
6		1.148153621496882e+00,0.000000000000000e+00
	-2.142313152155521e+00,6.506973308088941e-10
	1.000000000000000e+00,0.000000000000000e+00
	0.000000000000000e+00,0.000000000000000e+00
	2.142313152155521e-04,-6.506973308088942e-14
	1.364075136382050e-23,1.853571892335543e-13
	2.142313155215417e-12,-4.266286949851617e-15
	-2.142313173578653e-04,-1.160211692028132e-13
	-2.142313152155521e-04,6.506973308088940e-14
	-1.364075136382050e-23,-1.853571892335543e-13
	-2.142313152155521e-04,6.506973308088940e-14
7		1.174897554939529e+00,0.000000000000000e+00
	-2.142313152155521e+00,6.658540187125329e-10
	1.000000000000000e+00,0.000000000000000e+00
	0.000000000000000e+00,0.000000000000000e+00
	2.142313152155521e-04,-6.658540187125330e-14
	1.428362016992069e-23,1.896747128115537e-13
	2.142313155215417e-12,-4.365661538841996e-15
	-2.142313173578653e-04,-1.187236494014584e-13
	-2.142313152155521e-04,6.658540187125330e-14
	-1.428362016992069e-23,-1.896747128115537e-13
	-2.142313152155521e-04,6.658540187125330e-14
8		1.202264434617413e+00,0.000000000000000e+00
	-2.142313152155521e+00,6.813637512305131e-10
	1.000000000000000e+00,0.000000000000000e+00
	0.000000000000000e+00,0.000000000000000e+00
	2.142313152155521e-04,-6.813637512305132e-14
	1.495678644943960e-23,1.940928044329275e-13
	2.142313155215417e-12,-4.467350859366632e-15
	-2.142313173578653e-04,-1.214890784505095e-13
	-2.142313152155521e-04,6.813637512305131e-14
	-1.495678644943960e-23,-1.940928044329275e-13
	-2.142313152155521e-04,6.813637512305131e-14
9		1.230268770812381e+00,0.000000000000000e+00
	-2.142313152155521e+00,6.972347518283112e-10
	1.000000000000000e+00,0.000000000000000e+00
	0.000000000000000e+00,0.000000000000000e+00
	2.142313152155521e-04,-6.972347518283112e-14
	1.566167807830905e-23,1.986138066283336e-13
	2.142313155215417e-12,-4.571408828449276e-15
	-2.142313173578653e-04,-1.243189226170532e-13
	-2.142313152155521e-04,6.972347518283112e-14
	-1.566167807830905e-23,-1.986138066283336e-13
	-2.142313152155521e-04,6.972347518283112e-14
10		1.258925411794167e+00,0.000000000000000e+00
	-2.142313152155521e+00,7.134754355205214e-10
	1.000000000000000e+00,0.000000000000000e+00
	0.000000000000000e+00,0.000000000000000e+00
	2.142313152155521e-04,-7.134754355205216e-14
	1.639979022618036e-23,2.032401164929786e-13
	2.142313155215417e-12,-4.677890619002555e-15
	-2.142313173578653e-04,-1.272146823219239e-13
	-2.142313152155521e-04,7.134754355205214e-14
	-1.639979022618036e-23,-2.032401164929786e-13
	-2.142313152155521e-04,7.134754355205214e-14
11		1.288249551693134e+00,0.000000000000000e+00
	-2.142313152155521e+00,7.300944133326086e-10
	1.000000000000000e+00,0.000000000000000e+00
	0.000000000000000e+00,0.000000000000000e+00
	2.142313152155521e-04,-7.300944133326089e-14
	1.717268852787957e-23,2.079741869575891e-13
	2.142313155215417e-12,-4.786852689081117e-15
	-2.142313173578653e-04,-1.301778929352471e-13
	-2.142313152155521e-04,7.300944133326087e-14
	-1.717268852787957e-23,-2.079741869575891e-13
	-2.142313152155521e-04,7.300944133326087e-14
12		1.318256738556407e+00,0.000000000000000e+00
	-2.142313152155521e+00,7.471004968665868e-10
	1.000000000000000e+00,0.000000000000000e+00
	0.000000000000000e+00,0.000000000000000e+00
	2.142313152155521e-04,-7.471004968665869e-14
	1.798201240432887e-23,2.128185280889883e-13
	2.142313155215417e-12,-4.898352811817038e-15
	-2.142313173578653e-04,-1.332101255905126e-13
	-2.142313152155521e-04,7.471004968665869e-14
	-1.798201240432887e-23,-2.128185280889883e-13
	-2.142313152155521e-04,7.471004968665869e-14
13		1.348962882591653e+00,0.000000000000000e+00
	-2.142313152155521e+00,7.645027029730479e-10
	1.000000000000000e+00,0.000000000000000e+00
	0.000000000000000e+00,0.000000000000000e+00
	2.142313152155521e-04,-7.645027029730479e-14
	1.882947853997817e-23,2.177757084209666e-13
	2.142313155215417e-12,-5.012450106051074e-15
	-2.142313173578653e-04,-1.363129880176107e-13
	-2.142313152155521e-04,7.645027029730479e-14
	-1.882947853997817e-23,-2.177757084209666e-13
	-2.142313152155521e-04,7.645027029730479e-14
14		1.380384264602885e+00,0.000000000000000e+00
	-2.142313152155521e+00,7.823102585320149e-10
	1.000000000000000e+00,0.000000000000000e+00
	0.000000000000000e+00,0.000000000000000e+00
	2.142313152155521e-04,-7.823102585320150e-14
	1.971688452412291e-23,2.228483563161520e-13
	2.142313155215417e-12,-5.129205067678987e-15
	-2.142313173578653e-04,-1.394881253952715e-13
	-2.142313152155521e-04,7.823102585320148e-14
	-1.971688452412291e-23,-2.228483563161520e-13
	-2.142313152155521e-04,7.823102585320148e-14
15		1.412537544622754e+00,0.000000000000000e+00
	-2.142313152155521e+00,8.005326053451558e-10
	1.000000000000000e+00,0.000000000000000e+00
	0.000000000000000e+00,0.000000000000000e+00
	2.142313152155521e-04,-8.005326053451559e-14
	2.064611266383207e-23,2.280391613596029e-13
	2.142313155215417e-12,-5.248679601726874e-15
	-2.142313173578653e-04,-1.427372212233604e-13
	-2.142313152155521e-04,8.005326053451559e-14
	-2.064611266383207e-23,-2.280391613596029e-13
	-2.142313152155521e-04,8.005326053451559e-14
16		1.445439770745927e+00,0.000000000000000e+00
	-2.142313152155521e+00,8.191794051419523e-10
	1.000000000000000e+00,0.000000000000000e+00
	0.000000000000000e+00,0.000000000000000e+00
	2.142313152155521e-04,-8.191794051419525e-14
	2.161913397657376e-23,2.333508757848616e-13
	2.142313155215417e-12,-5.370937055173975e-15
	-2.142313173578653e-04,-1.460619982154924e-13
	-2.142313152155521e-04,8.191794051419522e-14
	-2.161913397657376e-23,-2.333508757848616e-13
	-2.142313152155521e-04,8.191794051419522e-14
17		1.479108388168207e+00,0.000000000000000e+00
	-2.142313152155521e+00,8.382605447024766e-10
	1.000000000000000e+00,0.000000000000000e+00
	0.000000000000000e+00,0.000000000000000e+00
	2.142313152155521e-04,-8.382605447024766e-14
	2.263801237100755e-23,2.387863159332257e-13
	2.142313155215417e-12,-5.496042250540653e-15
	-2.142313173578653e-04,-1.494642192124374e-13
	-2.142313152155521e-04,8.382605447024766e-14
	-2.263801237100755e-23,-2.387863159332257e-13
	-2.142313152155521e-04,8.382605447024766e-14
18		1.513561248436208e+00,0.000000000000000e+00
	-2.142313152155521e+00,8.577861410994922e-10
	1.000000000000000e+00,0.000000000000000e+00
	0.000000000000000e+00,0.000000000000000e+00
	2.142313152155521e-04,-8.577861410994922e-14
	2.370490902481144e-23,2.443483637470080e-13
	2.142313155215417e-12,-5.624061520257162e-15
	-2.142313173578653e-04,-1.529456881168016e-13
	-2.142313152155521e-04,8.577861410994922e-14
	-2.370490902481144e-23,-2.443483637470080e-13
	-2.142313152155521e-04,8.577861410994922e-14
19		1.548816618912481e+00,0.000000000000000e+00
	-2.142313152155521e+00,8.777665470626604e-10
	1.000000000000000e+00,0.000000000000000e+00
	0.000000000000000e+00,0.000000000000000e+00
	2.142313152155521e-04,-8.777665470626605e-14
	2.482208696882946e-23,2.500399682975819e-13
	2.142313155215417e-12,-5.755062741834986e-15
	-2.142313173578653e-04,-1.565082508494809e-13
	-2.142313152155521e-04,8.777665470626605e-14
	-2.482208696882946e-23,-2.500399682975819e-13
	-2.142313152155521e-04,8.777665470626605e-14
20		1.584893192461113e+00,0.000000000000000e+00
	-2.142313152155521e+00,8.982123564676951e-10
	1.000000000000000e+00,0.000000000000000e+00
	0.000000000000000e+00,0.000000000000000e+00
	2.142313152155521e-04,-8.982123564676951e-14
	2.599191588726355e-23,2.558641473490175e-13
	2.142313155215417e-12,-5.889115373855801e-15
	-2.142313173578653e-04,-1.601537963283922e-13
	-2.142313152155521e-04,8.982123564676951e-14
	-2.599191588726355e-23,-2.558641473490175e-13
	-2.142313152155521e-04,8.982123564676951e-14
21		1.621810097358929e+00,0.000000000000000e+00
	-2.142313152155521e+00,9.191344099533750e-10
	1.000000000000000e+00,0.000000000000000e+00
	0.000000000000000e+00,0.000000000000000e+00
	2.142313152155521e-04,-9.191344099533753e-14
	2.721687714409138e-23,2.618239889581399e-13
	2.142313155215417e-12,-6.026290492799489e-15
	-2.142313173578653e-04,-1.638842574700029e-13
	-2.142313152155521e-04,9.191344099533751e-14
	-2.721687714409138e-23,-2.618239889581399e-13
	-2.142313152155521e-04,9.191344099533751e-14
22		1.659586907437560e+00,0.000000000000000e+00
	-2.142313152155521e+00,9.405438006693946e-10
	1.000000000000000e+00,0.000000000000000e+00
	0.000000000000000e+00,0.000000000000000e+00
	2.142313152155521e-04,-9.405438006693946e-14
	2.849956904637213e-23,2.679226531118582e-13
	2.142313155215417e-12,-6.166660830729889e-15
	-2.142313173578653e-04,-1.677016122141888e-13
	-2.142313152155521e-04,9.405438006693946e-14
	-2.849956904637213e-23,-2.679226531118582e-13
	-2.142313152155521e-04,9.405438006693946e-14
23		1.698243652461743e+00,0.000000000000000e+00
	-2.142313152155521e+00,9.624518801580980e-10
	1.000000000000000e+00,0.000000000000000e+00
	0.000000000000000e+00,0.000000000000000e+00
	2.142313152155521e-04,-9.624518801580981e-14
	2.984271235560401e-23,2.741633734026318e-13
	2.142313155215417e-12,-6.310300813858124e-15
	-2.142313173578653e-04,-1.716078845729639e-13
	-2.142313152155521e-04,9.624518801580981e-14
	-2.984271235560401e-23,-2.741633734026318e-13
	-2.142313152155521e-04,9.624518801580981e-14
24		1.737800828749374e+00,0.000000000000000e+00
	-2.142313152155521e+00,9.848702643732177e-10
	1.000000000000000e+00,0.000000000000000e+00
	0.000000000000000e+00,0.000000000000000e+00
	2.142313152155521e-04,-9.848702643732178e-14
	3.124915605882425e-23,2.805494587429648e-13
	2.142313155215417e-12,-6.457286602004522e-15
	-2.142313173578653e-04,-1.756051457036385e-13
	-2.142313152155521e-04,9.848702643732178e-14
	-3.124915605882425e-23,-2.805494587429648e-13
	-2.142313152155521e-04,9.848702643732178e-14
25		1.778279410038922e+00,0.000000000000000e+00
	-2.142313152155521e+00,1.007810839838807e-09
	1.000000000000000e+00,0.000000000000000e+00
	0.000000000000000e+00,0.000000000000000e+00
	2.142313152155521e-04,-1.007810839838808e-13
	3.272188341169261e-23,2.870842951198344e-13
	2.142313155215417e-12,-6.607696128979586e-15
	-2.142313173578653e-04,-1.796955150069740e-13
	-2.142313152155521e-04,1.007810839838807e-13
	-3.272188341169261e-23,-2.870842951198344e-13
	-2.142313152155521e-04,1.007810839838807e-13
26		1.819700858609982e+00,0.000000000000000e+00
	-2.142313152155521e+00,1.031285769951633e-09
	1.000000000000000e+00,0.000000000000000e+00
	0.000000000000000e+00,0.000000000000000e+00
	2.142313152155521e-04,-1.031285769951633e-13
	3.426401826637649e-23,2.937713473899864e-13
	2.142313155215417e-12,-6.761609143905516e-15
	-2.142313173578653e-04,-1.838811612509176e-13
	-2.142313152155521e-04,1.031285769951633e-13
	-3.426401826637649e-23,-2.937713473899864e-13
	-2.142313152155521e-04,1.031285769951633e-13
27		1.862087136662866e+00,0.000000000000000e+00
	-2.142313152155521e+00,1.055307501430368e-09
	1.000000000000000e+00,0.000000000000000e+00
	0.000000000000000e+00,0.000000000000000e+00
	2.142313152155521e-04,-1.055307501430368e-13
	3.587883169766031e-23,3.006141611170481e-13
	2.142313155215417e-12,-6.919107253499985e-15
	-2.142313173578653e-04,-1.881643037205113e-13
	-2.142313152155521e-04,1.055307501430368e-13
	-3.587883169766031e-23,-3.006141611170481e-13
	-2.142313152155521e-04,1.055307501430368e-13
28		1.905460717963246e+00,0.000000000000000e+00
	-2.142313152155521e+00,1.079888770915007e-09
	1.000000000000000e+00,0.000000000000000e+00
	0.000000000000000e+00,0.000000000000000e+00
	2.142313152155521e-04,-1.079888770915008e-13
	3.756974894133363e-23,3.076163644514328e-13
	2.142313155215417e-12,-7.080273965345411e-15
	-2.142313173578653e-04,-1.925472133945867e-13
	-2.142313152155521e-04,1.079888770915007e-13
	-3.756974894133363e-23,-3.076163644514328e-13
	-2.142313152155521e-04,1.079888770915007e-13
29		1.949844599758044e+00,0.000000000000000e+00
	-2.142313152155521e+00,1.105042611720004e-09
	1.000000000000000e+00,0.000000000000000e+00
	0.000000000000000e+00,0.000000000000000e+00
	2.142313152155521e-04,-1.105042611720004e-13
	3.934035665957551e-23,3.147816700540338e-13
	2.142313155215417e-12,-7.245194732165890e-15
	-2.142313173578653e-04,-1.970322141498675e-13
	-2.142313152155521e-04,1.105042611720004e-13
	-3.934035665957551e-23,-3.147816700540338e-13
	-2.142313152155521e-04,1.105042611720004e-13
30		1.995262314968878e+00,0.000000000000000e+00
	-2.142313152155521e+00,1.130782360744702e-09
	1.000000000000000e+00,0.000000000000000e+00
	0.000000000000000e+00,0.000000000000000e+00
	2.142313152155521e-04,-1.130782360744702e-13
	4.119441054874583e-23,3.221138770647252e-13
	2.142313155215417e-12,-7.413956997134798e-15
	-2.142313173578653e-04,-2.016216839931202e-13
	-2.142313152155521e-04,1.130782360744702e-13
	-4.119441054874583e-23,-3.221138770647252e-13
	-2.142313152155521e-04,1.130782360744702e-13
31		2.041737944669527e+00,0.000000000000000e+00
	-2.142313152155521e+00,1.157121665544741e-09
	1.000000000000000e+00,0.000000000000000e+00
	0.000000000000000e+00,0.000000000000000e+00
	2.142313152155521e-04,-1.157121665544741e-13
	4.313584330572086e-23,3.296168731167176e-13
	2.142313155215417e-12,-7.586650240238898e-15
	-2.142313173578653e-04,-2.063180563220046e-13
	-2.142313152155521e-04,1.157121665544741e-13
	-4.313584330572086e-23,-3.296168731167176e-13
	-2.142313152155521e-04,1.157121665544741e-13
32		2.089296130854037e+00,0.000000000000000e+00
	-2.142313152155521e+00,1.184074491568168e-09
	1.000000000000000e+00,0.000000000000000e+00
	0.000000000000000e+00,0.000000000000000e+00
	2.142313152155521e-04,-1.184074491568168e-13
	4.516877296967061e-23,3.372946363978316e-13
	2.142313155215417e-12,-7.763366025721532e-15
	-2.142313173578653e-04,-2.111238212152933e-13
	-2.142313152155521e-04,1.184074491568168e-13
	-4.516877296967061e-23,-3.372946363978316e-13
	-2.142313152155521e-04,1.184074491568168e-13
33		2.137962089502230e+00,0.000000000000000e+00
	-2.142313152155521e+00,1.211655129560103e-09
	1.000000000000000e+00,0.000000000000000e+00
	0.000000000000000e+00,0.000000000000000e+00
	2.142313152155521e-04,-1.211655129560103e-13
	4.729751165697189e-23,3.451512377597861e-13
	2.142313155215417e-12,-7.944198050631368e-15
	-2.142313173578653e-04,-2.160415267531444e-13
	-2.142313152155521e-04,1.211655129560103e-13
	-4.729751165697189e-23,-3.451512377597861e-13
	-2.142313152155521e-04,1.211655129560103e-13
34		2.187761623949550e+00,0.000000000000000e+00
	-2.142313152155521e+00,1.239878203139883e-09
	1.000000000000000e+00,0.000000000000000e+00
	0.000000000000000e+00,0.000000000000000e+00
	2.142313152155521e-04,-1.239878203139883e-13
	4.952657470778546e-23,3.531908428766175e-13
	2.142313155215417e-12,-8.129242194501529e-15
	-2.142313173578653e-04,-2.210737803681277e-13
	-2.142313152155521e-04,1.239878203139883e-13
	-4.952657470778546e-23,-3.531908428766175e-13
	-2.142313152155521e-04,1.239878203139883e-13
35		2.238721138568337e+00,0.000000000000000e+00
	-2.142313152155521e+00,1.268758676554696e-09
	1.000000000000000e+00,0.000000000000000e+00
	0.000000000000000e+00,0.000000000000000e+00
	2.142313152155521e-04,-1.268758676554696e-13
	5.186069026369781e-23,3.614177144533756e-13
	2.142313155215417e-12,-8.318596570186374e-15
	-2.142313173578653e-04,-2.262232502277197e-13
	-2.142313152155521e-04,1.268758676554696e-13
	-5.186069026369781e-23,-3.614177144533756e-13
	-2.142313152155521e-04,1.268758676554696e-13
36		2.290867652767770e+00,0.000000000000000e+00
	-2.142313152155521e+00,1.298311862613824e-09
	1.000000000000000e+00,0.000000000000000e+00
	0.000000000000000e+00,0.000000000000000e+00
	2.142313152155521e-04,-1.298311862613824e-13
	5.430480929674332e-23,3.698362144862659e-13
	2.142313155215417e-12,-8.512361575882475e-15
	-2.142313173578653e-04,-2.314926666490010e-13
	-2.142313152155521e-04,1.298311862613824e-13
	-5.430480929674332e-23,-3.698362144862659e-13
	-2.142313152155521e-04,1.298311862613824e-13
37		2.344228815319919e+00,0.000000000000000e+00
	-2.142313152155521e+00,1.328553430807699e-09
	1.000000000000000e+00,0.000000000000000e+00
	0.000000000000000e+00,0.000000000000000e+00
	2.142313152155521e-04,-1.328553430807699e-13
	5.686411611107980e-23,3.784508065754378e-13
	2.142313155215417e-12,-8.710639948360490e-15
	-2.142313173578653e-04,-2.368848235463074e-13
	-2.142313152155521e-04,1.328553430807699e-13
	-5.686411611107980e-23,-3.784508065754378e-13
	-2.142313152155521e-04,1.328553430807699e-13
38		2.398832919019488e+00,0.000000000000000e+00
	-2.142313152155521e+00,1.359499415616072e-09
	1.000000000000000e+00,0.000000000000000e+00
