Title: * GA CMOS Amp | W=4.293424529414883e-05 L=9.857893080843466e-07 Vbias=1.1909784644193828
Date: Mon Sep  8 18:46:34 2025
Plotname: AC Analysis
Flags: complex forward log
No. Variables: 11
No. Points:          901
Offset:    0.0000000000000000e+00
Command: Linear Technology Corporation LTspice
Variables:
	0	frequency	frequency
	1	V(out)	voltage
	2	V(g)	voltage
	3	V(vdd)	voltage
	4	Id(M1)	device_current
	5	Ig(M1)	device_current
	6	Ib(M1)	device_current
	7	Is(M1)	device_current
	8	I(Rload)	device_current
	9	I(Vg)	device_current
	10	I(Vdd)	device_current
Values:
0		1.000000000000000e+00,0.000000000000000e+00
	-1.970079780856204e-01,1.446662055817098e-10
	1.000000000000000e+00,0.000000000000000e+00
	0.000000000000000e+00,0.000000000000000e+00
	1.970079780856199e-05,-1.446662055817093e-14
	3.371059981494021e-23,5.201882942853811e-13
	2.016175312639923e-13,2.504748227079019e-15
	-1.970079801017952e-05,-5.082264219542892e-13
	-1.970079780856204e-05,1.446662055817098e-14
	-3.371059981494021e-23,-5.201882942853811e-13
	-1.970079780856204e-05,1.446662055817098e-14
1		1.023292992280754e+00,0.000000000000000e+00
	-1.970079780856204e-01,1.480359143916105e-10
	1.000000000000000e+00,0.000000000000000e+00
	0.000000000000000e+00,0.000000000000000e+00
	1.970079780856199e-05,-1.480359143916105e-14
	3.529933143814326e-23,5.323050362087091e-13
	2.016175312639923e-13,2.563091308197678e-15
	-1.970079801017952e-05,-5.200645360777457e-13
	-1.970079780856204e-05,1.480359143916105e-14
	-3.529933143814326e-23,-5.323050362087091e-13
	-1.970079780856204e-05,1.480359143916105e-14
2		1.047128548050899e+00,0.000000000000000e+00
	-1.970079780856204e-01,1.514841138028087e-10
	1.000000000000000e+00,0.000000000000000e+00
	0.000000000000000e+00,0.000000000000000e+00
	1.970079780856199e-05,-1.514841138028087e-14
	3.696293767599042e-23,5.447040133081251e-13
	2.016175312639923e-13,2.622793374254459e-15
	-1.970079801017952e-05,-5.321783953020986e-13
	-1.970079780856204e-05,1.514841138028087e-14
	-3.696293767599042e-23,-5.447040133081251e-13
	-1.970079780856204e-05,1.514841138028087e-14
3		1.071519305237606e+00,0.000000000000000e+00
	-1.970079780856204e-01,1.550126320962744e-10
	1.000000000000000e+00,0.000000000000000e+00
	0.000000000000000e+00,0.000000000000000e+00
	1.970079780856199e-05,-1.550126320962742e-14
	3.870494726035573e-23,5.573917996854070e-13
	2.016175312639923e-13,2.683886080074925e-15
	-1.970079801017952e-05,-5.445744225558545e-13
	-1.970079780856204e-05,1.550126320962744e-14
	-3.870494726035573e-23,-5.573917996854070e-13
	-1.970079780856204e-05,1.550126320962744e-14
4		1.096478196143185e+00,0.000000000000000e+00
	-1.970079780856204e-01,1.586233401391122e-10
	1.000000000000000e+00,0.000000000000000e+00
	0.000000000000000e+00,0.000000000000000e+00
	1.970079780856199e-05,-1.586233401391121e-14
	4.052905522712293e-23,5.703751225728347e-13
	2.016175312639923e-13,2.746401817820531e-15
	-1.970079801017952e-05,-5.572591903767441e-13
	-1.970079780856204e-05,1.586233401391123e-14
	-4.052905522712293e-23,-5.703751225728347e-13
	-1.970079780856204e-05,1.586233401391123e-14
5		1.122018454301963e+00,0.000000000000000e+00
	-1.970079780856204e-01,1.623181523765200e-10
	1.000000000000000e+00,0.000000000000000e+00
	0.000000000000000e+00,0.000000000000000e+00
	1.970079780856199e-05,-1.623181523765199e-14
	4.243913075385196e-23,5.836608659000580e-13
	2.016175312639923e-13,2.810373734162974e-15
	-1.970079801017952e-05,-5.702394243965690e-13
	-1.970079780856204e-05,1.623181523765200e-14
	-4.243913075385196e-23,-5.836608659000580e-13
	-1.970079780856204e-05,1.623181523765200e-14
6		1.148153621496882e+00,0.000000000000000e+00
	-1.970079780856204e-01,1.660990278468526e-10
	1.000000000000000e+00,0.000000000000000e+00
	0.000000000000000e+00,0.000000000000000e+00
	1.970079780856199e-05,-1.660990278468522e-14
	4.443922536682328e-23,5.972560739440463e-13
	2.016175312639923e-13,2.875835747858851e-15
	-1.970079801017952e-05,-5.835220069072199e-13
	-1.970079780856204e-05,1.660990278468526e-14
	-4.443922536682328e-23,-5.972560739440463e-13
	-1.970079780856204e-05,1.660990278468526e-14
7		1.174897554939529e+00,0.000000000000000e+00
	-1.970079780856204e-01,1.699679712203301e-10
	1.000000000000000e+00,0.000000000000000e+00
	0.000000000000000e+00,0.000000000000000e+00
	1.970079780856199e-05,-1.699679712203296e-14
	4.653358153486835e-23,6.111679550640584e-13
	2.016175312639923e-13,2.942822567734479e-15
	-1.970079801017952e-05,-5.971139805097599e-13
	-1.970079780856204e-05,1.699679712203301e-14
	-4.653358153486835e-23,-6.111679550640584e-13
	-1.970079780856204e-05,1.699679712203301e-14
8		1.202264434617413e+00,0.000000000000000e+00
	-1.970079780856204e-01,1.739270338619407e-10
	1.000000000000000e+00,0.000000000000000e+00
	0.000000000000000e+00,0.000000000000000e+00
	1.970079780856199e-05,-1.739270338619408e-14
	4.872664166821484e-23,6.254038855236099e-13
	2.016175312639923e-13,3.011369711088185e-15
	-1.970079801017952e-05,-6.110225518485040e-13
	-1.970079780856204e-05,1.739270338619407e-14
	-4.872664166821484e-23,-6.254038855236099e-13
	-1.970079780856204e-05,1.739270338619407e-14
9		1.230268770812381e+00,0.000000000000000e+00
	-1.970079780856204e-01,1.779783149191013e-10
	1.000000000000000e+00,0.000000000000000e+00
	0.000000000000000e+00,0.000000000000000e+00
	1.970079780856199e-05,-1.779783149191014e-14
	5.102305754143427e-23,6.399714134014650e-13
	2.016175312639923e-13,3.081513522523109e-15
	-1.970079801017952e-05,-6.252550954320779e-13
	-1.970079780856204e-05,1.779783149191013e-14
	-5.102305754143427e-23,-6.399714134014650e-13
	-1.970079780856204e-05,1.779783149191013e-14
10		1.258925411794167e+00,0.000000000000000e+00
	-1.970079780856204e-01,1.821239624346536e-10
	1.000000000000000e+00,0.000000000000000e+00
	0.000000000000000e+00,0.000000000000000e+00
	1.970079780856199e-05,-1.821239624346532e-14
	5.342770016047958e-23,6.548782625937286e-13
	2.016175312639923e-13,3.153291193216256e-15
	-1.970079801017952e-05,-6.398191575434796e-13
	-1.970079780856204e-05,1.821239624346536e-14
	-5.342770016047958e-23,-6.548782625937286e-13
	-1.970079780856204e-05,1.821239624346536e-14
11		1.288249551693134e+00,0.000000000000000e+00
	-1.970079780856204e-01,1.863661744857844e-10
	1.000000000000000e+00,0.000000000000000e+00
	0.000000000000000e+00,0.000000000000000e+00
	1.970079780856199e-05,-1.863661744857840e-14
	5.594567009474181e-23,6.701323369091581e-13
	2.016175312639923e-13,3.226740780638812e-15
	-1.970079801017952e-05,-6.547224602412185e-13
	-1.970079780856204e-05,1.863661744857844e-14
	-5.594567009474181e-23,-6.701323369091581e-13
	-1.970079780856204e-05,1.863661744857844e-14
12		1.318256738556407e+00,0.000000000000000e+00
	-1.970079780856204e-01,1.907072003494754e-10
	1.000000000000000e+00,0.000000000000000e+00
	0.000000000000000e+00,0.000000000000000e+00
	1.970079780856199e-05,-1.907072003494753e-14
	5.858230829604161e-23,6.857417242598668e-13
	2.016175312639923e-13,3.301901228734322e-15
	-1.970079801017952e-05,-6.699729054536536e-13
	-1.970079780856204e-05,1.907072003494754e-14
	-5.858230829604161e-23,-6.857417242598668e-13
	-1.970079780856204e-05,1.907072003494754e-14
13		1.348962882591653e+00,0.000000000000000e+00
	-1.970079780856204e-01,1.951493416950999e-10
	1.000000000000000e+00,0.000000000000000e+00
	0.000000000000000e+00,0.000000000000000e+00
	1.970079780856199e-05,-1.951493416950994e-14
	6.134320742750422e-23,7.017147009496430e-13
	2.016175312639923e-13,3.378812388566849e-15
	-1.970079801017952e-05,-6.855785791686999e-13
	-1.970079780856204e-05,1.951493416950999e-14
	-6.134320742750422e-23,-7.017147009496430e-13
	-1.970079780856204e-05,1.951493416950999e-14
14		1.380384264602885e+00,0.000000000000000e+00
	-1.970079780856204e-01,1.996949538047982e-10
	1.000000000000000e+00,0.000000000000000e+00
	0.000000000000000e+00,0.000000000000000e+00
	1.970079780856199e-05,-1.996949538047979e-14
	6.423422372634766e-23,7.180597360621546e-13
	2.016175312639923e-13,3.457515039451897e-15
	-1.970079801017952e-05,-7.015477557211267e-13
	-1.970079780856204e-05,1.996949538047982e-14
	-6.423422372634766e-23,-7.180597360621546e-13
	-1.970079780856204e-05,1.996949538047982e-14
15		1.412537544622754e+00,0.000000000000000e+00
	-1.970079780856204e-01,2.043464468222789e-10
	1.000000000000000e+00,0.000000000000000e+00
	0.000000000000000e+00,0.000000000000000e+00
	1.970079780856199e-05,-2.043464468222791e-14
	6.726148942574705e-23,7.347854959513707e-13
	2.016175312639923e-13,3.538050910576603e-15
	-1.970079801017952e-05,-7.178889021797194e-13
	-1.970079780856204e-05,2.043464468222789e-14
	-6.726148942574705e-23,-7.347854959513707e-13
	-1.970079780856204e-05,2.043464468222789e-14
16		1.445439770745927e+00,0.000000000000000e+00
	-1.970079780856204e-01,2.091062870307098e-10
	1.000000000000000e+00,0.000000000000000e+00
	0.000000000000000e+00,0.000000000000000e+00
	1.970079780856199e-05,-2.091062870307088e-14
	7.043142576212343e-23,7.519008488365760e-13
	2.016175312639923e-13,3.620462703125502e-15
	-1.970079801017952e-05,-7.346106828366306e-13
	-1.970079780856204e-05,2.091062870307098e-14
	-7.043142576212343e-23,-7.519008488365760e-13
	-1.970079780856204e-05,2.091062870307098e-14
17		1.479108388168207e+00,0.000000000000000e+00
	-1.970079780856204e-01,2.139769981603732e-10
	1.000000000000000e+00,0.000000000000000e+00
	0.000000000000000e+00,0.000000000000000e+00
	1.970079780856199e-05,-2.139769981603731e-14
	7.375075659544700e-23,7.694148695044187e-13
	2.016175312639923e-13,3.704794112922177e-15
	-1.970079801017952e-05,-7.517219638013036e-13
	-1.970079780856204e-05,2.139769981603732e-14
	-7.375075659544700e-23,-7.694148695044187e-13
	-1.970079780856204e-05,2.139769981603732e-14
18		1.513561248436208e+00,0.000000000000000e+00
	-1.970079780856204e-01,2.189611627267817e-10
	1.000000000000000e+00,0.000000000000000e+00
	0.000000000000000e+00,0.000000000000000e+00
	1.970079780856199e-05,-2.189611627267815e-14
	7.722652267144573e-23,7.873368441204827e-13
	2.016175312639923e-13,3.791089853596221e-15
	-1.970079801017952e-05,-7.692318177014007e-13
	-1.970079780856204e-05,2.189611627267817e-14
	-7.722652267144573e-23,-7.873368441204827e-13
	-1.970079780856204e-05,2.189611627267817e-14
19		1.548816618912481e+00,0.000000000000000e+00
	-1.970079780856204e-01,2.240614233999616e-10
	1.000000000000000e+00,0.000000000000000e+00
	0.000000000000000e+00,0.000000000000000e+00
	1.970079780856199e-05,-2.240614233999612e-14
	8.086609655597085e-23,8.056762751529344e-13
	2.016175312639923e-13,3.879395680291626e-15
	-1.970079801017952e-05,-7.871495284932299e-13
	-1.970079780856204e-05,2.240614233999616e-14
	-8.086609655597085e-23,-8.056762751529344e-13
	-1.970079780856204e-05,2.240614233999616e-14
20		1.584893192461113e+00,0.000000000000000e+00
	-1.970079780856204e-01,2.292804844056317e-10
	1.000000000000000e+00,0.000000000000000e+00
	0.000000000000000e+00,0.000000000000000e+00
	1.970079780856199e-05,-2.292804844056307e-14
	8.467719827319760e-23,8.244428864108585e-13
	2.016175312639923e-13,3.969758413926589e-15
	-1.970079801017952e-05,-8.054845963842220e-13
	-1.970079780856204e-05,2.292804844056317e-14
	-8.467719827319760e-23,-8.244428864108585e-13
	-1.970079780856204e-05,2.292804844056317e-14
21		1.621810097358929e+00,0.000000000000000e+00
	-1.970079780856204e-01,2.346211129590196e-10
	1.000000000000000e+00,0.000000000000000e+00
	0.000000000000000e+00,0.000000000000000e+00
	1.970079780856199e-05,-2.346211129590189e-14
	8.866791168083153e-23,8.436466281999491e-13
	2.016175312639923e-13,4.062225966018776e-15
	-1.970079801017952e-05,-8.242467428700660e-13
	-1.970079780856204e-05,2.346211129590196e-14
	-8.866791168083153e-23,-8.436466281999491e-13
	-1.970079780856204e-05,2.346211129590196e-14
22		1.659586907437560e+00,0.000000000000000e+00
	-1.970079780856204e-01,2.400861407320760e-10
	1.000000000000000e+00,0.000000000000000e+00
	0.000000000000000e+00,0.000000000000000e+00
	1.970079780856199e-05,-2.400861407320758e-14
	9.284670161705452e-23,8.632976825982948e-13
	2.016175312639923e-13,4.156847364087957e-15
	-1.970079801017952e-05,-8.434459158891752e-13
	-1.970079780856204e-05,2.400861407320760e-14
	-9.284670161705452e-23,-8.632976825982948e-13
	-1.970079780856204e-05,2.400861407320760e-14
23		1.698243652461743e+00,0.000000000000000e+00
	-1.970079780856204e-01,2.456784653548643e-10
	1.000000000000000e+00,0.000000000000000e+00
	0.000000000000000e+00,0.000000000000000e+00
	1.970079780856199e-05,-2.456784653548632e-14
	9.722243185558141e-23,8.834064688550499e-13
	2.016175312639923e-13,4.253672777651762e-15
	-1.970079801017952e-05,-8.630922950972153e-13
	-1.970079780856204e-05,2.456784653548643e-14
	-9.722243185558141e-23,-8.834064688550499e-13
	-1.970079780856204e-05,2.456784653548643e-14
24		1.737800828749374e+00,0.000000000000000e+00
	-1.970079780856204e-01,2.514010519519226e-10
	1.000000000000000e+00,0.000000000000000e+00
	0.000000000000000e+00,0.000000000000000e+00
	1.970079780856199e-05,-2.514010519519234e-14
	1.018043839069124e-22,9.039836489148586e-13
	2.016175312639923e-13,4.352753544826726e-15
	-1.970079801017952e-05,-8.831962972644930e-13
	-1.970079780856204e-05,2.514010519519226e-14
	-1.018043839069124e-22,-9.039836489148586e-13
	-1.970079780856204e-05,2.514010519519226e-14
25		1.778279410038922e+00,0.000000000000000e+00
	-1.970079780856204e-01,2.572569347144122e-10
	1.000000000000000e+00,0.000000000000000e+00
	0.000000000000000e+00,0.000000000000000e+00
	1.970079780856199e-05,-2.572569347144124e-14
	1.066022767056616e-22,9.250401330709605e-13
	2.016175312639923e-13,4.454142199546286e-15
	-1.970079801017952e-05,-9.037685817990656e-13
	-1.970079780856204e-05,2.572569347144122e-14
	-1.066022767056616e-22,-9.250401330709605e-13
	-1.970079780856204e-05,2.572569347144122e-14
26		1.819700858609982e+00,0.000000000000000e+00
	-1.970079780856204e-01,2.632492185088855e-10
	1.000000000000000e+00,0.000000000000000e+00
	0.000000000000000e+00,0.000000000000000e+00
	1.970079780856199e-05,-2.632492185088842e-14
	1.116262872257196e-22,9.465870857499700e-13
	2.016175312639923e-13,4.557892499417447e-15
	-1.970079801017952e-05,-9.248200563984990e-13
	-1.970079780856204e-05,2.632492185088855e-14
	-1.116262872257196e-22,-9.465870857499700e-13
	-1.970079780856204e-05,2.632492185088855e-14
27		1.862087136662866e+00,0.000000000000000e+00
	-1.970079780856204e-01,2.693810805235275e-10
	1.000000000000000e+00,0.000000000000000e+00
	0.000000000000000e+00,0.000000000000000e+00
	1.970079780856199e-05,-2.693810805235274e-14
	1.168870720669805e-22,9.686359314314055e-13
	2.016175312639923e-13,4.664059454223166e-15
	-1.970079801017952e-05,-9.463618828332759e-13
	-1.970079780856204e-05,2.693810805235275e-14
	-1.168870720669805e-22,-9.686359314314055e-13
	-1.970079780856204e-05,2.693810805235275e-14
28		1.905460717963246e+00,0.000000000000000e+00
	-1.970079780856204e-01,2.756557719527432e-10
	1.000000000000000e+00,0.000000000000000e+00
	0.000000000000000e+00,0.000000000000000e+00
	1.970079780856199e-05,-2.756557719527436e-14
	1.223957900594181e-22,9.911983607050984e-13
	2.016175312639923e-13,4.772699355087335e-15
	-1.970079801017952e-05,-9.684054828649113e-13
	-1.970079780856204e-05,2.756557719527432e-14
	-1.223957900594181e-22,-9.911983607050984e-13
	-1.970079780856204e-05,2.756557719527432e-14
29		1.949844599758044e+00,0.000000000000000e+00
	-1.970079780856204e-01,2.820766197209838e-10
	1.000000000000000e+00,0.000000000000000e+00
	0.000000000000000e+00,0.000000000000000e+00
	1.970079780856199e-05,-2.820766197209832e-14
	1.281641259324612e-22,1.014286336469699e-12
	2.016175312639923e-13,4.883869804323669e-15
	-1.970079801017952e-05,-9.909625443019238e-13
	-1.970079780856204e-05,2.820766197209838e-14
	-1.281641259324612e-22,-1.014286336469699e-12
	-1.970079780856204e-05,2.820766197209838e-14
30		1.995262314968878e+00,0.000000000000000e+00
	-1.970079780856204e-01,2.886470282467258e-10
	1.000000000000000e+00,0.000000000000000e+00
	0.000000000000000e+00,0.000000000000000e+00
	1.970079780856199e-05,-2.886470282467248e-14
	1.342043150998707e-22,1.037912100275561e-12
	2.016175312639923e-13,4.997629745975847e-15
	-1.970079801017952e-05,-1.014045027196865e-12
	-1.970079780856204e-05,2.886470282467259e-14
	-1.342043150998707e-22,-1.037912100275561e-12
	-1.970079780856204e-05,2.886470282467259e-14
31		2.041737944669527e+00,0.000000000000000e+00
	-1.970079780856204e-01,2.953704812475394e-10
	1.000000000000000e+00,0.000000000000000e+00
	0.000000000000000e+00,0.000000000000000e+00
	1.970079780856199e-05,-2.953704812475399e-14
	1.405291696126930e-22,1.062088178815381e-12
	2.016175312639923e-13,5.114039497071052e-15
	-1.970079801017952e-05,-1.037665170187698e-12
	-1.970079780856204e-05,2.953704812475394e-14
	-1.405291696126930e-22,-1.062088178815381e-12
	-1.970079780856204e-05,2.953704812475394e-14
32		2.089296130854037e+00,0.000000000000000e+00
	-1.970079780856204e-01,3.022505435872010e-10
	1.000000000000000e+00,0.000000000000000e+00
	0.000000000000000e+00,0.000000000000000e+00
	1.970079780856199e-05,-3.022505435872013e-14
	1.471521053353378e-22,1.086827390566008e-12
	2.016175312639923e-13,5.233160779600012e-15
	-1.970079801017952e-05,-1.061835496986888e-12
	-1.970079780856204e-05,3.022505435872010e-14
	-1.471521053353378e-22,-1.086827390566008e-12
	-1.970079780856204e-05,3.022505435872010e-14
33		2.137962089502230e+00,0.000000000000000e+00
	-1.970079780856204e-01,3.092908631658314e-10
	1.000000000000000e+00,0.000000000000000e+00
	0.000000000000000e+00,0.000000000000000e+00
	1.970079780856199e-05,-3.092908631658306e-14
	1.540871704024253e-22,1.112142852584974e-12
	2.016175312639923e-13,5.355056753242935e-15
	-1.970079801017952e-05,-1.086568823021634e-12
	-1.970079780856204e-05,3.092908631658314e-14
	-1.540871704024253e-22,-1.112142852584974e-12
	-1.970079780856204e-05,3.092908631658314e-14
34		2.187761623949550e+00,0.000000000000000e+00
	-1.970079780856204e-01,3.164951728540609e-10
	1.000000000000000e+00,0.000000000000000e+00
	0.000000000000000e+00,0.000000000000000e+00
	1.970079780856199e-05,-3.164951728540604e-14
	1.613490750167632e-22,1.138047987465332e-12
	2.016175312639923e-13,5.479792048859525e-15
	-1.970079801017952e-05,-1.111878262228785e-12
	-1.970079780856204e-05,3.164951728540609e-14
	-1.613490750167632e-22,-1.138047987465332e-12
	-1.970079780856204e-05,3.164951728540609e-14
35		2.238721138568337e+00,0.000000000000000e+00
	-1.970079780856204e-01,3.238672924722465e-10
	1.000000000000000e+00,0.000000000000000e+00
	0.000000000000000e+00,0.000000000000000e+00
	1.970079780856199e-05,-3.238672924722464e-14
	1.689532226516589e-22,1.164556530452489e-12
	2.016175312639923e-13,5.607432802753663e-15
	-1.970079801017952e-05,-1.137777234008019e-12
	-1.970079780856204e-05,3.238672924722465e-14
	-1.689532226516589e-22,-1.164556530452489e-12
	-1.970079780856204e-05,3.238672924722465e-14
36		2.290867652767770e+00,0.000000000000000e+00
	-1.970079780856204e-01,3.314111308157912e-10
	1.000000000000000e+00,0.000000000000000e+00
	0.000000000000000e+00,0.000000000000000e+00
	1.970079780856199e-05,-3.314111308157909e-14
	1.769157427237519e-22,1.191682536726821e-12
	2.016175312639923e-13,5.738046691742858e-15
	-1.970079801017952e-05,-1.164279470336985e-12
	-1.970079780856204e-05,3.314111308157912e-14
	-1.769157427237519e-22,-1.191682536726821e-12
	-1.970079780856204e-05,3.314111308157912e-14
37		2.344228815319919e+00,0.000000000000000e+00
	-1.970079780856204e-01,3.391306877276394e-10
	1.000000000000000e+00,0.000000000000000e+00
	0.000000000000000e+00,0.000000000000000e+00
	1.970079780856199e-05,-3.391306877276388e-14
	1.852535248056688e-22,1.219440388855908e-12
	2.016175312639923e-13,5.871702969040334e-15
	-1.970079801017952e-05,-1.191399023052185e-12
	-1.970079780856204e-05,3.391306877276395e-14
	-1.852535248056688e-22,-1.219440388855908e-12
	-1.970079780856204e-05,3.391306877276395e-14
38		2.398832919019488e+00,0.000000000000000e+00
	-1.970079780856204e-01,3.470300562190462e-10
	1.000000000000000e+00,0.000000000000000e+00
	0.000000000000000e+00,0.000000000000000e+00
