LTspice 24.0.9 for Windows
Circuit: * GA CMOS Amp | W=5e-05 L=4.519541141908793e-07 Vbias=1.1062990212736512
Start Time: Sat Sep  6 22:38:04 2025
solver = Normal
Maximum thread count: 2
tnom = 27
temp = 27
method = modified trap
AsciiRawFile = 1
Direct Newton iteration for .op point succeeded.
Semiconductor Device Operating Points:
                        --- BSIM4 MOSFETS ---
Name:      m1
Model:      n
Id:      1.78e-04
Vgs:     1.11e+00
Vds:     1.69e-02
Vbs:     0.00e+00
Vth:     2.54e-01
Vdsat:   6.08e-01
Gm:     -4.96e-07
Gds:     1.05e-02
Gmb      1.09e-04
Cbd:     2.49e-14
Cbs:     4.00e-14


.measure op idd find i(vdd)
  Error: FIND can not be evaluated over an interval.

gain_db: MAX(db(v(out)/v(g)))=(35.9528dB,180°) FROM 1 TO 1e+09
gain_lin: MAX(mag(v(out)/v(g)))=(-11.6389dB,0°) FROM 1 TO 1e+09

Measurement "fc" FAIL'ed

Total elapsed time: 3.798 seconds.

