LTspice 24.0.9 for Windows
Circuit: * GA CMOS Amp | W=7.983180118202896e-06 L=5.392852250823345e-07 Vbias=0.7934804674978755
Start Time: Mon Sep  8 18:45:42 2025
solver = Normal
Maximum thread count: 2
tnom = 27
temp = 27
method = modified trap
AsciiRawFile = 1
Instance "m1": Length shorter than recommended for a level 3 MOSFET.
Direct Newton iteration for .op point succeeded.
Semiconductor Device Operating Points:
                        --- MOSFET Transistors ---
Name:          m1
Model:        n_1u
Id:          1.24e-05
Vgs:         7.93e-01
Vds:         1.68e+00
Vbs:         0.00e+00
Vth:         7.51e-01
Vdsat:       7.92e-02
Gm:          2.37e-04
Gds:         4.11e-06
Gmb:         4.19e-05
Cbd:         0.00e+00
Cbs:         0.00e+00
Cgsov:       1.60e-15
Cgdov:       1.60e-15
Cgbov:       3.39e-17
Cgs:         3.12e-15
Cgd:         0.00e+00
Cgb:         0.00e+00



gain_db: MAX(db(v(out)/v(g)))=(29.0071dB,75.3325°) FROM 1 TO 1e+09
gain_lin: MAX(mag(v(out)/v(g)))=(7.14223dB,0°) FROM 1 TO 1e+09

Measurement "fc" FAIL'ed

Total elapsed time: 0.489 seconds.

