Title: * GA CMOS Amp | W=5e-05 L=1.2549537145831653e-07 Vbias=1.110464319531475
Date: Sat Sep  6 22:08:28 2025
Plotname: AC Analysis
Flags: complex forward log
No. Variables: 13
No. Points:          901
Offset:    0.0000000000000000e+00
Command: Linear Technology Corporation LTspice
Variables:
	0	frequency	frequency
	1	V(out)	voltage
	2	V(g)	voltage
	3	V(vdd)	voltage
	4	V(m1#dbody)	voltage
	5	V(m1#sbody)	voltage
	6	Id(M1)	device_current
	7	Ig(M1)	device_current
	8	Ib(M1)	device_current
	9	Is(M1)	device_current
	10	I(Rload)	device_current
	11	I(Vg)	device_current
	12	I(Vdd)	device_current
Values:
0		1.000000000000000e+00,0.000000000000000e+00
	-8.629518571342434e-04,2.828254840805511e-11
	1.000000000000000e+00,0.000000000000000e+00
	0.000000000000000e+00,0.000000000000000e+00
	2.498918191459537e-06,6.898385925691319e-15
	2.498918199968843e-06,7.911468842657808e-15
	8.629518571342634e-08,-2.828254840805235e-15
	4.729275042289859e-06,1.898117502094853e-12
	-1.332756373758087e-06,-4.153795331413648e-15
	-3.482813854245198e-06,-1.891135451922634e-12
	-8.629518571342434e-08,2.828254840805511e-15
	-4.729275042289482e-06,-1.898117502094853e-12
	-8.629518571342434e-08,2.828254840805511e-15
1		1.023292992280754e+00,0.000000000000000e+00
	-8.629518571342434e-04,2.894133358980399e-11
	1.000000000000000e+00,0.000000000000000e+00
	0.000000000000000e+00,0.000000000000000e+00
	2.498918191459537e-06,7.059069975808110e-15
	2.498918199968843e-06,8.095750625339264e-15
	8.629518571342634e-08,-2.894133358980339e-15
	4.729275042289859e-06,1.942330338419113e-12
	-1.332756373758087e-06,-4.250549654004099e-15
	-3.482813854245198e-06,-1.935185655406128e-12
	-8.629518571342434e-08,2.894133358980399e-15
	-4.729275042289482e-06,-1.942330338419113e-12
	-8.629518571342434e-08,2.894133358980399e-15
2		1.047128548050899e+00,0.000000000000000e+00
	-8.629518571342434e-04,2.961546384970602e-11
	1.000000000000000e+00,0.000000000000000e+00
	0.000000000000000e+00,0.000000000000000e+00
	2.498918191459537e-06,7.223496838263911e-15
	2.498918199968843e-06,8.284324882162201e-15
	8.629518571342634e-08,-2.961546384970616e-15
	4.729275042289859e-06,1.987573023998583e-12
	-1.332756373758087e-06,-4.349557674283777e-15
	-3.482813854245198e-06,-1.980261919939329e-12
	-8.629518571342434e-08,2.961546384970602e-15
	-4.729275042289482e-06,-1.987573023998583e-12
	-8.629518571342434e-08,2.961546384970602e-15
3		1.071519305237606e+00,0.000000000000000e+00
	-8.629518571342434e-04,3.030529662054817e-11
	1.000000000000000e+00,0.000000000000000e+00
	0.000000000000000e+00,0.000000000000000e+00
	2.498918191459537e-06,7.391753694357643e-15
	2.498918199968843e-06,8.477291597693663e-15
	8.629518571342634e-08,-3.030529662055099e-15
	4.729275042289859e-06,2.033869547104018e-12
	-1.332756373758087e-06,-4.450871887615565e-15
	-3.482813854245198e-06,-2.026388145554347e-12
	-8.629518571342434e-08,3.030529662054817e-15
	-4.729275042289482e-06,-2.033869547104018e-12
	-8.629518571342434e-08,3.030529662054817e-15
4		1.096478196143185e+00,0.000000000000000e+00
	-8.629518571342434e-04,3.101119766079656e-11
	1.000000000000000e+00,0.000000000000000e+00
	0.000000000000000e+00,0.000000000000000e+00
	2.498918191459537e-06,7.563929756101549e-15
	2.498918199968843e-06,8.674753085440441e-15
	8.629518571342634e-08,-3.101119766079601e-15
	4.729275042289859e-06,2.081244454764771e-12
	-1.332756373758087e-06,-4.554546012136419e-15
	-3.482813854245198e-06,-2.073588788986556e-12
	-8.629518571342434e-08,3.101119766079657e-15
	-4.729275042289482e-06,-2.081244454764772e-12
	-8.629518571342434e-08,3.101119766079657e-15
5		1.122018454301963e+00,0.000000000000000e+00
	-8.629518571342434e-04,3.173354124852644e-11
	1.000000000000000e+00,0.000000000000000e+00
	0.000000000000000e+00,0.000000000000000e+00
	2.498918191459537e-06,7.740116313522592e-15
	2.498918199968843e-06,8.876814042097057e-15
	8.629518571342634e-08,-3.173354124852841e-15
	4.729275042289859e-06,2.129722865783970e-12
	-1.332756373758087e-06,-4.660635017239452e-15
	-3.482813854245198e-06,-2.121888876641878e-12
	-8.629518571342434e-08,3.173354124852644e-15
	-4.729275042289482e-06,-2.129722865783970e-12
	-8.629518571342434e-08,3.173354124852644e-15
6		1.148153621496882e+00,0.000000000000000e+00
	-8.629518571342434e-04,3.247271037986936e-11
	1.000000000000000e+00,0.000000000000000e+00
	0.000000000000000e+00,0.000000000000000e+00
	2.498918191459537e-06,7.920406783065613e-15
	2.498918199968843e-06,9.083581603057314e-15
	8.629518571342634e-08,-3.247271037986673e-15
	4.729275042289859e-06,2.179330484056822e-12
	-1.332756373758087e-06,-4.769195152719424e-15
	-3.482813854245198e-06,-2.171314017866116e-12
	-8.629518571342434e-08,3.247271037986936e-15
	-4.729275042289482e-06,-2.179330484056822e-12
	-8.629518571342434e-08,3.247271037986936e-15
7		1.174897554939529e+00,0.000000000000000e+00
	-8.629518571342434e-04,3.322909697208282e-11
	1.000000000000000e+00,0.000000000000000e+00
	0.000000000000000e+00,0.000000000000000e+00
	2.498918191459537e-06,8.104896757123992e-15
	2.498918199968843e-06,9.295165399218927e-15
	8.629518571342634e-08,-3.322909697208046e-15
	4.729275042289859e-06,2.230093612199169e-12
	-1.332756373758087e-06,-4.880283978597127e-15
	-3.482813854245198e-06,-2.221890418523364e-12
	-8.629518571342434e-08,3.322909697208282e-15
	-4.729275042289482e-06,-2.230093612199170e-12
	-8.629518571342434e-08,3.322909697208282e-15
8		1.202264434617413e+00,0.000000000000000e+00
	-8.629518571342434e-04,3.400310207134998e-11
	1.000000000000000e+00,0.000000000000000e+00
	0.000000000000000e+00,0.000000000000000e+00
	2.498918191459537e-06,8.293684054723991e-15
	2.498918199968843e-06,9.511677615111265e-15
	8.629518571342634e-08,-3.400310207135055e-15
	4.729275042289859e-06,2.282039165493484e-12
	-1.332756373758087e-06,-4.993960395638478e-15
	-3.482813854245198e-06,-2.273644894890710e-12
	-8.629518571342434e-08,3.400310207134998e-15
	-4.729275042289482e-06,-2.282039165493484e-12
	-8.629518571342434e-08,3.400310207134998e-15
9		1.230268770812381e+00,0.000000000000000e+00
	-8.629518571342434e-04,3.479513606541962e-11
	1.000000000000000e+00,0.000000000000000e+00
	0.000000000000000e+00,0.000000000000000e+00
	2.498918191459537e-06,8.486868773389690e-15
	2.498918199968843e-06,9.733233048377075e-15
	8.629518571342634e-08,-3.479513606542106e-15
	4.729275042289859e-06,2.335194686159703e-12
	-1.332756373758087e-06,-5.110284676584477e-15
	-3.482813854245198e-06,-2.326604887876576e-12
	-8.629518571342434e-08,3.479513606541962e-15
	-4.729275042289482e-06,-2.335194686159703e-12
	-8.629518571342434e-08,3.479513606541962e-15
10		1.258925411794167e+00,0.000000000000000e+00
	-8.629518571342434e-04,3.560561890119923e-11
	1.000000000000000e+00,0.000000000000000e+00
	0.000000000000000e+00,0.000000000000000e+00
	2.498918191459537e-06,8.684553342216028e-15
	2.498918199968843e-06,9.959949170639701e-15
	8.629518571342634e-08,-3.560561890119652e-15
	4.729275042289859e-06,2.389588357958478e-12
	-1.332756373758087e-06,-5.229318498108614e-15
	-3.482813854245198e-06,-2.380798477570250e-12
	-8.629518571342434e-08,3.560561890119923e-15
	-4.729275042289482e-06,-2.389588357958479e-12
	-8.629518571342434e-08,3.560561890119923e-15
11		1.288249551693134e+00,0.000000000000000e+00
	-8.629518571342434e-04,3.643498030741635e-11
	1.000000000000000e+00,0.000000000000000e+00
	0.000000000000000e+00,0.000000000000000e+00
	2.498918191459537e-06,8.886842576178065e-15
	2.498918199968843e-06,1.019194618978812e-14
	8.629518571342634e-08,-3.643498030741631e-15
	4.729275042289859e-06,2.445249021134585e-12
	-1.332756373758087e-06,-5.351124973518663e-15
	-3.482813854245198e-06,-2.436254398130325e-12
	-8.629518571342434e-08,3.643498030741635e-15
	-4.729275042289482e-06,-2.445249021134586e-12
	-8.629518571342434e-08,3.643498030741635e-15
12		1.318256738556407e+00,0.000000000000000e+00
	-8.629518571342434e-04,3.728366002246642e-11
	1.000000000000000e+00,0.000000000000000e+00
	0.000000000000000e+00,0.000000000000000e+00
	2.498918191459537e-06,9.093843731705257e-15
	2.498918199968843e-06,1.042934711371271e-14
	8.629518571342634e-08,-3.728366002246453e-15
	4.729275042289859e-06,2.502206187708394e-12
	-1.332756373758087e-06,-5.475768686220184e-15
	-3.482813854245198e-06,-2.493002053019928e-12
	-8.629518571342434e-08,3.728366002246643e-15
	-4.729275042289482e-06,-2.502206187708395e-12
	-8.629518571342434e-08,3.728366002246643e-15
13		1.348962882591653e+00,0.000000000000000e+00
	-8.629518571342434e-04,3.815210802756799e-11
	1.000000000000000e+00,0.000000000000000e+00
	0.000000000000000e+00,0.000000000000000e+00
	2.498918191459537e-06,9.305666563550251e-15
	2.498918199968843e-06,1.067227781552573e-14
	8.629518571342634e-08,-3.815210802756388e-15
	4.729275042289859e-06,2.560490057123541e-12
	-1.332756373758087e-06,-5.603315723959505e-15
	-3.482813854245198e-06,-2.551071530596825e-12
	-8.629518571342434e-08,3.815210802756800e-15
	-4.729275042289482e-06,-2.560490057123541e-12
	-8.629518571342434e-08,3.815210802756800e-15
14		1.380384264602885e+00,0.000000000000000e+00
	-8.629518571342434e-04,3.904078478534863e-11
	1.000000000000000e+00,0.000000000000000e+00
	0.000000000000000e+00,0.000000000000000e+00
	2.498918191459537e-06,9.522423382982299e-15
	2.498918199968843e-06,1.092086710030083e-14
	8.629518571342634e-08,-3.904078478534737e-15
	4.729275042289859e-06,2.620131532259068e-12
	-1.332756373758087e-06,-5.733833713864322e-15
	-3.482813854245198e-06,-2.610493620066669e-12
	-8.629518571342434e-08,3.904078478534863e-15
	-4.729275042289482e-06,-2.620131532259068e-12
	-8.629518571342434e-08,3.904078478534863e-15
15		1.412537544622754e+00,0.000000000000000e+00
	-8.629518571342434e-04,3.995016148398834e-11
	1.000000000000000e+00,0.000000000000000e+00
	0.000000000000000e+00,0.000000000000000e+00
	2.498918191459537e-06,9.744229117336178e-15
	2.498918199968843e-06,1.117524677336728e-14
	8.629518571342634e-08,-3.995016148398566e-15
	4.729275042289859e-06,2.681162235814539e-12
	-1.332756373758087e-06,-5.867391858300492e-15
	-3.482813854245198e-06,-2.671299827807840e-12
	-8.629518571342434e-08,3.995016148398835e-15
	-4.729275042289482e-06,-2.681162235814539e-12
	-8.629518571342434e-08,3.995016148398835e-15
16		1.445439770745927e+00,0.000000000000000e+00
	-8.629518571342434e-04,4.088072028704975e-11
	1.000000000000000e+00,0.000000000000000e+00
	0.000000000000000e+00,0.000000000000000e+00
	2.498918191459537e-06,9.971201370948189e-15
	2.498918199968843e-06,1.143555171019485e-14
	8.629518571342634e-08,-4.088072028704772e-15
	4.729275042289859e-06,2.743614527076815e-12
	-1.332756373758087e-06,-6.004060971564044e-15
	-3.482813854245198e-06,-2.733522394076547e-12
	-8.629518571342434e-08,4.088072028704976e-15
	-4.729275042289482e-06,-2.743614527076816e-12
	-8.629518571342434e-08,4.088072028704976e-15
17		1.479108388168207e+00,0.000000000000000e+00
	-8.629518571342434e-04,4.183295458912767e-11
	1.000000000000000e+00,0.000000000000000e+00
	0.000000000000000e+00,0.000000000000000e+00
	2.498918191459537e-06,1.020346048751153e-14
	2.498918199968843e-06,1.170191992790658e-14
	8.629518571342634e-08,-4.183295458912707e-15
	4.729275042289859e-06,2.807521519077381e-12
	-1.332756373758087e-06,-6.143913517427863e-15
	-3.482813854245198e-06,-2.797194310101040e-12
	-8.629518571342434e-08,4.183295458912767e-15
	-4.729275042289482e-06,-2.807521519077381e-12
	-8.629518571342434e-08,4.183295458912767e-15
18		1.513561248436208e+00,0.000000000000000e+00
	-8.629518571342434e-04,4.280736927745337e-11
	1.000000000000000e+00,0.000000000000000e+00
	0.000000000000000e+00,0.000000000000000e+00
	2.498918191459537e-06,1.044112961388411e-14
	2.498918199968843e-06,1.197449265845731e-14
	8.629518571342634e-08,-4.280736927744981e-15
	4.729275042289859e-06,2.872917096149301e-12
	-1.332756373758087e-06,-6.287023647562930e-15
	-3.482813854245198e-06,-2.862349335573993e-12
	-8.629518571342434e-08,4.280736927745337e-15
	-4.729275042289482e-06,-2.872917096149302e-12
	-8.629518571342434e-08,4.280736927745337e-15
19		1.548816618912481e+00,0.000000000000000e+00
	-8.629518571342434e-04,4.380448099959247e-11
	1.000000000000000e+00,0.000000000000000e+00
	0.000000000000000e+00,0.000000000000000e+00
	2.498918191459537e-06,1.068433476538267e-14
	2.498918199968843e-06,1.225341442351670e-14
	8.629518571342634e-08,-4.380448099959150e-15
	4.729275042289859e-06,2.939835931893154e-12
	-1.332756373758087e-06,-6.433467240854533e-15
	-3.482813854245198e-06,-2.929022016552340e-12
	-8.629518571342434e-08,4.380448099959247e-15
	-4.729275042289482e-06,-2.939835931893154e-12
	-8.629518571342434e-08,4.380448099959247e-15
20		1.584893192461113e+00,0.000000000000000e+00
	-8.629518571342434e-04,4.482481843737843e-11
	1.000000000000000e+00,0.000000000000000e+00
	0.000000000000000e+00,0.000000000000000e+00
	2.498918191459537e-06,1.093320489259772e-14
	2.498918199968843e-06,1.253883311109656e-14
	8.629518571342634e-08,-4.482481843737375e-15
	4.729275042289859e-06,3.008313507561425e-12
	-1.332756373758087e-06,-6.583321943634243e-15
	-3.482813854245198e-06,-2.997247703774053e-12
	-8.629518571342434e-08,4.482481843737843e-15
	-4.729275042289482e-06,-3.008313507561425e-12
	-8.629518571342434e-08,4.482481843737843e-15
21		1.621810097358929e+00,0.000000000000000e+00
	-8.629518571342434e-04,4.586892258722647e-11
	1.000000000000000e+00,0.000000000000000e+00
	0.000000000000000e+00,0.000000000000000e+00
	2.498918191459537e-06,1.118787194976491e-14
	2.498918199968843e-06,1.283090005396300e-14
	8.629518571342634e-08,-4.586892258722509e-15
	4.729275042289859e-06,3.078386130871141e-12
	-1.332756373758087e-06,-6.736667210849036e-15
	-3.482813854245198e-06,-3.067062571401569e-12
	-8.629518571342434e-08,4.586892258722647e-15
	-4.729275042289482e-06,-3.078386130871141e-12
	-8.629518571342434e-08,4.586892258722647e-15
22		1.659586907437560e+00,0.000000000000000e+00
	-8.629518571342434e-04,4.693734704697726e-11
	1.000000000000000e+00,0.000000000000000e+00
	0.000000000000000e+00,0.000000000000000e+00
	2.498918191459537e-06,1.144847096472884e-14
	2.498918199968843e-06,1.312977010987508e-14
	8.629518571342634e-08,-4.693734704697600e-15
	4.729275042289859e-06,3.150090955254703e-12
	-1.332756373758087e-06,-6.893584348189349e-15
	-3.482813854245198e-06,-3.138503636201816e-12
	-8.629518571342434e-08,4.693734704697726e-15
	-4.729275042289482e-06,-3.150090955254703e-12
	-8.629518571342434e-08,4.693734704697726e-15
23		1.698243652461743e+00,0.000000000000000e+00
	-8.629518571342434e-04,4.803065830942158e-11
	1.000000000000000e+00,0.000000000000000e+00
	0.000000000000000e+00,0.000000000000000e+00
	2.498918191459537e-06,1.171514011053671e-14
	2.498918199968843e-06,1.343560174369248e-14
	8.629518571342634e-08,-4.803065830941712e-15
	4.729275042289859e-06,3.223465999559124e-12
	-1.332756373758087e-06,-7.054156555198455e-15
	-3.482813854245198e-06,-3.211608777172984e-12
	-8.629518571342434e-08,4.803065830942158e-15
	-4.729275042289482e-06,-3.223465999559124e-12
	-8.629518571342434e-08,4.803065830942158e-15
24		1.737800828749374e+00,0.000000000000000e+00
	-8.629518571342434e-04,4.914943606266247e-11
	1.000000000000000e+00,0.000000000000000e+00
	0.000000000000000e+00,0.000000000000000e+00
	2.498918191459537e-06,1.198802077869939e-14
	2.498918199968843e-06,1.374855711139559e-14
	8.629518571342634e-08,-4.914943606265911e-15
	4.729275042289859e-06,3.298550168204128e-12
	-1.332756373758087e-06,-7.218468969385920e-15
	-3.482813854245198e-06,-3.286416755628476e-12
	-8.629518571342434e-08,4.914943606266247e-15
	-4.729275042289482e-06,-3.298550168204128e-12
	-8.629518571342434e-08,4.914943606266247e-15
25		1.778279410038922e+00,0.000000000000000e+00
	-8.629518571342434e-04,5.029427349747348e-11
	1.000000000000000e+00,0.000000000000000e+00
	0.000000000000000e+00,0.000000000000000e+00
	2.498918191459537e-06,1.226725765415916e-14
	2.498918199968843e-06,1.406880214606284e-14
	8.629518571342634e-08,-5.029427349747188e-15
	4.729275042289859e-06,3.375383271809787e-12
	-1.332756373758087e-06,-7.386608711368688e-15
	-3.482813854245198e-06,-3.362967235748671e-12
	-8.629518571342434e-08,5.029427349747348e-15
	-4.729275042289482e-06,-3.375383271809787e-12
	-8.629518571342434e-08,5.029427349747348e-15
26		1.819700858609982e+00,0.000000000000000e+00
	-8.629518571342434e-04,5.146577762181626e-11
	1.000000000000000e+00,0.000000000000000e+00
	0.000000000000000e+00,0.000000000000000e+00
	2.498918191459537e-06,1.255299879200351e-14
	2.498918199968843e-06,1.439650664585053e-14
	8.629518571342634e-08,-5.146577762181314e-15
	4.729275042289859e-06,3.454006048304638e-12
	-1.332756373758087e-06,-7.558664931063550e-15
	-3.482813854245198e-06,-3.441300805611393e-12
	-8.629518571342434e-08,5.146577762181627e-15
	-4.729275042289482e-06,-3.454006048304639e-12
	-8.629518571342434e-08,5.146577762181627e-15
27		1.862087136662866e+00,0.000000000000000e+00
	-8.629518571342434e-04,5.266456958268423e-11
	1.000000000000000e+00,0.000000000000000e+00
	0.000000000000000e+00,0.000000000000000e+00
	2.498918191459537e-06,1.284539569596596e-14
	2.498918199968843e-06,1.473184436402216e-14
	8.629518571342634e-08,-5.266456958268564e-15
	4.729275042289859e-06,3.534460184525476e-12
	-1.332756373758087e-06,-7.734728854955619e-15
	-3.482813854245198e-06,-3.521458998712252e-12
	-8.629518571342434e-08,5.266456958268423e-15
	-4.729275042289482e-06,-3.534460184525477e-12
	-8.629518571342434e-08,5.266456958268423e-15
28		1.905460717963246e+00,0.000000000000000e+00
	-8.629518571342434e-04,5.389128499544293e-11
	1.000000000000000e+00,0.000000000000000e+00
	0.000000000000000e+00,0.000000000000000e+00
	2.498918191459537e-06,1.314460339875533e-14
	2.498918199968843e-06,1.507499310107459e-14
	8.629518571342634e-08,-5.389128499544233e-15
	4.729275042289859e-06,3.616788338320261e-12
	-1.332756373758087e-06,-7.914893834467826e-15
	-3.482813854245198e-06,-3.603484315986249e-12
	-8.629518571342434e-08,5.389128499544294e-15
	-4.729275042289482e-06,-3.616788338320261e-12
	-8.629518571342434e-08,5.389128499544294e-15
29		1.949844599758044e+00,0.000000000000000e+00
	-8.629518571342434e-04,5.514657428084171e-11
	1.000000000000000e+00,0.000000000000000e+00
	0.000000000000000e+00,0.000000000000000e+00
	2.498918191459537e-06,1.345078054425611e-14
	2.498918199968842e-06,1.542613479901035e-14
	8.629518571342634e-08,-5.514657428084629e-15
	4.729275042289859e-06,3.701034161165877e-12
	-1.332756373758087e-06,-8.099255395457076e-15
	-3.482813854245198e-06,-3.687420248342336e-12
	-8.629518571342434e-08,5.514657428084172e-15
	-4.729275042289482e-06,-3.701034161165877e-12
	-8.629518571342434e-08,5.514657428084172e-15
30		1.995262314968878e+00,0.000000000000000e+00
	-8.629518571342434e-04,5.643110300987538e-11
	1.000000000000000e+00,0.000000000000000e+00
	0.000000000000000e+00,0.000000000000000e+00
	2.498918191459537e-06,1.376408947164359e-14
	2.498918199968842e-06,1.578545563780557e-14
	8.629518571342634e-08,-5.643110300987742e-15
	4.729275042289859e-06,3.787242321312721e-12
	-1.332756373758087e-06,-8.287911288863312e-15
	-3.482813854245198e-06,-3.773311299722870e-12
	-8.629518571342434e-08,5.643110300987538e-15
	-4.729275042289482e-06,-3.787242321312721e-12
	-8.629518571342434e-08,5.643110300987538e-15
31		2.041737944669527e+00,0.000000000000000e+00
	-8.629518571342434e-04,5.774555225667885e-11
	1.000000000000000e+00,0.000000000000000e+00
	0.000000000000000e+00,0.000000000000000e+00
	2.498918191459537e-06,1.408469630145819e-14
	2.498918199968842e-06,1.615314613412516e-14
	8.629518571342634e-08,-5.774555225667562e-15
	4.729275042289859e-06,3.875458527468402e-12
	-1.332756373758087e-06,-8.480961542538382e-15
	-3.482813854245198e-06,-3.861203010700197e-12
	-8.629518571342434e-08,5.774555225667886e-15
	-4.729275042289482e-06,-3.875458527468402e-12
	-8.629518571342434e-08,5.774555225667886e-15
32		2.089296130854037e+00,0.000000000000000e+00
	-8.629518571342434e-04,5.909061895964156e-11
	1.000000000000000e+00,0.000000000000000e+00
	0.000000000000000e+00,0.000000000000000e+00
	2.498918191459537e-06,1.441277102368482e-14
