LTspice 24.0.9 for Windows
Circuit: * GA CMOS Amp | W=3.0266360500359062e-06 L=9.399948815188977e-07 Vbias=1.4656768460844223
Start Time: Sat Sep  6 22:16:42 2025
solver = Normal
Maximum thread count: 2
tnom = 27
temp = 27
method = modified trap
AsciiRawFile = 1
Direct Newton iteration for .op point succeeded.
Semiconductor Device Operating Points:
                        --- BSIM4 MOSFETS ---
Name:      m1
Model:      n
Id:      1.20e-04
Vgs:     1.47e+00
Vds:     6.04e-01
Vbs:     0.00e+00
Vth:     2.37e-01
Vdsat:   8.48e-01
Gm:      2.70e-05
Gds:     9.06e-05
Gmb      6.27e-05
Cbd:     1.29e-15
Cbs:     2.42e-15


.measure op idd find i(vdd)
  Error: FIND can not be evaluated over an interval.

gain_db: MAX(db(v(out)/v(g)))=(30.2758dB,123.286°) FROM 1 TO 1e+09
gain_lin: MAX(mag(v(out)/v(g)))=(1.19179dB,0°) FROM 1 TO 1e+09
fc: mag(v(out)/v(g))=1 AT 8.44479e+08

Total elapsed time: 2.377 seconds.

