Title: * GA CMOS Amp | W=3.744543291467239e-05 L=4.792780384059675e-07 Vbias=0.5493851032209969
Date: Sat Sep  6 22:38:36 2025
Plotname: AC Analysis
Flags: complex forward log
No. Variables: 13
No. Points:          901
Offset:    0.0000000000000000e+00
Command: Linear Technology Corporation LTspice
Variables:
	0	frequency	frequency
	1	V(out)	voltage
	2	V(g)	voltage
	3	V(vdd)	voltage
	4	V(m1#dbody)	voltage
	5	V(m1#sbody)	voltage
	6	Id(M1)	device_current
	7	Ig(M1)	device_current
	8	Ib(M1)	device_current
	9	Is(M1)	device_current
	10	I(Rload)	device_current
	11	I(Vg)	device_current
	12	I(Vdd)	device_current
Values:
0		1.000000000000000e+00,0.000000000000000e+00
	-7.247470363567256e-02,4.415330128718915e-10
	1.000000000000000e+00,0.000000000000000e+00
	0.000000000000000e+00,0.000000000000000e+00
	1.632182769366749e-09,-7.137684536567452e-14
	1.632784830640539e-09,-8.116319320719176e-15
	7.247470363567262e-06,-4.415330128718942e-14
	7.504757224273642e-07,4.356274338803633e-12
	-8.707784395821003e-10,8.546071128340195e-15
	-7.997075307555044e-06,-4.320667108644784e-12
	-7.247470363567256e-06,4.415330128718915e-14
	-7.504757224274794e-07,-4.356274338803633e-12
	-7.247470363567256e-06,4.415330128718915e-14
1		1.023292992280754e+00,0.000000000000000e+00
	-7.247470363567256e-02,4.518176379324146e-10
	1.000000000000000e+00,0.000000000000000e+00
	0.000000000000000e+00,0.000000000000000e+00
	1.632182769366675e-09,-7.303942567380176e-14
	1.632784830640484e-09,-8.305372684004827e-15
	7.247470363567262e-06,-4.518176379324138e-14
	7.504757224273642e-07,4.457745003350232e-12
	-8.707784395820695e-10,8.745134697163401e-15
	-7.997075307555044e-06,-4.421308374254154e-12
	-7.247470363567256e-06,4.518176379324146e-14
	-7.504757224274794e-07,-4.457745003350235e-12
	-7.247470363567256e-06,4.518176379324146e-14
2		1.047128548050899e+00,0.000000000000000e+00
	-7.247470363567256e-02,4.623418226850829e-10
	1.000000000000000e+00,0.000000000000000e+00
	0.000000000000000e+00,0.000000000000000e+00
	1.632182769366598e-09,-7.474073245221229e-14
	1.632784830640426e-09,-8.498829665822094e-15
	7.247470363567262e-06,-4.623418226850782e-14
	7.504757224273641e-07,4.561579223302839e-12
	-8.707784395820374e-10,8.948835052158559e-15
	-7.997075307555044e-06,-4.524293876086490e-12
	-7.247470363567256e-06,4.623418226850830e-14
	-7.504757224274794e-07,-4.561579223302840e-12
	-7.247470363567256e-06,4.623418226850830e-14
3		1.071519305237606e+00,0.000000000000000e+00
	-7.247470363567256e-02,4.731111471919562e-10
	1.000000000000000e+00,0.000000000000000e+00
	0.000000000000000e+00,0.000000000000000e+00
	1.632182769366518e-09,-7.648166775627959e-14
	1.632784830640365e-09,-8.696792839623545e-15
	7.247470363567262e-06,-4.731111471919590e-14
	7.504757224273641e-07,4.667832052939279e-12
	-8.707784395820037e-10,9.157280197950238e-15
	-7.997075307555044e-06,-4.629678218418034e-12
	-7.247470363567256e-06,4.731111471919562e-14
	-7.504757224274794e-07,-4.667832052939281e-12
	-7.247470363567256e-06,4.731111471919562e-14
4		1.096478196143185e+00,0.000000000000000e+00
	-7.247470363567256e-02,4.841313214914371e-10
	1.000000000000000e+00,0.000000000000000e+00
	0.000000000000000e+00,0.000000000000000e+00
	1.632182769366433e-09,-7.826315465294583e-14
	1.632784830640301e-09,-8.899367168104235e-15
	7.247470363567262e-06,-4.841313214914349e-14
	7.504757224273641e-07,4.776559828916250e-12
	-8.707784395819682e-10,9.370580654913805e-15
	-7.997075307555044e-06,-4.737517277422021e-12
	-7.247470363567256e-06,4.841313214914371e-14
	-7.504757224274794e-07,-4.776559828916251e-12
	-7.247470363567256e-06,4.841313214914371e-14
5		1.122018454301963e+00,0.000000000000000e+00
	-7.247470363567256e-02,4.954081886258086e-10
	1.000000000000000e+00,0.000000000000000e+00
	0.000000000000000e+00,0.000000000000000e+00
	1.632182769366344e-09,-8.008613771014432e-14
	1.632784830640234e-09,-9.106660058854448e-15
	7.247470363567262e-06,-4.954081886258065e-14
	7.504757224273640e-07,4.887820200139759e-12
	-8.707784395819310e-10,9.588849517774878e-15
	-7.997075307555044e-06,-4.847868230794953e-12
	-7.247470363567256e-06,4.954081886258087e-14
	-7.504757224274794e-07,-4.887820200139759e-12
	-7.247470363567256e-06,4.954081886258087e-14
6		1.148153621496882e+00,0.000000000000000e+00
	-7.247470363567256e-02,5.069477277392919e-10
	1.000000000000000e+00,0.000000000000000e+00
	0.000000000000000e+00,0.000000000000000e+00
	1.632182769366251e-09,-8.195158349762216e-14
	1.632784830640165e-09,-9.318781421308821e-15
	7.247470363567262e-06,-5.069477277392893e-14
	7.504757224273640e-07,5.001672158331328e-12
	-8.707784395818924e-10,9.812202515573735e-15
	-7.997075307555044e-06,-4.960789588072972e-12
	-7.247470363567256e-06,5.069477277392920e-14
	-7.504757224274794e-07,-5.001672158331327e-12
	-7.247470363567256e-06,5.069477277392920e-14
7		1.174897554939529e+00,0.000000000000000e+00
	-7.247470363567256e-02,5.187560572482690e-10
	1.000000000000000e+00,0.000000000000000e+00
	0.000000000000000e+00,0.000000000000000e+00
	1.632182769366154e-09,-8.386048109942784e-14
	1.632784830640092e-09,-9.535843725021403e-15
	7.247470363567262e-06,-5.187560572482681e-14
	7.504757224273640e-07,5.118176069306201e-12
	-8.707784395818519e-10,1.004075807302619e-14
	-7.997075307555044e-06,-5.076341221654401e-12
	-7.247470363567256e-06,5.187560572482691e-14
	-7.504757224274794e-07,-5.118176069306201e-12
	-7.247470363567256e-06,5.187560572482691e-14
8		1.202264434617413e+00,0.000000000000000e+00
	-7.247470363567256e-02,5.308394380853475e-10
	1.000000000000000e+00,0.000000000000000e+00
	0.000000000000000e+00,0.000000000000000e+00
	1.632182769366053e-09,-8.581384263833714e-14
	1.632784830640015e-09,-9.757962059298804e-15
	7.247470363567262e-06,-5.308394380853481e-14
	7.504757224273639e-07,5.237393704980092e-12
	-8.707784395818093e-10,1.027463737331411e-14
	-7.997075307555044e-06,-5.194584398544871e-12
	-7.247470363567256e-06,5.308394380853475e-14
	-7.504757224274794e-07,-5.237393704980092e-12
	-7.247470363567256e-06,5.308394380853475e-14
9		1.230268770812381e+00,0.000000000000000e+00
	-7.247470363567256e-02,5.432042770189892e-10
	1.000000000000000e+00,0.000000000000000e+00
	0.000000000000000e+00,0.000000000000000e+00
	1.632182769365946e-09,-8.781270381249378e-14
	1.632784830639935e-09,-9.985254194221931e-15
	7.247470363567262e-06,-5.432042770189940e-14
	7.504757224273639e-07,5.359388276121463e-12
	-8.707784395817648e-10,1.051396442233826e-14
	-7.997075307555044e-06,-5.315581812841902e-12
	-7.247470363567256e-06,5.432042770189892e-14
	-7.504757224274794e-07,-5.359388276121464e-12
	-7.247470363567256e-06,5.432042770189892e-14
10		1.258925411794167e+00,0.000000000000000e+00
	-7.247470363567256e-02,5.558571300504653e-10
	1.000000000000000e+00,0.000000000000000e+00
	0.000000000000000e+00,0.000000000000000e+00
	1.632182769365835e-09,-8.985812444455035e-14
	1.632784830639851e-09,-1.021784064308932e-14
	7.247470363567262e-06,-5.558571300504599e-14
	7.504757224273638e-07,5.484224465866723e-12
	-8.707784395817181e-10,1.075886611446791e-14
	-7.997075307555044e-06,-5.439397618976146e-12
	-7.247470363567256e-06,5.558571300504653e-14
	-7.504757224274794e-07,-5.484224465866726e-12
	-7.247470363567256e-06,5.558571300504653e-14
11		1.288249551693134e+00,0.000000000000000e+00
	-7.247470363567256e-02,5.688047058899329e-10
	1.000000000000000e+00,0.000000000000000e+00
	0.000000000000000e+00,0.000000000000000e+00
	1.632182769365718e-09,-9.195118904360039e-14
	1.632784830639763e-09,-1.045584472631483e-14
	7.247470363567262e-06,-5.688047058899307e-14
	7.504757224273638e-07,5.611968464016082e-12
	-8.707784395816694e-10,1.100947229982191e-14
	-7.997075307555044e-06,-5.566097465726911e-12
	-7.247470363567256e-06,5.688047058899330e-14
	-7.504757224274794e-07,-5.611968464016082e-12
	-7.247470363567256e-06,5.688047058899330e-14
12		1.318256738556407e+00,0.000000000000000e+00
	-7.247470363567256e-02,5.820538695134837e-10
	1.000000000000000e+00,0.000000000000000e+00
	0.000000000000000e+00,0.000000000000000e+00
	1.632182769365596e-09,-9.409300738019904e-14
	1.632784830639671e-09,-1.069939263681359e-14
	7.247470363567262e-06,-5.820538695134840e-14
	7.504757224273638e-07,5.742688002128244e-12
	-8.707784395816183e-10,1.126591585311680e-14
	-7.997075307555044e-06,-5.695748531030012e-12
	-7.247470363567256e-06,5.820538695134838e-14
	-7.504757224274794e-07,-5.742688002128245e-12
	-7.247470363567256e-06,5.820538695134838e-14
13		1.348962882591653e+00,0.000000000000000e+00
	-7.247470363567256e-02,5.956116458030444e-10
	1.000000000000000e+00,0.000000000000000e+00
	0.000000000000000e+00,0.000000000000000e+00
	1.632182769365468e-09,-9.628471507477896e-14
	1.632784830639574e-09,-1.094861350691162e-14
	7.247470363567262e-06,-5.956116458030438e-14
	7.504757224273637e-07,5.876452389432596e-12
	-8.707784395815647e-10,1.152833274411907e-14
	-7.997075307555044e-06,-5.828419557596411e-12
	-7.247470363567256e-06,5.956116458030444e-14
	-7.504757224274794e-07,-5.876452389432596e-12
	-7.247470363567256e-06,5.956116458030444e-14
14		1.380384264602885e+00,0.000000000000000e+00
	-7.247470363567256e-02,6.094852232710621e-10
	1.000000000000000e+00,0.000000000000000e+00
	0.000000000000000e+00,0.000000000000000e+00
	1.632182769365334e-09,-9.852747419977041e-14
	1.632784830639474e-09,-1.120363947681309e-14
	7.247470363567262e-06,-6.094852232710561e-14
	7.504757224273636e-07,6.013332549577870e-12
	-8.707784395815088e-10,1.179686210973781e-14
	-7.997075307555044e-06,-5.964180889360502e-12
	-7.247470363567256e-06,6.094852232710621e-14
	-7.504757224274794e-07,-6.013332549577871e-12
	-7.247470363567256e-06,6.094852232710621e-14
15		1.412537544622754e+00,0.000000000000000e+00
	-7.247470363567256e-02,6.236819578719485e-10
	1.000000000000000e+00,0.000000000000000e+00
	0.000000000000000e+00,0.000000000000000e+00
	1.632182769365194e-09,-1.008224738957478e-13
	1.632784830639368e-09,-1.146460576466283e-14
	7.247470363567262e-06,-6.236819578719503e-14
	7.504757224273636e-07,6.153401058236795e-12
	-8.707784395814500e-10,1.207164632779704e-14
	-7.997075307555044e-06,-6.103104508777397e-12
	-7.247470363567256e-06,6.236819578719485e-14
	-7.504757224274794e-07,-6.153401058236795e-12
	-7.247470363567256e-06,6.236819578719485e-14
16		1.445439770745927e+00,0.000000000000000e+00
	-7.247470363567256e-02,6.382093769023053e-10
	1.000000000000000e+00,0.000000000000000e+00
	0.000000000000000e+00,0.000000000000000e+00
	1.632182769365047e-09,-1.031709310019281e-13
	1.632784830639257e-09,-1.173165073824105e-14
	7.247470363567262e-06,-6.382093769023070e-14
	7.504757224273635e-07,6.296732181586687e-12
	-8.707784395813888e-10,1.235283109252643e-14
	-7.997075307555044e-06,-6.245264074988983e-12
	-7.247470363567256e-06,6.382093769023054e-14
	-7.504757224274794e-07,-6.296732181586689e-12
	-7.247470363567256e-06,6.382093769023054e-14
17		1.479108388168207e+00,0.000000000000000e+00
	-7.247470363567256e-02,6.530751829919955e-10
	1.000000000000000e+00,0.000000000000000e+00
	0.000000000000000e+00,0.000000000000000e+00
	1.632182769364893e-09,-1.055740907013542e-13
	1.632784830639141e-09,-1.200491598832741e-14
	7.247470363567262e-06,-6.530751829920013e-14
	7.504757224273635e-07,6.443401915686362e-12
	-8.707784395813242e-10,1.264056549181011e-14
	-7.997075307555044e-06,-6.390734962878972e-12
	-7.247470363567256e-06,6.530751829919956e-14
	-7.504757224274794e-07,-6.443401915686360e-12
	-7.247470363567256e-06,6.530751829919956e-14
18		1.513561248436208e+00,0.000000000000000e+00
	-7.247470363567256e-02,6.682872581881803e-10
	1.000000000000000e+00,0.000000000000000e+00
	0.000000000000000e+00,0.000000000000000e+00
	1.632182769364732e-09,-1.080332271811085e-13
	1.632784830639020e-09,-1.228454640377467e-14
	7.247470363567262e-06,-6.682872581881803e-14
	7.504757224273634e-07,6.593488026770240e-12
	-8.707784395812570e-10,1.293500208623524e-14
	-7.997075307555044e-06,-6.539594303037657e-12
	-7.247470363567256e-06,6.682872581881803e-14
	-7.504757224274794e-07,-6.593488026770241e-12
	-7.247470363567256e-06,6.682872581881803e-14
19		1.548816618912481e+00,0.000000000000000e+00
	-7.247470363567256e-02,6.838536681344839e-10
	1.000000000000000e+00,0.000000000000000e+00
	0.000000000000000e+00,0.000000000000000e+00
	1.632182769364563e-09,-1.105496443079030e-13
	1.632784830638893e-09,-1.257069024833029e-14
	7.247470363567262e-06,-6.838536681344763e-14
	7.504757224273632e-07,6.747070092481043e-12
	-8.707784395811864e-10,1.323629698998142e-14
	-7.997075307555044e-06,-6.691921022657578e-12
	-7.247470363567256e-06,6.838536681344840e-14
	-7.504757224274794e-07,-6.747070092481044e-12
	-7.247470363567256e-06,6.838536681344840e-14
20		1.584893192461113e+00,0.000000000000000e+00
	-7.247470363567256e-02,6.997826663475058e-10
	1.000000000000000e+00,0.000000000000000e+00
	0.000000000000000e+00,0.000000000000000e+00
	1.632182769364387e-09,-1.131246763194071e-13
	1.632784830638760e-09,-1.286349923924844e-14
	7.247470363567262e-06,-6.997826663475062e-14
	7.504757224273632e-07,6.904229544062913e-12
	-8.707784395811126e-10,1.354460995359485e-14
	-7.997075307555044e-06,-6.847795887381757e-12
	-7.247470363567256e-06,6.997826663475058e-14
	-7.504757224274794e-07,-6.904229544062912e-12
	-7.247470363567256e-06,6.997826663475058e-14
21		1.621810097358929e+00,0.000000000000000e+00
	-7.247470363567256e-02,7.160826985929438e-10
	1.000000000000000e+00,0.000000000000000e+00
	0.000000000000000e+00,0.000000000000000e+00
	1.632182769364202e-09,-1.157596885316778e-13
	1.632784830638621e-09,-1.316312862773171e-14
	7.247470363567262e-06,-7.160826985929398e-14
	7.504757224273631e-07,7.065049709537323e-12
	-8.707784395810352e-10,1.386010444868974e-14
	-7.997075307555044e-06,-7.007301544126719e-12
	-7.247470363567256e-06,7.160826985929438e-14
	-7.504757224274794e-07,-7.065049709537325e-12
	-7.247470363567256e-06,7.160826985929438e-14
22		1.659586907437560e+00,0.000000000000000e+00
	-7.247470363567256e-02,7.327624073636507e-10
	1.000000000000000e+00,0.000000000000000e+00
	0.000000000000000e+00,0.000000000000000e+00
	1.632182769364008e-09,-1.184560780630687e-13
	1.632784830638475e-09,-1.346973728124802e-14
	7.247470363567262e-06,-7.327624073636527e-14
	7.504757224273630e-07,7.229615857884721e-12
	-8.707784395809542e-10,1.418294775462351e-14
	-7.997075307555044e-06,-7.170522564902979e-12
	-7.247470363567256e-06,7.327624073636508e-14
	-7.504757224274794e-07,-7.229615857884722e-12
	-7.247470363567256e-06,7.327624073636508e-14
23		1.698243652461743e+00,0.000000000000000e+00
	-7.247470363567256e-02,7.498306364619992e-10
	1.000000000000000e+00,0.000000000000000e+00
	0.000000000000000e+00,0.000000000000000e+00
	1.632182769363806e-09,-1.212152745750002e-13
	1.632784830638322e-09,-1.378348776776397e-14
	7.247470363567262e-06,-7.498306364619919e-14
	7.504757224273629e-07,7.398015244255246e-12
	-8.707784395808696e-10,1.451331104719032e-14
	-7.997075307555044e-06,-7.337545491656238e-12
	-7.247470363567256e-06,7.498306364619991e-14
	-7.504757224274794e-07,-7.398015244255248e-12
	-7.247470363567256e-06,7.498306364619991e-14
24		1.737800828749374e+00,0.000000000000000e+00
	-7.247470363567256e-02,7.672964356889813e-10
	1.000000000000000e+00,0.000000000000000e+00
	0.000000000000000e+00,0.000000000000000e+00
	1.632182769363593e-09,-1.240387410299851e-13
	1.632784830638162e-09,-1.410454644194033e-14
	7.247470363567262e-06,-7.672964356889815e-14
	7.504757224273629e-07,7.570337156232586e-12
	-8.707784395807806e-10,1.485136948938069e-14
	-7.997075307555044e-06,-7.508458882153068e-12
	-7.247470363567256e-06,7.672964356889814e-14
	-7.504757224274794e-07,-7.570337156232585e-12
	-7.247470363567256e-06,7.672964356889814e-14
25		1.778279410038922e+00,0.000000000000000e+00
	-7.247470363567256e-02,7.851690656425348e-10
	1.000000000000000e+00,0.000000000000000e+00
	0.000000000000000e+00,0.000000000000000e+00
	1.632182769363371e-09,-1.269279744673110e-13
	1.632784830637995e-09,-1.443308353333596e-14
	7.247470363567262e-06,-7.851690656425430e-14
	7.504757224273628e-07,7.746672961175420e-12
	-8.707784395806876e-10,1.519730232425544e-14
	-7.997075307555044e-06,-7.683353356935420e-12
	-7.247470363567256e-06,7.851690656425349e-14
	-7.504757224274794e-07,-7.746672961175416e-12
	-7.247470363567256e-06,7.851690656425349e-14
26		1.819700858609982e+00,0.000000000000000e+00
	-7.247470363567256e-02,8.034580026276332e-10
	1.000000000000000e+00,0.000000000000000e+00
	0.000000000000000e+00,0.000000000000000e+00
	1.632182769363138e-09,-1.298845067967897e-13
	1.632784830637819e-09,-1.476927323666534e-14
	7.247470363567262e-06,-8.034580026276531e-14
	7.504757224273627e-07,7.927116154661603e-12
	-8.707784395805903e-10,1.555129296998256e-14
	-7.997075307555044e-06,-7.862321647368821e-12
	-7.247470363567256e-06,8.034580026276332e-14
	-7.504757224274794e-07,-7.927116154661603e-12
	-7.247470363567256e-06,8.034580026276332e-14
27		1.862087136662866e+00,0.000000000000000e+00
	-7.247470363567256e-02,8.221729436807488e-10
	1.000000000000000e+00,0.000000000000000e+00
	0.000000000000000e+00,0.000000000000000e+00
	1.632182769362894e-09,-1.329099056109970e-13
	1.632784830637635e-09,-1.511329380415947e-14
	7.247470363567262e-06,-8.221729436807545e-14
	7.504757224273626e-07,8.111762410060774e-12
	-8.707784395804882e-10,1.591352911708818e-14
	-7.997075307555044e-06,-8.045458644809789e-12
	-7.247470363567256e-06,8.221729436807488e-14
	-7.504757224274794e-07,-8.111762410060776e-12
	-7.247470363567256e-06,8.221729436807488e-14
28		1.905460717963246e+00,0.000000000000000e+00
	-7.247470363567256e-02,8.413238117113495e-10
	1.000000000000000e+00,0.000000000000000e+00
	0.000000000000000e+00,0.000000000000000e+00
	1.632182769362639e-09,-1.360057750164297e-13
	1.632784830637443e-09,-1.546532764007644e-14
	7.247470363567262e-06,-8.413238117113464e-14
	7.504757224273625e-07,8.300709629261634e-12
	-8.707784395803816e-10,1.628420282797203e-14
	-7.997075307555044e-06,-8.232861450918470e-12
	-7.247470363567256e-06,8.413238117113495e-14
	-7.504757224274794e-07,-8.300709629261631e-12
	-7.247470363567256e-06,8.413238117113495e-14
29		1.949844599758044e+00,0.000000000000000e+00
	-7.247470363567256e-02,8.609207607631565e-10
	1.000000000000000e+00,0.000000000000000e+00
	0.000000000000000e+00,0.000000000000000e+00
	1.632182769362372e-09,-1.391737564840254e-13
	1.632784830637242e-09,-1.582556139741613e-14
	7.247470363567262e-06,-8.609207607631553e-14
	7.504757224273624e-07,8.494057994580807e-12
	-8.707784395802698e-10,1.666351063874225e-14
	-7.997075307555044e-06,-8.424629429143232e-12
	-7.247470363567256e-06,8.609207607631565e-14
	-7.504757224274794e-07,-8.494057994580808e-12
	-7.247470363567256e-06,8.609207607631565e-14
30		1.995262314968878e+00,0.000000000000000e+00
	-7.247470363567256e-02,8.809741813979537e-10
	1.000000000000000e+00,0.000000000000000e+00
	0.000000000000000e+00,0.000000000000000e+00
	1.632182769362092e-09,-1.424155297194913e-13
	1.632784830637031e-09,-1.619418607688471e-14
	7.247470363567262e-06,-8.809741813979630e-14
	7.504757224273623e-07,8.691910021880855e-12
	-8.707784395801526e-10,1.705165366342072e-14
	-7.997075307555044e-06,-8.620864257404479e-12
	-7.247470363567256e-06,8.809741813979537e-14
	-7.504757224274794e-07,-8.691910021880855e-12
	-7.247470363567256e-06,8.809741813979537e-14
31		2.041737944669527e+00,0.000000000000000e+00
	-7.247470363567256e-02,9.014947062047998e-10
	1.000000000000000e+00,0.000000000000000e+00
	0.000000000000000e+00,0.000000000000000e+00
	1.632182769361798e-09,-1.457328135539068e-13
	1.632784830636810e-09,-1.657139712816662e-14
	7.247470363567262e-06,-9.014947062048061e-14
	7.504757224273622e-07,8.894370614925533e-12
	-8.707784395800300e-10,1.744883770057683e-14
	-7.997075307555044e-06,-8.821669982005629e-12
	-7.247470363567256e-06,9.014947062047998e-14
	-7.504757224274794e-07,-8.894370614925533e-12
	-7.247470363567256e-06,9.014947062047998e-14
32		2.089296130854037e+00,0.000000000000000e+00
	-7.247470363567256e-02,9.224932154375692e-10
	1.000000000000000e+00,0.000000000000000e+00
	0.000000000000000e+00,0.000000000000000e+00
