LTspice 24.0.9 for Windows
Circuit: * GA CMOS Amp | W=1.6908339114018708e-06 L=6.731429020290012e-07 Vbias=0.8482053080017413
Start Time: Mon Sep  8 18:47:38 2025
solver = Normal
Maximum thread count: 2
tnom = 27
temp = 27
method = modified trap
AsciiRawFile = 1
Instance "m1": Length shorter than recommended for a level 3 MOSFET.
Instance "m1": Width narrower than recommended for a level 3 MOSFET.
Direct Newton iteration for .op point succeeded.
Semiconductor Device Operating Points:
                        --- MOSFET Transistors ---
Name:          m1
Model:        n_1u
Id:          3.24e-07
Vgs:         8.48e-01
Vds:         1.80e+00
Vbs:         0.00e+00
Vth:         8.82e-01
Vdsat:       4.38e-02
Gm:          5.86e-06
Gds:         4.00e-08
Gmb:         2.01e-06
Cbd:         0.00e+00
Cbs:         0.00e+00
Cgsov:       3.38e-16
Cgdov:       3.38e-16
Cgbov:       4.73e-17
Cgs:         8.31e-16
Cgd:         0.00e+00
Cgb:         6.73e-17



gain_db: MAX(db(v(out)/v(g)))=(31.3096dB,132.087°) FROM 1 TO 1e+09
gain_lin: MAX(mag(v(out)/v(g)))=(-24.1102dB,0°) FROM 1 TO 1e+09

Measurement "fc" FAIL'ed

Total elapsed time: 0.422 seconds.

