Title: * GA CMOS Amp | W=1e-06 L=6.731777658040559e-07 Vbias=0.7907941639500162
Date: Mon Sep  8 18:45:49 2025
Plotname: AC Analysis
Flags: complex forward log
No. Variables: 11
No. Points:          901
Offset:    0.0000000000000000e+00
Command: Linear Technology Corporation LTspice
Variables:
	0	frequency	frequency
	1	V(out)	voltage
	2	V(g)	voltage
	3	V(vdd)	voltage
	4	Id(M1)	device_current
	5	Ig(M1)	device_current
	6	Ib(M1)	device_current
	7	Is(M1)	device_current
	8	I(Rload)	device_current
	9	I(Vg)	device_current
	10	I(Vdd)	device_current
Values:
0		1.000000000000000e+00,0.000000000000000e+00
	-3.166911436557311e-03,1.260589930706965e-11
	1.000000000000000e+00,0.000000000000000e+00
	0.000000000000000e+00,0.000000000000000e+00
	3.166911436557311e-07,-1.260589930706965e-15
	1.584104026199308e-26,6.371134533597630e-15
	3.166911400089408e-15,-4.317420692720620e-16
	-3.166911468226425e-07,-4.678802533618603e-15
	-3.166911436557311e-07,1.260589930706966e-15
	-1.584104026199308e-26,-6.371134533597629e-15
	-3.166911436557311e-07,1.260589930706966e-15
1		1.023292992280754e+00,0.000000000000000e+00
	-3.166911436557311e-03,1.289952842232119e-11
	1.000000000000000e+00,0.000000000000000e+00
	0.000000000000000e+00,0.000000000000000e+00
	3.166911436557311e-07,-1.289952842232119e-15
	1.658760548915665e-26,6.519537321108366e-15
	3.166911400089408e-15,-4.417986339588932e-16
	-3.166911468226425e-07,-4.787785844917354e-15
	-3.166911436557311e-07,1.289952842232119e-15
	-1.658760548915665e-26,-6.519537321108364e-15
	-3.166911436557311e-07,1.289952842232119e-15
2		1.047128548050899e+00,0.000000000000000e+00
	-3.166911436557311e-03,1.319999703828768e-11
	1.000000000000000e+00,0.000000000000000e+00
	0.000000000000000e+00,0.000000000000000e+00
	3.166911436557311e-07,-1.319999703828769e-15
	1.736935525150173e-26,6.671396853603031e-15
	3.166911400089408e-15,-4.520894461293454e-16
	-3.166911468226425e-07,-4.899307703644917e-15
	-3.166911436557311e-07,1.319999703828769e-15
	-1.736935525150173e-26,-6.671396853603029e-15
	-3.166911436557311e-07,1.319999703828769e-15
3		1.071519305237606e+00,0.000000000000000e+00
	-3.166911436557311e-03,1.350746446740650e-11
	1.000000000000000e+00,0.000000000000000e+00
	0.000000000000000e+00,0.000000000000000e+00
	3.166911436557311e-07,-1.350746446740650e-15
	1.818794774508527e-26,6.826793649015853e-15
	3.166911400089408e-15,-4.626199621082466e-16
	-3.166911468226425e-07,-5.013427240166956e-15
	-3.166911436557311e-07,1.350746446740650e-15
	-1.818794774508527e-26,-6.826793649015851e-15
	-3.166911436557311e-07,1.350746446740650e-15
4		1.096478196143185e+00,0.000000000000000e+00
	-3.166911436557311e-03,1.382209373297835e-11
	1.000000000000000e+00,0.000000000000000e+00
	0.000000000000000e+00,0.000000000000000e+00
	3.166911436557311e-07,-1.382209373297835e-15
	1.904511931433676e-26,6.985810100784680e-15
	3.166911400089408e-15,-4.733957653145578e-16
	-3.166911468226425e-07,-5.130204962172287e-15
	-3.166911436557311e-07,1.382209373297836e-15
	-1.904511931433676e-26,-6.985810100784678e-15
	-3.166911436557311e-07,1.382209373297836e-15
5		1.122018454301963e+00,0.000000000000000e+00
	-3.166911436557311e-03,1.414405165560448e-11
	1.000000000000000e+00,0.000000000000000e+00
	0.000000000000000e+00,0.000000000000000e+00
	3.166911436557311e-07,-1.414405165560448e-15
	1.994268813507760e-26,7.148530521537073e-15
	3.166911400089408e-15,-4.844225692217708e-16
	-3.166911468226425e-07,-5.249702786754854e-15
	-3.166911436557311e-07,1.414405165560448e-15
	-1.994268813507760e-26,-7.148530521537071e-15
	-3.166911436557311e-07,1.414405165560448e-15
6		1.148153621496882e+00,0.000000000000000e+00
	-3.166911436557311e-03,1.447350894163706e-11
	1.000000000000000e+00,0.000000000000000e+00
	0.000000000000000e+00,0.000000000000000e+00
	3.166911436557311e-07,-1.447350894163706e-15
	2.088255807111571e-26,7.315041187793971e-15
	3.166911400089408e-15,-4.957062203872773e-16
	-3.166911468226425e-07,-5.371984073242988e-15
	-3.166911436557311e-07,1.447350894163706e-15
	-2.088255807111571e-26,-7.315041187793970e-15
	-3.166911436557311e-07,1.447350894163706e-15
7		1.174897554939529e+00,0.000000000000000e+00
	-3.166911436557311e-03,1.481064027369004e-11
	1.000000000000000e+00,0.000000000000000e+00
	0.000000000000000e+00,0.000000000000000e+00
	3.166911436557311e-07,-1.481064027369004e-15
	2.186672271259599e-26,7.485430385714653e-15
	3.166911400089408e-15,-5.072527015522781e-16
	-3.166911468226425e-07,-5.497113656793370e-15
	-3.166911436557311e-07,1.481064027369004e-15
	-2.186672271259599e-26,-7.485430385714651e-15
	-3.166911436557311e-07,1.481064027369004e-15
8		1.202264434617413e+00,0.000000000000000e+00
	-3.166911436557311e-03,1.515562440325813e-11
	1.000000000000000e+00,0.000000000000000e+00
	0.000000000000000e+00,0.000000000000000e+00
	3.166911436557311e-07,-1.515562440325813e-15
	2.289726960467226e-26,7.659788457907227e-15
	3.166911400089408e-15,-5.190681348139277e-16
	-3.166911468226425e-07,-5.625157882767486e-15
	-3.166911436557311e-07,1.515562440325813e-15
	-2.289726960467226e-26,-7.659788457907225e-15
	-3.166911436557311e-07,1.515562440325813e-15
9		1.230268770812381e+00,0.000000000000000e+00
	-3.166911436557311e-03,1.550864424549323e-11
	1.000000000000000e+00,0.000000000000000e+00
	0.000000000000000e+00,0.000000000000000e+00
	3.166911436557311e-07,-1.550864424549323e-15
	2.397638467547046e-26,7.838207851329469e-15
	3.166911400089408e-15,-5.311587848713328e-16
	-3.166911468226425e-07,-5.756184641908813e-15
	-3.166911436557311e-07,1.550864424549323e-15
	-2.397638467547046e-26,-7.838207851329468e-15
	-3.166911436557311e-07,1.550864424549323e-15
10		1.258925411794167e+00,0.000000000000000e+00
	-3.166911436557311e-03,1.586988697618847e-11
	1.000000000000000e+00,0.000000000000000e+00
	0.000000000000000e+00,0.000000000000000e+00
	3.166911436557311e-07,-1.586988697618847e-15
	2.510635687273522e-26,8.020783166305434e-15
	3.166911400089408e-15,-5.435310623471966e-16
	-3.166911468226425e-07,-5.890263406339391e-15
	-3.166911436557311e-07,1.586988697618847e-15
	-2.510635687273522e-26,-8.020783166305433e-15
	-3.166911436557311e-07,1.586988697618847e-15
11		1.288249551693134e+00,0.000000000000000e+00
	-3.166911436557311e-03,1.623954413102127e-11
	1.000000000000000e+00,0.000000000000000e+00
	0.000000000000000e+00,0.000000000000000e+00
	3.166911436557311e-07,-1.623954413102127e-15
	2.628958301899496e-26,8.207611206683790e-15
	3.166911400089408e-15,-5.561915271867995e-16
	-3.166911468226425e-07,-6.027465266394863e-15
	-3.166911436557311e-07,1.623954413102127e-15
	-2.628958301899496e-26,-8.207611206683788e-15
	-3.166911436557311e-07,1.623954413102127e-15
12		1.318256738556407e+00,0.000000000000000e+00
	-3.166911436557311e-03,1.661781170710811e-11
	1.000000000000000e+00,0.000000000000000e+00
	0.000000000000000e+00,0.000000000000000e+00
	3.166911436557311e-07,-1.661781170710811e-15
	2.752857289554377e-26,8.398791031164505e-15
	3.166911400089408e-15,-5.691468921361814e-16
	-3.166911468226425e-07,-6.167862968317512e-15
	-3.166911436557311e-07,1.661781170710811e-15
	-2.752857289554377e-26,-8.398791031164503e-15
	-3.166911436557311e-07,1.661781170710811e-15
13		1.348962882591653e+00,0.000000000000000e+00
	-3.166911436557311e-03,1.700489026692481e-11
	1.000000000000000e+00,0.000000000000000e+00
	0.000000000000000e+00,0.000000000000000e+00
	3.166911436557311e-07,-1.700489026692480e-15
	2.882595456602411e-26,8.594424005821088e-15
	3.166911400089408e-15,-5.824040263013261e-16
	-3.166911468226425e-07,-6.311530952827281e-15
	-3.166911436557311e-07,1.700489026692481e-15
	-2.882595456602411e-26,-8.594424005821086e-15
	-3.166911436557311e-07,1.700489026692481e-15
14		1.380384264602885e+00,0.000000000000000e+00
	-3.166911436557311e-03,1.740098504464736e-11
	1.000000000000000e+00,0.000000000000000e+00
	0.000000000000000e+00,0.000000000000000e+00
	3.166911436557311e-07,-1.740098504464736e-15
	3.018447995090202e-26,8.794613857846208e-15
	3.166911400089408e-15,-5.959699587902444e-16
	-3.166911468226425e-07,-6.458545394591228e-15
	-3.166911436557311e-07,1.740098504464736e-15
	-3.018447995090202e-26,-8.794613857846207e-15
	-3.166911436557311e-07,1.740098504464736e-15
15		1.412537544622754e+00,0.000000000000000e+00
	-3.166911436557311e-03,1.780630605496985e-11
	1.000000000000000e+00,0.000000000000000e+00
	0.000000000000000e+00,0.000000000000000e+00
	3.166911436557311e-07,-1.780630605496985e-15
	3.160703066465952e-26,8.999466730549231e-15
	3.166911400089408e-15,-6.098518824399049e-16
	-3.166911468226425e-07,-6.608984242612342e-15
	-3.166911436557311e-07,1.780630605496985e-15
	-3.160703066465952e-26,-8.999466730549229e-15
	-3.166911436557311e-07,1.780630605496985e-15
16		1.445439770745927e+00,0.000000000000000e+00
	-3.166911436557311e-03,1.822106820445700e-11
	1.000000000000000e+00,0.000000000000000e+00
	0.000000000000000e+00,0.000000000000000e+00
	3.166911436557311e-07,-1.822106820445700e-15
	3.309662412808516e-26,9.209091239634818e-15
	3.166911400089408e-15,-6.240571576299824e-16
	-3.166911468226425e-07,-6.762927261559136e-15
	-3.166911436557311e-07,1.822106820445700e-15
	-3.309662412808516e-26,-9.209091239634815e-15
	-3.166911436557311e-07,1.822106820445700e-15
17		1.479108388168207e+00,0.000000000000000e+00
	-3.166911436557311e-03,1.864549140549051e-11
	1.000000000000000e+00,0.000000000000000e+00
	0.000000000000000e+00,0.000000000000000e+00
	3.166911436557311e-07,-1.864549140549051e-15
	3.465641996862818e-26,9.423598530792390e-15
	3.166911400089408e-15,-6.385933161854061e-16
	-3.166911468226425e-07,-6.920456074057933e-15
	-3.166911436557311e-07,1.864549140549051e-15
	-3.465641996862818e-26,-9.423598530792388e-15
	-3.166911436557311e-07,1.864549140549051e-15
18		1.513561248436208e+00,0.000000000000000e+00
	-3.166911436557311e-03,1.907980069286947e-11
	1.000000000000000e+00,0.000000000000000e+00
	0.000000000000000e+00,0.000000000000000e+00
	3.166911436557311e-07,-1.907980069286947e-15
	3.628972672239184e-26,9.643102338627064e-15
	3.166911400089408e-15,-6.534680653698530e-16
	-3.166911468226425e-07,-7.081654203970264e-15
	-3.166911436557311e-07,1.907980069286947e-15
	-3.628972672239184e-26,-9.643102338627062e-15
	-3.166911436557311e-07,1.907980069286947e-15
19		1.548816618912481e+00,0.000000000000000e+00
	-3.166911436557311e-03,1.952422634312680e-11
	1.000000000000000e+00,0.000000000000000e+00
	0.000000000000000e+00,0.000000000000000e+00
	3.166911436557311e-07,-1.952422634312680e-15
	3.800000885198209e-26,9.867719046963225e-15
	3.166911400089408e-15,-6.686892919722323e-16
	-3.166911468226425e-07,-7.246607120678312e-15
	-3.166911436557311e-07,1.952422634312680e-15
	-3.800000885198209e-26,-9.867719046963223e-15
	-3.166911436557311e-07,1.952422634312680e-15
20		1.584893192461113e+00,0.000000000000000e+00
	-3.166911436557311e-03,1.997900399662496e-11
	1.000000000000000e+00,0.000000000000000e+00
	0.000000000000000e+00,0.000000000000000e+00
	3.166911436557311e-07,-1.997900399662495e-15
	3.979089409509734e-26,1.009756775055279e-14
	3.166911400089408e-15,-6.842650664883645e-16
	-3.166911468226425e-07,-7.415402284401930e-15
	-3.166911436557311e-07,1.997900399662496e-15
	-3.979089409509734e-26,-1.009756775055279e-14
	-3.166911436557311e-07,1.997900399662496e-15
21		1.621810097358929e+00,0.000000000000000e+00
	-3.166911436557311e-03,2.044437478249549e-11
	1.000000000000000e+00,0.000000000000000e+00
	0.000000000000000e+00,0.000000000000000e+00
	3.166911436557311e-07,-2.044437478249549e-15
	4.166618115944637e-26,1.033277031822081e-14
	3.166911400089408e-15,-7.002036474000694e-16
	-3.166911468226425e-07,-7.588129192571189e-15
	-3.166911436557311e-07,2.044437478249549e-15
	-4.166618115944637e-26,-1.033277031822080e-14
	-3.166911436557311e-07,2.044437478249549e-15
22		1.659586907437560e+00,0.000000000000000e+00
	-3.166911436557311e-03,2.092058544648900e-11
	1.000000000000000e+00,0.000000000000000e+00
	0.000000000000000e+00,0.000000000000000e+00
	3.166911436557311e-07,-2.092058544648900e-15
	4.362984778031683e-26,1.057345145748193e-14
	3.166911400089408e-15,-7.165134855539153e-16
	-3.166911468226425e-07,-7.764879427279116e-15
	-3.166911436557311e-07,2.092058544648900e-15
	-4.362984778031683e-26,-1.057345145748193e-14
	-3.166911436557311e-07,2.092058544648900e-15
23		1.698243652461743e+00,0.000000000000000e+00
	-3.166911436557311e-03,2.140788848180293e-11
	1.000000000000000e+00,0.000000000000000e+00
	0.000000000000000e+00,0.000000000000000e+00
	3.166911436557311e-07,-2.140788848180293e-15
	4.568605915788492e-26,1.081973878066199e-14
	3.166911400089408e-15,-7.332032286419771e-16
	-3.166911468226425e-07,-7.945746703839717e-15
	-3.166911436557311e-07,2.140788848180293e-15
	-4.568605915788492e-26,-1.081973878066198e-14
	-3.166911436557311e-07,2.140788848180293e-15
24		1.737800828749374e+00,0.000000000000000e+00
	-3.166911436557311e-03,2.190654226295681e-11
	1.000000000000000e+00,0.000000000000000e+00
	0.000000000000000e+00,0.000000000000000e+00
	3.166911436557311e-07,-2.190654226295681e-15
	4.783917679216354e-26,1.107176287255972e-14
	3.166911400089408e-15,-7.502817257869591e-16
	-3.166911468226425e-07,-8.130826920477080e-15
	-3.166911436557311e-07,2.190654226295681e-15
	-4.783917679216354e-26,-1.107176287255972e-14
	-3.166911436557311e-07,2.190654226295681e-15
25		1.778279410038922e+00,0.000000000000000e+00
	-3.166911436557311e-03,2.241681118278588e-11
	1.000000000000000e+00,0.000000000000000e+00
	0.000000000000000e+00,0.000000000000000e+00
	3.166911436557311e-07,-2.241681118278588e-15
	5.009376773432849e-26,1.132965735968460e-14
	3.166911400089408e-15,-7.677580322341070e-16
	-3.166911468226425e-07,-8.320218209171901e-15
	-3.166911436557311e-07,2.241681118278588e-15
	-5.009376773432849e-26,-1.132965735968459e-14
	-3.166911436557311e-07,2.241681118278588e-15
26		1.819700858609982e+00,0.000000000000000e+00
	-3.166911436557311e-03,2.293896579262563e-11
	1.000000000000000e+00,0.000000000000000e+00
	0.000000000000000e+00,0.000000000000000e+00
	3.166911436557311e-07,-2.293896579262563e-15
	5.245461427404638e-26,1.159355898110732e-14
	3.166911400089408e-15,-7.856414141524214e-16
	-3.166911468226425e-07,-8.514020987692331e-15
	-3.166911436557311e-07,2.293896579262563e-15
	-5.245461427404638e-26,-1.159355898110731e-14
	-3.166911436557311e-07,2.293896579262563e-15
27		1.862087136662866e+00,0.000000000000000e+00
	-3.166911436557311e-03,2.347328294576174e-11
	1.000000000000000e+00,0.000000000000000e+00
	0.000000000000000e+00,0.000000000000000e+00
	3.166911436557311e-07,-2.347328294576174e-15
	5.492672408335218e-26,1.186360766096072e-14
	3.166911400089408e-15,-8.039413535477141e-16
	-3.166911468226425e-07,-8.712338012836828e-15
	-3.166911436557311e-07,2.347328294576174e-15
	-5.492672408335218e-26,-1.186360766096071e-14
	-3.166911436557311e-07,2.347328294576174e-15
28		1.905460717963246e+00,0.000000000000000e+00
	-3.166911436557311e-03,2.402004594422132e-11
	1.000000000000000e+00,0.000000000000000e+00
	0.000000000000000e+00,0.000000000000000e+00
	3.166911436557311e-07,-2.402004594422132e-15
	5.751534083859292e-26,1.213994658262937e-14
	3.166911400089408e-15,-8.226675532900805e-16
	-3.166911468226425e-07,-8.915274434917155e-15
	-3.166911436557311e-07,2.402004594422133e-15
	-5.751534083859292e-26,-1.213994658262937e-14
	-3.166911436557311e-07,2.402004594422133e-15
29		1.949844599758044e+00,0.000000000000000e+00
	-3.166911436557311e-03,2.457954468898343e-11
	1.000000000000000e+00,0.000000000000000e+00
	0.000000000000000e+00,0.000000000000000e+00
	3.166911436557311e-07,-2.457954468898343e-15
	6.022595534296843e-26,1.242272226466732e-14
	3.166911400089408e-15,-8.418299422584931e-16
	-3.166911468226425e-07,-9.122937853510486e-15
	-3.166911436557311e-07,2.457954468898344e-15
	-6.022595534296843e-26,-1.242272226466732e-14
	-3.166911436557311e-07,2.457954468898344e-15
30		1.995262314968878e+00,0.000000000000000e+00
	-3.166911436557311e-03,2.515207583368837e-11
	1.000000000000000e+00,0.000000000000000e+00
	0.000000000000000e+00,0.000000000000000e+00
	3.166911436557311e-07,-2.515207583368837e-15
	6.306431717326084e-26,1.271208463848417e-14
	3.166911400089408e-15,-8.614386806052278e-16
	-3.166911468226425e-07,-9.335438374510104e-15
	-3.166911436557311e-07,2.515207583368837e-15
	-6.306431717326084e-26,-1.271208463848417e-14
	-3.166911436557311e-07,2.515207583368837e-15
31		2.041737944669527e+00,0.000000000000000e+00
	-3.166911436557311e-03,2.573794294192741e-11
	1.000000000000000e+00,0.000000000000000e+00
	0.000000000000000e+00,0.000000000000000e+00
	3.166911436557311e-07,-2.573794294192741e-15
	6.603644687545799e-26,1.300818712784067e-14
	3.166911400089408e-15,-8.815041651429095e-16
	-3.166911468226425e-07,-9.552888668505022e-15
	-3.166911436557311e-07,2.573794294192741e-15
	-6.603644687545799e-26,-1.300818712784067e-14
	-3.166911436557311e-07,2.573794294192741e-15
32		2.089296130854037e+00,0.000000000000000e+00
	-3.166911436557311e-03,2.633745664819622e-11
	1.000000000000000e+00,0.000000000000000e+00
	0.000000000000000e+00,0.000000000000000e+00
	3.166911436557311e-07,-2.633745664819622e-15
	6.914864873513871e-26,1.331118673019607e-14
	3.166911400089408e-15,-9.020370348570352e-16
	-3.166911468226425e-07,-9.775404030519416e-15
	-3.166911436557311e-07,2.633745664819622e-15
	-6.914864873513871e-26,-1.331118673019607e-14
	-3.166911436557311e-07,2.633745664819622e-15
33		2.137962089502230e+00,0.000000000000000e+00
	-3.166911436557311e-03,2.695093482259735e-11
	1.000000000000000e+00,0.000000000000000e+00
	0.000000000000000e+00,0.000000000000000e+00
	3.166911436557311e-07,-2.695093482259735e-15
	7.240752414970747e-26,1.362124409995021e-14
	3.166911400089408e-15,-9.230481765469138e-16
	-3.166911468226425e-07,-1.000310244114356e-14
	-3.166911436557311e-07,2.695093482259735e-15
	-7.240752414970747e-26,-1.362124409995020e-14
	-3.166911436557311e-07,2.695093482259735e-15
34		2.187761623949550e+00,0.000000000000000e+00
	-3.166911436557311e-03,2.757870273937922e-11
	1.000000000000000e+00,0.000000000000000e+00
	0.000000000000000e+00,0.000000000000000e+00
	3.166911436557311e-07,-2.757870273937922e-15
	7.581998563084361e-26,1.393852363362461e-14
	3.166911400089408e-15,-9.445487305979851e-16
	-3.166911468226425e-07,-1.023610462908870e-14
	-3.166911436557311e-07,2.757870273937922e-15
	-7.581998563084361e-26,-1.393852363362461e-14
	-3.166911436557311e-07,2.757870273937922e-15
35		2.238721138568337e+00,0.000000000000000e+00
	-3.166911436557311e-03,2.822109324940079e-11
	1.000000000000000e+00,0.000000000000000e+00
	0.000000000000000e+00,0.000000000000000e+00
	3.166911436557311e-07,-2.822109324940079e-15
	7.939327146686533e-26,1.426319355702774e-14
	3.166911400089408e-15,-9.665500968886003e-16
	-3.166911468226425e-07,-1.047453413519906e-14
	-3.166911436557311e-07,2.822109324940079e-15
	-7.939327146686533e-26,-1.426319355702774e-14
	-3.166911436557311e-07,2.822109324940079e-15
36		2.290867652767770e+00,0.000000000000000e+00
	-3.166911436557311e-03,2.887844695661352e-11
	1.000000000000000e+00,0.000000000000000e+00
	0.000000000000000e+00,0.000000000000000e+00
	3.166911436557311e-07,-2.887844695661353e-15
	8.313496107610960e-26,1.459542601445049e-14
	3.166911400089408e-15,-9.890639408343896e-16
	-3.166911468226425e-07,-1.071851737795475e-14
	-3.166911436557311e-07,2.887844695661353e-15
	-8.313496107610960e-26,-1.459542601445049e-14
	-3.166911436557311e-07,2.887844695661353e-15
37		2.344228815319919e+00,0.000000000000000e+00
	-3.166911436557311e-03,2.955111239865409e-11
	1.000000000000000e+00,0.000000000000000e+00
	0.000000000000000e+00,0.000000000000000e+00
	3.166911436557311e-07,-2.955111239865409e-15
	8.705299108389467e-26,1.493539715993940e-14
	3.166911400089408e-15,-1.012102199573416e-15
	-3.166911468226425e-07,-1.096818372050057e-14
	-3.166911436557311e-07,2.955111239865409e-15
	-8.705299108389467e-26,-1.493539715993940e-14
	-3.166911436557311e-07,2.955111239865409e-15
38		2.398832919019488e+00,0.000000000000000e+00
	-3.166911436557311e-03,3.023944623164364e-11
	1.000000000000000e+00,0.000000000000000e+00
	0.000000000000000e+00,0.000000000000000e+00
