Title: * GA CMOS Amp | W=1.6908339114018708e-06 L=6.731429020290012e-07 Vbias=0.8482053080017413
Date: Mon Sep  8 18:47:38 2025
Plotname: AC Analysis
Flags: complex forward log
No. Variables: 11
No. Points:          901
Offset:    0.0000000000000000e+00
Command: Linear Technology Corporation LTspice
Variables:
	0	frequency	frequency
	1	V(out)	voltage
	2	V(g)	voltage
	3	V(vdd)	voltage
	4	Id(M1)	device_current
	5	Ig(M1)	device_current
	6	Ib(M1)	device_current
	7	Is(M1)	device_current
	8	I(Rload)	device_current
	9	I(Vg)	device_current
	10	I(Vdd)	device_current
Values:
0		1.000000000000000e+00,0.000000000000000e+00
	-5.858325768722948e-02,2.248340200158969e-11
	1.000000000000000e+00,0.000000000000000e+00
	0.000000000000000e+00,0.000000000000000e+00
	5.858325768722949e-06,-2.248340200158969e-15
	4.777193571175286e-26,1.068442271101226e-14
	5.858325756875329e-14,-5.245761646320901e-16
	-5.858325827306207e-06,-7.911506346221201e-15
	-5.858325768722948e-06,2.248340200158969e-15
	-4.777193571175286e-26,-1.068442271101226e-14
	-5.858325768722948e-06,2.248340200158969e-15
1		1.023292992280754e+00,0.000000000000000e+00
	-5.858325768722948e-02,2.300710771085781e-11
	1.000000000000000e+00,0.000000000000000e+00
	0.000000000000000e+00,0.000000000000000e+00
	5.858325768722949e-06,-2.300710771085782e-15
	5.002335767942869e-26,1.093329488674418e-14
	5.858325756875329e-14,-5.367951131855308e-16
	-5.858325827306207e-06,-8.095789002472870e-15
	-5.858325768722948e-06,2.300710771085781e-15
	-5.002335767942869e-26,-1.093329488674418e-14
	-5.858325768722948e-06,2.300710771085781e-15
2		1.047128548050899e+00,0.000000000000000e+00
	-5.858325768722948e-02,2.354301209316930e-11
	1.000000000000000e+00,0.000000000000000e+00
	0.000000000000000e+00,0.000000000000000e+00
	5.858325768722949e-06,-2.354301209316930e-15
	5.238088589549096e-26,1.118796404014432e-14
	5.858325756875329e-14,-5.492986776133103e-16
	-5.858325827306207e-06,-8.284364153214082e-15
	-5.858325768722948e-06,2.354301209316929e-15
	-5.238088589549096e-26,-1.118796404014432e-14
	-5.858325768722948e-06,2.354301209316929e-15
3		1.071519305237606e+00,0.000000000000000e+00
	-5.858325768722948e-02,2.409139929212119e-11
	1.000000000000000e+00,0.000000000000000e+00
	0.000000000000000e+00,0.000000000000000e+00
	5.858325768722949e-06,-2.409139929212119e-15
	5.484952099336528e-26,1.144856520016876e-14
	5.858325756875329e-14,-5.620934874707847e-16
	-5.858325827306207e-06,-8.477331783485853e-15
	-5.858325768722948e-06,2.409139929212119e-15
	-5.484952099336528e-26,-1.144856520016876e-14
	-5.858325768722948e-06,2.409139929212119e-15
4		1.096478196143185e+00,0.000000000000000e+00
	-5.858325768722948e-02,2.465256006986513e-11
	1.000000000000000e+00,0.000000000000000e+00
	0.000000000000000e+00,0.000000000000000e+00
	5.858325768722949e-06,-2.465256006986513e-15
	5.743449927906990e-26,1.171523654100200e-14
	5.858325756875329e-14,-5.751863267355027e-16
	-5.858325827306207e-06,-8.674794207279980e-15
	-5.858325768722948e-06,2.465256006986513e-15
	-5.743449927906990e-26,-1.171523654100200e-14
	-5.858325768722948e-06,2.465256006986513e-15
5		1.122018454301963e+00,0.000000000000000e+00
	-5.858325768722948e-02,2.522679196127333e-11
	1.000000000000000e+00,0.000000000000000e+00
	0.000000000000000e+00,0.000000000000000e+00
	5.858325768722949e-06,-2.522679196127333e-15
	6.014130383812292e-26,1.198811945531877e-14
	5.858325756875329e-14,-5.885841374041477e-16
	-5.858325827306207e-06,-8.876856121787285e-15
	-5.858325768722948e-06,2.522679196127333e-15
	-6.014130383812292e-26,-1.198811945531877e-14
	-5.858325768722948e-06,2.522679196127333e-15
6		1.148153621496882e+00,0.000000000000000e+00
	-5.858325768722948e-02,2.581439943169546e-11
	1.000000000000000e+00,0.000000000000000e+00
	0.000000000000000e+00,0.000000000000000e+00
	5.858325768722949e-06,-2.581439943169546e-15
	6.297567616590165e-26,1.226735862925226e-14
	5.858325756875329e-14,-6.022940231732761e-16
	-5.858325827306207e-06,-9.083624662909440e-15
	-5.858325768722948e-06,2.581439943169546e-15
	-6.297567616590165e-26,-1.226735862925226e-14
	-5.858325768722948e-06,2.581439943169546e-15
7		1.174897554939529e+00,0.000000000000000e+00
	-5.858325768722948e-02,2.641569403839024e-11
	1.000000000000000e+00,0.000000000000000e+00
	0.000000000000000e+00,0.000000000000000e+00
	5.858325768722949e-06,-2.641569403839024e-15
	6.594362834612422e-26,1.255310211910868e-14
	5.858325756875329e-14,-6.163232532057981e-16
	-5.858325827306207e-06,-9.295209462063856e-15
	-5.858325768722948e-06,2.641569403839024e-15
	-6.594362834612422e-26,-1.255310211910868e-14
	-5.858325768722948e-06,2.641569403839024e-15
8		1.202264434617413e+00,0.000000000000000e+00
	-5.858325768722948e-02,2.703099459571723e-11
	1.000000000000000e+00,0.000000000000000e+00
	0.000000000000000e+00,0.000000000000000e+00
	5.858325768722949e-06,-2.703099459571723e-15
	6.905145580328519e-26,1.284550142986860e-14
	5.858325756875329e-14,-6.306792659851689e-16
	-5.858325827306207e-06,-9.511722704311703e-15
	-5.858325768722948e-06,2.703099459571723e-15
	-6.905145580328519e-26,-1.284550142986860e-14
	-5.858325768722948e-06,2.703099459571723e-15
9		1.230268770812381e+00,0.000000000000000e+00
	-5.858325768722948e-02,2.766062734417638e-11
	1.000000000000000e+00,0.000000000000000e+00
	0.000000000000000e+00,0.000000000000000e+00
	5.858325768722949e-06,-2.766062734417638e-15
	7.230575065609490e-26,1.314471159551694e-14
	5.858325756875329e-14,-6.453696732593943e-16
	-5.858325827306207e-06,-9.733279187839909e-15
	-5.858325768722948e-06,2.766062734417638e-15
	-7.230575065609490e-26,-1.314471159551694e-14
	-5.858325768722948e-06,2.766062734417638e-15
10		1.258925411794167e+00,0.000000000000000e+00
	-5.858325768722948e-02,2.830492612338510e-11
	1.000000000000000e+00,0.000000000000000e+00
	0.000000000000000e+00,0.000000000000000e+00
	5.858325768722949e-06,-2.830492612338510e-15
	7.571341570024703e-26,1.345089126124406e-14
	5.858325756875329e-14,-6.604022640768578e-16
	-5.858325827306207e-06,-9.959996384828689e-15
	-5.858325768722948e-06,2.830492612338510e-15
	-7.571341570024703e-26,-1.345089126124406e-14
	-5.858325768722948e-06,2.830492612338510e-15
11		1.288249551693134e+00,0.000000000000000e+00
	-5.858325768722948e-02,2.896423254908442e-11
	1.000000000000000e+00,0.000000000000000e+00
	0.000000000000000e+00,0.000000000000000e+00
	5.858325768722949e-06,-2.896423254908442e-15
	7.928167905017386e-26,1.376420276756148e-14
	5.858325756875329e-14,-6.757850089161911e-16
	-5.858325827306207e-06,-1.019199450373684e-14
	-5.858325768722948e-06,2.896423254908442e-15
	-7.928167905017386e-26,-1.376420276756148e-14
	-5.858325768722948e-06,2.896423254908442e-15
12		1.318256738556407e+00,0.000000000000000e+00
	-5.858325768722948e-02,2.963889619426821e-11
	1.000000000000000e+00,0.000000000000000e+00
	0.000000000000000e+00,0.000000000000000e+00
	5.858325768722949e-06,-2.963889619426822e-15
	8.301810947084596e-26,1.408481223637702e-14
	5.858325756875329e-14,-6.915260639123260e-16
	-5.858325827306207e-06,-1.042939655303788e-14
	-5.858325768722948e-06,2.963889619426821e-15
	-8.301810947084596e-26,-1.408481223637702e-14
	-5.858325768722948e-06,2.963889619426821e-15
13		1.348962882591653e+00,0.000000000000000e+00
	-5.858325768722948e-02,3.032927477453138e-11
	1.000000000000000e+00,0.000000000000000e+00
	0.000000000000000e+00,0.000000000000000e+00
	5.858325768722949e-06,-3.032927477453138e-15
	8.693063243213759e-26,1.441288965907483e-14
	5.858325756875329e-14,-7.076337751809774e-16
	-5.858325827306207e-06,-1.067232840644071e-14
	-5.858325768722948e-06,3.032927477453138e-15
	-8.693063243213759e-26,-1.441288965907483e-14
	-5.858325768722948e-06,3.032927477453138e-15
14		1.380384264602885e+00,0.000000000000000e+00
	-5.858325768722948e-02,3.103573433773541e-11
	1.000000000000000e+00,0.000000000000000e+00
	0.000000000000000e+00,0.000000000000000e+00
	5.858325768722949e-06,-3.103573433773541e-15
	9.102754691981068e-26,1.474860898664702e-14
	5.858325756875329e-14,-7.241166832438708e-16
	-5.858325827306207e-06,-1.092091886962961e-14
	-5.858325768722948e-06,3.103573433773541e-15
	-9.102754691981068e-26,-1.474860898664702e-14
	-5.858325768722948e-06,3.103573433773541e-15
15		1.412537544622754e+00,0.000000000000000e+00
	-5.858325768722948e-02,3.175864945809182e-11
	1.000000000000000e+00,0.000000000000000e+00
	0.000000000000000e+00,0.000000000000000e+00
	5.858325768722949e-06,-3.175864945809182e-15
	9.531754303877650e-26,1.509214822192485e-14
	5.858325756875329e-14,-7.409835275570329e-16
	-5.858325827306207e-06,-1.117529974855863e-14
	-5.858325768722948e-06,3.175864945809182e-15
	-9.531754303877650e-26,-1.509214822192485e-14
	-5.858325768722948e-06,3.175864945809182e-15
16		1.445439770745927e+00,0.000000000000000e+00
	-5.858325768722948e-02,3.249840343476632e-11
	1.000000000000000e+00,0.000000000000000e+00
	0.000000000000000e+00,0.000000000000000e+00
	5.858325768722949e-06,-3.249840343476632e-15
	9.980972044597309e-26,1.544368951395814e-14
	5.858325756875329e-14,-7.582432511445860e-16
	-5.858325827306207e-06,-1.143560591933692e-14
	-5.858325768722948e-06,3.249840343476632e-15
	-9.980972044597309e-26,-1.544368951395814e-14
	-5.858325768722948e-06,3.249840343476632e-15
17		1.479108388168207e+00,0.000000000000000e+00
	-5.858325768722948e-02,3.325538849510916e-11
	1.000000000000000e+00,0.000000000000000e+00
	0.000000000000000e+00,0.000000000000000e+00
	5.858325768722949e-06,-3.325538849510917e-15
	1.045136076519580e-25,1.580341925459312e-14
	5.858325756875329e-14,-7.759050053404295e-16
	-5.858325827306207e-06,-1.170197539974178e-14
	-5.858325768722948e-06,3.325538849510916e-15
	-1.045136076519580e-25,-1.580341925459312e-14
	-5.858325768722948e-06,3.325538849510916e-15
18		1.513561248436208e+00,0.000000000000000e+00
	-5.858325768722948e-02,3.403000600261922e-11
	1.000000000000000e+00,0.000000000000000e+00
	0.000000000000000e+00,0.000000000000000e+00
	5.858325768722949e-06,-3.403000600261922e-15
	1.094391822321561e-25,1.617152817729988e-14
	5.858325756875329e-14,-7.939781546404209e-16
	-5.858325827306207e-06,-1.197454942239754e-14
	-5.858325768722948e-06,3.403000600261922e-15
	-1.094391822321561e-25,-1.617152817729988e-14
	-5.858325768722948e-06,3.403000600261922e-15
19		1.548816618912481e+00,0.000000000000000e+00
	-5.858325768722948e-02,3.482266666975224e-11
	1.000000000000000e+00,0.000000000000000e+00
	0.000000000000000e+00,0.000000000000000e+00
	5.858325768722949e-06,-3.482266666975224e-15
	1.145968919906355e-25,1.654821145830173e-14
	5.858325756875329e-14,-8.124722816675486e-16
	-5.858325827306207e-06,-1.225347250965895e-14
	-5.858325768722948e-06,3.482266666975224e-15
	-1.145968919906355e-25,-1.654821145830173e-14
	-5.858325768722948e-06,3.482266666975224e-15
20		1.584893192461113e+00,0.000000000000000e+00
	-5.858325768722948e-02,3.563379077568605e-11
	1.000000000000000e+00,0.000000000000000e+00
	0.000000000000000e+00,0.000000000000000e+00
	5.858325768722949e-06,-3.563379077568605e-15
	1.199976771212999e-25,1.693366882006023e-14
	5.858325756875329e-14,-8.313971922527546e-16
	-5.858325827306207e-06,-1.253889255023887e-14
	-5.858325768722948e-06,3.563379077568605e-15
	-1.199976771212999e-25,-1.693366882006023e-14
	-5.858325768722948e-06,3.563379077568605e-15
21		1.621810097358929e+00,0.000000000000000e+00
	-5.858325768722948e-02,3.646380838915812e-11
	1.000000000000000e+00,0.000000000000000e+00
	0.000000000000000e+00,0.000000000000000e+00
	5.858325768722949e-06,-3.646380838915811e-15
	1.256529934135074e-25,1.732810463717074e-14
	5.858325756875329e-14,-8.507629206341415e-16
	-5.858325827306207e-06,-1.283096087762079e-14
	-5.858325768722948e-06,3.646380838915811e-15
	-1.256529934135074e-25,-1.732810463717074e-14
	-5.858325768722948e-06,3.646380838915811e-15
22		1.659586907437560e+00,0.000000000000000e+00
	-5.858325768722948e-02,3.731315959649368e-11
	1.000000000000000e+00,0.000000000000000e+00
	0.000000000000000e+00,0.000000000000000e+00
	5.858325768722949e-06,-3.731315959649369e-15
	1.315748365513352e-25,1.773172804472446e-14
	5.858325756875329e-14,-8.705797347772234e-16
	-5.858325827306207e-06,-1.312983235029787e-14
	-5.858325768722948e-06,3.731315959649368e-15
	-1.315748365513352e-25,-1.773172804472446e-14
	-5.858325768722948e-06,3.731315959649368e-15
23		1.698243652461743e+00,0.000000000000000e+00
	-5.858325768722948e-02,3.818229473494535e-11
	1.000000000000000e+00,0.000000000000000e+00
	0.000000000000000e+00,0.000000000000000e+00
	5.858325768722949e-06,-3.818229473494535e-15
	1.377757675580341e-25,1.814475304919466e-14
	5.858325756875329e-14,-8.908581418191748e-16
	-5.858325827306207e-06,-1.343566543388095e-14
	-5.858325768722948e-06,3.818229473494535e-15
	-1.377757675580341e-25,-1.814475304919466e-14
	-5.858325768722948e-06,3.818229473494535e-15
24		1.737800828749374e+00,0.000000000000000e+00
	-5.858325768722948e-02,3.907167463146791e-11
	1.000000000000000e+00,0.000000000000000e+00
	0.000000000000000e+00,0.000000000000000e+00
	5.858325768722949e-06,-3.907167463146791e-15
	1.442689394396424e-25,1.856739864190574e-14
	5.858325756875329e-14,-9.116088936398137e-16
	-5.858325827306207e-06,-1.374862228511914e-14
	-5.858325768722948e-06,3.907167463146791e-15
	-1.442689394396424e-25,-1.856739864190574e-14
	-5.858325768722948e-06,3.907167463146791e-15
25		1.778279410038922e+00,0.000000000000000e+00
	-5.858325768722948e-02,3.998177084705482e-11
	1.000000000000000e+00,0.000000000000000e+00
	0.000000000000000e+00,0.000000000000000e+00
	5.858325768722949e-06,-3.998177084705484e-15
	1.510681250842759e-25,1.899988891514534e-14
	5.858325756875329e-14,-9.328429925624307e-16
	-5.858325827306207e-06,-1.406886883787742e-14
	-5.858325768722948e-06,3.998177084705482e-15
	-1.510681250842759e-25,-1.899988891514534e-14
	-5.858325768722948e-06,3.998177084705482e-15
26		1.819700858609982e+00,0.000000000000000e+00
	-5.858325768722948e-02,4.091306592676615e-11
	1.000000000000000e+00,0.000000000000000e+00
	0.000000000000000e+00,0.000000000000000e+00
	5.858325768722949e-06,-4.091306592676615e-15
	1.581877464762695e-25,1.944245318098100e-14
	5.858325756875329e-14,-9.545716971873446e-16
	-5.858325827306207e-06,-1.439657489111704e-14
	-5.858325768722948e-06,4.091306592676615e-15
	-1.581877464762695e-25,-1.944245318098100e-14
	-5.858325768722948e-06,4.091306592676615e-15
27		1.862087136662866e+00,0.000000000000000e+00
	-5.858325768722948e-02,4.186605365558030e-11
	1.000000000000000e+00,0.000000000000000e+00
	0.000000000000000e+00,0.000000000000000e+00
	5.858325768722949e-06,-4.186605365558030e-15
	1.656429052871399e-25,1.989532609284452e-14
	5.858325756875329e-14,-9.768065283613553e-16
	-5.858325827306207e-06,-1.473191419892513e-14
	-5.858325768722948e-06,4.186605365558030e-15
	-1.656429052871399e-25,-1.989532609284452e-14
	-5.858325768722948e-06,4.186605365558030e-15
28		1.905460717963246e+00,0.000000000000000e+00
	-5.858325768722948e-02,4.284123932020536e-11
	1.000000000000000e+00,0.000000000000000e+00
	0.000000000000000e+00,0.000000000000000e+00
	5.858325768722949e-06,-4.284123932020537e-15
	1.734494149082554e-25,2.035874776994823e-14
	5.858325756875329e-14,-9.995592752862683e-16
	-5.858325827306207e-06,-1.507506456264142e-14
	-5.858325768722948e-06,4.284123932020536e-15
	-1.734494149082554e-25,-2.035874776994823e-14
	-5.858325768722948e-06,4.284123932020536e-15
29		1.949844599758044e+00,0.000000000000000e+00
	-5.858325768722948e-02,4.383913997698885e-11
	1.000000000000000e+00,0.000000000000000e+00
	0.000000000000000e+00,0.000000000000000e+00
	5.858325768722949e-06,-4.383913997698886e-15
	1.816238339931595e-25,2.083296392459945e-14
	5.858325756875329e-14,-1.022842001769665e-15
	-5.858325827306207e-06,-1.542620792513090e-14
	-5.858325768722948e-06,4.383913997698885e-15
	-1.816238339931595e-25,-2.083296392459945e-14
	-5.858325768722948e-06,4.383913997698885e-15
30		1.995262314968878e+00,0.000000000000000e+00
	-5.858325768722948e-02,4.486028472606775e-11
	1.000000000000000e+00,0.000000000000000e+00
	0.000000000000000e+00,0.000000000000000e+00
	5.858325768722949e-06,-4.486028472606775e-15
	1.901835015806947e-25,2.131822599248037e-14
	5.858325756875329e-14,-1.046667052621318e-15
	-5.858325827306207e-06,-1.578553046725228e-14
	-5.858325768722948e-06,4.486028472606775e-15
	-1.901835015806947e-25,-2.131822599248037e-14
	-5.858325768722948e-06,4.486028472606775e-15
31		2.041737944669527e+00,0.000000000000000e+00
	-5.858325768722948e-02,4.590521499190447e-11
	1.000000000000000e+00,0.000000000000000e+00
	0.000000000000000e+00,0.000000000000000e+00
	5.858325768722949e-06,-4.590521499190448e-15
	1.991465738734288e-25,2.181479126596259e-14
	5.858325756875329e-14,-1.071047060198541e-15
	-5.858325827306207e-06,-1.615322270657360e-14
	-5.858325768722948e-06,4.590521499190447e-15
	-1.991465738734288e-25,-2.181479126596259e-14
	-5.858325768722948e-06,4.590521499190447e-15
32		2.089296130854037e+00,0.000000000000000e+00
	-5.858325768722948e-02,4.697448481035726e-11
	1.000000000000000e+00,0.000000000000000e+00
	0.000000000000000e+00,0.000000000000000e+00
	5.858325768722949e-06,-4.697448481035726e-15
	2.085320627493946e-25,2.232292303052692e-14
	5.858325756875329e-14,-1.095994951104071e-15
	-5.858325827306207e-06,-1.652947959838712e-14
	-5.858325768722948e-06,4.697448481035726e-15
	-2.085320627493946e-25,-2.232292303052692e-14
	-5.858325768722948e-06,4.697448481035726e-15
33		2.137962089502230e+00,0.000000000000000e+00
	-5.858325768722948e-02,4.806866112243731e-11
	1.000000000000000e+00,0.000000000000000e+00
	0.000000000000000e+00,0.000000000000000e+00
	5.858325768722949e-06,-4.806866112243732e-15
	2.183598760888327e-25,2.284289070436085e-14
	5.858325756875329e-14,-1.121523953039884e-15
	-5.858325827306207e-06,-1.691450063907723e-14
	-5.858325768722948e-06,4.806866112243731e-15
	-2.183598760888327e-25,-2.284289070436085e-14
	-5.858325768722948e-06,4.806866112243731e-15
34		2.187761623949550e+00,0.000000000000000e+00
	-5.858325768722948e-02,4.918832407490843e-11
	1.000000000000000e+00,0.000000000000000e+00
	0.000000000000000e+00,0.000000000000000e+00
	5.858325768722949e-06,-4.918832407490844e-15
	2.286508600014737e-25,2.337496998120764e-14
	5.858325756875329e-14,-1.147647601820724e-15
	-5.858325827306207e-06,-1.730848997189607e-14
	-5.858325768722948e-06,4.918832407490843e-15
	-2.286508600014737e-25,-2.337496998120764e-14
	-5.858325768722948e-06,4.918832407490843e-15
35		2.238721138568337e+00,0.000000000000000e+00
	-5.858325768722948e-02,5.033406732788851e-11
	1.000000000000000e+00,0.000000000000000e+00
	0.000000000000000e+00,0.000000000000000e+00
	5.858325768722949e-06,-5.033406732788851e-15
	2.394268430439327e-25,2.391944297654277e-14
	5.858325756875329e-14,-1.174379748550964e-15
	-5.858325827306207e-06,-1.771165649520295e-14
	-5.858325768722948e-06,5.033406732788851e-15
	-2.394268430439327e-25,-2.391944297654277e-14
	-5.858325768722948e-06,5.033406732788851e-15
36		2.290867652767770e+00,0.000000000000000e+00
	-5.858325768722948e-02,5.150649836961596e-11
	1.000000000000000e+00,0.000000000000000e+00
	0.000000000000000e+00,0.000000000000000e+00
	5.858325768722949e-06,-5.150649836961598e-15
	2.507106825210038e-25,2.447659837715531e-14
	5.858325756875329e-14,-1.201734566968633e-15
	-5.858325827306207e-06,-1.812421397322508e-14
	-5.858325768722948e-06,5.150649836961597e-15
	-2.507106825210038e-25,-2.447659837715531e-14
	-5.858325768722948e-06,5.150649836961597e-15
37		2.344228815319919e+00,0.000000000000000e+00
	-5.858325768722948e-02,5.270623883854810e-11
	1.000000000000000e+00,0.000000000000000e+00
	0.000000000000000e+00,0.000000000000000e+00
	5.858325768722949e-06,-5.270623883854810e-15
	2.625263129690687e-25,2.504673159421351e-14
	5.858325756875329e-14,-1.229726560960549e-15
	-5.858325827306207e-06,-1.854638114939815e-14
	-5.858325768722948e-06,5.270623883854810e-15
	-2.625263129690687e-25,-2.504673159421351e-14
	-5.858325768722948e-06,5.270623883854810e-15
38		2.398832919019488e+00,0.000000000000000e+00
	-5.858325768722948e-02,5.393392485296198e-11
	1.000000000000000e+00,0.000000000000000e+00
