Title: * GA CMOS Amp | W=2.09573517127885e-06 L=6.430818569684183e-07 Vbias=1.0564184457584471
Date: Mon Sep  8 18:46:53 2025
Plotname: AC Analysis
Flags: complex forward log
No. Variables: 11
No. Points:          901
Offset:    0.0000000000000000e+00
Command: Linear Technology Corporation LTspice
Variables:
	0	frequency	frequency
	1	V(out)	voltage
	2	V(g)	voltage
	3	V(vdd)	voltage
	4	Id(M1)	device_current
	5	Ig(M1)	device_current
	6	Ib(M1)	device_current
	7	Is(M1)	device_current
	8	I(Rload)	device_current
	9	I(Vg)	device_current
	10	I(Vdd)	device_current
Values:
0		1.000000000000000e+00,0.000000000000000e+00
	-8.674833140429448e-01,4.689176126351333e-11
	1.000000000000000e+00,0.000000000000000e+00
	0.000000000000000e+00,0.000000000000000e+00
	8.674833140429447e-05,-4.689176126351332e-15
	1.234931336897451e-25,1.480969717601574e-14
	8.674833177095206e-13,-5.422183684187266e-16
	-8.674833227177779e-05,-9.578302681245679e-15
	-8.674833140429449e-05,4.689176126351334e-15
	-1.234931336897451e-25,-1.480969717601574e-14
	-8.674833140429449e-05,4.689176126351334e-15
1		1.023292992280754e+00,0.000000000000000e+00
	-8.674833140429448e-01,4.798401069665531e-11
	1.000000000000000e+00,0.000000000000000e+00
	0.000000000000000e+00,0.000000000000000e+00
	8.674833140429447e-05,-4.798401069665531e-15
	1.293131857747984e-25,1.515465933801698e-14
	8.674833177095206e-13,-5.548482566887834e-16
	-8.674833227177779e-05,-9.801410011662663e-15
	-8.674833140429449e-05,4.798401069665531e-15
	-1.293131857747984e-25,-1.515465933801698e-14
	-8.674833140429449e-05,4.798401069665531e-15
2		1.047128548050899e+00,0.000000000000000e+00
	-8.674833140429448e-01,4.910170188741211e-11
	1.000000000000000e+00,0.000000000000000e+00
	0.000000000000000e+00,0.000000000000000e+00
	8.674833140429447e-05,-4.910170188741211e-15
	1.354075284642009e-25,1.550765670099486e-14
	8.674833177095206e-13,-5.677723328488281e-16
	-8.674833227177779e-05,-1.002971417940483e-14
	-8.674833140429449e-05,4.910170188741211e-15
	-1.354075284642009e-25,-1.550765670099486e-14
	-8.674833140429449e-05,4.910170188741211e-15
3		1.071519305237606e+00,0.000000000000000e+00
	-8.674833140429448e-01,5.024542745044749e-11
	1.000000000000000e+00,0.000000000000000e+00
	0.000000000000000e+00,0.000000000000000e+00
	8.674833140429447e-05,-5.024542745044749e-15
	1.417890886758795e-25,1.586887642882372e-14
	8.674833177095206e-13,-5.809974494151001e-16
	-8.674833227177779e-05,-1.026333623436387e-14
	-8.674833140429449e-05,5.024542745044749e-15
	-1.417890886758795e-25,-1.586887642882372e-14
	-8.674833140429449e-05,5.024542745044749e-15
4		1.096478196143185e+00,0.000000000000000e+00
	-8.674833140429448e-01,5.141579380419395e-11
	1.000000000000000e+00,0.000000000000000e+00
	0.000000000000000e+00,0.000000000000000e+00
	8.674833140429447e-05,-5.141579380419396e-15
	1.484714025546339e-25,1.623851004498455e-14
	8.674833177095206e-13,-5.945306185194656e-16
	-8.674833227177779e-05,-1.050240004604569e-14
	-8.674833140429449e-05,5.141579380419395e-15
	-1.484714025546339e-25,-1.623851004498455e-14
	-8.674833140429449e-05,5.141579380419395e-15
5		1.122018454301963e+00,0.000000000000000e+00
	-8.674833140429448e-01,5.261342149238390e-11
	1.000000000000000e+00,0.000000000000000e+00
	0.000000000000000e+00,0.000000000000000e+00
	8.674833140429447e-05,-5.261342149238390e-15
	1.554686441841145e-25,1.661675353411333e-14
	8.674833177095206e-13,-6.083790156273109e-16
	-8.674833227177779e-05,-1.074703236924763e-14
	-8.674833140429449e-05,5.261342149238390e-15
	-1.554686441841145e-25,-1.661675353411333e-14
	-8.674833140429449e-05,5.261342149238390e-15
6		1.148153621496882e+00,0.000000000000000e+00
	-8.674833140429448e-01,5.383894551307006e-11
	1.000000000000000e+00,0.000000000000000e+00
	0.000000000000000e+00,0.000000000000000e+00
	8.674833140429447e-05,-5.383894551307006e-15
	1.627956556519537e-25,1.700380744591462e-14
	8.674833177095206e-13,-6.225499833420911e-16
	-8.674833227177779e-05,-1.099736291126553e-14
	-8.674833140429449e-05,5.383894551307006e-15
	-1.627956556519537e-25,-1.700380744591462e-14
	-8.674833140429449e-05,5.383894551307006e-15
7		1.174897554939529e+00,0.000000000000000e+00
	-8.674833140429448e-01,5.509301565530993e-11
	1.000000000000000e+00,0.000000000000000e+00
	0.000000000000000e+00,0.000000000000000e+00
	8.674833140429447e-05,-5.509301565530994e-15
	1.704679785318244e-25,1.739987700149574e-14
	8.674833177095206e-13,-6.370510352984618e-16
	-8.674833227177779e-05,-1.125352440066629e-14
	-8.674833140429449e-05,5.509301565530994e-15
	-1.704679785318244e-25,-1.739987700149574e-14
	-8.674833140429449e-05,5.509301565530994e-15
8		1.202264434617413e+00,0.000000000000000e+00
	-8.674833140429448e-01,5.637629684369254e-11
	1.000000000000000e+00,0.000000000000000e+00
	0.000000000000000e+00,0.000000000000000e+00
	8.674833140429447e-05,-5.637629684369254e-15
	1.785018868492013e-25,1.780517220217765e-14
	8.674833177095206e-13,-6.518898601461172e-16
	-8.674833227177779e-05,-1.151565265766228e-14
	-8.674833140429449e-05,5.637629684369255e-15
	-1.785018868492013e-25,-1.780517220217765e-14
	-8.674833140429449e-05,5.637629684369255e-15
9		1.230268770812381e+00,0.000000000000000e+00
	-8.674833140429448e-01,5.768946949089017e-11
	1.000000000000000e+00,0.000000000000000e+00
	0.000000000000000e+00,0.000000000000000e+00
	8.674833140429447e-05,-5.768946949089017e-15
	1.869144216007501e-25,1.821990794084047e-14
	8.674833177095206e-13,-6.670743256263982e-16
	-8.674833227177779e-05,-1.178388666612506e-14
	-8.674833140429449e-05,5.768946949089018e-15
	-1.869144216007501e-25,-1.821990794084047e-14
	-8.674833140429449e-05,5.768946949089018e-15
10		1.258925411794167e+00,0.000000000000000e+00
	-8.674833140429448e-01,5.903322985842228e-11
	1.000000000000000e+00,0.000000000000000e+00
	0.000000000000000e+00,0.000000000000000e+00
	8.674833140429447e-05,-5.903322985842228e-15
	1.957234269005671e-25,1.864430411586252e-14
	8.674833177095206e-13,-6.826124827439057e-16
	-8.674833227177779e-05,-1.205836864727639e-14
	-8.674833140429449e-05,5.903322985842228e-15
	-1.957234269005671e-25,-1.864430411586252e-14
	-8.674833140429449e-05,5.903322985842228e-15
11		1.288249551693134e+00,0.000000000000000e+00
	-8.674833140429448e-01,6.040829042582249e-11
	1.000000000000000e+00,0.000000000000000e+00
	0.000000000000000e+00,0.000000000000000e+00
	8.674833140429447e-05,-6.040829042582250e-15
	2.049475878299372e-25,1.907858574771334e-14
	8.674833177095206e-13,-6.985125700352044e-16
	-8.674833227177779e-05,-1.233924413509589e-14
	-8.674833140429449e-05,6.040829042582250e-15
	-2.049475878299372e-25,-1.907858574771334e-14
	-8.674833140429449e-05,6.040829042582250e-15
12		1.318256738556407e+00,0.000000000000000e+00
	-8.674833140429448e-01,6.181538026840474e-11
	1.000000000000000e+00,0.000000000000000e+00
	0.000000000000000e+00,0.000000000000000e+00
	8.674833140429447e-05,-6.181538026840473e-15
	2.146064700708964e-25,1.952298309826253e-14
	8.674833177095206e-13,-7.147830179370455e-16
	-8.674833227177779e-05,-1.262666205348502e-14
	-8.674833140429449e-05,6.181538026840474e-15
	-2.146064700708964e-25,-1.952298309826253e-14
	-8.674833140429449e-05,6.181538026840474e-15
13		1.348962882591653e+00,0.000000000000000e+00
	-8.674833140429448e-01,6.325524544382858e-11
	1.000000000000000e+00,0.000000000000000e+00
	0.000000000000000e+00,0.000000000000000e+00
	8.674833140429447e-05,-6.325524544382857e-15
	2.247205614076666e-25,1.997773179286765e-14
	8.674833177095206e-13,-7.314324532562645e-16
	-8.674833227177779e-05,-1.292077479522853e-14
	-8.674833140429449e-05,6.325524544382858e-15
	-2.247205614076666e-25,-1.997773179286765e-14
	-8.674833140429449e-05,6.325524544382858e-15
14		1.380384264602885e+00,0.000000000000000e+00
	-8.674833140429448e-01,6.472864938766888e-11
	1.000000000000000e+00,0.000000000000000e+00
	0.000000000000000e+00,0.000000000000000e+00
	8.674833140429447e-05,-6.472864938766888e-15
	2.353113151839930e-25,2.044307294530590e-14
	8.674833177095206e-13,-7.484697037438583e-16
	-8.674833227177779e-05,-1.322173830279516e-14
	-8.674833140429449e-05,6.472864938766888e-15
	-2.353113151839930e-25,-2.044307294530590e-14
	-8.674833140429449e-05,6.472864938766888e-15
15		1.412537544622754e+00,0.000000000000000e+00
	-8.674833140429448e-01,6.623637331819949e-11
	1.000000000000000e+00,0.000000000000000e+00
	0.000000000000000e+00,0.000000000000000e+00
	8.674833140429447e-05,-6.623637331819949e-15
	2.464011958085621e-25,2.091925328561581e-14
	8.674833177095206e-13,-7.659038027755426e-16
	-8.674833227177779e-05,-1.352971215102031e-14
	-8.674833140429449e-05,6.623637331819950e-15
	-2.464011958085621e-25,-2.091925328561581e-14
	-8.674833140429449e-05,6.623637331819950e-15
16		1.445439770745927e+00,0.000000000000000e+00
	-8.674833140429448e-01,6.777921665060544e-11
	1.000000000000000e+00,0.000000000000000e+00
	0.000000000000000e+00,0.000000000000000e+00
	8.674833140429447e-05,-6.777921665060544e-15
	2.580137264050249e-25,2.140652529091679e-14
	8.674833177095206e-13,-7.837439941413916e-16
	-8.674833227177779e-05,-1.384485963171485e-14
	-8.674833140429449e-05,6.777921665060544e-15
	-2.580137264050249e-25,-2.140652529091679e-14
	-8.674833140429449e-05,6.777921665060544e-15
17		1.479108388168207e+00,0.000000000000000e+00
	-8.674833140429448e-01,6.935799742084355e-11
	1.000000000000000e+00,0.000000000000000e+00
	0.000000000000000e+00,0.000000000000000e+00
	8.674833140429447e-05,-6.935799742084355e-15
	2.701735387076957e-25,2.190514731927588e-14
	8.674833177095206e-13,-8.019997369470161e-16
	-8.674833227177779e-05,-1.416734784024451e-14
	-8.674833140429449e-05,6.935799742084356e-15
	-2.701735387076957e-25,-2.190514731927588e-14
	-8.674833140429449e-05,6.935799742084356e-15
18		1.513561248436208e+00,0.000000000000000e+00
	-8.674833140429448e-01,7.097355271937584e-11
	1.000000000000000e+00,0.000000000000000e+00
	0.000000000000000e+00,0.000000000000000e+00
	8.674833140429447e-05,-7.097355271937583e-15
	2.829064253087630e-25,2.241538374669256e-14
	8.674833177095206e-13,-8.206807106288906e-16
	-8.674833227177779e-05,-1.449734776412608e-14
	-8.674833140429449e-05,7.097355271937584e-15
	-2.829064253087630e-25,-2.241538374669256e-14
	-8.674833140429449e-05,7.097355271937584e-15
19		1.548816618912481e+00,0.000000000000000e+00
	-8.674833140429448e-01,7.262673913500594e-11
	1.000000000000000e+00,0.000000000000000e+00
	0.000000000000000e+00,0.000000000000000e+00
	8.674833140429447e-05,-7.262673913500594e-15
	2.962393943678352e-25,2.293750510727441e-14
	8.674833177095206e-13,-8.397968200865299e-16
	-8.674833227177779e-05,-1.483503437368728e-14
	-8.674833140429449e-05,7.262673913500594e-15
	-2.962393943678352e-25,-2.293750510727441e-14
	-8.674833140429449e-05,7.262673913500594e-15
20		1.584893192461113e+00,0.000000000000000e+00
	-8.674833140429448e-01,7.431843320905398e-11
	1.000000000000000e+00,0.000000000000000e+00
	0.000000000000000e+00,0.000000000000000e+00
	8.674833140429447e-05,-7.431843320905398e-15
	3.102007268998691e-25,2.347178823667791e-14
	8.674833177095206e-13,-8.593582009342095e-16
	-8.674833227177779e-05,-1.518058671483830e-14
	-8.674833140429449e-05,7.431843320905398e-15
	-3.102007268998691e-25,-2.347178823667791e-14
	-8.674833140429449e-05,7.431843320905398e-15
21		1.621810097358929e+00,0.000000000000000e+00
	-8.674833140429448e-01,7.604953190011021e-11
	1.000000000000000e+00,0.000000000000000e+00
	0.000000000000000e+00,0.000000000000000e+00
	8.674833140429447e-05,-7.604953190011020e-15
	3.248200367629935e-25,2.401851641889034e-14
	8.674833177095206e-13,-8.793752248749732e-16
	-8.674833227177779e-05,-1.553418800400435e-14
	-8.674833140429449e-05,7.604953190011022e-15
	-3.248200367629935e-25,-2.401851641889034e-14
	-8.674833140429449e-05,7.604953190011022e-15
22		1.659586907437560e+00,0.000000000000000e+00
	-8.674833140429448e-01,7.782095305961445e-11
	1.000000000000000e+00,0.000000000000000e+00
	0.000000000000000e+00,0.000000000000000e+00
	8.674833140429447e-05,-7.782095305961445e-15
	3.401283334734733e-25,2.457797953643072e-14
	8.674833177095206e-13,-8.998585051998728e-16
	-8.674833227177779e-05,-1.589602572526940e-14
	-8.674833140429449e-05,7.782095305961445e-15
	-3.401283334734733e-25,-2.457797953643072e-14
	-8.674833140429449e-05,7.782095305961445e-15
23		1.698243652461743e+00,0.000000000000000e+00
	-8.674833140429448e-01,7.963363591851298e-11
	1.000000000000000e+00,0.000000000000000e+00
	0.000000000000000e+00,0.000000000000000e+00
	8.674833140429447e-05,-7.963363591851297e-15
	3.561580879810503e-25,2.515047422404934e-14
	8.674833177095206e-13,-9.208189024152649e-16
	-8.674833227177779e-05,-1.626629172978277e-14
	-8.674833140429449e-05,7.963363591851299e-15
	-3.561580879810503e-25,-2.515047422404934e-14
	-8.674833140429449e-05,7.963363591851299e-15
24		1.737800828749374e+00,0.000000000000000e+00
	-8.674833140429448e-01,8.148854158525127e-11
	1.000000000000000e+00,0.000000000000000e+00
	0.000000000000000e+00,0.000000000000000e+00
	8.674833140429447e-05,-8.148854158525128e-15
	3.729433015441815e-25,2.573630402600742e-14
	8.674833177095206e-13,-9.422675300011982e-16
	-8.674833227177779e-05,-1.664518233748109e-14
	-8.674833140429449e-05,8.148854158525128e-15
	-3.729433015441815e-25,-2.573630402600742e-14
	-8.674833140429449e-05,8.148854158525128e-15
25		1.778279410038922e+00,0.000000000000000e+00
	-8.674833140429448e-01,8.338665355536644e-11
	1.000000000000000e+00,0.000000000000000e+00
	0.000000000000000e+00,0.000000000000000e+00
	8.674833140429447e-05,-8.338665355536643e-15
	3.905195778512675e-25,2.633577955702035e-14
	8.674833177095206e-13,-9.642157603039178e-16
	-8.674833227177779e-05,-1.703289844117979e-14
	-8.674833140429449e-05,8.338665355536643e-15
	-3.905195778512675e-25,-2.633577955702035e-14
	-8.674833140429449e-05,8.338665355536643e-15
26		1.819700858609982e+00,0.000000000000000e+00
	-8.674833140429448e-01,8.532897823294951e-11
	1.000000000000000e+00,0.000000000000000e+00
	0.000000000000000e+00,0.000000000000000e+00
	8.674833140429447e-05,-8.532897823294950e-15
	4.089241985408480e-25,2.694921866694967e-14
	8.674833177095206e-13,-9.866752305656588e-16
	-8.674833227177779e-05,-1.742964561308906e-14
	-8.674833140429449e-05,8.532897823294952e-15
	-4.089241985408480e-25,-2.694921866694967e-14
	-8.674833140429449e-05,8.532897823294952e-15
27		1.862087136662866e+00,0.000000000000000e+00
	-8.674833140429448e-01,8.731654546425423e-11
	1.000000000000000e+00,0.000000000000000e+00
	0.000000000000000e+00,0.000000000000000e+00
	8.674833140429447e-05,-8.731654546425423e-15
	4.281962022809559e-25,2.757694660933128e-14
	8.674833177095206e-13,-1.009657849094836e-15
	-8.674833227177779e-05,-1.783563421381102e-14
	-8.674833140429449e-05,8.731654546425423e-15
	-4.281962022809559e-25,-2.757694660933128e-14
	-8.674833140429449e-05,8.731654546425423e-15
28		1.905460717963246e+00,0.000000000000000e+00
	-8.674833140429448e-01,8.935040908373521e-11
	1.000000000000000e+00,0.000000000000000e+00
	0.000000000000000e+00,0.000000000000000e+00
	8.674833140429447e-05,-8.935040908373521e-15
	4.483764675753665e-25,2.821929621382920e-14
	8.674833177095206e-13,-1.033175801580004e-15
	-8.674833227177779e-05,-1.825107950387567e-14
	-8.674833140429449e-05,8.935040908373521e-15
	-4.483764675753665e-25,-2.821929621382920e-14
	-8.674833140429449e-05,8.935040908373521e-15
29		1.949844599758044e+00,0.000000000000000e+00
	-8.674833140429448e-01,9.143164747280490e-11
	1.000000000000000e+00,0.000000000000000e+00
	0.000000000000000e+00,0.000000000000000e+00
	8.674833140429447e-05,-9.143164747280490e-15
	4.695077994723850e-25,2.887660806270624e-14
	8.674833177095206e-13,-1.057241557550870e-15
	-8.674833227177779e-05,-1.867620175787488e-14
	-8.674833140429449e-05,9.143164747280490e-15
	-4.695077994723850e-25,-2.887660806270624e-14
	-8.674833140429449e-05,9.143164747280490e-15
30		1.995262314968878e+00,0.000000000000000e+00
	-8.674833140429448e-01,9.356136413160556e-11
	1.000000000000000e+00,0.000000000000000e+00
	0.000000000000000e+00,0.000000000000000e+00
	8.674833140429447e-05,-9.356136413160556e-15
	4.916350203600912e-25,2.954923067140521e-14
	8.674833177095206e-13,-1.081867876989794e-15
	-8.674833227177779e-05,-1.911122638125486e-14
	-8.674833140429449e-05,9.356136413160556e-15
	-4.916350203600912e-25,-2.954923067140521e-14
	-8.674833140429449e-05,9.356136413160556e-15
31		2.041737944669527e+00,0.000000000000000e+00
	-8.674833140429448e-01,9.574068826409985e-11
	1.000000000000000e+00,0.000000000000000e+00
	0.000000000000000e+00,0.000000000000000e+00
	8.674833140429447e-05,-9.574068826409984e-15
	5.148050650406365e-25,3.023752067333648e-14
	8.674833177095206e-13,-1.107067817097316e-15
	-8.674833227177779e-05,-1.955638402982918e-14
	-8.674833140429449e-05,9.574068826409986e-15
	-5.148050650406365e-25,-3.023752067333648e-14
	-8.674833140429449e-05,9.574068826409986e-15
32		2.089296130854037e+00,0.000000000000000e+00
	-8.674833140429448e-01,9.797077537678964e-11
	1.000000000000000e+00,0.000000000000000e+00
	0.000000000000000e+00,0.000000000000000e+00
	8.674833140429447e-05,-9.797077537678964e-15
	5.390670802852507e-25,3.094184300896965e-14
	8.674833177095206e-13,-1.132854739215231e-15
	-8.674833227177779e-05,-2.001191073207545e-14
	-8.674833140429449e-05,9.797077537678964e-15
	-5.390670802852507e-25,-3.094184300896965e-14
	-8.674833140429449e-05,9.797077537678964e-15
33		2.137962089502230e+00,0.000000000000000e+00
	-8.674833140429448e-01,1.002528078913807e-10
	1.000000000000000e+00,0.000000000000000e+00
	0.000000000000000e+00,0.000000000000000e+00
	8.674833140429447e-05,-1.002528078913807e-14
	5.644725290811321e-25,3.166257111932988e-14
	8.674833177095206e-13,-1.159242315910986e-15
	-8.674833227177779e-05,-2.047804801428082e-14
	-8.674833140429449e-05,1.002528078913807e-14
	-5.644725290811321e-25,-3.166257111932988e-14
	-8.674833140429449e-05,1.002528078913807e-14
34		2.187761623949550e+00,0.000000000000000e+00
	-8.674833140429448e-01,1.025879957717185e-10
	1.000000000000000e+00,0.000000000000000e+00
	0.000000000000000e+00,0.000000000000000e+00
	8.674833140429447e-05,-1.025879957717186e-14
	5.910752997913452e-25,3.240008714400126e-14
	8.674833177095206e-13,-1.186244538227023e-15
	-8.674833227177779e-05,-2.095504302860238e-14
	-8.674833140429449e-05,1.025879957717186e-14
	-5.910752997913452e-25,-3.240008714400126e-14
	-8.674833140429449e-05,1.025879957717186e-14
35		2.238721138568337e+00,0.000000000000000e+00
	-8.674833140429448e-01,1.049775771653272e-10
	1.000000000000000e+00,0.000000000000000e+00
	0.000000000000000e+00,0.000000000000000e+00
	8.674833140429447e-05,-1.049775771653272e-14
	6.189318204592614e-25,3.315478212374224e-14
	8.674833177095206e-13,-1.213875723099037e-15
	-8.674833227177779e-05,-2.144314868411049e-14
	-8.674833140429449e-05,1.049775771653272e-14
	-6.189318204592614e-25,-3.315478212374224e-14
	-8.674833140429449e-05,1.049775771653272e-14
36		2.290867652767770e+00,0.000000000000000e+00
	-8.674833140429448e-01,1.074228190598915e-10
	1.000000000000000e+00,0.000000000000000e+00
	0.000000000000000e+00,0.000000000000000e+00
	8.674833140429447e-05,-1.074228190598914e-14
	6.481011785000063e-25,3.392705620782065e-14
	8.674833177095206e-13,-1.242150520946979e-15
	-8.674833227177779e-05,-2.194262378088453e-14
	-8.674833140429449e-05,1.074228190598915e-14
	-6.481011785000063e-25,-3.392705620782065e-14
	-8.674833140429449e-05,1.074228190598915e-14
37		2.344228815319919e+00,0.000000000000000e+00
	-8.674833140429448e-01,1.099250179550303e-10
	1.000000000000000e+00,0.000000000000000e+00
	0.000000000000000e+00,0.000000000000000e+00
	8.674833140429447e-05,-1.099250179550303e-14
	6.786452460327884e-25,3.471731886617813e-14
	8.674833177095206e-13,-1.271083923442926e-15
	-8.674833227177779e-05,-2.245373314723217e-14
	-8.674833140429449e-05,1.099250179550303e-14
	-6.786452460327884e-25,-3.471731886617813e-14
	-8.674833140429449e-05,1.099250179550303e-14
38		2.398832919019488e+00,0.000000000000000e+00
	-8.674833140429448e-01,1.124855005497186e-10
	1.000000000000000e+00,0.000000000000000e+00
