Title: * GA CMOS Amp | W=6.013738985223963e-06 L=7.378247741370537e-07 Vbias=1.0623212341003212
Date: Mon Sep  8 18:43:38 2025
Plotname: AC Analysis
Flags: complex forward log
No. Variables: 11
No. Points:          901
Offset:    0.0000000000000000e+00
Command: Linear Technology Corporation LTspice
Variables:
	0	frequency	frequency
	1	V(out)	voltage
	2	V(g)	voltage
	3	V(vdd)	voltage
	4	Id(M1)	device_current
	5	Ig(M1)	device_current
	6	Ib(M1)	device_current
	7	Is(M1)	device_current
	8	I(Rload)	device_current
	9	I(Vg)	device_current
	10	I(Vdd)	device_current
Values:
0		1.000000000000000e+00,0.000000000000000e+00
	-2.231017883857459e+00,2.140545383111548e-10
	1.000000000000000e+00,0.000000000000000e+00
	0.000000000000000e+00,0.000000000000000e+00
	2.231017883857459e-04,-2.140545383111548e-14
	1.617628830117636e-24,5.662254382479239e-14
	2.231017887793785e-12,-1.256841151360414e-15
	-2.231017906167638e-04,-3.396024884231649e-14
	-2.231017883857459e-04,2.140545383111548e-14
	-1.617628830117636e-24,-5.662254382479238e-14
	-2.231017883857459e-04,2.140545383111548e-14
1		1.023292992280754e+00,0.000000000000000e+00
	-2.231017883857459e+00,2.190405090196969e-10
	1.000000000000000e+00,0.000000000000000e+00
	0.000000000000000e+00,0.000000000000000e+00
	2.231017883857459e-04,-2.190405090196969e-14
	1.693865328166355e-24,5.794145230101994e-14
	2.231017887793785e-12,-1.286116742597181e-15
	-2.231017906167638e-04,-3.475128465645306e-14
	-2.231017883857459e-04,2.190405090196969e-14
	-1.693865328166355e-24,-5.794145230101994e-14
	-2.231017883857459e-04,2.190405090196969e-14
2		1.047128548050899e+00,0.000000000000000e+00
	-2.231017883857459e+00,2.241426179054652e-10
	1.000000000000000e+00,0.000000000000000e+00
	0.000000000000000e+00,0.000000000000000e+00
	2.231017883857459e-04,-2.241426179054652e-14
	1.773694741676596e-24,5.929108210220328e-14
	2.231017887793785e-12,-1.316074249954646e-15
	-2.231017906167638e-04,-3.556074606170211e-14
	-2.231017883857459e-04,2.241426179054652e-14
	-1.773694741676596e-24,-5.929108210220327e-14
	-2.231017883857459e-04,2.241426179054652e-14
3		1.071519305237606e+00,0.000000000000000e+00
	-2.231017883857459e+00,2.293635701741252e-10
	1.000000000000000e+00,0.000000000000000e+00
	0.000000000000000e+00,0.000000000000000e+00
	2.231017883857459e-04,-2.293635701741251e-14
	1.857286399537328e-24,6.067214881992745e-14
	2.231017887793785e-12,-1.346729557299739e-15
	-2.231017906167638e-04,-3.638906224521519e-14
	-2.231017883857459e-04,2.293635701741252e-14
	-1.857286399537328e-24,-6.067214881992743e-14
	-2.231017883857459e-04,2.293635701741252e-14
4		1.096478196143185e+00,0.000000000000000e+00
	-2.231017883857459e+00,2.347061340436772e-10
	1.000000000000000e+00,0.000000000000000e+00
	0.000000000000000e+00,0.000000000000000e+00
	2.231017883857459e-04,-2.347061340436772e-14
	1.944817610862205e-24,6.208538471404678e-14
	2.231017887793785e-12,-1.378098918482185e-15
	-2.231017906167638e-04,-3.723667239119687e-14
	-2.231017883857459e-04,2.347061340436772e-14
	-1.944817610862205e-24,-6.208538471404676e-14
	-2.231017883857459e-04,2.347061340436772e-14
5		1.122018454301963e+00,0.000000000000000e+00
	-2.231017883857459e+00,2.401731422122023e-10
	1.000000000000000e+00,0.000000000000000e+00
	0.000000000000000e+00,0.000000000000000e+00
	2.231017883857459e-04,-2.401731422122022e-14
	2.036474041085961e-24,6.353153910093872e-14
	2.231017887793785e-12,-1.410198965952498e-15
	-2.231017906167638e-04,-3.810402591376600e-14
	-2.231017883857459e-04,2.401731422122023e-14
	-2.036474041085961e-24,-6.353153910093872e-14
	-2.231017883857459e-04,2.401731422122023e-14
6		1.148153621496882e+00,0.000000000000000e+00
	-2.231017883857459e+00,2.457674933597955e-10
	1.000000000000000e+00,0.000000000000000e+00
	0.000000000000000e+00,0.000000000000000e+00
	2.231017883857459e-04,-2.457674933597955e-14
	2.132450105785689e-24,6.501137875080132e-14
	2.231017887793785e-12,-1.443046719580763e-15
	-2.231017906167638e-04,-3.899158269524100e-14
	-2.231017883857459e-04,2.457674933597955e-14
	-2.132450105785689e-24,-6.501137875080132e-14
	-2.231017883857459e-04,2.457674933597955e-14
7		1.174897554939529e+00,0.000000000000000e+00
	-2.231017883857459e+00,2.514921536854856e-10
	1.000000000000000e+00,0.000000000000000e+00
	0.000000000000000e+00,0.000000000000000e+00
	2.231017883857459e-04,-2.514921536854856e-14
	2.232949383062357e-24,6.652568829420491e-14
	2.231017887793785e-12,-1.476659595680724e-15
	-2.231017906167638e-04,-3.989981332997563e-14
	-2.231017883857459e-04,2.514921536854856e-14
	-2.232949383062357e-24,-6.652568829420491e-14
	-2.231017883857459e-04,2.514921536854856e-14
8		1.202264434617413e+00,0.000000000000000e+00
	-2.231017883857459e+00,2.573501584799518e-10
	1.000000000000000e+00,0.000000000000000e+00
	0.000000000000000e+00,0.000000000000000e+00
	2.231017883857459e-04,-2.573501584799518e-14
	2.338185045357237e-24,6.807527063811368e-14
	2.231017887793785e-12,-1.511055416244215e-15
	-2.231017906167638e-04,-4.082919937387428e-14
	-2.231017883857459e-04,2.573501584799518e-14
	-2.338185045357237e-24,-6.807527063811368e-14
	-2.231017883857459e-04,2.573501584799518e-14
9		1.230268770812381e+00,0.000000000000000e+00
	-2.231017883857459e+00,2.633446137348762e-10
	1.000000000000000e+00,0.000000000000000e+00
	0.000000000000000e+00,0.000000000000000e+00
	2.231017883857459e-04,-2.633446137348762e-14
	2.448380311619250e-24,6.966094739159751e-14
	2.231017887793785e-12,-1.546252418390585e-15
	-2.231017906167638e-04,-4.178023359971931e-14
	-2.231017883857459e-04,2.633446137348762e-14
	-2.448380311619250e-24,-6.966094739159751e-14
	-2.231017883857459e-04,2.633446137348762e-14
10		1.258925411794167e+00,0.000000000000000e+00
	-2.231017883857459e+00,2.694786977897809e-10
	1.000000000000000e+00,0.000000000000000e+00
	0.000000000000000e+00,0.000000000000000e+00
	2.231017883857459e-04,-2.694786977897809e-14
	2.563768920782275e-24,7.128355930146002e-14
	2.231017887793785e-12,-1.582269264036257e-15
	-2.231017906167638e-04,-4.275342025844568e-14
	-2.231017883857459e-04,2.694786977897809e-14
	-2.563768920782275e-24,-7.128355930146001e-14
	-2.231017883857459e-04,2.694786977897809e-14
11		1.288249551693134e+00,0.000000000000000e+00
	-2.231017883857459e+00,2.757556630172259e-10
	1.000000000000000e+00,0.000000000000000e+00
	0.000000000000000e+00,0.000000000000000e+00
	2.231017883857459e-04,-2.757556630172259e-14
	2.684595627556765e-24,7.294396669801361e-14
	2.231017887793785e-12,-1.619125049789527e-15
	-2.231017906167638e-04,-4.374927534650149e-14
	-2.231017883857459e-04,2.757556630172259e-14
	-2.684595627556765e-24,-7.294396669801361e-14
	-2.231017883857459e-04,2.757556630172259e-14
12		1.318256738556407e+00,0.000000000000000e+00
	-2.231017883857459e+00,2.821788375472604e-10
	1.000000000000000e+00,0.000000000000000e+00
	0.000000000000000e+00,0.000000000000000e+00
	2.231017883857459e-04,-2.821788375472604e-14
	2.811116721587309e-24,7.464304995123803e-14
	2.231017887793785e-12,-1.656839317075851e-15
	-2.231017906167638e-04,-4.476832687943613e-14
	-2.231017883857459e-04,2.821788375472604e-14
	-2.811116721587309e-24,-7.464304995123801e-14
	-2.231017883857459e-04,2.821788375472604e-14
13		1.348962882591653e+00,0.000000000000000e+00
	-2.231017883857459e+00,2.887516270320409e-10
	1.000000000000000e+00,0.000000000000000e+00
	0.000000000000000e+00,0.000000000000000e+00
	2.231017883857459e-04,-2.887516270320409e-14
	2.943600571077324e-24,7.638170993756415e-14
	2.231017887793785e-12,-1.695432062498941e-15
	-2.231017906167638e-04,-4.581111517186112e-14
	-2.231017883857459e-04,2.887516270320409e-14
	-2.943600571077324e-24,-7.638170993756415e-14
	-2.231017883857459e-04,2.887516270320409e-14
14		1.380384264602885e+00,0.000000000000000e+00
	-2.231017883857459e+00,2.954775164515535e-10
	1.000000000000000e+00,0.000000000000000e+00
	0.000000000000000e+00,0.000000000000000e+00
	2.231017883857459e-04,-2.954775164515535e-14
	3.082328192033998e-24,7.816086851753066e-14
	2.231017887793785e-12,-1.734923748443282e-15
	-2.231017906167638e-04,-4.687819312393203e-14
	-2.231017883857459e-04,2.954775164515535e-14
	-3.082328192033998e-24,-7.816086851753064e-14
	-2.231017883857459e-04,2.954775164515535e-14
15		1.412537544622754e+00,0.000000000000000e+00
	-2.231017883857459e+00,3.023600719613959e-10
	1.000000000000000e+00,0.000000000000000e+00
	0.000000000000000e+00,0.000000000000000e+00
	2.231017883857459e-04,-3.023600719613958e-14
	3.227593844340913e-24,7.998146902456653e-14
	2.231017887793785e-12,-1.775335313923468e-15
	-2.231017906167638e-04,-4.797012651450347e-14
	-2.231017883857459e-04,3.023600719613958e-14
	-3.227593844340913e-24,-7.998146902456651e-14
	-2.231017883857459e-04,3.023600719613958e-14
16		1.445439770745927e+00,0.000000000000000e+00
	-2.231017883857459e+00,3.094029427836009e-10
	1.000000000000000e+00,0.000000000000000e+00
	0.000000000000000e+00,0.000000000000000e+00
	2.231017883857459e-04,-3.094029427836009e-14
	3.379705655922721e-24,8.184447676515912e-14
	2.231017887793785e-12,-1.816688185686436e-15
	-2.231017906167638e-04,-4.908749430111259e-14
	-2.231017883857459e-04,3.094029427836009e-14
	-3.379705655922721e-24,-8.184447676515912e-14
	-2.231017883857459e-04,3.094029427836009e-14
17		1.479108388168207e+00,0.000000000000000e+00
	-2.231017883857459e+00,3.166098631415018e-10
	1.000000000000000e+00,0.000000000000000e+00
	0.000000000000000e+00,0.000000000000000e+00
	2.231017883857459e-04,-3.166098631415019e-14
	3.538986276325770e-24,8.375087953067231e-14
	2.231017887793785e-12,-1.859004289572159e-15
	-2.231017906167638e-04,-5.023088892694996e-14
	-2.231017883857459e-04,3.166098631415018e-14
	-3.538986276325770e-24,-8.375087953067231e-14
	-2.231017883857459e-04,3.166098631415018e-14
18		1.513561248436208e+00,0.000000000000000e+00
	-2.231017883857459e+00,3.239846542396675e-10
	1.000000000000000e+00,0.000000000000000e+00
	0.000000000000000e+00,0.000000000000000e+00
	2.231017883857459e-04,-3.239846542396675e-14
	3.705773561101065e-24,8.570168812108664e-14
	2.231017887793785e-12,-1.902306062139064e-15
	-2.231017906167638e-04,-5.140091663498083e-14
	-2.231017883857459e-04,3.239846542396675e-14
	-3.705773561101065e-24,-8.570168812108664e-14
	-2.231017883857459e-04,3.239846542396675e-14
19		1.548816618912481e+00,0.000000000000000e+00
	-2.231017883857459e+00,3.315312262899549e-10
	1.000000000000000e+00,0.000000000000000e+00
	0.000000000000000e+00,0.000000000000000e+00
	2.231017883857459e-04,-3.315312262899549e-14
	3.880421288441169e-24,8.769793688093871e-14
	2.231017887793785e-12,-1.946616462560100e-15
	-2.231017906167638e-04,-5.259819778938312e-14
	-2.231017883857459e-04,3.315312262899549e-14
	-3.880421288441169e-24,-8.769793688093871e-14
	-2.231017883857459e-04,3.315312262899549e-14
20		1.584893192461113e+00,0.000000000000000e+00
	-2.231017883857459e+00,3.392535805847558e-10
	1.000000000000000e+00,0.000000000000000e+00
	0.000000000000000e+00,0.000000000000000e+00
	2.231017883857459e-04,-3.392535805847557e-14
	4.063299909591202e-24,8.974068424774448e-14
	2.231017887793785e-12,-1.991958984796101e-15
	-2.231017906167638e-04,-5.382336720447280e-14
	-2.231017883857459e-04,3.392535805847558e-14
	-4.063299909591202e-24,-8.974068424774446e-14
	-2.231017883857459e-04,3.392535805847558e-14
21		1.621810097358929e+00,0.000000000000000e+00
	-2.231017883857459e+00,3.471558116185346e-10
	1.000000000000000e+00,0.000000000000000e+00
	0.000000000000000e+00,0.000000000000000e+00
	2.231017883857459e-04,-3.471558116185347e-14
	4.254797334625585e-24,9.183101331319677e-14
	2.231017887793785e-12,-2.038357670052529e-15
	-2.231017906167638e-04,-5.507707448129078e-14
	-2.231017883857459e-04,3.471558116185346e-14
	-4.254797334625585e-24,-9.183101331319677e-14
	-2.231017883857459e-04,3.471558116185346e-14
22		1.659586907437560e+00,0.000000000000000e+00
	-2.231017883857459e+00,3.552421092587841e-10
	1.000000000000000e+00,0.000000000000000e+00
	0.000000000000000e+00,0.000000000000000e+00
	2.231017883857459e-04,-3.552421092587841e-14
	4.455319755257328e-24,9.397003239743490e-14
	2.231017887793785e-12,-2.085837119526480e-15
	-2.231017906167638e-04,-5.635998435203001e-14
	-2.231017883857459e-04,3.552421092587842e-14
	-4.455319755257328e-24,-9.397003239743490e-14
	-2.231017883857459e-04,3.552421092587842e-14
23		1.698243652461743e+00,0.000000000000000e+00
	-2.231017883857459e+00,3.635167609675477e-10
	1.000000000000000e+00,0.000000000000000e+00
	0.000000000000000e+00,0.000000000000000e+00
	2.231017883857459e-04,-3.635167609675478e-14
	4.665292506425093e-24,9.615887563669057e-14
	2.231017887793785e-12,-2.134422507450528e-15
	-2.231017906167638e-04,-5.767277703248526e-14
	-2.231017883857459e-04,3.635167609675477e-14
	-4.665292506425093e-24,-9.615887563669056e-14
	-2.231017883857459e-04,3.635167609675477e-14
24		1.737800828749374e+00,0.000000000000000e+00
	-2.231017883857459e+00,3.719841540746895e-10
	1.000000000000000e+00,0.000000000000000e+00
	0.000000000000000e+00,0.000000000000000e+00
	2.231017883857459e-04,-3.719841540746896e-14
	4.885160968485649e-24,9.839870358462198e-14
	2.231017887793785e-12,-2.184139594440433e-15
	-2.231017906167638e-04,-5.901614858271259e-14
	-2.231017883857459e-04,3.719841540746896e-14
	-4.885160968485649e-24,-9.839870358462197e-14
	-2.231017883857459e-04,3.719841540746896e-14
25		1.778279410038922e+00,0.000000000000000e+00
	-2.231017883857459e+00,3.806487781041141e-10
	1.000000000000000e+00,0.000000000000000e+00
	0.000000000000000e+00,0.000000000000000e+00
	2.231017883857459e-04,-3.806487781041141e-14
	5.115391511925303e-24,1.006907038276548e-13
	2.231017887793785e-12,-2.235014741153816e-15
	-2.231017906167638e-04,-6.039081127608956e-14
	-2.231017883857459e-04,3.806487781041141e-14
	-5.115391511925303e-24,-1.006907038276548e-13
	-2.231017883857459e-04,3.806487781041141e-14
26		1.819700858609982e+00,0.000000000000000e+00
	-2.231017883857459e+00,3.895152271541717e-10
	1.000000000000000e+00,0.000000000000000e+00
	0.000000000000000e+00,0.000000000000000e+00
	2.231017883857459e-04,-3.895152271541718e-14
	5.356472486594238e-24,1.030360916146560e-13
	2.231017887793785e-12,-2.287074922266882e-15
	-2.231017906167638e-04,-6.179749397697198e-14
	-2.231017883857459e-04,3.895152271541717e-14
	-5.356472486594238e-24,-1.030360916146560e-13
	-2.231017883857459e-04,3.895152271541717e-14
27		1.862087136662866e+00,0.000000000000000e+00
	-2.231017883857459e+00,3.985882023335101e-10
	1.000000000000000e+00,0.000000000000000e+00
	0.000000000000000e+00,0.000000000000000e+00
	2.231017883857459e-04,-3.985882023335100e-14
	5.608915257562017e-24,1.054361105012753e-13
	2.231017887793785e-12,-2.340347740776753e-15
	-2.231017906167638e-04,-6.323694252714754e-14
	-2.231017883857459e-04,3.985882023335101e-14
	-5.608915257562017e-24,-1.054361105012753e-13
	-2.231017883857459e-04,3.985882023335101e-14
28		1.905460717963246e+00,0.000000000000000e+00
	-2.231017883857459e+00,4.078725142536641e-10
	1.000000000000000e+00,0.000000000000000e+00
	0.000000000000000e+00,0.000000000000000e+00
	2.231017883857459e-04,-4.078725142536642e-14
	5.873255289791449e-24,1.078920330092942e-13
	2.231017887793785e-12,-2.394861442636933e-15
	-2.231017906167638e-04,-6.470992014129088e-14
	-2.231017883857459e-04,4.078725142536641e-14
	-5.873255289791449e-24,-1.078920330092942e-13
	-2.231017883857459e-04,4.078725142536641e-14
29		1.949844599758044e+00,0.000000000000000e+00
	-2.231017883857459e+00,4.173730855797065e-10
	1.000000000000000e+00,0.000000000000000e+00
	0.000000000000000e+00,0.000000000000000e+00
	2.231017883857459e-04,-4.173730855797065e-14
	6.150053283931587e-24,1.104051613013346e-13
	2.231017887793785e-12,-2.450644931733759e-15
	-2.231017906167638e-04,-6.621720781163019e-14
	-2.231017883857459e-04,4.173730855797066e-14
	-6.150053283931587e-24,-1.104051613013346e-13
	-2.231017883857459e-04,4.173730855797066e-14
30		1.995262314968878e+00,0.000000000000000e+00
	-2.231017883857459e+00,4.270949536403091e-10
	1.000000000000000e+00,0.000000000000000e+00
	0.000000000000000e+00,0.000000000000000e+00
	2.231017883857459e-04,-4.270949536403091e-14
	6.439896365638948e-24,1.129768278712820e-13
	2.231017887793785e-12,-2.507727785211514e-15
	-2.231017906167638e-04,-6.775960472203958e-14
	-2.231017883857459e-04,4.270949536403091e-14
	-6.439896365638948e-24,-1.129768278712820e-13
	-2.231017883857459e-04,4.270949536403091e-14
31		2.041737944669527e+00,0.000000000000000e+00
	-2.231017883857459e+00,4.370432730986019e-10
	1.000000000000000e+00,0.000000000000000e+00
	0.000000000000000e+00,0.000000000000000e+00
	2.231017883857459e-04,-4.370432730986018e-14
	6.743399330949776e-24,1.156083962507918e-13
	2.231017887793785e-12,-2.566140269154673e-15
	-2.231017906167638e-04,-6.933792867177699e-14
	-2.231017883857459e-04,4.370432730986019e-14
	-6.743399330949776e-24,-1.156083962507918e-13
	-2.231017883857459e-04,4.370432730986019e-14
32		2.089296130854037e+00,0.000000000000000e+00
	-2.231017883857459e+00,4.472233186852432e-10
	1.000000000000000e+00,0.000000000000000e+00
	0.000000000000000e+00,0.000000000000000e+00
	2.231017883857459e-04,-4.472233186852431e-14
	7.061205950344848e-24,1.183012617322519e-13
	2.231017887793785e-12,-2.625913354635444e-15
	-2.231017906167638e-04,-7.095301650909217e-14
	-2.231017883857459e-04,4.472233186852432e-14
	-7.061205950344848e-24,-1.183012617322519e-13
	-2.231017883857459e-04,4.472233186852432e-14
33		2.137962089502230e+00,0.000000000000000e+00
	-2.231017883857459e+00,4.576404879951517e-10
	1.000000000000000e+00,0.000000000000000e+00
	0.000000000000000e+00,0.000000000000000e+00
	2.231017883857459e-04,-4.576404879951517e-14
	7.393990334272969e-24,1.210568521085847e-13
	2.231017887793785e-12,-2.687078734134899e-15
	-2.231017906167638e-04,-7.260572457493466e-14
	-2.231017883857459e-04,4.576404879951517e-14
	-7.393990334272969e-24,-1.210568521085847e-13
	-2.231017883857459e-04,4.576404879951517e-14
34		2.187761623949550e+00,0.000000000000000e+00
	-2.231017883857459e+00,4.683003043493833e-10
	1.000000000000000e+00,0.000000000000000e+00
	0.000000000000000e+00,0.000000000000000e+00
	2.231017883857459e-04,-4.683003043493833e-14
	7.742458363029638e-24,1.238766284302824e-13
	2.231017887793785e-12,-2.749668838346879e-15
	-2.231017906167638e-04,-7.429692915699717e-14
	-2.231017883857459e-04,4.683003043493833e-14
	-7.742458363029638e-24,-1.238766284302824e-13
	-2.231017883857459e-04,4.683003043493833e-14
35		2.238721138568337e+00,0.000000000000000e+00
	-2.231017883857459e+00,4.792084197236683e-10
	1.000000000000000e+00,0.000000000000000e+00
	0.000000000000000e+00,0.000000000000000e+00
	2.231017883857459e-04,-4.792084197236682e-14
	8.107349184023770e-24,1.267620857800748e-13
	2.231017887793785e-12,-2.813716853373120e-15
	-2.231017906167638e-04,-7.602752695433485e-14
	-2.231017883857459e-04,4.792084197236683e-14
	-8.107349184023770e-24,-1.267620857800748e-13
	-2.231017883857459e-04,4.792084197236683e-14
36		2.290867652767770e+00,0.000000000000000e+00
	-2.231017883857459e+00,4.903706177451641e-10
	1.000000000000000e+00,0.000000000000000e+00
	0.000000000000000e+00,0.000000000000000e+00
	2.231017883857459e-04,-4.903706177451641e-14
	8.489436779608457e-24,1.297147540656424e-13
	2.231017887793785e-12,-2.879256738318957e-15
	-2.231017906167638e-04,-7.779843555280699e-14
	-2.231017883857459e-04,4.903706177451641e-14
	-8.489436779608457e-24,-1.297147540656423e-13
	-2.231017883857459e-04,4.903706177451641e-14
37		2.344228815319919e+00,0.000000000000000e+00
	-2.231017883857459e+00,5.017928167590107e-10
	1.000000000000000e+00,0.000000000000000e+00
	0.000000000000000e+00,0.000000000000000e+00
	2.231017883857459e-04,-5.017928167590108e-14
	8.889531608801305e-24,1.327361988307933e-13
	2.231017887793785e-12,-2.946323243298942e-15
	-2.231017906167638e-04,-7.961059391159326e-14
	-2.231017883857459e-04,5.017928167590108e-14
	-8.889531608801305e-24,-1.327361988307933e-13
	-2.231017883857459e-04,5.017928167590108e-14
38		2.398832919019488e+00,0.000000000000000e+00
	-2.231017883857459e+00,5.134810729663163e-10
	1.000000000000000e+00,0.000000000000000e+00
