LTspice 24.0.9 for Windows
Circuit: * GA CMOS Amp | W=1.4082189529527377e-05 L=1e-06 Vbias=0.9763442801344626
Start Time: Mon Sep  8 18:44:25 2025
solver = Normal
Maximum thread count: 2
tnom = 27
temp = 27
method = modified trap
AsciiRawFile = 1
Direct Newton iteration for .op point succeeded.
Semiconductor Device Operating Points:
                        --- MOSFET Transistors ---
Name:          m1
Model:        n_1u
Id:          3.94e-05
Vgs:         9.76e-01
Vds:         1.41e+00
Vbs:         0.00e+00
Vth:         8.16e-01
Vdsat:       1.75e-01
Gm:          3.36e-04
Gds:         5.21e-06
Gmb:         8.32e-05
Cbd:         0.00e+00
Cbs:         0.00e+00
Cgsov:       2.82e-15
Cgdov:       2.82e-15
Cgbov:       8.00e-17
Cgs:         1.30e-14
Cgd:         0.00e+00
Cgb:         0.00e+00



gain_db: MAX(db(v(out)/v(g)))=(29.2763dB,69.699°) FROM 1 TO 1e+09
gain_lin: MAX(mag(v(out)/v(g)))=(10.0945dB,0°) FROM 1 TO 1e+09

Measurement "fc" FAIL'ed

Total elapsed time: 0.422 seconds.

