LTspice 24.0.9 for Windows
Circuit: * GA CMOS Amp | W=1e-06 L=8.600593170064845e-07 Vbias=1.0555196442073642
Start Time: Mon Sep  8 18:45:23 2025
solver = Normal
Maximum thread count: 2
tnom = 27
temp = 27
method = modified trap
AsciiRawFile = 1
Instance "m1": Length shorter than recommended for a level 3 MOSFET.
Instance "m1": Width narrower than recommended for a level 3 MOSFET.
Direct Newton iteration for .op point succeeded.
Semiconductor Device Operating Points:
                        --- MOSFET Transistors ---
Name:          m1
Model:        n_1u
Id:          9.81e-07
Vgs:         1.06e+00
Vds:         1.79e+00
Vbs:         0.00e+00
Vth:         9.91e-01
Vdsat:       8.44e-02
Gm:          1.53e-05
Gds:         1.07e-07
Gmb:         7.67e-06
Cbd:         0.00e+00
Cbs:         0.00e+00
Cgsov:       2.00e-16
Cgdov:       2.00e-16
Cgbov:       6.60e-17
Cgs:         7.60e-16
Cgd:         0.00e+00
Cgb:         0.00e+00



gain_db: MAX(db(v(out)/v(g)))=(30.0465dB,120.874°) FROM 1 TO 1e+09
gain_lin: MAX(mag(v(out)/v(g)))=(-16.2858dB,0°) FROM 1 TO 1e+09

Measurement "fc" FAIL'ed

Total elapsed time: 0.649 seconds.

