LTspice 24.0.9 for Windows
Circuit: * GA CMOS Amp | W=3.0086192859865003e-05 L=1e-06 Vbias=1.4355963460073042
Start Time: Mon Sep  8 18:44:40 2025
solver = Normal
Maximum thread count: 2
tnom = 27
temp = 27
method = modified trap
AsciiRawFile = 1
Direct Newton iteration for .op point succeeded.
Semiconductor Device Operating Points:
                        --- MOSFET Transistors ---
Name:          m1
Model:        n_1u
Id:          1.73e-04
Vgs:         1.44e+00
Vds:         6.68e-02
Vbs:         0.00e+00
Vth:         8.08e-01
Vdsat:       4.70e-01
Gm:          2.53e-04
Gds:         2.32e-03
Gmb:         6.44e-05
Cbd:         0.00e+00
Cbs:         0.00e+00
Cgsov:       6.02e-15
Cgdov:       6.02e-15
Cgbov:       8.00e-17
Cgs:         2.18e-14
Cgd:         1.97e-14
Cgb:         0.00e+00



gain_db: MAX(db(v(out)/v(g)))=(30.5275dB,125.702°) FROM 1 TO 1e+09
gain_lin: MAX(mag(v(out)/v(g)))=(-18.0629dB,0°) FROM 1 TO 1e+09

Measurement "fc" FAIL'ed

Total elapsed time: 0.437 seconds.

