Title: * GA CMOS Amp | W=1e-06 L=8.91830098703086e-07 Vbias=0.9641993608364058
Date: Mon Sep  8 18:44:21 2025
Plotname: AC Analysis
Flags: complex forward log
No. Variables: 11
No. Points:          901
Offset:    0.0000000000000000e+00
Command: Linear Technology Corporation LTspice
Variables:
	0	frequency	frequency
	1	V(out)	voltage
	2	V(g)	voltage
	3	V(vdd)	voltage
	4	Id(M1)	device_current
	5	Ig(M1)	device_current
	6	Ib(M1)	device_current
	7	Is(M1)	device_current
	8	I(Rload)	device_current
	9	I(Vg)	device_current
	10	I(Vdd)	device_current
Values:
0		1.000000000000000e+00,0.000000000000000e+00
	-2.323096636491580e-02,1.285724338622170e-11
	1.000000000000000e+00,0.000000000000000e+00
	0.000000000000000e+00,0.000000000000000e+00
	2.323096636491580e-06,-1.285724338622171e-15
	1.615688854702802e-26,8.177200712558041e-15
	2.323096616875346e-14,-6.312472338040372e-16
	-2.323096659722546e-06,-6.260229140131833e-15
	-2.323096636491580e-06,1.285724338622171e-15
	-1.615688854702802e-26,-8.177200712558043e-15
	-2.323096636491580e-06,1.285724338622171e-15
1		1.023292992280754e+00,0.000000000000000e+00
	-2.323096636491580e-02,1.315672705716874e-11
	1.000000000000000e+00,0.000000000000000e+00
	0.000000000000000e+00,0.000000000000000e+00
	2.323096636491580e-06,-1.315672705716874e-15
	1.691833924526966e-26,8.367672185633834e-15
	2.323096616875346e-14,-6.459508707482839e-16
	-2.323096659722546e-06,-6.406048609168676e-15
	-2.323096636491580e-06,1.315672705716874e-15
	-1.691833924526966e-26,-8.367672185633836e-15
	-2.323096636491580e-06,1.315672705716874e-15
2		1.047128548050899e+00,0.000000000000000e+00
	-2.323096636491580e-02,1.346318659895136e-11
	1.000000000000000e+00,0.000000000000000e+00
	0.000000000000000e+00,0.000000000000000e+00
	2.323096636491580e-06,-1.346318659895136e-15
	1.771567600933177e-26,8.562580309261684e-15
	2.323096616875346e-14,-6.609969993943710e-16
	-2.323096659722546e-06,-6.555264649972177e-15
	-2.323096636491580e-06,1.346318659895136e-15
	-1.771567600933177e-26,-8.562580309261684e-15
	-2.323096636491580e-06,1.346318659895136e-15
3		1.071519305237606e+00,0.000000000000000e+00
	-2.323096636491580e-02,1.377678450047509e-11
	1.000000000000000e+00,0.000000000000000e+00
	0.000000000000000e+00,0.000000000000000e+00
	2.323096636491580e-06,-1.377678450047509e-15
	1.855059009739172e-26,8.762028426308653e-15
	2.323096616875346e-14,-6.763935973988657e-16
	-2.323096659722546e-06,-6.707956378862278e-15
	-2.323096636491580e-06,1.377678450047509e-15
	-1.855059009739172e-26,-8.762028426308654e-15
	-2.323096636491580e-06,1.377678450047509e-15
4		1.096478196143185e+00,0.000000000000000e+00
	-2.323096636491580e-02,1.409768703549826e-11
	1.000000000000000e+00,0.000000000000000e+00
	0.000000000000000e+00,0.000000000000000e+00
	2.323096636491580e-06,-1.409768703549827e-15
	1.942485247416919e-26,8.966122286806405e-15
	2.323096616875346e-14,-6.921488282418269e-16
	-2.323096659722546e-06,-6.864204755014751e-15
	-2.323096636491580e-06,1.409768703549827e-15
	-1.942485247416919e-26,-8.966122286806406e-15
	-2.323096636491580e-06,1.409768703549827e-15
5		1.122018454301963e+00,0.000000000000000e+00
	-2.323096636491580e-02,1.442606435079262e-11
	1.000000000000000e+00,0.000000000000000e+00
	0.000000000000000e+00,0.000000000000000e+00
	2.323096636491580e-06,-1.442606435079262e-15
	2.034031756737971e-26,9.174970104021286e-15
	2.323096616875346e-14,-7.082710455551975e-16
	-2.323096659722546e-06,-7.024092623386827e-15
	-2.323096636491580e-06,1.442606435079262e-15
	-2.034031756737971e-26,-9.174970104021288e-15
	-2.323096636491580e-06,1.442606435079262e-15
6		1.148153621496882e+00,0.000000000000000e+00
	-2.323096636491580e-02,1.476209055635729e-11
	1.000000000000000e+00,0.000000000000000e+00
	0.000000000000000e+00,0.000000000000000e+00
	2.323096636491580e-06,-1.476209055635729e-15
	2.129892720122452e-26,9.388682611830404e-15
	2.323096616875346e-14,-7.247687975519963e-16
	-2.323096659722546e-06,-7.187704758642678e-15
	-2.323096636491580e-06,1.476209055635729e-15
	-2.129892720122452e-26,-9.388682611830405e-15
	-2.323096636491580e-06,1.476209055635729e-15
7		1.174897554939529e+00,0.000000000000000e+00
	-2.323096636491580e-02,1.510594381773431e-11
	1.000000000000000e+00,0.000000000000000e+00
	0.000000000000000e+00,0.000000000000000e+00
	2.323096636491580e-06,-1.510594381773431e-15
	2.230271471526003e-26,9.607373123434218e-15
	2.323096616875346e-14,-7.416508315587055e-16
	-2.323096659722546e-06,-7.355127910102081e-15
	-2.323096636491580e-06,1.510594381773431e-15
	-2.230271471526003e-26,-9.607373123434220e-15
	-2.323096636491580e-06,1.510594381773431e-15
8		1.202264434617413e+00,0.000000000000000e+00
	-2.323096636491580e-02,1.545780645047430e-11
	1.000000000000000e+00,0.000000000000000e+00
	0.000000000000000e+00,0.000000000000000e+00
	2.323096636491580e-06,-1.545780645047430e-15
	2.335380927738367e-26,9.831157591436698e-15
	2.323096616875346e-14,-7.589260986532188e-16
	-2.323096659722546e-06,-7.526450847736049e-15
	-2.323096636491580e-06,1.545780645047430e-15
	-2.335380927738367e-26,-9.831157591436699e-15
	-2.323096636491580e-06,1.545780645047430e-15
9		1.230268770812381e+00,0.000000000000000e+00
	-2.323096636491580e-02,1.581786501680259e-11
	1.000000000000000e+00,0.000000000000000e+00
	0.000000000000000e+00,0.000000000000000e+00
	2.323096636491580e-06,-1.581786501680259e-15
	2.445444040008439e-26,1.006015466932491e-14
	2.323096616875346e-14,-7.766037584108099e-16
	-2.323096659722546e-06,-7.701764409233840e-15
	-2.323096636491580e-06,1.581786501680259e-15
	-2.445444040008439e-26,-1.006015466932491e-14
	-2.323096636491580e-06,1.581786501680259e-15
10		1.258925411794167e+00,0.000000000000000e+00
	-2.323096636491580e-02,1.618631042453699e-11
	1.000000000000000e+00,0.000000000000000e+00
	0.000000000000000e+00,0.000000000000000e+00
	2.323096636491580e-06,-1.618631042453699e-15
	2.560694266953763e-26,1.029448577438069e-14
	2.323096616875346e-14,-7.946931837606795e-16
	-2.323096659722546e-06,-7.881161548166310e-15
	-2.323096636491580e-06,1.618631042453699e-15
	-2.560694266953763e-26,-1.029448577438069e-14
	-2.323096636491580e-06,1.618631042453699e-15
11		1.288249551693134e+00,0.000000000000000e+00
	-2.323096636491580e-02,1.656333802830962e-11
	1.000000000000000e+00,0.000000000000000e+00
	0.000000000000000e+00,0.000000000000000e+00
	2.323096636491580e-06,-1.656333802830962e-15
	2.681376069757557e-26,1.053427515205767e-14
	2.323096616875346e-14,-8.132039659555842e-16
	-2.323096659722546e-06,-8.064737383271125e-15
	-2.323096636491580e-06,1.656333802830962e-15
	-2.681376069757557e-26,-1.053427515205767e-14
	-2.323096636491580e-06,1.656333802830962e-15
12		1.318256738556407e+00,0.000000000000000e+00
	-2.323096636491580e-02,1.694914773314656e-11
	1.000000000000000e+00,0.000000000000000e+00
	0.000000000000000e+00,0.000000000000000e+00
	2.323096636491580e-06,-1.694914773314656e-15
	2.807745430703658e-26,1.077964994185789e-14
	2.323096616875346e-14,-8.321459196572660e-16
	-2.323096659722546e-06,-8.252589248885969e-15
	-2.323096636491580e-06,1.694914773314656e-15
	-2.807745430703658e-26,-1.077964994185789e-14
	-2.323096636491580e-06,1.694914773314656e-15
13		1.348962882591653e+00,0.000000000000000e+00
	-2.323096636491580e-02,1.734394410046010e-11
	1.000000000000000e+00,0.000000000000000e+00
	0.000000000000000e+00,0.000000000000000e+00
	2.323096636491580e-06,-1.734394410046010e-15
	2.940070396149269e-26,1.103074024474282e-14
	2.323096616875346e-14,-8.515290881403042e-16
	-2.323096659722546e-06,-8.444816746556504e-15
	-2.323096636491580e-06,1.734394410046010e-15
	-2.940070396149269e-26,-1.103074024474282e-14
	-2.323096636491580e-06,1.734394410046010e-15
14		1.380384264602885e+00,0.000000000000000e+00
	-2.323096636491580e-02,1.774793645650995e-11
	1.000000000000000e+00,0.000000000000000e+00
	0.000000000000000e+00,0.000000000000000e+00
	2.323096636491580e-06,-1.774793645650995e-15
	3.078631645087217e-26,1.128767919211462e-14
	2.323096616875346e-14,-8.713637486171930e-16
	-2.323096659722546e-06,-8.641521797846429e-15
	-2.323096636491580e-06,1.774793645650995e-15
	-3.078631645087217e-26,-1.128767919211462e-14
	-2.323096636491580e-06,1.774793645650995e-15
15		1.412537544622754e+00,0.000000000000000e+00
	-2.323096636491580e-02,1.816133900339075e-11
	1.000000000000000e+00,0.000000000000000e+00
	0.000000000000000e+00,0.000000000000000e+00
	2.323096636491580e-06,-1.816133900339075e-15
	3.223723084503730e-26,1.155060301640417e-14
	2.323096616875346e-14,-8.916604176874613e-16
	-2.323096659722546e-06,-8.842808698377634e-15
	-2.323096636491580e-06,1.816133900339075e-15
	-3.223723084503730e-26,-1.155060301640417e-14
	-2.323096636491580e-06,1.816133900339075e-15
16		1.445439770745927e+00,0.000000000000000e+00
	-2.323096636491580e-02,1.858437093260488e-11
	1.000000000000000e+00,0.000000000000000e+00
	0.000000000000000e+00,0.000000000000000e+00
	2.323096636491580e-06,-1.858437093260489e-15
	3.375652472794556e-26,1.181965112330333e-14
	2.323096616875346e-14,-9.124298569137112e-16
	-2.323096659722546e-06,-9.048784173129127e-15
	-2.323096636491580e-06,1.858437093260488e-15
	-3.375652472794556e-26,-1.181965112330333e-14
	-2.323096636491580e-06,1.858437093260488e-15
17		1.479108388168207e+00,0.000000000000000e+00
	-2.323096636491580e-02,1.901725654128072e-11
	1.000000000000000e+00,0.000000000000000e+00
	0.000000000000000e+00,0.000000000000000e+00
	2.323096636491580e-06,-1.901725654128072e-15
	3.534742072561793e-26,1.209496616567964e-14
	2.323096616875346e-14,-9.336830785275320e-16
	-2.323096659722546e-06,-9.259557433024034e-15
	-2.323096636491580e-06,1.901725654128072e-15
	-3.534742072561793e-26,-1.209496616567964e-14
	-2.323096636491580e-06,1.901725654128072e-15
18		1.513561248436208e+00,0.000000000000000e+00
	-2.323096636491580e-02,1.946022535109790e-11
	1.000000000000000e+00,0.000000000000000e+00
	0.000000000000000e+00,0.000000000000000e+00
	2.323096636491580e-06,-1.946022535109790e-15
	3.701329334176058e-26,1.237669411921280e-14
	2.323096616875346e-14,-9.554313512683440e-16
	-2.323096659722546e-06,-9.475240232834662e-15
	-2.323096636491580e-06,1.946022535109790e-15
	-3.701329334176058e-26,-1.237669411921280e-14
	-2.323096636491580e-06,1.946022535109790e-15
19		1.548816618912481e+00,0.000000000000000e+00
	-2.323096636491580e-02,1.991351222998275e-11
	1.000000000000000e+00,0.000000000000000e+00
	0.000000000000000e+00,0.000000000000000e+00
	2.323096636491580e-06,-1.991351222998276e-15
	3.875767611553977e-26,1.266498435979287e-14
	2.323096616875346e-14,-9.776862063582270e-16
	-2.323096659722546e-06,-9.695946930436371e-15
	-2.323096636491580e-06,1.991351222998275e-15
	-3.875767611553977e-26,-1.266498435979288e-14
	-2.323096636491580e-06,1.991351222998275e-15
20		1.584893192461113e+00,0.000000000000000e+00
	-2.323096636491580e-02,2.037735751663845e-11
	1.000000000000000e+00,0.000000000000000e+00
	0.000000000000000e+00,0.000000000000000e+00
	2.323096636491580e-06,-2.037735751663845e-15
	4.058426911669220e-26,1.295998974272140e-14
	2.323096616875346e-14,-1.000459443615931e-15
	-2.323096659722546e-06,-9.921794547441627e-15
	-2.323096636491580e-06,2.037735751663845e-15
	-4.058426911669220e-26,-1.295998974272140e-14
	-2.323096636491580e-06,2.037735751663845e-15
21		1.621810097358929e+00,0.000000000000000e+00
	-2.323096636491580e-02,2.085200714797567e-11
	1.000000000000000e+00,0.000000000000000e+00
	0.000000000000000e+00,0.000000000000000e+00
	2.323096636491580e-06,-2.085200714797567e-15
	4.249694679386884e-26,1.326186668375726e-14
	2.323096616875346e-14,-1.023763137713284e-15
	-2.323096659722546e-06,-1.015290283124641e-14
	-2.323096636491580e-06,2.085200714797567e-15
	-4.249694679386884e-26,-1.326186668375726e-14
	-2.323096636491580e-06,2.085200714797567e-15
22		1.659586907437560e+00,0.000000000000000e+00
	-2.323096636491580e-02,2.133771278951170e-11
	1.000000000000000e+00,0.000000000000000e+00
	0.000000000000000e+00,0.000000000000000e+00
	2.323096636491580e-06,-2.133771278951170e-15
	4.449976619286022e-26,1.357077524205041e-14
	2.323096616875346e-14,-1.047609644577359e-15
	-2.323096659722546e-06,-1.038939431852188e-14
	-2.323096636491580e-06,2.133771278951170e-15
	-4.449976619286022e-26,-1.357077524205041e-14
	-2.323096636491580e-06,2.133771278951170e-15
23		1.698243652461743e+00,0.000000000000000e+00
	-2.323096636491580e-02,2.183473196880674e-11
	1.000000000000000e+00,0.000000000000000e+00
	0.000000000000000e+00,0.000000000000000e+00
	2.323096636491580e-06,-2.183473196880674e-15
	4.659697556213422e-26,1.388687920500734e-14
	2.323096616875346e-14,-1.072011607941745e-15
	-2.323096659722546e-06,-1.063139440018492e-14
	-2.323096636491580e-06,2.183473196880674e-15
	-4.659697556213422e-26,-1.388687920500734e-14
	-2.323096636491580e-06,2.183473196880674e-15
24		1.737800828749374e+00,0.000000000000000e+00
	-2.323096636491580e-02,2.234332821200849e-11
	1.000000000000000e+00,0.000000000000000e+00
	0.000000000000000e+00,0.000000000000000e+00
	2.323096636491580e-06,-2.234332821200849e-15
	4.879302336394086e-26,1.421034617513334e-14
	2.323096616875346e-14,-1.096981966050407e-15
	-2.323096659722546e-06,-1.087903138788208e-14
	-2.323096636491580e-06,2.234332821200849e-15
	-4.879302336394086e-26,-1.421034617513334e-14
	-2.323096636491580e-06,2.234332821200849e-15
25		1.778279410038922e+00,0.000000000000000e+00
	-2.323096636491580e-02,2.286377118357716e-11
	1.000000000000000e+00,0.000000000000000e+00
	0.000000000000000e+00,0.000000000000000e+00
	2.323096636491580e-06,-2.286377118357716e-15
	5.109256771009701e-26,1.454134765889757e-14
	2.323096616875346e-14,-1.122533958517749e-15
	-2.323096659722546e-06,-1.113243658202210e-14
	-2.323096636491580e-06,2.286377118357716e-15
	-5.109256771009701e-26,-1.454134765889757e-14
	-2.323096636491580e-06,2.286377118357716e-15
26		1.819700858609982e+00,0.000000000000000e+00
	-2.323096636491580e-02,2.339633682926515e-11
	1.000000000000000e+00,0.000000000000000e+00
	0.000000000000000e+00,0.000000000000000e+00
	2.323096636491580e-06,-2.339633682926515e-15
	5.350048624246613e-26,1.488005915766803e-14
	2.323096616875346e-14,-1.148681133348386e-15
	-2.323096659722546e-06,-1.139174434139313e-14
	-2.323096636491580e-06,2.339633682926515e-15
	-5.350048624246613e-26,-1.488005915766803e-14
	-2.323096636491580e-06,2.339633682926515e-15
27		1.862087136662866e+00,0.000000000000000e+00
	-2.323096636491580e-02,2.394130752242715e-11
	1.000000000000000e+00,0.000000000000000e+00
	0.000000000000000e+00,0.000000000000000e+00
	2.323096636491580e-06,-2.394130752242715e-15
	5.602188647909070e-26,1.522666026076475e-14
	2.323096616875346e-14,-1.175437354120514e-15
	-2.323096659722546e-06,-1.165709215440152e-14
	-2.323096636491580e-06,2.394130752242715e-15
	-5.602188647909070e-26,-1.522666026076475e-14
	-2.323096636491580e-06,2.394130752242715e-15
28		1.905460717963246e+00,0.000000000000000e+00
	-2.323096636491580e-02,2.449897221373820e-11
	1.000000000000000e+00,0.000000000000000e+00
	0.000000000000000e+00,0.000000000000000e+00
	2.323096636491580e-06,-2.449897221373820e-15
	5.866211664792254e-26,1.558133474068041e-14
	2.323096616875346e-14,-1.202816807336559e-15
	-2.323096659722546e-06,-1.192862071197003e-14
	-2.323096636491580e-06,2.449897221373820e-15
	-5.866211664792254e-26,-1.558133474068041e-14
	-2.323096636491580e-06,2.449897221373820e-15
29		1.949844599758044e+00,0.000000000000000e+00
	-2.323096636491580e-02,2.506962658439922e-11
	1.000000000000000e+00,0.000000000000000e+00
	0.000000000000000e+00,0.000000000000000e+00
	2.323096636491580e-06,-2.506962658439922e-15
	6.142677703113165e-26,1.594427065051893e-14
	2.323096616875346e-14,-1.230834009945008e-15
	-2.323096659722546e-06,-1.220647398213400e-14
	-2.323096636491580e-06,2.506962658439922e-15
	-6.142677703113165e-26,-1.594427065051893e-14
	-2.323096636491580e-06,2.506962658439922e-15
30		1.995262314968878e+00,0.000000000000000e+00
	-2.323096636491580e-02,2.565357320291101e-11
	1.000000000000000e+00,0.000000000000000e+00
	0.000000000000000e+00,0.000000000000000e+00
	2.323096636491580e-06,-2.565357320291102e-15
	6.432173184405521e-26,1.631566042370372e-14
	2.323096616875346e-14,-1.259503817037546e-15
	-2.323096659722546e-06,-1.249079928637507e-14
	-2.323096636491580e-06,2.565357320291102e-15
	-6.432173184405521e-26,-1.631566042370372e-14
	-2.323096636491580e-06,2.565357320291102e-15
31		2.041737944669527e+00,0.000000000000000e+00
	-2.323096636491580e-02,2.625112168550017e-11
	1.000000000000000e+00,0.000000000000000e+00
	0.000000000000000e+00,0.000000000000000e+00
	2.323096636491580e-06,-2.625112168550018e-15
	6.735312167398481e-26,1.669570097600845e-14
	2.323096616875346e-14,-1.288841429725383e-15
	-2.323096659722546e-06,-1.278174737773305e-14
	-2.323096636491580e-06,2.625112168550017e-15
	-6.735312167398481e-26,-1.669570097600845e-14
	-2.323096636491580e-06,2.625112168550017e-15
32		2.089296130854037e+00,0.000000000000000e+00
	-2.323096636491580e-02,2.686258886028167e-11
	1.000000000000000e+00,0.000000000000000e+00
	0.000000000000000e+00,0.000000000000000e+00
	2.323096636491580e-06,-2.686258886028168e-15
	7.052737650517531e-26,1.708459380996440e-14
	2.323096616875346e-14,-1.318862403199092e-15
	-2.323096659722546e-06,-1.307947252073714e-14
	-2.323096636491580e-06,2.686258886028167e-15
	-7.052737650517531e-26,-1.708459380996440e-14
	-2.323096636491580e-06,2.686258886028167e-15
33		2.137962089502230e+00,0.000000000000000e+00
	-2.323096636491580e-02,2.748829893524528e-11
	1.000000000000000e+00,0.000000000000000e+00
	0.000000000000000e+00,0.000000000000000e+00
	2.323096636491580e-06,-2.748829893524529e-15
	7.385122935770334e-26,1.748254512169972e-14
	2.323096616875346e-14,-1.349582654976187e-15
	-2.323096659722546e-06,-1.338413257319900e-14
	-2.323096636491580e-06,2.748829893524528e-15
	-7.385122935770334e-26,-1.748254512169972e-14
	-2.323096636491580e-06,2.748829893524528e-15
34		2.187761623949550e+00,0.000000000000000e+00
	-2.323096636491580e-02,2.812858367015501e-11
	1.000000000000000e+00,0.000000000000000e+00
	0.000000000000000e+00,0.000000000000000e+00
	2.323096636491580e-06,-2.812858367015501e-15
	7.733173056910585e-26,1.788976591026740e-14
	2.323096616875346e-14,-1.381018473340785e-15
	-2.323096659722546e-06,-1.369588906991112e-14
	-2.323096636491580e-06,2.812858367015501e-15
	-7.733173056910585e-26,-1.788976591026740e-14
	-2.323096636491580e-06,2.812858367015501e-15
35		2.238721138568337e+00,0.000000000000000e+00
	-2.323096636491580e-02,2.878378255245248e-11
	1.000000000000000e+00,0.000000000000000e+00
	0.000000000000000e+00,0.000000000000000e+00
	2.323096636491580e-06,-2.878378255245248e-15
	8.097626274909117e-26,1.830647208951976e-14
	2.323096616875346e-14,-1.413186525979892e-15
	-2.323096659722546e-06,-1.401490730829462e-14
	-2.323096636491580e-06,2.878378255245248e-15
	-8.097626274909117e-26,-1.830647208951976e-14
	-2.323096636491580e-06,2.878378255245248e-15
36		2.290867652767770e+00,0.000000000000000e+00
	-2.323096636491580e-02,2.945424297725766e-11
	1.000000000000000e+00,0.000000000000000e+00
	0.000000000000000e+00,0.000000000000000e+00
	2.323096636491580e-06,-2.945424297725766e-15
	8.479255643904397e-26,1.873288460258878e-14
	2.323096616875346e-14,-1.446103868820808e-15
	-2.323096659722546e-06,-1.434135643604221e-14
	-2.323096636491580e-06,2.945424297725766e-15
	-8.479255643904397e-26,-1.873288460258879e-14
	-2.323096636491580e-06,2.945424297725766e-15
37		2.344228815319919e+00,0.000000000000000e+00
	-2.323096636491580e-02,3.014032043156238e-11
	1.000000000000000e+00,0.000000000000000e+00
	0.000000000000000e+00,0.000000000000000e+00
	2.323096636491580e-06,-3.014032043156238e-15
	8.878870650954006e-26,1.916922953903314e-14
	2.323096616875346e-14,-1.479787955074415e-15
	-2.323096659722546e-06,-1.467540954080249e-14
	-2.323096636491580e-06,3.014032043156238e-15
	-8.878870650954006e-26,-1.916922953903314e-14
	-2.323096636491580e-06,3.014032043156238e-15
38		2.398832919019488e+00,0.000000000000000e+00
	-2.323096636491580e-02,3.084237868271421e-11
	1.000000000000000e+00,0.000000000000000e+00
	0.000000000000000e+00,0.000000000000000e+00
