LTspice 24.0.9 for Windows
Circuit: * GA CMOS Amp | W=7.466334824891058e-06 L=5.720187469822179e-07 Vbias=0.9862539978188704
Start Time: Mon Sep  8 18:43:08 2025
solver = Normal
Maximum thread count: 2
tnom = 27
temp = 27
method = modified trap
AsciiRawFile = 1
Instance "m1": Length shorter than recommended for a level 3 MOSFET.
Direct Newton iteration for .op point succeeded.
Semiconductor Device Operating Points:
                        --- MOSFET Transistors ---
Name:          m1
Model:        n_1u
Id:          6.58e-05
Vgs:         9.86e-01
Vds:         1.14e+00
Vbs:         0.00e+00
Vth:         7.64e-01
Vdsat:       1.95e-01
Gm:          3.91e-04
Gds:         3.42e-05
Gmb:         7.41e-05
Cbd:         0.00e+00
Cbs:         0.00e+00
Cgsov:       1.49e-15
Cgdov:       1.49e-15
Cgbov:       3.72e-17
Cgs:         3.20e-15
Cgd:         0.00e+00
Cgb:         0.00e+00



gain_db: MAX(db(v(out)/v(g)))=(29.195dB,71.2092°) FROM 1 TO 1e+09
gain_lin: MAX(mag(v(out)/v(g)))=(9.28454dB,0°) FROM 1 TO 1e+09

Measurement "fc" FAIL'ed

Total elapsed time: 0.414 seconds.

