Title: * GA CMOS Amp | W=2.2211063732658587e-05 L=9.682685966209894e-07 Vbias=0.5912772283131822
Date: Mon Sep  8 18:47:20 2025
Plotname: AC Analysis
Flags: complex forward log
No. Variables: 11
No. Points:          901
Offset:    0.0000000000000000e+00
Command: Linear Technology Corporation LTspice
Variables:
	0	frequency	frequency
	1	V(out)	voltage
	2	V(g)	voltage
	3	V(vdd)	voltage
	4	Id(M1)	device_current
	5	Ig(M1)	device_current
	6	Ib(M1)	device_current
	7	Is(M1)	device_current
	8	I(Rload)	device_current
	9	I(Vg)	device_current
	10	I(Vdd)	device_current
Values:
0		1.000000000000000e+00,0.000000000000000e+00
	-1.929713029925165e-02,2.844813936728164e-10
	1.000000000000000e+00,0.000000000000000e+00
	0.000000000000000e+00,0.000000000000000e+00
	1.929713029925165e-06,-2.844813936728164e-14
	7.940230121503812e-24,1.851034534894347e-13
	1.929713043885236e-14,-5.330830494538457e-15
	-1.929713049222296e-06,-1.513244836276146e-13
	-1.929713029925165e-06,2.844813936728164e-14
	-7.940230121503812e-24,-1.851034534894347e-13
	-1.929713029925165e-06,2.844813936728164e-14
1		1.023292992280754e+00,0.000000000000000e+00
	-1.929713029925165e-02,2.911078165796555e-10
	1.000000000000000e+00,0.000000000000000e+00
	0.000000000000000e+00,0.000000000000000e+00
	1.929713029925165e-06,-2.911078165796555e-14
	8.314441638320306e-24,1.894150668027050e-13
	1.929713043885236e-14,-5.455001488097721e-15
	-1.929713049222296e-06,-1.548492836566417e-13
	-1.929713029925165e-06,2.911078165796556e-14
	-8.314441638320306e-24,-1.894150668027050e-13
	-1.929713029925165e-06,2.911078165796556e-14
2		1.047128548050899e+00,0.000000000000000e+00
	-1.929713029925165e-02,2.978885887041126e-10
	1.000000000000000e+00,0.000000000000000e+00
	0.000000000000000e+00,0.000000000000000e+00
	1.929713029925165e-06,-2.978885887041126e-14
	8.706289200588281e-24,1.938271104915989e-13
	1.929713043885236e-14,-5.582064795651515e-15
	-1.929713049222296e-06,-1.584561868255362e-13
	-1.929713029925165e-06,2.978885887041126e-14
	-8.706289200588281e-24,-1.938271104915989e-13
	-1.929713029925165e-06,2.978885887041126e-14
3		1.071519305237606e+00,0.000000000000000e+00
	-1.929713029925165e-02,3.048273053013222e-10
	1.000000000000000e+00,0.000000000000000e+00
	0.000000000000000e+00,0.000000000000000e+00
	1.929713029925165e-06,-3.048273053013222e-14
	9.116603969523230e-24,1.983419238800806e-13
	1.929713043885236e-14,-5.712087787847287e-15
	-1.929713049222296e-06,-1.621471055621011e-13
	-1.929713029925165e-06,3.048273053013222e-14
	-9.116603969523230e-24,-1.983419238800806e-13
	-1.929713029925165e-06,3.048273053013222e-14
4		1.096478196143185e+00,0.000000000000000e+00
	-1.929713029925165e-02,3.119276453706689e-10
	1.000000000000000e+00,0.000000000000000e+00
	0.000000000000000e+00,0.000000000000000e+00
	1.929713029925165e-06,-3.119276453706689e-14
	9.546256277761926e-24,2.029619007819692e-13
	1.929713043885236e-14,-5.845139404596566e-15
	-1.929713049222296e-06,-1.659239968403057e-13
	-1.929713029925165e-06,3.119276453706689e-14
	-9.546256277761926e-24,-2.029619007819692e-13
	-1.929713029925165e-06,3.119276453706689e-14
5		1.122018454301963e+00,0.000000000000000e+00
	-1.929713029925165e-02,3.191933736064417e-10
	1.000000000000000e+00,0.000000000000000e+00
	0.000000000000000e+00,0.000000000000000e+00
	1.929713029925165e-06,-3.191933736064417e-14
	9.996157475454632e-24,2.076894907701708e-13
	1.929713043885236e-14,-5.981290191627817e-15
	-1.929713049222296e-06,-1.697888632178988e-13
	-1.929713029925165e-06,3.191933736064417e-14
	-9.996157475454632e-24,-2.076894907701708e-13
	-1.929713029925165e-06,3.191933736064417e-14
6		1.148153621496882e+00,0.000000000000000e+00
	-1.929713029925165e-02,3.266283423939245e-10
	1.000000000000000e+00,0.000000000000000e+00
	0.000000000000000e+00,0.000000000000000e+00
	1.929713029925165e-06,-3.266283423939245e-14
	1.046726186336096e-23,2.125272004754741e-13
	1.929713043885236e-14,-6.120612337890286e-15
	-1.929713049222296e-06,-1.737437538981914e-13
	-1.929713029925165e-06,3.266283423939245e-14
	-1.046726186336096e-23,-2.125272004754741e-13
	-1.929713029925165e-06,3.266283423939245e-14
7		1.174897554939529e+00,0.000000000000000e+00
	-1.929713029925165e-02,3.342364938519816e-10
	1.000000000000000e+00,0.000000000000000e+00
	0.000000000000000e+00,0.000000000000000e+00
	1.929713029925165e-06,-3.342364938519816e-14
	1.096056871704971e-23,2.174775949155996e-13
	1.929713043885236e-14,-6.263179713830299e-15
	-1.929713049222296e-06,-1.777907658165712e-13
	-1.929713029925165e-06,3.342364938519816e-14
	-1.096056871704971e-23,-2.174775949155996e-13
	-1.929713029925165e-06,3.342364938519816e-14
8		1.202264434617413e+00,0.000000000000000e+00
	-1.929713029925165e-02,3.420218619232222e-10
	1.000000000000000e+00,0.000000000000000e+00
	0.000000000000000e+00,0.000000000000000e+00
	1.929713029925165e-06,-3.420218619232222e-14
	1.147712440649637e-23,2.225432988552057e-13
	1.929713043885236e-14,-6.409067910557510e-15
	-1.929713049222296e-06,-1.819320447523260e-13
	-1.929713029925165e-06,3.420218619232222e-14
	-1.147712440649637e-23,-2.225432988552057e-13
	-1.929713029925165e-06,3.420218619232222e-14
9		1.230268770812381e+00,0.000000000000000e+00
	-1.929713029925165e-02,3.499885745128489e-10
	1.000000000000000e+00,0.000000000000000e+00
	0.000000000000000e+00,0.000000000000000e+00
	1.929713029925165e-06,-3.499885745128490e-14
	1.201802461557409e-23,2.277269981975735e-13
	1.929713043885236e-14,-6.558354279924944e-15
	-1.929713049222296e-06,-1.861697864663637e-13
	-1.929713029925165e-06,3.499885745128489e-14
	-1.201802461557409e-23,-2.277269981975735e-13
	-1.929713029925165e-06,3.499885745128489e-14
10		1.258925411794167e+00,0.000000000000000e+00
	-1.929713029925165e-02,3.581408556773289e-10
	1.000000000000000e+00,0.000000000000000e+00
	0.000000000000000e+00,0.000000000000000e+00
	1.929713029925165e-06,-3.581408556773289e-14
	1.258441666614607e-23,2.330314414087089e-13
	1.929713043885236e-14,-6.711117975541688e-15
	-1.929713049222296e-06,-1.905062378654344e-13
	-1.929713029925165e-06,3.581408556773289e-14
	-1.258441666614607e-23,-2.330314414087089e-13
	-1.929713029925165e-06,3.581408556773289e-14
11		1.288249551693134e+00,0.000000000000000e+00
	-1.929713029925165e-02,3.664830278640436e-10
	1.000000000000000e+00,0.000000000000000e+00
	0.000000000000000e+00,0.000000000000000e+00
	1.929713029925165e-06,-3.664830278640437e-14
	1.317750195168907e-23,2.384594409746150e-13
	1.929713043885236e-14,-6.867439994741220e-15
	-1.929713049222296e-06,-1.949436981934694e-13
	-1.929713029925165e-06,3.664830278640436e-14
	-1.317750195168907e-23,-2.384594409746150e-13
	-1.929713029925165e-06,3.664830278640436e-14
12		1.318256738556407e+00,0.000000000000000e+00
	-1.929713029925165e-02,3.750195142031082e-10
	1.000000000000000e+00,0.000000000000000e+00
	0.000000000000000e+00,0.000000000000000e+00
	1.929713029925165e-06,-3.750195142031082e-14
	1.379853848561007e-23,2.440138748925096e-13
	1.929713043885236e-14,-7.027403221527254e-15
	-1.929713049222296e-06,-1.994845202506716e-13
	-1.929713029925165e-06,3.750195142031082e-14
	-1.379853848561007e-23,-2.440138748925096e-13
	-1.929713029925165e-06,3.750195142031082e-14
13		1.348962882591653e+00,0.000000000000000e+00
	-1.929713029925165e-02,3.837548408525734e-10
	1.000000000000000e+00,0.000000000000000e+00
	0.000000000000000e+00,0.000000000000000e+00
	1.929713029925165e-06,-3.837548408525734e-14
	1.444884356966134e-23,2.496976881967778e-13
	1.929713043885236e-14,-7.191092470520048e-15
	-1.929713049222296e-06,-2.041311116410004e-13
	-1.929713029925165e-06,3.837548408525734e-14
	-1.444884356966134e-23,-2.496976881967778e-13
	-1.929713029925165e-06,3.837548408525734e-14
14		1.380384264602885e+00,0.000000000000000e+00
	-1.929713029925165e-02,3.926936393982544e-10
	1.000000000000000e+00,0.000000000000000e+00
	0.000000000000000e+00,0.000000000000000e+00
	1.929713029925165e-06,-3.926936393982544e-14
	1.512979658811405e-23,2.555138945204675e-13
	1.929713043885236e-14,-7.358594531926050e-15
	-1.929713049222296e-06,-2.088859360487160e-13
	-1.929713029925165e-06,3.926936393982544e-14
	-1.512979658811405e-23,-2.555138945204675e-13
	-1.929713029925165e-06,3.926936393982544e-14
15		1.412537544622754e+00,0.000000000000000e+00
	-1.929713029925165e-02,4.018406493094592e-10
	1.000000000000000e+00,0.000000000000000e+00
	0.000000000000000e+00,0.000000000000000e+00
	1.929713029925165e-06,-4.018406493094592e-14
	1.584284193361732e-23,2.614655776931582e-13
	1.929713043885236e-14,-7.529998217555450e-15
	-1.929713049222296e-06,-2.137515145446568e-13
	-1.929713029925165e-06,4.018406493094592e-14
	-1.584284193361732e-23,-2.614655776931582e-13
	-1.929713029925165e-06,4.018406493094592e-14
16		1.445439770745927e+00,0.000000000000000e+00
	-1.929713029925165e-02,4.112007204519176e-10
	1.000000000000000e+00,0.000000000000000e+00
	0.000000000000000e+00,0.000000000000000e+00
	1.929713029925165e-06,-4.112007204519176e-14
	1.658949207094860e-23,2.675558933760478e-13
	1.929713043885236e-14,-7.705394407911040e-15
	-1.929713049222296e-06,-2.187304269229450e-13
	-1.929713029925165e-06,4.112007204519176e-14
	-1.658949207094860e-23,-2.675558933760478e-13
	-1.929713029925165e-06,4.112007204519176e-14
17		1.479108388168207e+00,0.000000000000000e+00
	-1.929713029925165e-02,4.207788156592446e-10
	1.000000000000000e+00,0.000000000000000e+00
	0.000000000000000e+00,0.000000000000000e+00
	1.929713029925165e-06,-4.207788156592446e-14
	1.737133074515432e-23,2.737880707351263e-13
	1.929713043885236e-14,-7.884876100374642e-15
	-1.929713049222296e-06,-2.238253130688272e-13
	-1.929713029925165e-06,4.207788156592446e-14
	-1.737133074515432e-23,-2.737880707351263e-13
	-1.929713029925165e-06,4.207788156592446e-14
18		1.513561248436208e+00,0.000000000000000e+00
	-1.929713029925165e-02,4.305800133643003e-10
	1.000000000000000e+00,0.000000000000000e+00
	0.000000000000000e+00,0.000000000000000e+00
	1.929713029925165e-06,-4.305800133643003e-14
	1.819001634088540e-23,2.801654141533222e-13
	1.929713043885236e-14,-8.068538458515356e-15
	-1.929713049222296e-06,-2.290388743583768e-13
	-1.929713029925165e-06,4.305800133643003e-14
	-1.819001634088540e-23,-2.801654141533222e-13
	-1.929713029925165e-06,4.305800133643003e-14
19		1.548816618912481e+00,0.000000000000000e+00
	-1.929713029925165e-02,4.406095102918419e-10
	1.000000000000000e+00,0.000000000000000e+00
	0.000000000000000e+00,0.000000000000000e+00
	1.929713029925165e-06,-4.406095102918420e-14
	1.904728540005346e-23,2.866913049825298e-13
	1.929713043885236e-14,-8.256478862546570e-15
	-1.929713049222296e-06,-2.343738750907990e-13
	-1.929713029925165e-06,4.406095102918420e-14
	-1.904728540005346e-23,-2.866913049825298e-13
	-1.929713029925165e-06,4.406095102918420e-14
20		1.584893192461113e+00,0.000000000000000e+00
	-1.929713029925165e-02,4.508726242138966e-10
	1.000000000000000e+00,0.000000000000000e+00
	0.000000000000000e+00,0.000000000000000e+00
	1.929713029925165e-06,-4.508726242138967e-14
	1.994495630526907e-23,2.933692033364472e-13
	1.929713043885236e-14,-8.448796960958062e-15
	-1.929713049222296e-06,-2.398331439540995e-13
	-1.929713029925165e-06,4.508726242138966e-14
	-1.994495630526907e-23,-2.933692033364472e-13
	-1.929713029925165e-06,4.508726242138966e-14
21		1.621810097358929e+00,0.000000000000000e+00
	-1.929713029925165e-02,4.613747967693142e-10
	1.000000000000000e+00,0.000000000000000e+00
	0.000000000000000e+00,0.000000000000000e+00
	1.929713029925165e-06,-4.613747967693143e-14
	2.088493313687504e-23,3.002026499251741e-13
	1.929713043885236e-14,-8.645594723351369e-15
	-1.929713049222296e-06,-2.454195755248913e-13
	-1.929713029925165e-06,4.613747967693142e-14
	-2.088493313687504e-23,-3.002026499251741e-13
	-1.929713029925165e-06,4.613747967693142e-14
22		1.659586907437560e+00,0.000000000000000e+00
	-1.929713029925165e-02,4.721215963489964e-10
	1.000000000000000e+00,0.000000000000000e+00
	0.000000000000000e+00,0.000000000000000e+00
	1.929713029925165e-06,-4.721215963489965e-14
	2.186920971175608e-23,3.071952679325430e-13
	1.929713043885236e-14,-8.846976494504864e-15
	-1.929713049222296e-06,-2.511361318031385e-13
	-1.929713029925165e-06,4.721215963489965e-14
	-2.186920971175608e-23,-3.071952679325430e-13
	-1.929713029925165e-06,4.721215963489965e-14
23		1.698243652461743e+00,0.000000000000000e+00
	-1.929713029925165e-02,4.831187210483308e-10
	1.000000000000000e+00,0.000000000000000e+00
	0.000000000000000e+00,0.000000000000000e+00
	1.929713029925165e-06,-4.831187210483309e-14
	2.289987381249177e-23,3.143507649371800e-13
	1.929713043885236e-14,-9.053049049699395e-15
	-1.929713049222296e-06,-2.569858437826475e-13
	-1.929713029925165e-06,4.831187210483308e-14
	-2.289987381249177e-23,-3.143507649371800e-13
	-1.929713029925165e-06,4.831187210483308e-14
24		1.737800828749374e+00,0.000000000000000e+00
	-1.929713029925165e-02,4.943720016883975e-10
	1.000000000000000e+00,0.000000000000000e+00
	0.000000000000000e+00,0.000000000000000e+00
	1.929713029925165e-06,-4.943720016883975e-14
	2.397911161582332e-23,3.216729348783108e-13
	1.929713043885236e-14,-9.263921651331347e-15
	-1.929713049222296e-06,-2.629718130581397e-13
	-1.929713029925165e-06,4.943720016883975e-14
	-2.397911161582332e-23,-3.216729348783108e-13
	-1.929713029925165e-06,4.943720016883975e-14
25		1.778279410038922e+00,0.000000000000000e+00
	-1.929713029925165e-02,5.058874049075462e-10
	1.000000000000000e+00,0.000000000000000e+00
	0.000000000000000e+00,0.000000000000000e+00
	1.929713029925165e-06,-5.058874049075462e-14
	2.510921232982753e-23,3.291656600673589e-13
	1.929713043885236e-14,-9.479706106845357e-15
	-1.929713049222296e-06,-2.690972134697589e-13
	-1.929713029925165e-06,5.058874049075462e-14
	-2.510921232982753e-23,-3.291656600673589e-13
	-1.929713029925165e-06,5.058874049075462e-14
26		1.819700858609982e+00,0.000000000000000e+00
	-1.929713029925165e-02,5.176710363249884e-10
	1.000000000000000e+00,0.000000000000000e+00
	0.000000000000000e+00,0.000000000000000e+00
	1.929713029925165e-06,-5.176710363249884e-14
	2.629257304963404e-23,3.368329132463972e-13
	1.929713043885236e-14,-9.700516828015878e-15
	-1.929713049222296e-06,-2.753652927858825e-13
	-1.929713029925165e-06,5.176710363249885e-14
	-2.629257304963404e-23,-3.368329132463972e-13
	-1.929713029925165e-06,5.176710363249885e-14
27		1.862087136662866e+00,0.000000000000000e+00
	-1.929713029925165e-02,5.297291437780763e-10
	1.000000000000000e+00,0.000000000000000e+00
	0.000000000000000e+00,0.000000000000000e+00
	1.929713029925165e-06,-5.297291437780763e-14
	2.753170384198550e-23,3.446787596945494e-13
	1.929713043885236e-14,-9.926470891610196e-15
	-1.929713049222296e-06,-2.817793744251316e-13
	-1.929713029925165e-06,5.297291437780763e-14
	-2.753170384198550e-23,-3.446787596945494e-13
	-1.929713029925165e-06,5.297291437780763e-14
28		1.905460717963246e+00,0.000000000000000e+00
	-1.929713029925165e-02,5.420681206349895e-10
	1.000000000000000e+00,0.000000000000000e+00
	0.000000000000000e+00,0.000000000000000e+00
	1.929713029925165e-06,-5.420681206349895e-14
	2.882923306942565e-23,3.527073593834544e-13
	1.929713043885236e-14,-1.015768810146356e-14
	-1.929713049222296e-06,-2.883428592184919e-13
	-1.929713029925165e-06,5.420681206349895e-14
	-2.882923306942565e-23,-3.527073593834544e-13
	-1.929713029925165e-06,5.420681206349895e-14
29		1.949844599758044e+00,0.000000000000000e+00
	-1.929713029925165e-02,5.546945091845832e-10
	1.000000000000000e+00,0.000000000000000e+00
	0.000000000000000e+00,0.000000000000000e+00
	1.929713029925165e-06,-5.546945091845833e-14
	3.018791296540866e-23,3.609229691829384e-13
	1.929713043885236e-14,-1.039429105200129e-14
	-1.929713049222296e-06,-2.950592272124788e-13
	-1.929713029925165e-06,5.546945091845833e-14
	-3.018791296540866e-23,-3.609229691829384e-13
	-1.929713029925165e-06,5.546945091845833e-14
30		1.995262314968878e+00,0.000000000000000e+00
	-1.929713029925165e-02,5.676150041051964e-10
	1.000000000000000e+00,0.000000000000000e+00
	0.000000000000000e+00,0.000000000000000e+00
	1.929713029925165e-06,-5.676150041051964e-14
	3.161062547215529e-23,3.693299451180635e-13
	1.929713043885236e-14,-1.063640519323945e-14
	-1.929713049222296e-06,-3.019320395143044e-13
	-1.929713029925165e-06,5.676150041051964e-14
	-3.161062547215529e-23,-3.693299451180635e-13
	-1.929713029925165e-06,5.676150041051964e-14
31		2.041737944669527e+00,0.000000000000000e+00
	-1.929713029925165e-02,5.808364560142588e-10
	1.000000000000000e+00,0.000000000000000e+00
	0.000000000000000e+00,0.000000000000000e+00
	1.929713029925165e-06,-5.808364560142589e-14
	3.310038835363874e-23,3.779327446787498e-13
	1.929713043885236e-14,-1.088415889730059e-14
	-1.929713049222296e-06,-3.089649401800233e-13
	-1.929713029925165e-06,5.808364560142589e-14
	-3.310038835363874e-23,-3.779327446787498e-13
	-1.929713029925165e-06,5.808364560142589e-14
32		2.089296130854037e+00,0.000000000000000e+00
	-1.929713029925165e-02,5.943658751005796e-10
	1.000000000000000e+00,0.000000000000000e+00
	0.000000000000000e+00,0.000000000000000e+00
	1.929713029925165e-06,-5.943658751005796e-14
	3.466036159666664e-23,3.867359291831961e-13
	1.929713043885236e-14,-1.113768352647788e-14
	-1.929713049222296e-06,-3.161616581466603e-13
	-1.929713029925165e-06,5.943658751005796e-14
	-3.466036159666664e-23,-3.867359291831961e-13
	-1.929713029925165e-06,5.943658751005796e-14
33		2.137962089502230e+00,0.000000000000000e+00
	-1.929713029925165e-02,6.082104348412412e-10
	1.000000000000000e+00,0.000000000000000e+00
	0.000000000000000e+00,0.000000000000000e+00
	1.929713029925165e-06,-6.082104348412411e-14
	3.629385411363671e-23,3.957441661963506e-13
	1.929713043885236e-14,-1.139711350288560e-14
	-1.929713049222296e-06,-3.235260092093409e-13
	-1.929713029925165e-06,6.082104348412412e-14
	-3.629385411363671e-23,-3.957441661963506e-13
	-1.929713029925165e-06,6.082104348412412e-14
34		2.187761623949550e+00,0.000000000000000e+00
	-1.929713029925165e-02,6.223774758050722e-10
	1.000000000000000e+00,0.000000000000000e+00
	0.000000000000000e+00,0.000000000000000e+00
	1.929713029925165e-06,-6.223774758050722e-14
	3.800433076118356e-23,4.049622320047157e-13
	1.929713043885236e-14,-1.166258637973123e-14
	-1.929713049222296e-06,-3.310618980444772e-13
	-1.929713029925165e-06,6.223774758050723e-14
	-3.800433076118356e-23,-4.049622320047157e-13
	-1.929713029925165e-06,6.223774758050723e-14
35		2.238721138568337e+00,0.000000000000000e+00
	-1.929713029925165e-02,6.368745095447150e-10
	1.000000000000000e+00,0.000000000000000e+00
	0.000000000000000e+00,0.000000000000000e+00
	1.929713029925165e-06,-6.368745095447151e-14
	3.979541968960428e-23,4.143950141487984e-13
	1.929713043885236e-14,-1.193424291424790e-14
	-1.929713049222296e-06,-3.387733202800790e-13
	-1.929713029925165e-06,6.368745095447149e-14
	-3.979541968960428e-23,-4.143950141487984e-13
	-1.929713029925165e-06,6.368745095447149e-14
36		2.290867652767770e+00,0.000000000000000e+00
	-1.929713029925165e-02,6.517092225793491e-10
	1.000000000000000e+00,0.000000000000000e+00
	0.000000000000000e+00,0.000000000000000e+00
	1.929713029925165e-06,-6.517092225793491e-14
	4.167092003865150e-23,4.240475140145494e-13
	1.929713043885236e-14,-1.221222714232615e-14
	-1.929713049222296e-06,-3.466643646142883e-13
	-1.929713029925165e-06,6.517092225793491e-14
	-4.167092003865150e-23,-4.240475140145494e-13
	-1.929713029925165e-06,6.517092225793491e-14
37		2.344228815319919e+00,0.000000000000000e+00
	-1.929713029925165e-02,6.668894804701860e-10
	1.000000000000000e+00,0.000000000000000e+00
	0.000000000000000e+00,0.000000000000000e+00
	1.929713029925165e-06,-6.668894804701861e-14
	4.363480999601827e-23,4.339248494851633e-13
	1.929713043885236e-14,-1.249668645488317e-14
	-1.929713049222296e-06,-3.547392149832615e-13
	-1.929713029925165e-06,6.668894804701860e-14
	-4.363480999601827e-23,-4.339248494851633e-13
	-1.929713029925165e-06,6.668894804701860e-14
38		2.398832919019488e+00,0.000000000000000e+00
	-1.929713029925165e-02,6.824233319908943e-10
	1.000000000000000e+00,0.000000000000000e+00
