Title: * GA CMOS Amp | W=3.6540203496406636e-06 L=4.850877684189122e-07 Vbias=0.8084758097332981
Date: Mon Sep  8 18:46:24 2025
Plotname: AC Analysis
Flags: complex forward log
No. Variables: 11
No. Points:          901
Offset:    0.0000000000000000e+00
Command: Linear Technology Corporation LTspice
Variables:
	0	frequency	frequency
	1	V(out)	voltage
	2	V(g)	voltage
	3	V(vdd)	voltage
	4	Id(M1)	device_current
	5	Ig(M1)	device_current
	6	Ib(M1)	device_current
	7	Is(M1)	device_current
	8	I(Rload)	device_current
	9	I(Vg)	device_current
	10	I(Vdd)	device_current
Values:
0		1.000000000000000e+00,0.000000000000000e+00
	-1.336607215757557e+00,1.033881897472139e-10
	1.000000000000000e+00,0.000000000000000e+00
	0.000000000000000e+00,0.000000000000000e+00
	1.336607215757557e-04,-1.033881897472139e-14
	4.747355525498193e-25,2.332999971861589e-14
	1.336607202955670e-12,-4.750906685201430e-16
	-1.336607229123629e-04,-1.251609007537435e-14
	-1.336607215757557e-04,1.033881897472139e-14
	-4.747355525498193e-25,-2.332999971861589e-14
	-1.336607215757557e-04,1.033881897472139e-14
1		1.023292992280754e+00,0.000000000000000e+00
	-1.336607215757557e+00,1.057964100529169e-10
	1.000000000000000e+00,0.000000000000000e+00
	0.000000000000000e+00,0.000000000000000e+00
	1.336607215757557e-04,-1.057964100529169e-14
	4.971091498496339e-25,2.387342522197161e-14
	1.336607202955670e-12,-4.861569517946402e-16
	-1.336607229123629e-04,-1.280762726488527e-14
	-1.336607215757557e-04,1.057964100529169e-14
	-4.971091498496339e-25,-2.387342522197161e-14
	-1.336607215757557e-04,1.057964100529169e-14
2		1.047128548050899e+00,0.000000000000000e+00
	-1.336607215757557e+00,1.082607250156110e-10
	1.000000000000000e+00,0.000000000000000e+00
	0.000000000000000e+00,0.000000000000000e+00
	1.336607215757557e-04,-1.082607250156110e-14
	5.205371823048640e-25,2.442950873138215e-14
	1.336607202955670e-12,-4.974810019200277e-16
	-1.336607229123629e-04,-1.310595522790102e-14
	-1.336607215757557e-04,1.082607250156110e-14
	-5.205371823048640e-25,-2.442950873138215e-14
	-1.336607215757557e-04,1.082607250156110e-14
3		1.071519305237606e+00,0.000000000000000e+00
	-1.336607215757557e+00,1.107824412477085e-10
	1.000000000000000e+00,0.000000000000000e+00
	0.000000000000000e+00,0.000000000000000e+00
	1.336607215757557e-04,-1.107824412477085e-14
	5.450693439133985e-25,2.499854508968484e-14
	1.336607202955670e-12,-5.090688230575693e-16
	-1.336607229123629e-04,-1.341123214185643e-14
	-1.336607215757557e-04,1.107824412477085e-14
	-5.450693439133985e-25,-2.499854508968484e-14
	-1.336607215757557e-04,1.107824412477085e-14
4		1.096478196143185e+00,0.000000000000000e+00
	-1.336607215757557e+00,1.133628957965344e-10
	1.000000000000000e+00,0.000000000000000e+00
	0.000000000000000e+00,0.000000000000000e+00
	1.336607215757557e-04,-1.133628957965344e-14
	5.707576706790932e-25,2.558083600748895e-14
	1.336607202955670e-12,-5.209265592234242e-16
	-1.336607229123629e-04,-1.372361986861209e-14
	-1.336607215757557e-04,1.133628957965344e-14
	-5.707576706790932e-25,-2.558083600748895e-14
	-1.336607215757557e-04,1.133628957965344e-14
5		1.122018454301963e+00,0.000000000000000e+00
	-1.336607215757557e+00,1.160034568532470e-10
	1.000000000000000e+00,0.000000000000000e+00
	0.000000000000000e+00,0.000000000000000e+00
	1.336607215757557e-04,-1.160034568532470e-14
	5.976566509871125e-25,2.617669022314664e-14
	1.336607202955670e-12,-5.330604975462591e-16
	-1.336607229123629e-04,-1.404328404027568e-14
	-1.336607215757557e-04,1.160034568532470e-14
	-5.976566509871125e-25,-2.617669022314664e-14
	-1.336607215757557e-04,1.160034568532470e-14
6		1.148153621496882e+00,0.000000000000000e+00
	-1.336607215757557e+00,1.187055244782705e-10
	1.000000000000000e+00,0.000000000000000e+00
	0.000000000000000e+00,0.000000000000000e+00
	1.336607215757557e-04,-1.187055244782705e-14
	6.258233411810982e-25,2.678642366645008e-14
	1.336607202955670e-12,-5.454770716007819e-16
	-1.336607229123629e-04,-1.437039414702225e-14
	-1.336607215757557e-04,1.187055244782705e-14
	-6.258233411810982e-25,-2.678642366645008e-14
	-1.336607215757557e-04,1.187055244782705e-14
7		1.174897554939529e+00,0.000000000000000e+00
	-1.336607215757557e+00,1.214705313436257e-10
	1.000000000000000e+00,0.000000000000000e+00
	0.000000000000000e+00,0.000000000000000e+00
	1.336607215757557e-04,-1.214705313436257e-14
	6.553174865873260e-25,2.741035962614171e-14
	1.336607202955670e-12,-5.581828648188959e-16
	-1.336607229123629e-04,-1.470512362696024e-14
	-1.336607215757557e-04,1.214705313436257e-14
	-6.553174865873260e-25,-2.741035962614171e-14
	-1.336607215757557e-04,1.214705313436257e-14
8		1.202264434617413e+00,0.000000000000000e+00
	-1.336607215757557e+00,1.242999434925519e-10
	1.000000000000000e+00,0.000000000000000e+00
	0.000000000000000e+00,0.000000000000000e+00
	1.336607215757557e-04,-1.242999434925519e-14
	6.862016482425517e-25,2.804882892132613e-14
	1.336607202955670e-12,-5.711846139803783e-16
	-1.336607229123629e-04,-1.504764995809056e-14
	-1.336607215757557e-04,1.242999434925519e-14
	-6.862016482425517e-25,-2.804882892132613e-14
	-1.336607215757557e-04,1.242999434925519e-14
9		1.230268770812381e+00,0.000000000000000e+00
	-1.336607215757557e+00,1.271952611168221e-10
	1.000000000000000e+00,0.000000000000000e+00
	0.000000000000000e+00,0.000000000000000e+00
	1.336607215757557e-04,-1.271952611168221e-14
	7.185413355943569e-25,2.870217007687477e-14
	1.336607202955670e-12,-5.844892127847124e-16
	-1.336607229123629e-04,-1.539815475240785e-14
	-1.336607215757557e-04,1.271952611168221e-14
	-7.185413355943569e-25,-2.870217007687477e-14
	-1.336607215757557e-04,1.271952611168221e-14
10		1.258925411794167e+00,0.000000000000000e+00
	-1.336607215757557e+00,1.301580193521647e-10
	1.000000000000000e+00,0.000000000000000e+00
	0.000000000000000e+00,0.000000000000000e+00
	1.336607215757557e-04,-1.301580193521647e-14
	7.524051454554733e-25,2.937072950291630e-14
	1.336607202955670e-12,-5.981037155062816e-16
	-1.336607229123629e-04,-1.575682385219355e-14
	-1.336607215757557e-04,1.301580193521647e-14
	-7.524051454554733e-25,-2.937072950291630e-14
	-1.336607215757557e-04,1.301580193521647e-14
11		1.288249551693134e+00,0.000000000000000e+00
	-1.336607215757557e+00,1.331897890922130e-10
	1.000000000000000e+00,0.000000000000000e+00
	0.000000000000000e+00,0.000000000000000e+00
	1.336607215757557e-04,-1.331897890922130e-14
	7.878649075068159e-25,3.005486167850786e-14
	1.336607202955670e-12,-6.120353407346690e-16
	-1.336607229123629e-04,-1.612384742855189e-14
	-1.336607215757557e-04,1.331897890922130e-14
	-7.878649075068159e-25,-3.005486167850786e-14
	-1.336607215757557e-04,1.331897890922130e-14
12		1.318256738556407e+00,0.000000000000000e+00
	-1.336607215757557e+00,1.362921778214132e-10
	1.000000000000000e+00,0.000000000000000e+00
	0.000000000000000e+00,0.000000000000000e+00
	1.336607215757557e-04,-1.362921778214132e-14
	8.249958366578684e-25,3.075492933958447e-14
	1.336607202955670e-12,-6.262914752019475e-16
	-1.336607229123629e-04,-1.649942008224121e-14
	-1.336607215757557e-04,1.362921778214132e-14
	-8.249958366578684e-25,-3.075492933958447e-14
	-1.336607215757557e-04,1.362921778214132e-14
13		1.348962882591653e+00,0.000000000000000e+00
	-1.336607215757557e+00,1.394668304673345e-10
	1.000000000000000e+00,0.000000000000000e+00
	0.000000000000000e+00,0.000000000000000e+00
	1.336607215757557e-04,-1.394668304673345e-14
	8.638766925875907e-25,3.147130367128655e-14
	1.336607202955670e-12,-6.408796776993301e-16
	-1.336607229123629e-04,-1.688374094685377e-14
	-1.336607215757557e-04,1.394668304673345e-14
	-8.638766925875907e-25,-3.147130367128655e-14
	-1.336607215757557e-04,1.394668304673345e-14
14		1.380384264602885e+00,0.000000000000000e+00
	-1.336607215757557e+00,1.427154302728314e-10
	1.000000000000000e+00,0.000000000000000e+00
	0.000000000000000e+00,0.000000000000000e+00
	1.336607215757557e-04,-1.427154302728314e-14
	9.045899468042573e-25,3.220436450476710e-14
	1.336607202955670e-12,-6.558076830848732e-16
	-1.336607229123629e-04,-1.727701379439909e-14
	-1.336607215757557e-04,1.427154302728314e-14
	-9.045899468042573e-25,-3.220436450476710e-14
	-1.336607215757557e-04,1.427154302728314e-14
15		1.412537544622754e+00,0.000000000000000e+00
	-1.336607215757557e+00,1.460396996885209e-10
	1.000000000000000e+00,0.000000000000000e+00
	0.000000000000000e+00,0.000000000000000e+00
	1.336607215757557e-04,-1.460396996885209e-14
	9.472219575785823e-25,3.295450051858324e-14
	1.336607202955670e-12,-6.710834063846324e-16
	-1.336607229123629e-04,-1.767944714334651e-14
	-1.336607215757557e-04,1.460396996885209e-14
	-9.472219575785823e-25,-3.295450051858324e-14
	-1.336607215757557e-04,1.460396996885209e-14
16		1.445439770745927e+00,0.000000000000000e+00
	-1.336607215757557e+00,1.494414012860493e-10
	1.000000000000000e+00,0.000000000000000e+00
	0.000000000000000e+00,0.000000000000000e+00
	1.336607215757557e-04,-1.494414012860493e-14
	9.918631531211913e-25,3.372210944477869e-14
	1.336607202955670e-12,-6.867149469892883e-16
	-1.336607229123629e-04,-1.809125436918448e-14
	-1.336607215757557e-04,1.494414012860493e-14
	-9.918631531211913e-25,-3.372210944477869e-14
	-1.336607215757557e-04,1.494414012860493e-14
17		1.479108388168207e+00,0.000000000000000e+00
	-1.336607215757557e+00,1.529223386926303e-10
	1.000000000000000e+00,0.000000000000000e+00
	0.000000000000000e+00,0.000000000000000e+00
	1.336607215757557e-04,-1.529223386926303e-14
	1.038608223392980e-24,3.450759827976667e-14
	1.336607202955670e-12,-7.027105929485907e-16
	-1.336607229123629e-04,-1.851265381755505e-14
	-1.336607215757557e-04,1.529223386926303e-14
	-1.038608223392980e-24,-3.450759827976667e-14
	-1.336607215757557e-04,1.529223386926303e-14
18		1.513561248436208e+00,0.000000000000000e+00
	-1.336607215757557e+00,1.564843575473526e-10
	1.000000000000000e+00,0.000000000000000e+00
	0.000000000000000e+00,0.000000000000000e+00
	1.336607215757557e-04,-1.564843575473526e-14
	1.087556320955216e-24,3.531138350012464e-14
	1.336607202955670e-12,-7.190788253657412e-16
	-1.336607229123629e-04,-1.894386892002363e-14
	-1.336607215757557e-04,1.564843575473526e-14
	-1.087556320955216e-24,-3.531138350012464e-14
	-1.336607215757557e-04,1.564843575473526e-14
19		1.548816618912481e+00,0.000000000000000e+00
	-1.336607215757557e+00,1.601293464797618e-10
	1.000000000000000e+00,0.000000000000000e+00
	0.000000000000000e+00,0.000000000000000e+00
	1.336607215757557e-04,-1.601293464797618e-14
	1.138811271285413e-24,3.613389128341579e-14
	1.336607202955670e-12,-7.358283228942410e-16
	-1.336607229123629e-04,-1.938512831254536e-14
	-1.336607215757557e-04,1.601293464797618e-14
	-1.138811271285413e-24,-3.613389128341579e-14
	-1.336607215757557e-04,1.601293464797618e-14
20		1.584893192461113e+00,0.000000000000000e+00
	-1.336607215757557e+00,1.638592381112371e-10
	1.000000000000000e+00,0.000000000000000e+00
	0.000000000000000e+00,0.000000000000000e+00
	1.336607215757557e-04,-1.638592381112371e-14
	1.192481793005093e-24,3.697555773415400e-14
	1.336607202955670e-12,-7.529679663393735e-16
	-1.336607229123629e-04,-1.983666595669091e-14
	-1.336607215757557e-04,1.638592381112371e-14
	-1.192481793005093e-24,-3.697555773415400e-14
	-1.336607215757557e-04,1.638592381112371e-14
21		1.621810097358929e+00,0.000000000000000e+00
	-1.336607215757557e+00,1.676760100796924e-10
	1.000000000000000e+00,0.000000000000000e+00
	0.000000000000000e+00,0.000000000000000e+00
	1.336607215757557e-04,-1.676760100796924e-14
	1.248681728486556e-24,3.783682911503222e-14
	1.336607202955670e-12,-7.705068433669685e-16
	-1.336607229123629e-04,-2.029872126369601e-14
	-1.336607215757557e-04,1.676760100796924e-14
	-1.248681728486556e-24,-3.783682911503222e-14
	-1.336607215757557e-04,1.676760100796924e-14
22		1.659586907437560e+00,0.000000000000000e+00
	-1.336607215757557e+00,1.715816860881464e-10
	1.000000000000000e+00,0.000000000000000e+00
	0.000000000000000e+00,0.000000000000000e+00
	1.336607215757557e-04,-1.715816860881464e-14
	1.307530285327815e-24,3.871816208353689e-14
	1.336607202955670e-12,-7.884542533217904e-16
	-1.336607229123629e-04,-2.077153922140046e-14
	-1.336607215757557e-04,1.715816860881464e-14
	-1.307530285327815e-24,-3.871816208353689e-14
	-1.336607215757557e-04,1.715816860881464e-14
23		1.698243652461743e+00,0.000000000000000e+00
	-1.336607215757557e+00,1.755783369777163e-10
	1.000000000000000e+00,0.000000000000000e+00
	0.000000000000000e+00,0.000000000000000e+00
	1.336607215757557e-04,-1.755783369777163e-14
	1.369152289207894e-24,3.962002393407369e-14
	1.336607202955670e-12,-8.068197121581357e-16
	-1.336607229123629e-04,-2.125537052414392e-14
	-1.336607215757557e-04,1.755783369777163e-14
	-1.369152289207894e-24,-3.962002393407369e-14
	-1.336607215757557e-04,1.755783369777163e-14
24		1.737800828749374e+00,0.000000000000000e+00
	-1.336607215757557e+00,1.796680818256059e-10
	1.000000000000000e+00,0.000000000000000e+00
	0.000000000000000e+00,0.000000000000000e+00
	1.336607215757557e-04,-1.796680818256059e-14
	1.433678448658827e-24,4.054289284573336e-14
	1.336607202955670e-12,-8.256129574853945e-16
	-1.336607229123629e-04,-2.175047170568737e-14
	-1.336607215757557e-04,1.796680818256059e-14
	-1.433678448658827e-24,-4.054289284573336e-14
	-1.336607215757557e-04,1.796680818256059e-14
25		1.778279410038922e+00,0.000000000000000e+00
	-1.336607215757557e+00,1.838530890686676e-10
	1.000000000000000e+00,0.000000000000000e+00
	0.000000000000000e+00,0.000000000000000e+00
	1.336607215757557e-04,-1.838530890686676e-14
	1.501245632315983e-24,4.148725813582847e-14
	1.336607202955670e-12,-8.448439537309995e-16
	-1.336607229123629e-04,-2.225710527523071e-14
	-1.336607215757557e-04,1.838530890686676e-14
	-1.501245632315983e-24,-4.148725813582847e-14
	-1.336607215757557e-04,1.838530890686676e-14
26		1.819700858609982e+00,0.000000000000000e+00
	-1.336607215757557e+00,1.881355776531369e-10
	1.000000000000000e+00,0.000000000000000e+00
	0.000000000000000e+00,0.000000000000000e+00
	1.336607215757557e-04,-1.881355776531369e-14
	1.571997159234790e-24,4.245362051933598e-14
	1.336607202955670e-12,-8.645228974236958e-16
	-1.336607229123629e-04,-2.277553985659859e-14
	-1.336607215757557e-04,1.881355776531369e-14
	-1.571997159234790e-24,-4.245362051933598e-14
	-1.336607215757557e-04,1.881355776531369e-14
27		1.862087136662866e+00,0.000000000000000e+00
	-1.336607215757557e+00,1.925178182111467e-10
	1.000000000000000e+00,0.000000000000000e+00
	0.000000000000000e+00,0.000000000000000e+00
	1.336607215757557e-04,-1.925178182111466e-14
	1.646083102889665e-24,4.344249237438294e-14
	1.336607202955670e-12,-8.846602225999235e-16
	-1.336607229123629e-04,-2.330605033066835e-14
	-1.336607215757557e-04,1.925178182111467e-14
	-1.646083102889665e-24,-4.344249237438294e-14
	-1.336607215757557e-04,1.925178182111467e-14
28		1.905460717963246e+00,0.000000000000000e+00
	-1.336607215757557e+00,1.970021342646465e-10
	1.000000000000000e+00,0.000000000000000e+00
	0.000000000000000e+00,0.000000000000000e+00
	1.336607215757557e-04,-1.970021342646465e-14
	1.723660609499973e-24,4.445439801391615e-14
	1.336607202955670e-12,-9.052666063360263e-16
	-1.336607229123629e-04,-2.384891798111547e-14
	-1.336607215757557e-04,1.970021342646465e-14
	-1.723660609499973e-24,-4.445439801391615e-14
	-1.336607215757557e-04,1.970021342646465e-14
29		1.949844599758044e+00,0.000000000000000e+00
	-1.336607215757557e+00,2.015909034573650e-10
	1.000000000000000e+00,0.000000000000000e+00
	0.000000000000000e+00,0.000000000000000e+00
	1.336607215757557e-04,-2.015909034573650e-14
	1.804894231358236e-24,4.548987396369988e-14
	1.336607202955670e-12,-9.263529744094430e-16
	-1.336607229123629e-04,-2.440443064355393e-14
	-1.336607215757557e-04,2.015909034573650e-14
	-1.804894231358236e-24,-4.548987396369988e-14
	-1.336607215757557e-04,2.015909034573650e-14
30		1.995262314968878e+00,0.000000000000000e+00
	-1.336607215757557e+00,2.062865588154676e-10
	1.000000000000000e+00,0.000000000000000e+00
	0.000000000000000e+00,0.000000000000000e+00
	1.336607215757557e-04,-2.062865588154676e-14
	1.889956275867594e-24,4.654946924678881e-14
	1.336607202955670e-12,-9.479305070916185e-16
	-1.336607229123629e-04,-2.497288285815043e-14
	-1.336607215757557e-04,2.062865588154677e-14
	-1.889956275867594e-24,-4.654946924678881e-14
	-1.336607215757557e-04,2.062865588154677e-14
31		2.041737944669527e+00,0.000000000000000e+00
	-1.336607215757557e+00,2.110915900375796e-10
	1.000000000000000e+00,0.000000000000000e+00
	0.000000000000000e+00,0.000000000000000e+00
	1.336607215757557e-04,-2.110915900375797e-14
	1.979027171028918e-24,4.763374567462746e-14
	1.336607202955670e-12,-9.700106450759847e-16
	-1.336607229123629e-04,-2.555457602579350e-14
	-1.336607215757557e-04,2.110915900375796e-14
	-1.979027171028918e-24,-4.763374567462746e-14
	-1.336607215757557e-04,2.110915900375796e-14
32		2.089296130854037e+00,0.000000000000000e+00
	-1.336607215757557e+00,2.160085448148571e-10
	1.000000000000000e+00,0.000000000000000e+00
	0.000000000000000e+00,0.000000000000000e+00
	1.336607215757557e-04,-2.160085448148571e-14
	2.072295848152790e-24,4.874327814492996e-14
	1.336607202955670e-12,-9.926050955439916e-16
	-1.336607229123629e-04,-2.614981856790026e-14
	-1.336607215757557e-04,2.160085448148571e-14
	-2.072295848152790e-24,-4.874327814492996e-14
	-1.336607215757557e-04,2.160085448148571e-14
33		2.137962089502230e+00,0.000000000000000e+00
	-1.336607215757557e+00,2.210400301818065e-10
	1.000000000000000e+00,0.000000000000000e+00
	0.000000000000000e+00,0.000000000000000e+00
	1.336607215757557e-04,-2.210400301818065e-14
	2.169960142608139e-24,4.987865494649846e-14
	1.336607202955670e-12,-1.015725838372335e-15
	-1.336607229123629e-04,-2.675892608994548e-14
	-1.336607215757557e-04,2.210400301818065e-14
	-2.169960142608139e-24,-4.987865494649846e-14
	-1.336607215757557e-04,2.210400301818065e-14
34		2.187761623949550e+00,0.000000000000000e+00
	-1.336607215757557e+00,2.261887138985689e-10
	1.000000000000000e+00,0.000000000000000e+00
	0.000000000000000e+00,0.000000000000000e+00
	1.336607215757557e-04,-2.261887138985690e-14
	2.272227213457582e-24,5.104047807114165e-14
	1.336607202955670e-12,-1.039385132484909e-15
	-1.336607229123629e-04,-2.738222154879985e-14
	-1.336607215757557e-04,2.261887138985689e-14
	-2.272227213457582e-24,-5.104047807114165e-14
	-1.336607215757557e-04,2.261887138985689e-14
35		2.238721138568337e+00,0.000000000000000e+00
	-1.336607215757557e+00,2.314573258654020e-10
	1.000000000000000e+00,0.000000000000000e+00
	0.000000000000000e+00,0.000000000000000e+00
	1.336607215757557e-04,-2.314573258654020e-14
	2.379313982869580e-24,5.222936353285875e-14
	1.336607202955670e-12,-1.063595522352607e-15
	-1.336607229123629e-04,-2.802003542396594e-14
	-1.336607215757557e-04,2.314573258654020e-14
	-2.379313982869580e-24,-5.222936353285875e-14
	-1.336607215757557e-04,2.314573258654020e-14
36		2.290867652767770e+00,0.000000000000000e+00
	-1.336607215757557e+00,2.368486595701088e-10
	1.000000000000000e+00,0.000000000000000e+00
	0.000000000000000e+00,0.000000000000000e+00
	1.336607215757557e-04,-2.368486595701088e-14
	2.491447596239426e-24,5.344594169445833e-14
	1.336607202955670e-12,-1.088369844644603e-15
	-1.336607229123629e-04,-2.867270589280284e-14
	-1.336607215757557e-04,2.368486595701089e-14
	-2.491447596239426e-24,-5.344594169445833e-14
	-1.336607215757557e-04,2.368486595701089e-14
37		2.344228815319919e+00,0.000000000000000e+00
	-1.336607215757557e+00,2.423655735691823e-10
	1.000000000000000e+00,0.000000000000000e+00
	0.000000000000000e+00,0.000000000000000e+00
	1.336607215757557e-04,-2.423655735691823e-14
	2.608865903995094e-24,5.469085760178498e-14
	1.336607202955670e-12,-1.113721235034521e-15
	-1.336607229123629e-04,-2.934057900983222e-14
	-1.336607215757557e-04,2.423655735691823e-14
	-2.608865903995094e-24,-5.469085760178498e-14
	-1.336607215757557e-04,2.423655735691823e-14
38		2.398832919019488e+00,0.000000000000000e+00
	-1.336607215757557e+00,2.480109930034498e-10
	1.000000000000000e+00,0.000000000000000e+00
