Title: * GA CMOS Amp | W=2.5320463845975896e-05 L=8.990275909540223e-07 Vbias=0.9663617105813225
Date: Sat Sep  6 22:33:31 2025
Plotname: AC Analysis
Flags: complex forward log
No. Variables: 13
No. Points:          901
Offset:    0.0000000000000000e+00
Command: Linear Technology Corporation LTspice
Variables:
	0	frequency	frequency
	1	V(out)	voltage
	2	V(g)	voltage
	3	V(vdd)	voltage
	4	V(m1#dbody)	voltage
	5	V(m1#sbody)	voltage
	6	Id(M1)	device_current
	7	Ig(M1)	device_current
	8	Ib(M1)	device_current
	9	Is(M1)	device_current
	10	I(Rload)	device_current
	11	I(Vg)	device_current
	12	I(Vdd)	device_current
Values:
0		1.000000000000000e+00,0.000000000000000e+00
	-8.759441451108399e-03,1.122370274158798e-09
	1.000000000000000e+00,0.000000000000000e+00
	0.000000000000000e+00,0.000000000000000e+00
	5.340132154209834e-06,7.870959887067250e-14
	5.340132221932909e-06,8.382545739780676e-14
	8.759441451108350e-07,-1.122370274158790e-13
	1.095737744782525e-05,5.864692393582310e-12
	-2.848070516003145e-06,-4.436789239904254e-14
	-8.985251076932936e-06,-5.708087473767389e-12
	-8.759441451108399e-07,1.122370274158798e-13
	-1.095737744782888e-05,-5.864692393582311e-12
	-8.759441451108399e-07,1.122370274158798e-13
1		1.023292992280754e+00,0.000000000000000e+00
	-8.759441451108399e-03,1.148513636290927e-09
	1.000000000000000e+00,0.000000000000000e+00
	0.000000000000000e+00,0.000000000000000e+00
	5.340132154209834e-06,8.054298094958836e-14
	5.340132221932909e-06,8.577800312990457e-14
	8.759441451108350e-07,-1.148513636290935e-13
	1.095737744782525e-05,6.001298628235023e-12
	-2.848070516003145e-06,-4.540135337420678e-14
	-8.985251076932936e-06,-5.841045911231722e-12
	-8.759441451108399e-07,1.148513636290927e-13
	-1.095737744782888e-05,-6.001298628235021e-12
	-8.759441451108399e-07,1.148513636290927e-13
2		1.047128548050899e+00,0.000000000000000e+00
	-8.759441451108399e-03,1.175265955555392e-09
	1.000000000000000e+00,0.000000000000000e+00
	0.000000000000000e+00,0.000000000000000e+00
	5.340132154209833e-06,8.241906798311600e-14
	5.340132221932908e-06,8.777602949466791e-14
	8.759441451108350e-07,-1.175265955555390e-13
	1.095737744782525e-05,6.141086830856999e-12
	-2.848070516003144e-06,-4.645888674788795e-14
	-8.985251076932939e-06,-5.977101348553573e-12
	-8.759441451108399e-07,1.175265955555392e-13
	-1.095737744782888e-05,-6.141086830856999e-12
	-8.759441451108399e-07,1.175265955555392e-13
3		1.071519305237606e+00,0.000000000000000e+00
	-8.759441451108399e-03,1.202641416385977e-09
	1.000000000000000e+00,0.000000000000000e+00
	0.000000000000000e+00,0.000000000000000e+00
	5.340132154209833e-06,8.433885469743369e-14
	5.340132221932908e-06,8.982059587212248e-14
	8.759441451108350e-07,-1.202641416385972e-13
	1.095737744782525e-05,6.284131119003592e-12
	-2.848070516003144e-06,-4.754105323827894e-14
	-8.985251076932939e-06,-6.116325924126715e-12
	-8.759441451108399e-07,1.202641416385977e-13
	-1.095737744782888e-05,-6.284131119003592e-12
	-8.759441451108399e-07,1.202641416385977e-13
4		1.096478196143185e+00,0.000000000000000e+00
	-8.759441451108399e-03,1.230654533614371e-09
	1.000000000000000e+00,0.000000000000000e+00
	0.000000000000000e+00,0.000000000000000e+00
	5.340132154209833e-06,8.630335898886861e-14
	5.340132221932908e-06,9.191278631842450e-14
	8.759441451108350e-07,-1.230654533614366e-13
	1.095737744782525e-05,6.430507336649788e-12
	-2.848070516003144e-06,-4.864842662437706e-14
	-8.985251076932939e-06,-6.258793456663975e-12
	-8.759441451108399e-07,1.230654533614371e-13
	-1.095737744782888e-05,-6.430507336649787e-12
	-8.759441451108399e-07,1.230654533614371e-13
5		1.122018454301963e+00,0.000000000000000e+00
	-8.759441451108399e-03,1.259320160166125e-09
	1.000000000000000e+00,0.000000000000000e+00
	0.000000000000000e+00,0.000000000000000e+00
	5.340132154209833e-06,8.831362246359953e-14
	5.340132221932908e-06,9.405371014064223e-14
	8.759441451108350e-07,-1.259320160166126e-13
	1.095737744782525e-05,6.580293094403705e-12
	-2.848070516003144e-06,-4.978159405020954e-14
	-8.985251076932939e-06,-6.404579484336883e-12
	-8.759441451108399e-07,1.259320160166125e-13
	-1.095737744782888e-05,-6.580293094403705e-12
	-8.759441451108399e-07,1.259320160166125e-13
6		1.148153621496882e+00,0.000000000000000e+00
	-8.759441451108399e-03,1.288653494935873e-09
	1.000000000000000e+00,0.000000000000000e+00
	0.000000000000000e+00,0.000000000000000e+00
	5.340132154209832e-06,9.037071098992957e-14
	5.340132221932907e-06,9.624450248492447e-14
	8.759441451108350e-07,-1.288653494935867e-13
	1.095737744782525e-05,6.733567810656750e-12
	-2.848070516003144e-06,-5.094115633614470e-14
	-8.985251076932939e-06,-6.553761304827018e-12
	-8.759441451108399e-07,1.288653494935873e-13
	-1.095737744782888e-05,-6.733567810656751e-12
	-8.759441451108399e-07,1.288653494935873e-13
7		1.174897554939529e+00,0.000000000000000e+00
	-8.759441451108399e-03,1.318670090845981e-09
	1.000000000000000e+00,0.000000000000000e+00
	0.000000000000000e+00,0.000000000000000e+00
	5.340132154209832e-06,9.247571526342425e-14
	5.340132221932907e-06,9.848632493837083e-14
	8.759441451108350e-07,-1.318670090845969e-13
	1.095737744782525e-05,6.890412753692311e-12
	-2.848070516003144e-06,-5.212772829745520e-14
	-8.985251076932939e-06,-6.706418016310259e-12
	-8.759441451108399e-07,1.318670090845981e-13
	-1.095737744782888e-05,-6.890412753692310e-12
	-8.759441451108399e-07,1.318670090845981e-13
8		1.202264434617413e+00,0.000000000000000e+00
	-8.759441451108399e-03,1.349385863092918e-09
	1.000000000000000e+00,0.000000000000000e+00
	0.000000000000000e+00,0.000000000000000e+00
	5.340132154209832e-06,9.462975138521239e-14
	5.340132221932907e-06,1.007803661449201e-13
	8.759441451108316e-07,-1.349385863092907e-13
	1.095737744782525e-05,7.050911084775277e-12
	-2.848070516003144e-06,-5.334193907030106e-14
	-8.985251076932939e-06,-6.862630559395685e-12
	-8.759441451108399e-07,1.349385863092918e-13
	-1.095737744782888e-05,-7.050911084775278e-12
	-8.759441451108399e-07,1.349385863092918e-13
9		1.230268770812381e+00,0.000000000000000e+00
	-8.759441451108399e-03,1.380817097585700e-09
	1.000000000000000e+00,0.000000000000000e+00
	0.000000000000000e+00,0.000000000000000e+00
	5.340132154209832e-06,9.683396145375783e-14
	5.340132221932907e-06,1.031278424355853e-13
	8.759441451108316e-07,-1.380817097585695e-13
	1.095737744782525e-05,7.215147902245230e-12
	-2.848070516003143e-06,-5.458443244530605e-14
	-8.985251076932939e-06,-7.022481760041355e-12
	-8.759441451108399e-07,1.380817097585700e-13
	-1.095737744782888e-05,-7.215147902245231e-12
	-8.759441451108399e-07,1.380817097585700e-13
10		1.258925411794167e+00,0.000000000000000e+00
	-8.759441451108399e-03,1.412980459580897e-09
	1.000000000000000e+00,0.000000000000000e+00
	0.000000000000000e+00,0.000000000000000e+00
	5.340132154209832e-06,9.908951417041508e-14
	5.340132221932907e-06,1.055299984733683e-13
	8.759441451108316e-07,-1.412980459580897e-13
	1.095737744782525e-05,7.383210286636727e-12
	-2.848070516003143e-06,-5.585586720890392e-14
	-8.985251076932939e-06,-7.186056373469734e-12
	-8.759441451108399e-07,1.412980459580897e-13
	-1.095737744782888e-05,-7.383210286636729e-12
	-8.759441451108399e-07,1.412980459580897e-13
11		1.288249551693134e+00,0.000000000000000e+00
	-8.759441451108399e-03,1.445893002518771e-09
	1.000000000000000e+00,0.000000000000000e+00
	0.000000000000000e+00,0.000000000000000e+00
	5.340132154209831e-06,1.013976054590902e-13
	5.340132221932906e-06,1.079881079131964e-13
	8.759441451108316e-07,-1.445893002518772e-13
	1.095737744782525e-05,7.555187346850542e-12
	-2.848070516003143e-06,-5.715691749263573e-14
	-8.985251076932939e-06,-7.353441129106030e-12
	-8.759441451108399e-07,1.445893002518771e-13
	-1.095737744782888e-05,-7.555187346850544e-12
	-8.759441451108399e-07,1.445893002518771e-13
12		1.318256738556407e+00,0.000000000000000e+00
	-8.759441451108399e-03,1.479572177065237e-09
	1.000000000000000e+00,0.000000000000000e+00
	0.000000000000000e+00,0.000000000000000e+00
	5.340132154209831e-06,1.037594591003358e-13
	5.340132221932906e-06,1.105034740772317e-13
	8.759441451108316e-07,-1.479572177065241e-13
	1.095737744782525e-05,7.731170267400385e-12
	-2.848070516003143e-06,-5.848827313058340e-14
	-8.985251076932939e-06,-7.524724776563277e-12
	-8.759441451108399e-07,1.479572177065237e-13
	-1.095737744782888e-05,-7.731170267400385e-12
	-8.759441451108399e-07,1.479572177065237e-13
13		1.348962882591653e+00,0.000000000000000e+00
	-8.759441451108399e-03,1.514035840364437e-09
	1.000000000000000e+00,0.000000000000000e+00
	0.000000000000000e+00,0.000000000000000e+00
	5.340132154209831e-06,1.061763273802151e-13
	5.340132221932906e-06,1.130774306459093e-13
	8.759441451108316e-07,-1.514035840364433e-13
	1.095737744782525e-05,7.911252356760138e-12
	-2.848070516003143e-06,-5.985064002512873e-14
	-8.985251076932939e-06,-7.699998132698565e-12
	-8.759441451108399e-07,1.514035840364437e-13
	-1.095737744782888e-05,-7.911252356760136e-12
	-8.759441451108399e-07,1.514035840364437e-13
14		1.380384264602885e+00,0.000000000000000e+00
	-8.759441451108397e-03,1.549302265506831e-09
	1.000000000000000e+00,0.000000000000000e+00
	0.000000000000000e+00,0.000000000000000e+00
	5.340132154209830e-06,1.086494917542813e-13
	5.340132221932905e-06,1.157113423650719e-13
	8.759441451108384e-07,-1.549302265506819e-13
	1.095737744782525e-05,8.095529096837248e-12
	-2.848070516003143e-06,-6.124474052123224e-14
	-8.985251076932946e-06,-7.879354129765333e-12
	-8.759441451108398e-07,1.549302265506831e-13
	-1.095737744782888e-05,-8.095529096837248e-12
	-8.759441451108398e-07,1.549302265506831e-13
15		1.412537544622754e+00,0.000000000000000e+00
	-8.759441451108397e-03,1.585390151217836e-09
	1.000000000000000e+00,0.000000000000000e+00
	0.000000000000000e+00,0.000000000000000e+00
	5.340132154209829e-06,1.111802635270217e-13
	5.340132221932905e-06,1.184066057695773e-13
	8.759441451108384e-07,-1.585390151217834e-13
	1.095737744782525e-05,8.284098193598501e-12
	-2.848070516003143e-06,-6.267131378943012e-14
	-8.985251076932946e-06,-8.062887864687287e-12
	-8.759441451108398e-07,1.585390151217836e-13
	-1.095737744782888e-05,-8.284098193598501e-12
	-8.759441451108398e-07,1.585390151217836e-13
16		1.445439770745927e+00,0.000000000000000e+00
	-8.759441451108397e-03,1.622318631772137e-09
	1.000000000000000e+00,0.000000000000000e+00
	0.000000000000000e+00,0.000000000000000e+00
	5.340132154209828e-06,1.137699845471288e-13
	5.340132221932904e-06,1.211646499237583e-13
	8.759441451108384e-07,-1.622318631772134e-13
	1.095737744782525e-05,8.477059628874999e-12
	-2.848070516003142e-06,-6.413111621775202e-14
	-8.985251076932946e-06,-8.250696649480033e-12
	-8.759441451108398e-07,1.622318631772137e-13
	-1.095737744782888e-05,-8.477059628874998e-12
	-8.759441451108398e-07,1.622318631772137e-13
17		1.479108388168207e+00,0.000000000000000e+00
	-8.759441451108397e-03,1.660107287138929e-09
	1.000000000000000e+00,0.000000000000000e+00
	0.000000000000000e+00,0.000000000000000e+00
	5.340132154209828e-06,1.164200279189665e-13
	5.340132221932904e-06,1.239869371791327e-13
	8.759441451108384e-07,-1.660107287138919e-13
	1.095737744782525e-05,8.674515713373874e-12
	-2.848070516003142e-06,-6.562492181276827e-14
	-8.985251076932946e-06,-8.442880062847214e-12
	-8.759441451108398e-07,1.660107287138929e-13
	-1.095737744782888e-05,-8.674515713373877e-12
	-8.759441451108398e-07,1.660107287138929e-13
18		1.513561248436208e+00,0.000000000000000e+00
	-8.759441451108397e-03,1.698776153363479e-09
	1.000000000000000e+00,0.000000000000000e+00
	0.000000000000000e+00,0.000000000000000e+00
	5.340132154209827e-06,1.191317987306082e-13
	5.340132221932903e-06,1.268749639497605e-13
	8.759441451108384e-07,-1.698776153363469e-13
	1.095737744782525e-05,8.876571140924773e-12
	-2.848070516003142e-06,-6.715352260997813e-14
	-8.985251076932946e-06,-8.639540002978448e-12
	-8.759441451108398e-07,1.698776153363479e-13
	-1.095737744782888e-05,-8.876571140924773e-12
	-8.759441451108398e-07,1.698776153363479e-13
19		1.548816618912481e+00,0.000000000000000e+00
	-8.759441451108397e-03,1.738345733190504e-09
	1.000000000000000e+00,0.000000000000000e+00
	0.000000000000000e+00,0.000000000000000e+00
	5.340132154209827e-06,1.219067347988326e-13
	5.340132221932903e-06,1.298302615056633e-13
	8.759441451108350e-07,-1.738345733190491e-13
	1.095737744782525e-05,9.083333043989895e-12
	-2.848070516003142e-06,-6.871772909375783e-14
	-8.985251076932946e-06,-8.840780741577090e-12
	-8.759441451108398e-07,1.738345733190504e-13
	-1.095737744782888e-05,-9.083333043989899e-12
	-8.759441451108398e-07,1.738345733190504e-13
20		1.584893192461113e+00,0.000000000000000e+00
	-8.759441451108397e-03,1.778837006934992e-09
	1.000000000000000e+00,0.000000000000000e+00
	0.000000000000000e+00,0.000000000000000e+00
	5.340132154209826e-06,1.247463074314738e-13
	5.340132221932902e-06,1.328543967847230e-13
	8.759441451108350e-07,-1.778837006934982e-13
	1.095737744782525e-05,9.294911050467075e-12
	-2.848070516003141e-06,-7.031837062708968e-14
	-8.985251076932946e-06,-9.046708979146487e-12
	-8.759441451108398e-07,1.778837006934992e-13
	-1.095737744782888e-05,-9.294911050467077e-12
	-8.759441451108398e-07,1.778837006934992e-13
21		1.621810097358929e+00,0.000000000000000e+00
	-8.759441451108397e-03,1.820271443606248e-09
	1.000000000000000e+00,0.000000000000000e+00
	0.000000000000000e+00,0.000000000000000e+00
	5.340132154209826e-06,1.276520222075276e-13
	5.340132221932902e-06,1.359489732234938e-13
	8.759441451108350e-07,-1.820271443606244e-13
	1.095737744782525e-05,9.511417341815898e-12
	-2.848070516003141e-06,-7.195629589130167e-14
	-8.985251076932946e-06,-9.257433901563973e-12
	-8.759441451108398e-07,1.820271443606248e-13
	-1.095737744782888e-05,-9.511417341815901e-12
	-8.759441451108398e-07,1.820271443606248e-13
22		1.659586907437560e+00,0.000000000000000e+00
	-8.759441451108397e-03,1.862671012291046e-09
	1.000000000000000e+00,0.000000000000000e+00
	0.000000000000000e+00,0.000000000000000e+00
	5.340132154209826e-06,1.306254197754302e-13
	5.340132221932902e-06,1.391156316073651e-13
	8.759441451108350e-07,-1.862671012291041e-13
	1.095737744782525e-05,9.732966712537846e-12
	-2.848070516003141e-06,-7.363237333604943e-14
	-8.985251076932946e-06,-9.473067237972693e-12
	-8.759441451108398e-07,1.862671012291046e-13
	-1.095737744782888e-05,-9.732966712537850e-12
	-8.759441451108398e-07,1.862671012291046e-13
23		1.698243652461743e+00,0.000000000000000e+00
	-8.759441451108397e-03,1.906058193801926e-09
	1.000000000000000e+00,0.000000000000000e+00
	0.000000000000000e+00,0.000000000000000e+00
	5.340132154209825e-06,1.336680766699296e-13
	5.340132221932901e-06,1.423560509405276e-13
	8.759441451108350e-07,-1.906058193801920e-13
	1.095737744782525e-05,9.959676631041831e-12
	-2.848070516003140e-06,-7.534749163977963e-14
	-8.985251076932946e-06,-9.693723320021858e-12
	-8.759441451108398e-07,1.906058193801926e-13
	-1.095737744782888e-05,-9.959676631041829e-12
	-8.759441451108398e-07,1.906058193801926e-13
24		1.737800828749374e+00,0.000000000000000e+00
	-8.759441451108397e-03,1.950455992596822e-09
	1.000000000000000e+00,0.000000000000000e+00
	0.000000000000000e+00,0.000000000000000e+00
	5.340132154209825e-06,1.367816061479855e-13
	5.340132221932901e-06,1.456719493362040e-13
	8.759441451108350e-07,-1.950455992596818e-13
	1.095737744782525e-05,1.019166730192749e-11
	-2.848070516003140e-06,-7.710256018091920e-14
	-8.985251076932946e-06,-9.919519142486891e-12
	-8.759441451108398e-07,1.950455992596822e-13
	-1.095737744782888e-05,-1.019166730192749e-11
	-8.759441451108398e-07,1.950455992596822e-13
25		1.778279410038922e+00,0.000000000000000e+00
	-8.759441451108395e-03,1.995887948976330e-09
	1.000000000000000e+00,0.000000000000000e+00
	0.000000000000000e+00,0.000000000000000e+00
	5.340132154209824e-06,1.399676590441397e-13
	5.340132221932900e-06,1.490650849276146e-13
	8.759441451108384e-07,-1.995887948976318e-13
	1.095737744782525e-05,1.042906172971930e-11
	-2.848070516003140e-06,-7.889850952003973e-14
	-8.985251076932949e-06,-1.015057442530163e-11
	-8.759441451108396e-07,1.995887948976330e-13
	-1.095737744782888e-05,-1.042906172971930e-11
	-8.759441451108396e-07,1.995887948976330e-13
26		1.819700858609982e+00,0.000000000000000e+00
	-8.759441451108395e-03,2.042378151565086e-09
	1.000000000000000e+00,0.000000000000000e+00
	0.000000000000000e+00,0.000000000000000e+00
	5.340132154209822e-06,1.432279246458100e-13
	5.340132221932899e-06,1.525372568001634e-13
	8.759441451108350e-07,-2.042378151565074e-13
	1.095737744782526e-05,1.067198578408517e-11
	-2.848070516003139e-06,-8.073629189325300e-14
	-8.985251076932953e-06,-1.038701167703540e-11
	-8.759441451108396e-07,2.042378151565087e-13
	-1.095737744782888e-05,-1.067198578408516e-11
	-8.759441451108396e-07,2.042378151565087e-13
27		1.862087136662866e+00,0.000000000000000e+00
	-8.759441451108395e-03,2.089951250083872e-09
	1.000000000000000e+00,0.000000000000000e+00
	0.000000000000000e+00,0.000000000000000e+00
	5.340132154209821e-06,1.465641315889733e-13
	5.340132221932898e-06,1.560903059453371e-13
	8.759441451108350e-07,-2.089951250083874e-13
	1.095737744782526e-05,1.092056826657418e-11
	-2.848070516003139e-06,-8.261688171709927e-14
	-8.985251076932953e-06,-1.062895625984869e-11
	-8.759441451108396e-07,2.089951250083872e-13
	-1.095737744782888e-05,-1.092056826657417e-11
	-8.759441451108396e-07,2.089951250083872e-13
28		1.905460717963246e+00,0.000000000000000e+00
	-8.759441451108395e-03,2.138632468419229e-09
	1.000000000000000e+00,0.000000000000000e+00
	0.000000000000000e+00,0.000000000000000e+00
	5.340132154209821e-06,1.499780487747107e-13
	5.340132221932897e-06,1.597261162368223e-13
	8.759441451108350e-07,-2.138632468419221e-13
	1.095737744782526e-05,1.117494097890894e-11
	-2.848070516003139e-06,-8.454127610519563e-14
	-8.985251076932953e-06,-1.087653645596182e-11
	-8.759441451108396e-07,2.138632468419229e-13
	-1.095737744782888e-05,-1.117494097890894e-11
	-8.759441451108396e-07,2.138632468419229e-13
29		1.949844599758044e+00,0.000000000000000e+00
	-8.759441451108395e-03,2.188447617997488e-09
	1.000000000000000e+00,0.000000000000000e+00
	0.000000000000000e+00,0.000000000000000e+00
	5.340132154209821e-06,1.534714863071026e-13
	5.340132221932897e-06,1.634466154293615e-13
	8.759441451108350e-07,-2.188447617997482e-13
	1.095737744782526e-05,1.143523879286855e-11
	-2.848070516003139e-06,-8.651049539691906e-14
	-8.985251076932953e-06,-1.112988353567188e-11
	-8.759441451108396e-07,2.188447617997488e-13
	-1.095737744782888e-05,-1.143523879286854e-11
	-8.759441451108396e-07,2.188447617997488e-13
30		1.995262314968878e+00,0.000000000000000e+00
	-8.759441451108395e-03,2.239423111470338e-09
	1.000000000000000e+00,0.000000000000000e+00
	0.000000000000000e+00,0.000000000000000e+00
	5.340132154209820e-06,1.570462964529698e-13
	5.340132221932896e-06,1.672537761808730e-13
	8.759441451108350e-07,-2.239423111470339e-13
	1.095737744782526e-05,1.170159972179941e-11
	-2.848070516003138e-06,-8.852558369840370e-14
	-8.985251076932953e-06,-1.138913182695397e-11
	-8.759441451108396e-07,2.239423111470338e-13
	-1.095737744782888e-05,-1.170159972179941e-11
	-8.759441451108396e-07,2.239423111470338e-13
31		2.041737944669527e+00,0.000000000000000e+00
	-8.759441451108395e-03,2.291585976719159e-09
	1.000000000000000e+00,0.000000000000000e+00
	0.000000000000000e+00,0.000000000000000e+00
	5.340132154209819e-06,1.607043746239699e-13
	5.340132221932896e-06,1.711496170983810e-13
	8.759441451108350e-07,-2.291585976719149e-13
	1.095737744782526e-05,1.197416499379176e-11
	-2.848070516003137e-06,-9.058760943613988e-14
	-8.985251076932953e-06,-1.165441878668370e-11
	-8.759441451108396e-07,2.291585976719159e-13
	-1.095737744782888e-05,-1.197416499379176e-11
	-8.759441451108396e-07,2.291585976719159e-13
32		2.089296130854037e+00,0.000000000000000e+00
	-8.759441451108395e-03,2.344963871185562e-09
	1.000000000000000e+00,0.000000000000000e+00
	0.000000000000000e+00,0.000000000000000e+00
	5.340132154209818e-06,1.644476603815694e-13
