LTspice 24.0.9 for Windows
Circuit: * GA CMOS Amp | W=1e-06 L=6.241938447124174e-07 Vbias=1.2403775657445497
Start Time: Mon Sep  8 18:45:05 2025
solver = Normal
Maximum thread count: 2
tnom = 27
temp = 27
method = modified trap
AsciiRawFile = 1
Instance "m1": Length shorter than recommended for a level 3 MOSFET.
Instance "m1": Width narrower than recommended for a level 3 MOSFET.
Direct Newton iteration for .op point succeeded.
Semiconductor Device Operating Points:
                        --- MOSFET Transistors ---
Name:          m1
Model:        n_1u
Id:          1.03e-05
Vgs:         1.24e+00
Vds:         1.70e+00
Vbs:         0.00e+00
Vth:         9.54e-01
Vdsat:       2.04e-01
Gm:          4.98e-05
Gds:         4.25e-06
Gmb:         2.28e-05
Cbd:         0.00e+00
Cbs:         0.00e+00
Cgsov:       2.00e-16
Cgdov:       2.00e-16
Cgbov:       4.24e-17
Cgs:         4.88e-16
Cgd:         0.00e+00
Cgb:         0.00e+00



gain_db: MAX(db(v(out)/v(g)))=(28.9527dB,103.224°) FROM 1 TO 1e+09
gain_lin: MAX(mag(v(out)/v(g)))=(-6.41009dB,0°) FROM 1 TO 1e+09

Measurement "fc" FAIL'ed

Total elapsed time: 0.475 seconds.

