Title: * GA CMOS Amp | W=6.33983791972356e-06 L=9.736743033682566e-07 Vbias=1.3896140039036804
Date: Sat Sep  6 22:12:40 2025
Plotname: AC Analysis
Flags: complex forward log
No. Variables: 13
No. Points:          901
Offset:    0.0000000000000000e+00
Command: Linear Technology Corporation LTspice
Variables:
	0	frequency	frequency
	1	V(out)	voltage
	2	V(g)	voltage
	3	V(vdd)	voltage
	4	V(m1#dbody)	voltage
	5	V(m1#sbody)	voltage
	6	Id(M1)	device_current
	7	Ig(M1)	device_current
	8	Ib(M1)	device_current
	9	Is(M1)	device_current
	10	I(Rload)	device_current
	11	I(Vg)	device_current
	12	I(Vdd)	device_current
Values:
0		1.000000000000000e+00,0.000000000000000e+00
	8.498613125902233e-03,1.457935325909710e-09
	1.000000000000000e+00,0.000000000000000e+00
	0.000000000000000e+00,0.000000000000000e+00
	1.037729885812357e-04,1.092140244883369e-13
	1.037729885174749e-04,1.080371249182390e-13
	-8.498613125902239e-07,-1.457935325909711e-13
	6.680166368945673e-05,1.557212275871528e-12
	-5.534559392206623e-05,-5.770818096915077e-14
	-1.060620845480028e-05,-1.353710562311406e-12
	8.498613125902234e-07,1.457935325909710e-13
	-6.680166368955298e-05,-1.557212275871528e-12
	8.498613125902234e-07,1.457935325909710e-13
1		1.023292992280754e+00,0.000000000000000e+00
	8.498613125902233e-03,1.491895002201964e-09
	1.000000000000000e+00,0.000000000000000e+00
	0.000000000000000e+00,0.000000000000000e+00
	1.037729885812357e-04,1.117579459176939e-13
	1.037729885174749e-04,1.105536328349944e-13
	-8.498613125902244e-07,-1.491895002201965e-13
	6.680166368945673e-05,1.593484409392899e-12
	-5.534559392206623e-05,-5.905237718300157e-14
	-1.060620845480028e-05,-1.385242531989701e-12
	8.498613125902234e-07,1.491895002201964e-13
	-6.680166368955298e-05,-1.593484409392900e-12
	8.498613125902234e-07,1.491895002201964e-13
2		1.047128548050899e+00,0.000000000000000e+00
	8.498613125902233e-03,1.526645700971950e-09
	1.000000000000000e+00,0.000000000000000e+00
	0.000000000000000e+00,0.000000000000000e+00
	1.037729885812357e-04,1.143611228892676e-13
	1.037729885174749e-04,1.131287577512292e-13
	-8.498613125902244e-07,-1.526645700971950e-13
	6.680166368945673e-05,1.630601429440390e-12
	-5.534559392206623e-05,-6.042788374888539e-14
	-1.060620845480028e-05,-1.417508975594310e-12
	8.498613125902234e-07,1.526645700971950e-13
	-6.680166368955298e-05,-1.630601429440390e-12
	8.498613125902234e-07,1.526645700971950e-13
3		1.071519305237606e+00,0.000000000000000e+00
	8.498613125902233e-03,1.562205847500136e-09
	1.000000000000000e+00,0.000000000000000e+00
	0.000000000000000e+00,0.000000000000000e+00
	1.037729885812357e-04,1.170249356419457e-13
	1.037729885174749e-04,1.157638650322600e-13
	-8.498613125902244e-07,-1.562205847500136e-13
	6.680166368945673e-05,1.668583015949332e-12
	-5.534559392206623e-05,-6.183542997859050e-14
	-1.060620845480028e-05,-1.450527001220727e-12
	8.498613125902234e-07,1.562205847500136e-13
	-6.680166368955298e-05,-1.668583015949331e-12
	8.498613125902234e-07,1.562205847500136e-13
4		1.096478196143185e+00,0.000000000000000e+00
	8.498613125902233e-03,1.598594296246905e-09
	1.000000000000000e+00,0.000000000000000e+00
	0.000000000000000e+00,0.000000000000000e+00
	1.037729885812357e-04,1.197507965645093e-13
	1.037729885174749e-04,1.184603518468466e-13
	-8.498613125902244e-07,-1.598594296246905e-13
	6.680166368945673e-05,1.707449307259636e-12
	-5.534559392206623e-05,-6.327576217175890e-14
	-1.060620845480028e-05,-1.484314115463187e-12
	8.498613125902234e-07,1.598594296246905e-13
	-6.680166368955298e-05,-1.707449307259637e-12
	8.498613125902234e-07,1.598594296246905e-13
5		1.122018454301963e+00,0.000000000000000e+00
	8.498613125902235e-03,1.635830340849442e-09
	1.000000000000000e+00,0.000000000000000e+00
	0.000000000000000e+00,0.000000000000000e+00
	1.037729885812357e-04,1.225401509445006e-13
	1.037729885174749e-04,1.212196479079906e-13
	-8.498613125902239e-07,-1.635830340849444e-13
	6.680166368945673e-05,1.747220910793414e-12
	-5.534559392206623e-05,-6.474964401158453e-14
	-1.060620845480028e-05,-1.518888232696885e-12
	8.498613125902235e-07,1.635830340849442e-13
	-6.680166368955298e-05,-1.747220910793415e-12
	8.498613125902235e-07,1.635830340849442e-13
6		1.148153621496882e+00,0.000000000000000e+00
	8.498613125902235e-03,1.673933724351471e-09
	1.000000000000000e+00,0.000000000000000e+00
	0.000000000000000e+00,0.000000000000000e+00
	1.037729885812357e-04,1.253944777345333e-13
	1.037729885174749e-04,1.240432162309872e-13
	-8.498613125902239e-07,-1.673933724351472e-13
	6.680166368945673e-05,1.787918913981298e-12
	-5.534559392206623e-05,-6.625785696972792e-14
	-1.060620845480028e-05,-1.554267684576422e-12
	8.498613125902235e-07,1.673933724351471e-13
	-6.680166368955298e-05,-1.787918913981298e-12
	8.498613125902235e-07,1.673933724351471e-13
7		1.174897554939529e+00,0.000000000000000e+00
	8.498613125902235e-03,1.712924649671284e-09
	1.000000000000000e+00,0.000000000000000e+00
	0.000000000000000e+00,0.000000000000000e+00
	1.037729885812357e-04,1.283152903364530e-13
	1.037729885174749e-04,1.269325539091355e-13
	-8.498613125902239e-07,-1.712924649671286e-13
	6.680166368945673e-05,1.829564895443278e-12
	-5.534559392206623e-05,-6.780120072066313e-14
	-1.060620845480028e-05,-1.590471229755486e-12
	8.498613125902235e-07,1.712924649671284e-13
	-6.680166368955298e-05,-1.829564895443278e-12
	8.498613125902235e-07,1.712924649671284e-13
8		1.202264434617413e+00,0.000000000000000e+00
	8.498613125902235e-03,1.752823790313591e-09
	1.000000000000000e+00,0.000000000000000e+00
	0.000000000000000e+00,0.000000000000000e+00
	1.037729885812357e-04,1.313041374037627e-13
	1.037729885174749e-04,1.298891929075174e-13
	-8.498613125902244e-07,-1.752823790313590e-13
	6.680166368945673e-05,1.872180936429977e-12
	-5.534559392206623e-05,-6.938049356567539e-14
	-1.060620845480028e-05,-1.627518063832943e-12
	8.498613125902235e-07,1.752823790313591e-13
	-6.680166368955298e-05,-1.872180936429978e-12
	8.498613125902235e-07,1.752823790313591e-13
9		1.230268770812381e+00,0.000000000000000e+00
	8.498613125902235e-03,1.793652301330887e-09
	1.000000000000000e+00,0.000000000000000e+00
	0.000000000000000e+00,0.000000000000000e+00
	1.037729885812357e-04,1.343626036627396e-13
	1.037729885174749e-04,1.329147008752655e-13
	-8.498613125902244e-07,-1.793652301330889e-13
	6.680166368945673e-05,1.915789632530416e-12
	-5.534559392206623e-05,-7.099657286673556e-14
	-1.060620845480028e-05,-1.665427829530591e-12
	8.498613125902235e-07,1.793652301330887e-13
	-6.680166368955298e-05,-1.915789632530416e-12
	8.498613125902235e-07,1.793652301330887e-13
10		1.258925411794167e+00,0.000000000000000e+00
	8.498613125902235e-03,1.835431830540145e-09
	1.000000000000000e+00,0.000000000000000e+00
	0.000000000000000e+00,0.000000000000000e+00
	1.037729885812357e-04,1.374923107526778e-13
	1.037729885174749e-04,1.360106819767519e-13
	-8.498613125902244e-07,-1.835431830540144e-13
	6.680166368945673e-05,1.960414105652496e-12
	-5.534559392206623e-05,-7.265029549048044e-14
	-1.060620845480028e-05,-1.704220627108000e-12
	8.498613125902235e-07,1.835431830540145e-13
	-6.680166368955298e-05,-1.960414105652496e-12
	8.498613125902235e-07,1.835431830540145e-13
11		1.288249551693134e+00,0.000000000000000e+00
	8.498613125902235e-03,1.878184530000766e-09
	1.000000000000000e+00,0.000000000000000e+00
	0.000000000000000e+00,0.000000000000000e+00
	1.037729885812357e-04,1.406949180857030e-13
	1.037729885174749e-04,1.391787777421365e-13
	-8.498613125902244e-07,-1.878184530000772e-13
	6.680166368945673e-05,2.006078016282541e-12
	-5.534559392206623e-05,-7.434253826253473e-14
	-1.060620845480028e-05,-1.743917025019929e-12
	8.498613125902235e-07,1.878184530000766e-13
	-6.680166368955298e-05,-2.006078016282541e-12
	8.498613125902235e-07,1.878184530000766e-13
12		1.318256738556407e+00,0.000000000000000e+00
	8.498613125902235e-03,1.921933067759906e-09
	1.000000000000000e+00,0.000000000000000e+00
	0.000000000000000e+00,0.000000000000000e+00
	1.037729885812357e-04,1.439721237266146e-13
	1.037729885174749e-04,1.424206679377288e-13
	-8.498613125902244e-07,-1.921933067759907e-13
	6.680166368945673e-05,2.052805576030400e-12
	-5.534559392206623e-05,-7.607419843241562e-14
	-1.060620845480028e-05,-1.784538070821994e-12
	8.498613125902235e-07,1.921933067759906e-13
	-6.680166368955298e-05,-2.052805576030400e-12
	8.498613125902235e-07,1.921933067759906e-13
13		1.348962882591653e+00,0.000000000000000e+00
	8.498613125902235e-03,1.966700639871364e-09
	1.000000000000000e+00,0.000000000000000e+00
	0.000000000000000e+00,0.000000000000000e+00
	1.037729885812357e-04,1.473256652932224e-13
	1.037729885174749e-04,1.457380714566222e-13
	-8.498613125902248e-07,-1.966700639871366e-13
	6.680166368945673e-05,2.100621560466765e-12
	-5.534559392206623e-05,-7.784619414926640e-14
	-1.060620845480028e-05,-1.826105302330362e-12
	8.498613125902235e-07,1.966700639871364e-13
	-6.680166368955298e-05,-2.100621560466766e-12
	8.498613125902235e-07,1.966700639871364e-13
14		1.380384264602885e+00,0.000000000000000e+00
	8.498613125902235e-03,2.012510982694442e-09
	1.000000000000000e+00,0.000000000000000e+00
	0.000000000000000e+00,0.000000000000000e+00
	1.037729885812357e-04,1.507573208776544e-13
	1.037729885174749e-04,1.491327472300733e-13
	-8.498613125902248e-07,-2.012510982694443e-13
	6.680166368945673e-05,2.149551322259504e-12
	-5.534559392206623e-05,-7.965946494867140e-14
	-1.060620845480028e-05,-1.868640759041388e-12
	8.498613125902235e-07,2.012510982694442e-13
	-6.680166368955298e-05,-2.149551322259504e-12
	8.498613125902235e-07,2.012510982694442e-13
15		1.412537544622754e+00,0.000000000000000e+00
	8.498613125902235e-03,2.059388385479277e-09
	1.000000000000000e+00,0.000000000000000e+00
	0.000000000000000e+00,0.000000000000000e+00
	1.037729885812357e-04,1.542689099891248e-13
	1.037729885174749e-04,1.526064951601111e-13
	-8.498613125902248e-07,-2.059388385479274e-13
	6.680166368945673e-05,2.199620804615979e-12
	-5.534559392206623e-05,-8.151497225080980e-14
	-1.060620845480028e-05,-1.912166993817242e-12
	8.498613125902235e-07,2.059388385479277e-13
	-6.680166368955298e-05,-2.199620804615979e-12
	8.498613125902235e-07,2.059388385479277e-13
16		1.445439770745927e+00,0.000000000000000e+00
	8.498613125902237e-03,2.107357703245320e-09
	1.000000000000000e+00,0.000000000000000e+00
	0.000000000000000e+00,0.000000000000000e+00
	1.037729885812357e-04,1.578622945186618e-13
	1.037729885174749e-04,1.561611570738685e-13
	-8.498613125902239e-07,-2.107357703245319e-13
	6.680166368945673e-05,2.250856555038485e-12
	-5.534559392206623e-05,-8.341369987021377e-14
	-1.060620845480028e-05,-1.956707084843739e-12
	8.498613125902237e-07,2.107357703245320e-13
	-6.680166368955298e-05,-2.250856555038485e-12
	8.498613125902237e-07,2.107357703245320e-13
17		1.479108388168207e+00,0.000000000000000e+00
	8.498613125902237e-03,2.156444369959801e-09
	1.000000000000000e+00,0.000000000000000e+00
	0.000000000000000e+00,0.000000000000000e+00
	1.037729885812357e-04,1.615393797263071e-13
	1.037729885174749e-04,1.597986177001437e-13
	-8.498613125902239e-07,-2.156444369959801e-13
	6.680166368945673e-05,2.303285739400081e-12
	-5.534559392206623e-05,-8.535665453739979e-14
	-1.060620845480028e-05,-2.002284647866701e-12
	8.498613125902237e-07,2.156444369959801e-13
	-6.680166368955298e-05,-2.303285739400081e-12
	8.498613125902237e-07,2.156444369959801e-13
18		1.513561248436208e+00,0.000000000000000e+00
	8.498613125902237e-03,2.206674412023150e-09
	1.000000000000000e+00,0.000000000000000e+00
	0.000000000000000e+00,0.000000000000000e+00
	1.037729885812357e-04,1.653021152513098e-13
	1.037729885174749e-04,1.635208056687083e-13
	-8.498613125902244e-07,-2.206674412023151e-13
	6.680166368945673e-05,2.356936156348298e-12
	-5.534559392206623e-05,-8.734486643265044e-14
	-1.060620845480028e-05,-2.048923848713333e-12
	8.498613125902237e-07,2.206674412023150e-13
	-6.680166368955298e-05,-2.356936156348298e-12
	8.498613125902237e-07,2.206674412023150e-13
19		1.548816618912481e+00,0.000000000000000e+00
	8.498613125902237e-03,2.258074462068543e-09
	1.000000000000000e+00,0.000000000000000e+00
	0.000000000000000e+00,0.000000000000000e+00
	1.037729885812357e-04,1.691524961458509e-13
	1.037729885174749e-04,1.673296945328922e-13
	-8.498613125902244e-07,-2.258074462068542e-13
	6.680166368945673e-05,2.411836252044349e-12
	-5.534559392206623e-05,-8.937938973222966e-14
	-1.060620845480028e-05,-2.096649416105266e-12
	8.498613125902237e-07,2.258074462068543e-13
	-6.680166368955298e-05,-2.411836252044350e-12
	8.498613125902237e-07,2.258074462068543e-13
20		1.584893192461113e+00,0.000000000000000e+00
	8.498613125902237e-03,2.310671773082874e-09
	1.000000000000000e+00,0.000000000000000e+00
	0.000000000000000e+00,0.000000000000000e+00
	1.037729885812357e-04,1.730925639328465e-13
	1.037729885174749e-04,1.712273038159878e-13
	-8.498613125902244e-07,-2.310671773082874e-13
	6.680166368945673e-05,2.468015135245661e-12
	-5.534559392206623e-05,-9.146130316732100e-14
	-1.060620845480028e-05,-2.145486654770053e-12
	8.498613125902237e-07,2.310671773082874e-13
	-6.680166368955298e-05,-2.468015135245662e-12
	8.498613125902237e-07,2.310671773082874e-13
21		1.621810097358929e+00,0.000000000000000e+00
	8.498613125902237e-03,2.364494232856649e-09
	1.000000000000000e+00,0.000000000000000e+00
	0.000000000000000e+00,0.000000000000000e+00
	1.037729885812357e-04,1.771244076883902e-13
	1.037729885174749e-04,1.752157000820280e-13
	-8.498613125902248e-07,-2.364494232856649e-13
	6.680166368945673e-05,2.525502592739723e-12
	-5.534559392206623e-05,-9.359171059598512e-14
	-1.060620845480028e-05,-2.195461458858073e-12
	8.498613125902237e-07,2.364494232856649e-13
	-6.680166368955298e-05,-2.525502592739723e-12
	8.498613125902237e-07,2.364494232856649e-13
22		1.659586907437560e+00,0.000000000000000e+00
	8.498613125902237e-03,2.419570378770467e-09
	1.000000000000000e+00,0.000000000000000e+00
	0.000000000000000e+00,0.000000000000000e+00
	1.037729885812357e-04,1.812501651494091e-13
	1.037729885174749e-04,1.792969980315056e-13
	-8.498613125902248e-07,-2.419570378770468e-13
	6.680166368945673e-05,2.584329105137433e-12
	-5.534559392206623e-05,-9.577174158843999e-14
	-1.060620845480028e-05,-2.246600325671947e-12
	8.498613125902237e-07,2.419570378770467e-13
	-6.680166368955298e-05,-2.584329105137434e-12
	8.498613125902237e-07,2.419570378770467e-13
23		1.698243652461743e+00,0.000000000000000e+00
	8.498613125902239e-03,2.475929412925908e-09
	1.000000000000000e+00,0.000000000000000e+00
	0.000000000000000e+00,0.000000000000000e+00
	1.037729885812357e-04,1.854720238471197e-13
	1.037729885174749e-04,1.834733616226158e-13
	-8.498613125902239e-07,-2.475929412925912e-13
	6.680166368945673e-05,2.644525863034328e-12
	-5.534559392206623e-05,-9.800255202597391e-14
	-1.060620845480028e-05,-2.298930369715763e-12
	8.498613125902239e-07,2.475929412925908e-13
	-6.680166368955298e-05,-2.644525863034329e-12
	8.498613125902239e-07,2.475929412925908e-13
24		1.737800828749374e+00,0.000000000000000e+00
	8.498613125902239e-03,2.533601217628883e-09
	1.000000000000000e+00,0.000000000000000e+00
	0.000000000000000e+00,0.000000000000000e+00
	1.037729885812357e-04,1.897922222668864e-13
	1.037729885174749e-04,1.877470052186154e-13
	-8.498613125902244e-07,-2.533601217628884e-13
	6.680166368945673e-05,2.706124783548241e-12
	-5.534559392206623e-05,-1.002853247138091e-13
	-1.060620845480028e-05,-2.352479337071544e-12
	8.498613125902239e-07,2.533601217628883e-13
	-6.680166368955298e-05,-2.706124783548242e-12
	8.498613125902239e-07,2.533601217628883e-13
25		1.778279410038922e+00,0.000000000000000e+00
	8.498613125902239e-03,2.592616371233623e-09
	1.000000000000000e+00,0.000000000000000e+00
	0.000000000000000e+00,0.000000000000000e+00
	1.037729885812357e-04,1.942130510350962e-13
	1.037729885174749e-04,1.921201947619073e-13
	-8.498613125902244e-07,-2.592616371233622e-13
	6.680166368945673e-05,2.769158527242187e-12
	-5.534559392206623e-05,-1.026212700082408e-13
	-1.060620845480028e-05,-2.407275620110584e-12
	8.498613125902239e-07,2.592616371233623e-13
	-6.680166368955298e-05,-2.769158527242188e-12
	8.498613125902239e-07,2.592616371233623e-13
26		1.819700858609982e+00,0.000000000000000e+00
	8.498613125902239e-03,2.653006164355723e-09
	1.000000000000000e+00,0.000000000000000e+00
	0.000000000000000e+00,0.000000000000000e+00
	1.037729885812357e-04,1.987368541336784e-13
	1.037729885174749e-04,1.965952489754734e-13
	-8.498613125902244e-07,-2.653006164355727e-13
	6.680166368945673e-05,2.833660515441425e-12
	-5.534559392206623e-05,-1.050116264583839e-13
	-1.060620845480028e-05,-2.463348272547468e-12
	8.498613125902239e-07,2.653006164355724e-13
	-6.680166368955298e-05,-2.833660515441424e-12
	8.498613125902239e-07,2.653006164355724e-13
27		1.862087136662866e+00,0.000000000000000e+00
	8.498613125902239e-03,2.714802616462854e-09
	1.000000000000000e+00,0.000000000000000e+00
	0.000000000000000e+00,0.000000000000000e+00
	1.037729885812357e-04,2.033660301429154e-13
	1.037729885174749e-04,2.011745405922920e-13
	-8.498613125902248e-07,-2.714802616462855e-13
	6.680166368945673e-05,2.899664947953879e-12
	-5.534559392206623e-05,-1.074576614628685e-13
	-1.060620845480028e-05,-2.520727024844725e-12
	8.498613125902239e-07,2.714802616462855e-13
	-6.680166368955298e-05,-2.899664947953879e-12
	8.498613125902239e-07,2.714802616462855e-13
28		1.905460717963246e+00,0.000000000000000e+00
	8.498613125902239e-03,2.778038492851895e-09
	1.000000000000000e+00,0.000000000000000e+00
	0.000000000000000e+00,0.000000000000000e+00
	1.037729885812357e-04,2.081030335132020e-13
	1.037729885174749e-04,2.058604976133925e-13
	-8.498613125902248e-07,-2.778038492851894e-13
	6.680166368945673e-05,2.967206821203342e-12
	-5.534559392206623e-05,-1.099606719418309e-13
	-1.060620845480028e-05,-2.579442299976321e-12
	8.498613125902239e-07,2.778038492851895e-13
	-6.680166368955298e-05,-2.967206821203342e-12
	8.498613125902239e-07,2.778038492851895e-13
29		1.949844599758044e+00,0.000000000000000e+00
	8.498613125902240e-03,2.842747322021532e-09
	1.000000000000000e+00,0.000000000000000e+00
	0.000000000000000e+00,0.000000000000000e+00
	1.037729885812357e-04,2.129503758664266e-13
	1.037729885174749e-04,2.106556045952135e-13
	-8.498613125902244e-07,-2.842747322021532e-13
	6.680166368945673e-05,3.036321946785033e-12
	-5.534559392206623e-05,-1.125219850245586e-13
	-1.060620845480028e-05,-2.639525229558321e-12
	8.498613125902241e-07,2.842747322021533e-13
	-6.680166368955298e-05,-3.036321946785032e-12
	8.498613125902241e-07,2.842747322021533e-13
30		1.995262314968878e+00,0.000000000000000e+00
	8.498613125902240e-03,2.908963413449513e-09
	1.000000000000000e+00,0.000000000000000e+00
	0.000000000000000e+00,0.000000000000000e+00
	1.037729885812357e-04,2.179106273276669e-13
	1.037729885174749e-04,2.155624039669474e-13
	-8.498613125902248e-07,-2.908963413449514e-13
	6.680166368945673e-05,3.107046970453380e-12
	-5.534559392206623e-05,-1.151429587531507e-13
	-1.060620845480028e-05,-2.701007670355278e-12
	8.498613125902241e-07,2.908963413449514e-13
	-6.680166368955298e-05,-3.107046970453381e-12
	8.498613125902241e-07,2.908963413449514e-13
31		2.041737944669527e+00,0.000000000000000e+00
	8.498613125902240e-03,2.976721875783988e-09
	1.000000000000000e+00,0.000000000000000e+00
	0.000000000000000e+00,0.000000000000000e+00
	1.037729885812357e-04,2.229864178879045e-13
	1.037729885174749e-04,2.205834973785703e-13
	-8.498613125902248e-07,-2.976721875783993e-13
	6.680166368945673e-05,3.179419391552091e-12
	-5.534559392206623e-05,-1.178249828025711e-13
	-1.060620845480028e-05,-2.763922221171121e-12
	8.498613125902241e-07,2.976721875783989e-13
	-6.680166368955298e-05,-3.179419391552091e-12
	8.498613125902241e-07,2.976721875783989e-13
32		2.089296130854037e+00,0.000000000000000e+00
	8.498613125902240e-03,3.046058635458577e-09
	1.000000000000000e+00,0.000000000000000e+00
	0.000000000000000e+00,0.000000000000000e+00
	1.037729885812357e-04,2.281804387984805e-13
	1.037729885174749e-04,2.257215470802711e-13
	-8.498613125902252e-07,-3.046058635458579e-13
