LTspice 24.0.9 for Windows
Circuit: * GA CMOS Amp | W=1.815856126986581e-05 L=9.474044604240344e-07 Vbias=0.7971356730411914
Start Time: Mon Sep  8 18:44:46 2025
solver = Normal
Maximum thread count: 2
tnom = 27
temp = 27
method = modified trap
AsciiRawFile = 1
Instance "m1": Length shorter than recommended for a level 3 MOSFET.
Direct Newton iteration for .op point succeeded.
Semiconductor Device Operating Points:
                        --- MOSFET Transistors ---
Name:          m1
Model:        n_1u
Id:          3.34e-06
Vgs:         7.97e-01
Vds:         1.77e+00
Vbs:         0.00e+00
Vth:         8.09e-01
Vdsat:       4.85e-02
Gm:          6.07e-05
Gds:         1.99e-07
Gmb:         1.45e-05
Cbd:         0.00e+00
Cbs:         0.00e+00
Cgsov:       3.63e-15
Cgdov:       3.63e-15
Cgbov:       7.47e-17
Cgs:         1.51e-14
Cgd:         0.00e+00
Cgb:         3.93e-16



gain_db: MAX(db(v(out)/v(g)))=(28.8284dB,99.0639°) FROM 1 TO 1e+09
gain_lin: MAX(mag(v(out)/v(g)))=(-3.99869dB,0°) FROM 1 TO 1e+09

Measurement "fc" FAIL'ed

Total elapsed time: 0.462 seconds.

