Title: * GA CMOS Amp | W=5.2055622753592074e-06 L=7.819887737376181e-07 Vbias=1.2482112039424695
Date: Sat Sep  6 22:35:47 2025
Plotname: AC Analysis
Flags: complex forward log
No. Variables: 13
No. Points:          901
Offset:    0.0000000000000000e+00
Command: Linear Technology Corporation LTspice
Variables:
	0	frequency	frequency
	1	V(out)	voltage
	2	V(g)	voltage
	3	V(vdd)	voltage
	4	V(m1#dbody)	voltage
	5	V(m1#sbody)	voltage
	6	Id(M1)	device_current
	7	Ig(M1)	device_current
	8	Ib(M1)	device_current
	9	Is(M1)	device_current
	10	I(Rload)	device_current
	11	I(Vg)	device_current
	12	I(Vdd)	device_current
Values:
0		1.000000000000000e+00,0.000000000000000e+00
	-3.065491620649628e-02,9.864862177737886e-10
	1.000000000000000e+00,0.000000000000000e+00
	0.000000000000000e+00,0.000000000000000e+00
	2.141662632507253e-05,7.523515458035496e-14
	2.141662655498210e-05,7.869119769135466e-14
	3.065491620649626e-06,-9.864862177737891e-14
	1.570030390435806e-05,1.029252324189760e-12
	-1.142220082262881e-05,-4.173991709020699e-14
	-7.343594702378884e-06,-8.888637853221743e-13
	-3.065491620649628e-06,9.864862177737887e-14
	-1.570030390429800e-05,-1.029252324189760e-12
	-3.065491620649628e-06,9.864862177737887e-14
1		1.023292992280754e+00,0.000000000000000e+00
	-3.065491620649628e-02,1.009464433629464e-09
	1.000000000000000e+00,0.000000000000000e+00
	0.000000000000000e+00,0.000000000000000e+00
	2.141662632507253e-05,7.698760645523653e-14
	2.141662655498210e-05,8.052415115174268e-14
	3.065491620649626e-06,-1.009464433629464e-13
	1.570030390435806e-05,1.053226690632060e-12
	-1.142220082262881e-05,-4.271216465678850e-14
	-7.343594702378884e-06,-9.095680826123255e-13
	-3.065491620649628e-06,1.009464433629464e-13
	-1.570030390429800e-05,-1.053226690632060e-12
	-3.065491620649628e-06,1.009464433629464e-13
2		1.047128548050899e+00,0.000000000000000e+00
	-3.065491620649628e-02,1.032977880889691e-09
	1.000000000000000e+00,0.000000000000000e+00
	0.000000000000000e+00,0.000000000000000e+00
	2.141662632507253e-05,7.878087817811206e-14
	2.141662655498210e-05,8.239979958293448e-14
	3.065491620649626e-06,-1.032977880889690e-13
	1.570030390435806e-05,1.077759491806837e-12
	-1.142220082262881e-05,-4.370705877843336e-14
	-7.343594702378884e-06,-9.307546449394347e-13
	-3.065491620649628e-06,1.032977880889691e-13
	-1.570030390429800e-05,-1.077759491806837e-12
	-3.065491620649628e-06,1.032977880889691e-13
3		1.071519305237606e+00,0.000000000000000e+00
	-3.065491620649628e-02,1.057039026695444e-09
	1.000000000000000e+00,0.000000000000000e+00
	0.000000000000000e+00,0.000000000000000e+00
	2.141662632507253e-05,8.061592056538588e-14
	2.141662655498210e-05,8.431913747855547e-14
	3.065491620649626e-06,-1.057039026695445e-13
	1.570030390435806e-05,1.102863735330003e-12
	-1.142220082262881e-05,-4.472512696117388e-14
	-7.343594702378884e-06,-9.524347056992846e-13
	-3.065491620649628e-06,1.057039026695444e-13
	-1.570030390429800e-05,-1.102863735330003e-12
	-3.065491620649628e-06,1.057039026695444e-13
4		1.096478196143185e+00,0.000000000000000e+00
	-3.065491620649628e-02,1.081660628584717e-09
	1.000000000000000e+00,0.000000000000000e+00
	0.000000000000000e+00,0.000000000000000e+00
	2.141662632507253e-05,8.249370658082127e-14
	2.141662655498210e-05,8.628318249696328e-14
	3.065491620649626e-06,-1.081660628584716e-13
	1.570030390435806e-05,1.128552731803768e-12
	-1.142220082262881e-05,-4.576690899823624e-14
	-7.343594702378884e-06,-9.746197599470605e-13
	-3.065491620649628e-06,1.081660628584717e-13
	-1.570030390429800e-05,-1.128552731803769e-12
	-3.065491620649628e-06,1.081660628584717e-13
5		1.122018454301963e+00,0.000000000000000e+00
	-3.065491620649628e-02,1.106855741256736e-09
	1.000000000000000e+00,0.000000000000000e+00
	0.000000000000000e+00,0.000000000000000e+00
	2.141662632507253e-05,8.441523185141915e-14
	2.141662655498210e-05,8.829297600082396e-14
	3.065491620649626e-06,-1.106855741256734e-13
	1.570030390435806e-05,1.154840101874097e-12
	-1.142220082262881e-05,-4.683295725624614e-14
	-7.343594702378884e-06,-9.973215704921778e-13
	-3.065491620649628e-06,1.106855741256736e-13
	-1.570030390429800e-05,-1.154840101874098e-12
	-3.065491620649628e-06,1.106855741256736e-13
6		1.148153621496882e+00,0.000000000000000e+00
	-3.065491620649628e-02,1.132637723493738e-09
	1.000000000000000e+00,0.000000000000000e+00
	0.000000000000000e+00,0.000000000000000e+00
	2.141662632507253e-05,8.638151519531232e-14
	2.141662655498210e-05,9.034958360925596e-14
	3.065491620649626e-06,-1.132637723493737e-13
	1.570030390435806e-05,1.181739783452556e-12
	-1.142220082262881e-05,-4.792383696810077e-14
	-7.343594702378884e-06,-1.020552174135082e-12
	-3.065491620649628e-06,1.132637723493738e-13
	-1.570030390429800e-05,-1.181739783452556e-12
	-3.065491620649628e-06,1.132637723493738e-13
7		1.174897554939529e+00,0.000000000000000e+00
	-3.065491620649628e-02,1.159020245243968e-09
	1.000000000000000e+00,0.000000000000000e+00
	0.000000000000000e+00,0.000000000000000e+00
	2.141662632507253e-05,8.839359916195656e-14
	2.141662655498210e-05,9.245409576283569e-14
	3.065491620649626e-06,-1.159020245243967e-13
	1.570030390435806e-05,1.209266039106376e-12
	-1.142220082262881e-05,-4.904012653266285e-14
	-7.343594702378884e-06,-1.044323888049317e-12
	-3.065491620649628e-06,1.159020245243968e-13
	-1.570030390429800e-05,-1.209266039106377e-12
	-3.065491620649628e-06,1.159020245243968e-13
8		1.202264434617413e+00,0.000000000000000e+00
	-3.065491620649628e-02,1.186017294869674e-09
	1.000000000000000e+00,0.000000000000000e+00
	0.000000000000000e+00,0.000000000000000e+00
	2.141662632507253e-05,9.045255058490410e-14
	2.141662655498210e-05,9.460762830176354e-14
	3.065491620649626e-06,-1.186017294869673e-13
	1.570030390435806e-05,1.237433463620659e-12
	-1.142220082262881e-05,-5.018241782143538e-14
	-7.343594702378884e-06,-1.068649316312257e-12
	-3.065491620649628e-06,1.186017294869674e-13
	-1.570030390429800e-05,-1.237433463620660e-12
	-3.065491620649628e-06,1.186017294869674e-13
9		1.230268770812381e+00,0.000000000000000e+00
	-3.065491620649628e-02,1.213643186563914e-09
	1.000000000000000e+00,0.000000000000000e+00
	0.000000000000000e+00,0.000000000000000e+00
	2.141662632507253e-05,9.255946114745281e-14
	2.141662655498210e-05,9.681132305749697e-14
	3.065491620649626e-06,-1.213643186563913e-13
	1.570030390435806e-05,1.266256991736722e-12
	-1.142220082262881e-05,-5.135131649237965e-14
	-7.343594702378884e-06,-1.093541356587951e-12
	-3.065491620649628e-06,1.213643186563914e-13
	-1.570030390429800e-05,-1.266256991736722e-12
	-3.065491620649628e-06,1.213643186563914e-13
10		1.258925411794167e+00,0.000000000000000e+00
	-3.065491620649628e-02,1.241912567940137e-09
	1.000000000000000e+00,0.000000000000000e+00
	0.000000000000000e+00,0.000000000000000e+00
	2.141662632507253e-05,9.471544796147119e-14
	2.141662655498210e-05,9.906634845816484e-14
	3.065491620649626e-06,-1.241912567940136e-13
	1.570030390435806e-05,1.295751906070697e-12
	-1.142220082262881e-05,-5.254744231104320e-14
	-7.343594702378884e-06,-1.119013206965640e-12
	-3.065491620649628e-06,1.241912567940137e-13
	-1.570030390429800e-05,-1.295751906070697e-12
	-3.065491620649628e-06,1.241912567940137e-13
11		1.288249551693134e+00,0.000000000000000e+00
	-3.065491620649628e-02,1.270840427798538e-09
	1.000000000000000e+00,0.000000000000000e+00
	0.000000000000000e+00,0.000000000000000e+00
	2.141662632507253e-05,9.692165415970591e-14
	2.141662655498210e-05,1.013739001480834e-13
	3.065491620649626e-06,-1.270840427798537e-13
	1.570030390435806e-05,1.325933845216574e-12
	-1.142220082262881e-05,-5.377142947916772e-14
	-7.343594702378884e-06,-1.145078372957553e-12
	-3.065491620649628e-06,1.270840427798538e-13
	-1.570030390429800e-05,-1.325933845216574e-12
	-3.065491620649628e-06,1.270840427798538e-13
12		1.318256738556407e+00,0.000000000000000e+00
	-3.065491620649628e-02,1.300442104073320e-09
	1.000000000000000e+00,0.000000000000000e+00
	0.000000000000000e+00,0.000000000000000e+00
	2.141662632507253e-05,9.917924950188587e-14
	2.141662655498210e-05,1.037352016217027e-13
	3.065491620649626e-06,-1.300442104073320e-13
	1.570030390435806e-05,1.356818812037994e-12
	-1.142220082262881e-05,-5.502392697095110e-14
	-7.343594702378884e-06,-1.171750674659711e-12
	-3.065491620649628e-06,1.300442104073320e-13
	-1.570030390429800e-05,-1.356818812037994e-12
	-3.065491620649628e-06,1.300442104073320e-13
13		1.348962882591653e+00,0.000000000000000e+00
	-3.065491620649628e-02,1.330733291965067e-09
	1.000000000000000e+00,0.000000000000000e+00
	0.000000000000000e+00,0.000000000000000e+00
	2.141662632507253e-05,1.014894309949442e-13
	2.141662655498210e-05,1.061515048723194e-13
	3.065491620649626e-06,-1.330733291965066e-13
	1.570030390435806e-05,1.388423182153177e-12
	-1.142220082262881e-05,-5.630559887714221e-14
	-7.343594702378884e-06,-1.199044254079529e-12
	-3.065491620649628e-06,1.330733291965067e-13
	-1.570030390429800e-05,-1.388423182153178e-12
	-3.065491620649628e-06,1.330733291965067e-13
14		1.380384264602885e+00,0.000000000000000e+00
	-3.065491620649628e-02,1.361730052262552e-09
	1.000000000000000e+00,0.000000000000000e+00
	0.000000000000000e+00,0.000000000000000e+00
	2.141662632507253e-05,1.038534235276876e-13
	2.141662655498210e-05,1.086240910559008e-13
	3.065491620649626e-06,-1.361730052262552e-13
	1.570030390435806e-05,1.420763712617492e-12
	-1.142220082262881e-05,-5.761712475715075e-14
	-7.343594702378884e-06,-1.226973582634086e-12
	-3.065491620649628e-06,1.361730052262553e-13
	-1.570030390429800e-05,-1.420763712617492e-12
	-3.065491620649628e-06,1.361730052262553e-13
15		1.412537544622754e+00,0.000000000000000e+00
	-3.065491620649628e-02,1.393448819858375e-09
	1.000000000000000e+00,0.000000000000000e+00
	0.000000000000000e+00,0.000000000000000e+00
	2.141662632507253e-05,1.062724805202479e-13
	2.141662655498210e-05,1.111542711703698e-13
	3.065491620649625e-06,-1.393448819858374e-13
	1.570030390435806e-05,1.453857550808267e-12
	-1.142220082262881e-05,-5.895919999935828e-14
	-7.343594702378884e-06,-1.255553468823071e-12
	-3.065491620649628e-06,1.393448819858375e-13
	-1.570030390429800e-05,-1.453857550808267e-12
	-3.065491620649628e-06,1.393448819858375e-13
16		1.445439770745927e+00,0.000000000000000e+00
	-3.065491620649627e-02,1.425906412462962e-09
	1.000000000000000e+00,0.000000000000000e+00
	0.000000000000000e+00,0.000000000000000e+00
	2.141662632507253e-05,1.087478845886627e-13
	2.141662655498210e-05,1.137433867507141e-13
	3.065491620649626e-06,-1.425906412462961e-13
	1.570030390435806e-05,1.487722243516559e-12
	-1.142220082262881e-05,-6.033253618982280e-14
	-7.343594702378885e-06,-1.284799066080440e-12
	-3.065491620649627e-06,1.425906412462962e-13
	-1.570030390429800e-05,-1.487722243516559e-12
	-3.065491620649627e-06,1.425906412462962e-13
17		1.479108388168207e+00,0.000000000000000e+00
	-3.065491620649627e-02,1.459120039521539e-09
	1.000000000000000e+00,0.000000000000000e+00
	0.000000000000000e+00,0.000000000000000e+00
	2.141662632507253e-05,1.112809482249347e-13
	2.141662655498210e-05,1.163928105802853e-13
	3.065491620649626e-06,-1.459120039521538e-13
	1.570030390435806e-05,1.522375746250696e-12
	-1.142220082262881e-05,-6.173786148957065e-14
	-7.343594702378885e-06,-1.314725880808972e-12
	-3.065491620649627e-06,1.459120039521539e-13
	-1.570030390429800e-05,-1.522375746250696e-12
	-3.065491620649627e-06,1.459120039521539e-13
18		1.513561248436208e+00,0.000000000000000e+00
	-3.065491620649627e-02,1.493107311338808e-09
	1.000000000000000e+00,0.000000000000000e+00
	0.000000000000000e+00,0.000000000000000e+00
	2.141662632507253e-05,1.138730144929332e-13
	2.141662655498210e-05,1.191039474186672e-13
	3.065491620649626e-06,-1.493107311338807e-13
	1.570030390435806e-05,1.557836432756521e-12
	-1.142220082262881e-05,-6.317592102067749e-14
	-7.343594702378885e-06,-1.345349780601963e-12
	-3.065491620649627e-06,1.493107311338808e-13
	-1.570030390429800e-05,-1.557836432756521e-12
	-3.065491620649627e-06,1.493107311338808e-13
19		1.548816618912481e+00,0.000000000000000e+00
	-3.065491620649627e-02,1.527886248416161e-09
	1.000000000000000e+00,0.000000000000000e+00
	0.000000000000000e+00,0.000000000000000e+00
	2.141662632507253e-05,1.165254577405032e-13
	2.141662655498210e-05,1.218782347464975e-13
	3.065491620649626e-06,-1.527886248416158e-13
	1.570030390435806e-05,1.594123104759396e-12
	-1.142220082262881e-05,-6.464747726134165e-14
	-7.343594702378885e-06,-1.376687002656439e-12
	-3.065491620649627e-06,1.527886248416161e-13
	-1.570030390429800e-05,-1.594123104759397e-12
	-3.065491620649627e-06,1.527886248416161e-13
20		1.584893192461113e+00,0.000000000000000e+00
	-3.065491620649627e-02,1.563475291006388e-09
	1.000000000000000e+00,0.000000000000000e+00
	0.000000000000000e+00,0.000000000000000e+00
	2.141662632507253e-05,1.192396843281641e-13
	2.141662655498210e-05,1.247171435276396e-13
	3.065491620649626e-06,-1.563475291006388e-13
	1.570030390435806e-05,1.631255001933129e-12
	-1.142220082262881e-05,-6.615331045016033e-14
	-7.343594702378885e-06,-1.408754162382330e-12
	-3.065491620649627e-06,1.563475291006389e-13
	-1.570030390429800e-05,-1.631255001933129e-12
	-3.065491620649627e-06,1.563475291006389e-13
21		1.621810097358929e+00,0.000000000000000e+00
	-3.065491620649627e-02,1.599893308890950e-09
	1.000000000000000e+00,0.000000000000000e+00
	0.000000000000000e+00,0.000000000000000e+00
	2.141662632507253e-05,1.220171333747796e-13
	2.141662655498210e-05,1.276221789891066e-13
	3.065491620649626e-06,-1.599893308890948e-13
	1.570030390435806e-05,1.669251812101099e-12
	-1.142220082262881e-05,-6.769421899982223e-14
	-7.343594702378885e-06,-1.441568262212182e-12
	-3.065491620649627e-06,1.599893308890950e-13
	-1.570030390429800e-05,-1.669251812101099e-12
	-3.065491620649627e-06,1.599893308890950e-13
22		1.659586907437560e+00,0.000000000000000e+00
	-3.065491620649627e-02,1.637159611384977e-09
	1.000000000000000e+00,0.000000000000000e+00
	0.000000000000000e+00,0.000000000000000e+00
	2.141662632507253e-05,1.248592775205981e-13
	2.141662655498210e-05,1.305948814191529e-13
	3.065491620649626e-06,-1.637159611384975e-13
	1.570030390435806e-05,1.708133681675004e-12
	-1.142220082262881e-05,-6.927101992043676e-14
	-7.343594702378885e-06,-1.475146700616070e-12
	-3.065491620649627e-06,1.637159611384977e-13
	-1.570030390429800e-05,-1.708133681675004e-12
	-3.065491620649627e-06,1.637159611384977e-13
23		1.698243652461743e+00,0.000000000000000e+00
	-3.065491620649627e-02,1.675293957575330e-09
	1.000000000000000e+00,0.000000000000000e+00
	0.000000000000000e+00,0.000000000000000e+00
	2.141662632507253e-05,1.277676237080659e-13
	2.141662655498210e-05,1.336368269839552e-13
	3.065491620649626e-06,-1.675293957575330e-13
	1.570030390435806e-05,1.747921226336757e-12
	-1.142220082262881e-05,-7.088454925272349e-14
	-7.343594702378885e-06,-1.509507281326500e-12
	-3.065491620649627e-06,1.675293957575330e-13
	-1.570030390429800e-05,-1.747921226336757e-12
	-3.065491620649627e-06,1.675293957575330e-13
24		1.737800828749374e+00,0.000000000000000e+00
	-3.065491620649627e-02,1.714316566797126e-09
	1.000000000000000e+00,0.000000000000000e+00
	0.000000000000000e+00,0.000000000000000e+00
	2.141662632507253e-05,1.307437139808282e-13
	2.141662655498210e-05,1.367496285633170e-13
	3.065491620649626e-06,-1.714316566797124e-13
	1.570030390435806e-05,1.788635541969185e-12
	-1.142220082262881e-05,-7.253566251129188e-14
	-7.343594702378885e-06,-1.544668222778180e-12
	-3.065491620649627e-06,1.714316566797126e-13
	-1.570030390429800e-05,-1.788635541969185e-12
	-3.065491620649627e-06,1.714316566797126e-13
25		1.778279410038922e+00,0.000000000000000e+00
	-3.065491620649627e-02,1.754248129354300e-09
	1.000000000000000e+00,0.000000000000000e+00
	0.000000000000000e+00,0.000000000000000e+00
	2.141662632507253e-05,1.337891263013407e-13
	2.141662655498210e-05,1.399349366058383e-13
	3.065491620649626e-06,-1.754248129354298e-13
	1.570030390435806e-05,1.830298215841355e-12
	-1.142220082262881e-05,-7.422523513824677e-14
	-7.343594702378885e-06,-1.580648167767679e-12
	-3.065491620649627e-06,1.754248129354301e-13
	-1.570030390429800e-05,-1.830298215841355e-12
	-3.065491620649627e-06,1.754248129354301e-13
26		1.819700858609982e+00,0.000000000000000e+00
	-3.065491620649627e-02,1.795109817489877e-09
	1.000000000000000e+00,0.000000000000000e+00
	0.000000000000000e+00,0.000000000000000e+00
	2.141662632507253e-05,1.369054753875267e-13
	2.141662655498210e-05,1.431944400040059e-13
	3.065491620649626e-06,-1.795109817489877e-13
	1.570030390435806e-05,1.872931338054426e-12
	-1.142220082262881e-05,-7.595416296735912e-14
	-7.343594702378885e-06,-1.617466193338079e-12
	-3.065491620649627e-06,1.795109817489877e-13
	-1.570030390429800e-05,-1.872931338054426e-12
	-3.065491620649627e-06,1.795109817489877e-13
27		1.862087136662866e+00,0.000000000000000e+00
	-3.065491620649627e-02,1.836923296611774e-09
	1.000000000000000e+00,0.000000000000000e+00
	0.000000000000000e+00,0.000000000000000e+00
	2.141662632507253e-05,1.400944135689213e-13
	2.141662655498210e-05,1.465298669896661e-13
	3.065491620649626e-06,-1.836923296611774e-13
	1.570030390435806e-05,1.916557513254110e-12
	-1.142220082262881e-05,-7.772336269904895e-14
	-7.343594702378885e-06,-1.655141820893884e-12
	-3.065491620649627e-06,1.836923296611774e-13
	-1.570030390429800e-05,-1.916557513254110e-12
	-3.065491620649627e-06,1.836923296611774e-13
28		1.905460717963246e+00,0.000000000000000e+00
	-3.065491620649627e-02,1.879710736780090e-09
	1.000000000000000e+00,0.000000000000000e+00
	0.000000000000000e+00,0.000000000000000e+00
	2.141662632507253e-05,1.433576316627589e-13
	2.141662655498210e-05,1.499429860503563e-13
	3.065491620649626e-06,-1.879710736780089e-13
	1.570030390435806e-05,1.961199872615959e-12
	-1.142220082262880e-05,-7.953377238643215e-14
	-7.343594702378885e-06,-1.693695026551518e-12
	-3.065491620649627e-06,1.879710736780090e-13
	-1.570030390429800e-05,-1.961199872615959e-12
	-3.065491620649627e-06,1.879710736780090e-13
29		1.949844599758044e+00,0.000000000000000e+00
	-3.065491620649627e-02,1.923494824461960e-09
	1.000000000000000e+00,0.000000000000000e+00
	0.000000000000000e+00,0.000000000000000e+00
	2.141662632507253e-05,1.466968598704668e-13
	2.141662655498210e-05,1.534356068669805e-13
	3.065491620649626e-06,-1.923494824461955e-13
	1.570030390435806e-05,2.006882086109819e-12
	-1.142220082262880e-05,-8.138635193268856e-14
	-7.343594702378885e-06,-1.733146251730935e-12
	-3.065491620649627e-06,1.923494824461960e-13
	-1.570030390429800e-05,-2.006882086109819e-12
	-3.065491620649627e-06,1.923494824461960e-13
30		1.995262314968878e+00,0.000000000000000e+00
	-3.065491620649627e-02,1.968298774560222e-09
	1.000000000000000e+00,0.000000000000000e+00
	0.000000000000000e+00,0.000000000000000e+00
	2.141662632507253e-05,1.501138686950404e-13
	2.141662655498210e-05,1.570095812733259e-13
	3.065491620649626e-06,-1.968298774560221e-13
	1.570030390435806e-05,2.053628375049958e-12
	-1.142220082262880e-05,-8.328208360001543e-14
	-7.343594702378885e-06,-1.773516413993921e-12
	-3.065491620649627e-06,1.968298774560222e-13
	-1.570030390429800e-05,-2.053628375049959e-12
	-3.065491620649627e-06,1.968298774560222e-13
31		2.041737944669527e+00,0.000000000000000e+00
	-3.065491620649627e-02,2.014146342722271e-09
	1.000000000000000e+00,0.000000000000000e+00
	0.000000000000000e+00,0.000000000000000e+00
	2.141662632507253e-05,1.536104698797881e-13
	2.141662655498210e-05,1.606668042379299e-13
	3.065491620649626e-06,-2.014146342722270e-13
	1.570030390435806e-05,2.101463524937534e-12
	-1.142220082262880e-05,-8.522197253043570e-14
	-7.343594702378885e-06,-1.814826918134872e-12
	-3.065491620649627e-06,2.014146342722271e-13
	-1.570030390429800e-05,-2.101463524937535e-12
	-3.065491620649627e-06,2.014146342722271e-13
32		2.089296130854037e+00,0.000000000000000e+00
	-3.065491620649627e-02,2.061061837935610e-09
	1.000000000000000e+00,0.000000000000000e+00
	0.000000000000000e+00,0.000000000000000e+00
	2.141662632507253e-05,1.571885173689411e-13
