LTspice 24.0.9 for Windows
Circuit: * GA CMOS Amp | W=3.0446688326994936e-06 L=1e-06 Vbias=1.5
Start Time: Sat Sep  6 22:14:50 2025
solver = Normal
Maximum thread count: 2
tnom = 27
temp = 27
method = modified trap
AsciiRawFile = 1
Direct Newton iteration for .op point succeeded.
Semiconductor Device Operating Points:
                        --- BSIM4 MOSFETS ---
Name:      m1
Model:      n
Id:      1.17e-04
Vgs:     1.50e+00
Vds:     6.35e-01
Vbs:     0.00e+00
Vth:     2.36e-01
Vdsat:   8.70e-01
Gm:      2.59e-05
Gds:     8.03e-05
Gmb      5.99e-05
Cbd:     1.29e-15
Cbs:     2.44e-15


.measure op idd find i(vdd)
  Error: FIND can not be evaluated over an interval.

gain_db: MAX(db(v(out)/v(g)))=(30.2934dB,123.462°) FROM 1 TO 1e+09
gain_lin: MAX(mag(v(out)/v(g)))=(2.05071dB,0°) FROM 1 TO 1e+09
fc: mag(v(out)/v(g))=1 AT 7.49357e+08

Total elapsed time: 0.934 seconds.

