LTspice 24.0.9 for Windows
Circuit: * GA CMOS Amp | W=5.094975270362203e-06 L=1e-06 Vbias=1.4505355220994989
Start Time: Sat Sep  6 22:09:51 2025
solver = Normal
Maximum thread count: 2
tnom = 27
temp = 27
method = modified trap
AsciiRawFile = 1
Direct Newton iteration for .op point succeeded.
Semiconductor Device Operating Points:
                        --- BSIM4 MOSFETS ---
Name:      m1
Model:      n
Id:      1.42e-04
Vgs:     1.45e+00
Vds:     3.77e-01
Vbs:     0.00e+00
Vth:     2.36e-01
Vdsat:   8.39e-01
Gm:      5.04e-06
Gds:     2.71e-04
Gmb      7.24e-05
Cbd:     2.29e-15
Cbs:     4.08e-15


.measure op idd find i(vdd)
  Error: FIND can not be evaluated over an interval.

gain_db: MAX(db(v(out)/v(g)))=(35.8792dB,180°) FROM 1 TO 1e+09
gain_lin: MAX(mag(v(out)/v(g)))=(-0.735162dB,0°) FROM 1 TO 1e+09

Measurement "fc" FAIL'ed

Total elapsed time: 1.047 seconds.

