LTspice 24.0.9 for Windows
Circuit: * GA CMOS Amp | W=4.430009205494142e-05 L=9.526119679626481e-07 Vbias=1.3056357081452707
Start Time: Sat Sep  6 22:02:55 2025
solver = Normal
Maximum thread count: 2
tnom = 27
temp = 27
method = modified trap
AsciiRawFile = 1
Direct Newton iteration for .op point succeeded.
Semiconductor Device Operating Points:
                        --- BSIM4 MOSFETS ---
Name:      m1
Model:      n
Id:      1.76e-04
Vgs:     1.31e+00
Vds:     4.09e-02
Vbs:     0.00e+00
Vth:     2.36e-01
Vdsat:   7.45e-01
Gm:     -2.31e-05
Gds:     4.35e-03
Gmb      9.69e-05
Cbd:     2.19e-14
Cbs:     3.54e-14


.measure op idd find i(vdd)
  Error: FIND can not be evaluated over an interval.

gain_db: MAX(db(v(out)/v(g)))=(31.6466dB,180°) FROM 1 TO 1e+09
gain_lin: MAX(mag(v(out)/v(g)))=(-3.33412dB,0°) FROM 1 TO 1e+09

Measurement "fc" FAIL'ed

Total elapsed time: 6.891 seconds.

