Title: * GA CMOS Amp | W=1.3873711931823489e-05 L=4.3408728783470374e-07 Vbias=0.9754933437803466
Date: Mon Sep  8 18:43:51 2025
Plotname: AC Analysis
Flags: complex forward log
No. Variables: 11
No. Points:          901
Offset:    0.0000000000000000e+00
Command: Linear Technology Corporation LTspice
Variables:
	0	frequency	frequency
	1	V(out)	voltage
	2	V(g)	voltage
	3	V(vdd)	voltage
	4	Id(M1)	device_current
	5	Ig(M1)	device_current
	6	Ib(M1)	device_current
	7	Is(M1)	device_current
	8	I(Rload)	device_current
	9	I(Vg)	device_current
	10	I(Vdd)	device_current
Values:
0		1.000000000000000e+00,0.000000000000000e+00
	-6.046147550774876e-01,6.539397921507593e-11
	1.000000000000000e+00,0.000000000000000e+00
	0.000000000000000e+00,0.000000000000000e+00
	6.046147550774878e-05,-6.539397921507599e-15
	2.244774444174886e-24,9.096321851734057e-14
	6.078296503272962e-13,7.205067363028008e-16
	-6.046147611557843e-05,-8.514432733213577e-14
	-6.046147550774877e-05,6.539397921507593e-15
	-2.244774444174886e-24,-9.096321851734057e-14
	-6.046147550774877e-05,6.539397921507593e-15
1		1.023292992280754e+00,0.000000000000000e+00
	-6.046147550774876e-01,6.691720066814048e-11
	1.000000000000000e+00,0.000000000000000e+00
	0.000000000000000e+00,0.000000000000000e+00
	6.046147550774878e-05,-6.691720066814058e-15
	2.350567404430613e-24,9.308202406409753e-14
	6.078296503272962e-13,7.372894941497356e-16
	-6.046147611557843e-05,-8.712759349143321e-14
	-6.046147550774877e-05,6.691720066814049e-15
	-2.350567404430613e-24,-9.308202406409753e-14
	-6.046147550774877e-05,6.691720066814049e-15
2		1.047128548050899e+00,0.000000000000000e+00
	-6.046147550774876e-01,6.847590250675316e-11
	1.000000000000000e+00,0.000000000000000e+00
	0.000000000000000e+00,0.000000000000000e+00
	6.046147550774878e-05,-6.847590250675303e-15
	2.461346233297199e-24,9.525018293209952e-14
	6.078296503272962e-13,7.544631726456370e-16
	-6.046147611557843e-05,-8.915705585406985e-14
	-6.046147550774877e-05,6.847590250675316e-15
	-2.461346233297199e-24,-9.525018293209952e-14
	-6.046147550774877e-05,6.847590250675316e-15
3		1.071519305237606e+00,0.000000000000000e+00
	-6.046147550774876e-01,7.007091117526061e-11
	1.000000000000000e+00,0.000000000000000e+00
	0.000000000000000e+00,0.000000000000000e+00
	6.046147550774878e-05,-7.007091117526075e-15
	2.577345907523046e-24,9.746884470787732e-14
	6.078296503272962e-13,7.720368775021938e-16
	-6.046147611557843e-05,-9.123379046785344e-14
	-6.046147550774877e-05,7.007091117526061e-15
	-2.577345907523046e-24,-9.746884470787732e-14
	-6.046147550774877e-05,7.007091117526061e-15
4		1.096478196143185e+00,0.000000000000000e+00
	-6.046147550774876e-01,7.170307236837135e-11
	1.000000000000000e+00,0.000000000000000e+00
	0.000000000000000e+00,0.000000000000000e+00
	6.046147550774878e-05,-7.170307236837145e-15
	2.698812477969534e-24,9.973918575527192e-14
	6.078296503272962e-13,7.900199265303028e-16
	-6.046147611557843e-05,-9.335889844496507e-14
	-6.046147550774877e-05,7.170307236837136e-15
	-2.698812477969534e-24,-9.973918575527192e-14
	-6.046147550774877e-05,7.170307236837136e-15
5		1.122018454301963e+00,0.000000000000000e+00
	-6.046147550774876e-01,7.337325147955421e-11
	1.000000000000000e+00,0.000000000000000e+00
	0.000000000000000e+00,0.000000000000000e+00
	6.046147550774878e-05,-7.337325147955412e-15
	2.826003591517890e-24,1.020624098391582e-13
	6.078296503272962e-13,8.084218545806158e-16
	-6.046147611557843e-05,-9.553350654578339e-14
	-6.046147550774877e-05,7.337325147955421e-15
	-2.826003591517890e-24,-1.020624098391582e-13
	-6.046147550774877e-05,7.337325147955421e-15
6		1.148153621496882e+00,0.000000000000000e+00
	-6.046147550774876e-01,7.508233405988129e-11
	1.000000000000000e+00,0.000000000000000e+00
	0.000000000000000e+00,0.000000000000000e+00
	6.046147550774878e-05,-7.508233405988130e-15
	2.959189037572755e-24,1.044397487636969e-13
	6.078296503272962e-13,8.272524185989520e-16
	-6.046147611557843e-05,-9.775876777630767e-14
	-6.046147550774877e-05,7.508233405988130e-15
	-2.959189037572755e-24,-1.044397487636969e-13
	-6.046147550774877e-05,7.508233405988130e-15
7		1.174897554939529e+00,0.000000000000000e+00
	-6.046147550774876e-01,7.683122628755911e-11
	1.000000000000000e+00,0.000000000000000e+00
	0.000000000000000e+00,0.000000000000000e+00
	6.046147550774878e-05,-7.683122628755897e-15
	3.098651320321698e-24,1.068724630254535e-13
	6.078296503272962e-13,8.465216027996223e-16
	-6.046147611557843e-05,-1.000358619994973e-13
	-6.046147550774877e-05,7.683122628755911e-15
	-3.098651320321698e-24,-1.068724630254535e-13
	-6.046147550774877e-05,7.683122628755911e-15
8		1.202264434617413e+00,0.000000000000000e+00
	-6.046147550774876e-01,7.862085544839608e-11
	1.000000000000000e+00,0.000000000000000e+00
	0.000000000000000e+00,0.000000000000000e+00
	6.046147550774878e-05,-7.862085544839621e-15
	3.244686257964461e-24,1.093618424817306e-13
	6.078296503272962e-13,8.662396239591404e-16
	-6.046147611557843e-05,-1.023659965608501e-13
	-6.046147550774877e-05,7.862085544839609e-15
	-3.244686257964461e-24,-1.093618424817306e-13
	-6.046147550774877e-05,7.862085544839609e-15
9		1.230268770812381e+00,0.000000000000000e+00
	-6.046147550774876e-01,8.045217042746186e-11
	1.000000000000000e+00,0.000000000000000e+00
	0.000000000000000e+00,0.000000000000000e+00
	6.046147550774878e-05,-8.045217042746199e-15
	3.397603610183033e-24,1.119092070344666e-13
	6.078296503272962e-13,8.864169368332990e-16
	-6.046147611557843e-05,-1.047504069285537e-13
	-6.046147550774877e-05,8.045217042746186e-15
	-3.397603610183033e-24,-1.119092070344666e-13
	-6.046147550774877e-05,8.045217042746186e-15
10		1.258925411794167e+00,0.000000000000000e+00
	-6.046147550774876e-01,8.232614221219866e-11
	1.000000000000000e+00,0.000000000000000e+00
	0.000000000000000e+00,0.000000000000000e+00
	6.046147550774878e-05,-8.232614221219862e-15
	3.557727735183455e-24,1.145159073300658e-13
	6.078296503272962e-13,9.070642397004894e-16
	-6.046147611557843e-05,-1.071903573485464e-13
	-6.046147550774877e-05,8.232614221219866e-15
	-3.557727735183455e-24,-1.145159073300658e-13
	-6.046147550774877e-05,8.232614221219866e-15
11		1.288249551693134e+00,0.000000000000000e+00
	-6.046147550774876e-01,8.424376440725167e-11
	1.000000000000000e+00,0.000000000000000e+00
	0.000000000000000e+00,0.000000000000000e+00
	6.046147550774878e-05,-8.424376440725176e-15
	3.725398277703067e-24,1.171833254755285e-13
	6.078296503272962e-13,9.281924800339772e-16
	-6.046147611557843e-05,-1.096871415148373e-13
	-6.046147550774877e-05,8.424376440725168e-15
	-3.725398277703067e-24,-1.171833254755285e-13
	-6.046147550774877e-05,8.424376440725168e-15
12		1.318256738556407e+00,0.000000000000000e+00
	-6.046147550774876e-01,8.620605376129145e-11
	1.000000000000000e+00,0.000000000000000e+00
	0.000000000000000e+00,0.000000000000000e+00
	6.046147550774878e-05,-8.620605376129136e-15
	3.900970889442534e-24,1.199128757712631e-13
	6.078296503272962e-13,9.498128603064415e-16
	-6.046147611557843e-05,-1.122420832554404e-13
	-6.046147550774877e-05,8.620605376129145e-15
	-3.900970889442534e-24,-1.199128757712631e-13
	-6.046147550774877e-05,8.620605376129145e-15
13		1.348962882591653e+00,0.000000000000000e+00
	-6.046147550774876e-01,8.821405070610748e-11
	1.000000000000000e+00,0.000000000000000e+00
	0.000000000000000e+00,0.000000000000000e+00
	6.046147550774878e-05,-8.821405070610750e-15
	4.084817983450786e-24,1.227060054609662e-13
	6.078296503272962e-13,9.719368439297322e-16
	-6.046147611557843e-05,-1.148565372342852e-13
	-6.046147550774877e-05,8.821405070610749e-15
	-4.084817983450786e-24,-1.227060054609662e-13
	-6.046147550774877e-05,8.821405070610749e-15
14		1.380384264602885e+00,0.000000000000000e+00
	-6.046147550774876e-01,9.026881990825890e-11
	1.000000000000000e+00,0.000000000000000e+00
	0.000000000000000e+00,0.000000000000000e+00
	6.046147550774878e-05,-9.026881990825907e-15
	4.277329524063026e-24,1.255641954989707e-13
	6.078296503272962e-13,9.945761613327840e-16
	-6.046147611557843e-05,-1.175318896694775e-13
	-6.046147550774877e-05,9.026881990825890e-15
	-4.277329524063026e-24,-1.255641954989707e-13
	-6.046147550774877e-05,9.026881990825890e-15
15		1.412537544622754e+00,0.000000000000000e+00
	-6.046147550774876e-01,9.237145083357477e-11
	1.000000000000000e+00,0.000000000000000e+00
	0.000000000000000e+00,0.000000000000000e+00
	6.046147550774878e-05,-9.237145083357477e-15
	4.478913854067361e-24,1.284889613354673e-13
	6.078296503272962e-13,1.017742816181337e-15
	-6.046147611557843e-05,-1.202695590682911e-13
	-6.046147550774877e-05,9.237145083357477e-15
	-4.478913854067361e-24,-1.284889613354673e-13
	-6.046147550774877e-05,9.237145083357477e-15
16		1.445439770745927e+00,0.000000000000000e+00
	-6.046147550774876e-01,9.452305832480327e-11
	1.000000000000000e+00,0.000000000000000e+00
	0.000000000000000e+00,0.000000000000000e+00
	6.046147550774878e-05,-9.452305832480327e-15
	4.689998560854613e-24,1.314818537200164e-13
	6.078296503272962e-13,1.041449091742402e-15
	-6.046147611557843e-05,-1.230709969792785e-13
	-6.046147550774877e-05,9.452305832480327e-15
	-4.689998560854613e-24,-1.314818537200164e-13
	-6.046147550774877e-05,9.452305832480327e-15
17		1.479108388168207e+00,0.000000000000000e+00
	-6.046147550774876e-01,9.672478319271616e-11
	1.000000000000000e+00,0.000000000000000e+00
	0.000000000000000e+00,0.000000000000000e+00
	6.046147550774878e-05,-9.672478319271616e-15
	4.911031383388498e-24,1.345444595237760e-13
	6.078296503272962e-13,1.065707557397161e-15
	-6.046147611557843e-05,-1.259376887619015e-13
	-6.046147550774877e-05,9.672478319271616e-15
	-4.911031383388498e-24,-1.345444595237760e-13
	-6.046147550774877e-05,9.672478319271616e-15
18		1.513561248436208e+00,0.000000000000000e+00
	-6.046147550774876e-01,9.897779282098173e-11
	1.000000000000000e+00,0.000000000000000e+00
	0.000000000000000e+00,0.000000000000000e+00
	6.046147550774878e-05,-9.897779282098165e-15
	5.142481161919999e-24,1.376784025808815e-13
	6.078296503272962e-13,1.090531075305152e-15
	-6.046147611557843e-05,-1.288711543740885e-13
	-6.046147550774877e-05,9.897779282098174e-15
	-5.142481161919999e-24,-1.376784025808815e-13
	-6.046147550774877e-05,9.897779282098174e-15
19		1.548816618912481e+00,0.000000000000000e+00
	-6.046147550774876e-01,1.012832817851269e-10
	1.000000000000000e+00,0.000000000000000e+00
	0.000000000000000e+00,0.000000000000000e+00
	6.046147550774878e-05,-1.012832817851270e-14
	5.384838832460391e-24,1.408853445494246e-13
	6.078296503272962e-13,1.115932807224160e-15
	-6.046147611557843e-05,-1.318729491781360e-13
	-6.046147550774877e-05,1.012832817851269e-14
	-5.384838832460391e-24,-1.408853445494246e-13
	-6.046147550774877e-05,1.012832817851269e-14
20		1.584893192461113e+00,0.000000000000000e+00
	-6.046147550774876e-01,1.036424724859173e-10
	1.000000000000000e+00,0.000000000000000e+00
	0.000000000000000e+00,0.000000000000000e+00
	6.046147550774878e-05,-1.036424724859175e-14
	5.638618468122350e-24,1.441669857924857e-13
	6.078296503272962e-13,1.141926221488693e-15
	-6.046147611557843e-05,-1.349446647653827e-13
	-6.046147550774877e-05,1.036424724859174e-14
	-5.638618468122350e-24,-1.441669857924857e-13
	-6.046147550774877e-05,1.036424724859174e-14
21		1.621810097358929e+00,0.000000000000000e+00
	-6.046147550774876e-01,1.060566157974901e-10
	1.000000000000000e+00,0.000000000000000e+00
	0.000000000000000e+00,0.000000000000000e+00
	6.046147550774878e-05,-1.060566157974900e-14
	5.904358369537944e-24,1.475250662796896e-13
	6.078296503272962e-13,1.168525100151032e-15
	-6.046147611557843e-05,-1.380879298000917e-13
	-6.046147550774877e-05,1.060566157974901e-14
	-5.904358369537944e-24,-1.475250662796896e-13
	-6.046147550774877e-05,1.060566157974901e-14
22		1.659586907437560e+00,0.000000000000000e+00
	-6.046147550774876e-01,1.085269917305839e-10
	1.000000000000000e+00,0.000000000000000e+00
	0.000000000000000e+00,0.000000000000000e+00
	6.046147550774878e-05,-1.085269917305840e-14
	6.182622206666443e-24,1.509613665097602e-13
	6.078296503272962e-13,1.195743546288689e-15
	-6.046147611557843e-05,-1.413044108829905e-13
	-6.046147550774877e-05,1.085269917305839e-14
	-6.182622206666443e-24,-1.509613665097602e-13
	-6.046147550774877e-05,1.085269917305839e-14
23		1.698243652461743e+00,0.000000000000000e+00
	-6.046147550774876e-01,1.110549101112179e-10
	1.000000000000000e+00,0.000000000000000e+00
	0.000000000000000e+00,0.000000000000000e+00
	6.046147550774878e-05,-1.110549101112180e-14
	6.474000214413882e-24,1.544777084545641e-13
	6.078296503272962e-13,1.223595991482173e-15
	-6.046147611557843e-05,-1.445958134349245e-13
	-6.046147550774877e-05,1.110549101112179e-14
	-6.474000214413882e-24,-1.544777084545641e-13
	-6.046147550774877e-05,1.110549101112179e-14
24		1.737800828749374e+00,0.000000000000000e+00
	-6.046147550774876e-01,1.136417112751783e-10
	1.000000000000000e+00,0.000000000000000e+00
	0.000000000000000e+00,0.000000000000000e+00
	6.046147550774878e-05,-1.136417112751783e-14
	6.779110444600417e-24,1.580759565251449e-13
	6.078296503272962e-13,1.252097203466465e-15
	-6.046147611557843e-05,-1.479638826010935e-13
	-6.046147550774877e-05,1.136417112751783e-14
	-6.779110444600417e-24,-1.580759565251449e-13
	-6.046147550774877e-05,1.136417112751783e-14
25		1.778279410038922e+00,0.000000000000000e+00
	-6.046147550774876e-01,1.162887667786827e-10
	1.000000000000000e+00,0.000000000000000e+00
	0.000000000000000e+00,0.000000000000000e+00
	6.046147550774878e-05,-1.162887667786826e-14
	7.098600076931125e-24,1.617580185602579e-13
	6.078296503272962e-13,1.281262293961628e-15
	-6.046147611557843e-05,-1.514104041763513e-13
	-6.046147550774877e-05,1.162887667786828e-14
	-7.098600076931125e-24,-1.617580185602579e-13
	-6.046147550774877e-05,1.162887667786828e-14
26		1.819700858609982e+00,0.000000000000000e+00
	-6.046147550774876e-01,1.189974801255970e-10
	1.000000000000000e+00,0.000000000000000e+00
	0.000000000000000e+00,0.000000000000000e+00
	6.046147550774878e-05,-1.189974801255971e-14
	7.433146791750889e-24,1.655258468379320e-13
	6.078296503272962e-13,1.311106726684504e-15
	-6.046147611557843e-05,-1.549372055520568e-13
	-6.046147550774877e-05,1.189974801255970e-14
	-7.433146791750889e-24,-1.655258468379320e-13
	-6.046147550774877e-05,1.189974801255970e-14
27		1.862087136662866e+00,0.000000000000000e+00
	-6.046147550774876e-01,1.217692875115917e-10
	1.000000000000000e+00,0.000000000000000e+00
	0.000000000000000e+00,0.000000000000000e+00
	6.046147550774878e-05,-1.217692875115917e-14
	7.783460207495310e-24,1.693814391105933e-13
	6.078296503272962e-13,1.341646325548384e-15
	-6.046147611557843e-05,-1.585461566849825e-13
	-6.046147550774877e-05,1.217692875115917e-14
	-7.783460207495310e-24,-1.693814391105933e-13
	-6.046147550774877e-05,1.217692875115917e-14
28		1.905460717963246e+00,0.000000000000000e+00
	-6.046147550774876e-01,1.246056585856321e-10
	1.000000000000000e+00,0.000000000000000e+00
	0.000000000000000e+00,0.000000000000000e+00
	6.046147550774878e-05,-1.246056585856319e-14
	8.150283385886517e-24,1.733268396642994e-13
	6.078296503272962e-13,1.372897283052886e-15
	-6.046147611557843e-05,-1.622391710887891e-13
	-6.046147550774877e-05,1.246056585856321e-14
	-8.150283385886517e-24,-1.733268396642994e-13
	-6.046147550774877e-05,1.246056585856321e-14
29		1.949844599758044e+00,0.000000000000000e+00
	-6.046147550774876e-01,1.275080972292056e-10
	1.000000000000000e+00,0.000000000000000e+00
	0.000000000000000e+00,0.000000000000000e+00
	6.046147550774878e-05,-1.275080972292055e-14
	8.534394408066720e-24,1.773641404026474e-13
	6.078296503272962e-13,1.404876168869288e-15
	-6.046147611557843e-05,-1.660182068485961e-13
	-6.046147550774877e-05,1.275080972292056e-14
	-8.534394408066720e-24,-1.773641404026474e-13
	-6.046147550774877e-05,1.275080972292056e-14
30		1.995262314968878e+00,0.000000000000000e+00
	-6.046147550774876e-01,1.304781423536991e-10
	1.000000000000000e+00,0.000000000000000e+00
	0.000000000000000e+00,0.000000000000000e+00
	6.046147550774878e-05,-1.304781423536990e-14
	8.936608025012618e-24,1.814954819559288e-13
	6.078296503272962e-13,1.437599938626212e-15
	-6.046147611557843e-05,-1.698852676591851e-13
	-6.046147550774877e-05,1.304781423536991e-14
	-8.936608025012618e-24,-1.814954819559288e-13
	-6.046147550774877e-05,1.304781423536991e-14
31		2.041737944669527e+00,0.000000000000000e+00
	-6.046147550774876e-01,1.335173687163509e-10
	1.000000000000000e+00,0.000000000000000e+00
	0.000000000000000e+00,0.000000000000000e+00
	6.046147550774878e-05,-1.335173687163509e-14
	9.357777385731478e-24,1.857230548161200e-13
	6.078296503272962e-13,1.471085942899432e-15
	-6.046147611557843e-05,-1.738424038873844e-13
	-6.046147550774877e-05,1.335173687163509e-14
	-9.357777385731478e-24,-1.857230548161200e-13
	-6.046147550774877e-05,1.335173687163509e-14
32		2.089296130854037e+00,0.000000000000000e+00
	-6.046147550774876e-01,1.366273877552075e-10
	1.000000000000000e+00,0.000000000000000e+00
	0.000000000000000e+00,0.000000000000000e+00
	6.046147550774878e-05,-1.366273877552076e-14
	9.798795846904544e-24,1.900491004983100e-13
	6.078296503272962e-13,1.505351936411717e-15
	-6.046147611557843e-05,-1.778917136592010e-13
	-6.046147550774877e-05,1.366273877552075e-14
	-9.798795846904544e-24,-1.900491004983100e-13
	-6.046147550774877e-05,1.366273877552075e-14
33		2.137962089502230e+00,0.000000000000000e+00
	-6.046147550774876e-01,1.398098484435291e-10
	1.000000000000000e+00,0.000000000000000e+00
	0.000000000000000e+00,0.000000000000000e+00
	6.046147550774878e-05,-1.398098484435290e-14
	1.026059886781634e-23,1.944759127291814e-13
	6.078296503272962e-13,1.540416087446342e-15
	-6.046147611557843e-05,-1.820353439722748e-13
	-6.046147550774877e-05,1.398098484435292e-14
	-1.026059886781634e-23,-1.944759127291814e-13
	-6.046147550774877e-05,1.398098484435292e-14
34		2.187761623949550e+00,0.000000000000000e+00
	-6.046147550774876e-01,1.430664381640977e-10
	1.000000000000000e+00,0.000000000000000e+00
	0.000000000000000e+00,0.000000000000000e+00
	6.046147550774878e-05,-1.430664381640977e-14
	1.074416599458923e-23,1.990058386631748e-13
	6.078296503272962e-13,1.576296987480420e-15
	-6.046147611557843e-05,-1.862754918342455e-13
	-6.046147550774877e-05,1.430664381640977e-14
	-1.074416599458923e-23,-1.990058386631748e-13
	-6.046147550774877e-05,1.430664381640977e-14
35		2.238721138568337e+00,0.000000000000000e+00
	-6.046147550774876e-01,1.463988836038890e-10
	1.000000000000000e+00,0.000000000000000e+00
	0.000000000000000e+00,0.000000000000000e+00
	6.046147550774878e-05,-1.463988836038892e-14
	1.125052293793206e-23,2.036412801269811e-13
	6.078296503272962e-13,1.613013661041974e-15
	-6.046147611557843e-05,-1.906144054276342e-13
	-6.046147550774877e-05,1.463988836038890e-14
	-1.125052293793206e-23,-2.036412801269811e-13
	-6.046147550774877e-05,1.463988836038890e-14
36		2.290867652767770e+00,0.000000000000000e+00
	-6.046147550774876e-01,1.498089516695854e-10
	1.000000000000000e+00,0.000000000000000e+00
	0.000000000000000e+00,0.000000000000000e+00
	6.046147550774878e-05,-1.498089516695854e-14
	1.178074374881014e-23,2.083846948930218e-13
	6.078296503272962e-13,1.650585575797362e-15
	-6.046147611557843e-05,-1.950543853018606e-13
	-6.046147550774877e-05,1.498089516695854e-14
	-1.178074374881014e-23,-2.083846948930218e-13
	-6.046147550774877e-05,1.498089516695854e-14
37		2.344228815319919e+00,0.000000000000000e+00
	-6.046147550774876e-01,1.532984504244129e-10
	1.000000000000000e+00,0.000000000000000e+00
	0.000000000000000e+00,0.000000000000000e+00
	6.046147550774878e-05,-1.532984504244129e-14
	1.233595309665127e-23,2.132385979825922e-13
	6.078296503272962e-13,1.689032652873138e-15
	-6.046147611557843e-05,-1.995977855930241e-13
	-6.046147550774877e-05,1.532984504244129e-14
	-1.233595309665127e-23,-2.132385979825922e-13
	-6.046147550774877e-05,1.532984504244129e-14
38		2.398832919019488e+00,0.000000000000000e+00
	-6.046147550774876e-01,1.568692300468003e-10
	1.000000000000000e+00,0.000000000000000e+00
	0.000000000000000e+00,0.000000000000000e+00
