LTspice 24.0.9 for Windows
Circuit: * GA CMOS Amp | W=1.1420206246436202e-05 L=1e-06 Vbias=1.024295006037531
Start Time: Sat Sep  6 22:08:06 2025
solver = Normal
Maximum thread count: 2
tnom = 27
temp = 27
method = modified trap
AsciiRawFile = 1
Direct Newton iteration for .op point succeeded.
Semiconductor Device Operating Points:
                        --- BSIM4 MOSFETS ---
Name:      m1
Model:      n
Id:      1.63e-04
Vgs:     1.02e+00
Vds:     1.66e-01
Vbs:     0.00e+00
Vth:     2.36e-01
Vdsat:   5.63e-01
Gm:      3.40e-05
Gds:     8.17e-04
Gmb      1.14e-04
Cbd:     5.43e-15
Cbs:     9.14e-15


.measure op idd find i(vdd)
  Error: FIND can not be evaluated over an interval.

gain_db: MAX(db(v(out)/v(g)))=(32.043dB,136.996°) FROM 1 TO 1e+09
gain_lin: MAX(mag(v(out)/v(g)))=(-1.55444dB,0°) FROM 1 TO 1e+09

Measurement "fc" FAIL'ed

Total elapsed time: 0.768 seconds.

