Title: * GA CMOS Amp | W=3.5320554929438856e-06 L=4.6120585378186417e-07 Vbias=1.0324069887197416
Date: Mon Sep  8 18:45:34 2025
Plotname: AC Analysis
Flags: complex forward log
No. Variables: 11
No. Points:          901
Offset:    0.0000000000000000e+00
Command: Linear Technology Corporation LTspice
Variables:
	0	frequency	frequency
	1	V(out)	voltage
	2	V(g)	voltage
	3	V(vdd)	voltage
	4	Id(M1)	device_current
	5	Ig(M1)	device_current
	6	Ib(M1)	device_current
	7	Is(M1)	device_current
	8	I(Rload)	device_current
	9	I(Vg)	device_current
	10	I(Vdd)	device_current
Values:
0		1.000000000000000e+00,0.000000000000000e+00
	-1.674622648681048e+00,7.584946591601195e-11
	1.000000000000000e+00,0.000000000000000e+00
	0.000000000000000e+00,0.000000000000000e+00
	1.674622648681049e-04,-7.584946591601194e-15
	3.366587521831769e-25,2.340852193205115e-14
	1.674622653003929e-12,-4.262408811516701e-16
	-1.674622665427275e-04,-1.539733445929829e-14
	-1.674622648681049e-04,7.584946591601195e-15
	-3.366587521831769e-25,-2.340852193205115e-14
	-1.674622648681049e-04,7.584946591601195e-15
1		1.023292992280754e+00,0.000000000000000e+00
	-1.674622648681048e+00,7.761622694009293e-11
	1.000000000000000e+00,0.000000000000000e+00
	0.000000000000000e+00,0.000000000000000e+00
	1.674622648681049e-04,-7.761622694009294e-15
	3.525249903621975e-25,2.395377645271828e-14
	1.674622653003929e-12,-4.361693067060792e-16
	-1.674622665427275e-04,-1.575598445200291e-14
	-1.674622648681049e-04,7.761622694009294e-15
	-3.525249903621975e-25,-2.395377645271828e-14
	-1.674622648681049e-04,7.761622694009294e-15
2		1.047128548050899e+00,0.000000000000000e+00
	-1.674622648681048e+00,7.942414111506977e-11
	1.000000000000000e+00,0.000000000000000e+00
	0.000000000000000e+00,0.000000000000000e+00
	1.674622648681049e-04,-7.942414111506976e-15
	3.691389813096252e-25,2.451173158272636e-14
	1.674622653003929e-12,-4.463289950002884e-16
	-1.674622665427275e-04,-1.612298847621909e-14
	-1.674622648681049e-04,7.942414111506978e-15
	-3.691389813096252e-25,-2.451173158272636e-14
	-1.674622648681049e-04,7.942414111506978e-15
3		1.071519305237606e+00,0.000000000000000e+00
	-1.674622648681048e+00,8.127416702096859e-11
	1.000000000000000e+00,0.000000000000000e+00
	0.000000000000000e+00,0.000000000000000e+00
	1.674622648681049e-04,-8.127416702096862e-15
	3.865359655277358e-25,2.508268315727071e-14
	1.674622653003929e-12,-4.567253328355005e-16
	-1.674622665427275e-04,-1.649854112233835e-14
	-1.674622648681049e-04,8.127416702096859e-15
	-3.865359655277358e-25,-2.508268315727072e-14
	-1.674622648681049e-04,8.127416702096859e-15
4		1.096478196143185e+00,0.000000000000000e+00
	-1.674622648681048e+00,8.316728556601273e-11
	1.000000000000000e+00,0.000000000000000e+00
	0.000000000000000e+00,0.000000000000000e+00
	1.674622648681049e-04,-8.316728556601273e-15
	4.047528443525105e-25,2.566693390243362e-14
	1.674622653003929e-12,-4.673638324876664e-16
	-1.674622665427275e-04,-1.688284151334468e-14
	-1.674622648681049e-04,8.316728556601273e-15
	-4.047528443525105e-25,-2.566693390243362e-14
	-1.674622648681049e-04,8.316728556601273e-15
5		1.122018454301963e+00,0.000000000000000e+00
	-1.674622648681048e+00,8.510450050671317e-11
	1.000000000000000e+00,0.000000000000000e+00
	0.000000000000000e+00,0.000000000000000e+00
	1.674622648681049e-04,-8.510450050671315e-15
	4.238282582263162e-25,2.626479359569364e-14
	1.674622653003929e-12,-4.782501346301065e-16
	-1.674622665427275e-04,-1.727609341039222e-14
	-1.674622648681049e-04,8.510450050671317e-15
	-4.238282582263162e-25,-2.626479359569364e-14
	-1.674622648681049e-04,8.510450050671317e-15
6		1.148153621496882e+00,0.000000000000000e+00
	-1.674622648681048e+00,8.708683898007345e-11
	1.000000000000000e+00,0.000000000000000e+00
	0.000000000000000e+00,0.000000000000000e+00
	1.674622648681049e-04,-8.708683898007345e-15
	4.438026686594640e-25,2.687657923017373e-14
	1.674622653003929e-12,-4.893900113243151e-16
	-1.674622665427275e-04,-1.767850532084207e-14
	-1.674622648681049e-04,8.708683898007345e-15
	-4.438026686594640e-25,-2.687657923017373e-14
	-1.674622648681049e-04,8.708683898007345e-15
7		1.174897554939529e+00,0.000000000000000e+00
	-1.674622648681048e+00,8.911535204819157e-11
	1.000000000000000e+00,0.000000000000000e+00
	0.000000000000000e+00,0.000000000000000e+00
	1.674622648681049e-04,-8.911535204819159e-15
	4.647184440544989e-25,2.750261518271524e-14
	1.674622653003929e-12,-5.007893690803674e-16
	-1.674622665427275e-04,-1.809029060881571e-14
	-1.674622648681049e-04,8.911535204819157e-15
	-4.647184440544989e-25,-2.750261518271524e-14
	-1.674622648681049e-04,8.911535204819157e-15
8		1.202264434617413e+00,0.000000000000000e+00
	-1.674622648681048e+00,9.119111525554679e-11
	1.000000000000000e+00,0.000000000000000e+00
	0.000000000000000e+00,0.000000000000000e+00
	1.674622648681049e-04,-9.119111525554681e-15
	4.866199495752607e-25,2.814323338586678e-14
	1.674622653003929e-12,-5.124542519886433e-16
	-1.674622665427275e-04,-1.851166760832346e-14
	-1.674622648681049e-04,9.119111525554679e-15
	-4.866199495752607e-25,-2.814323338586678e-14
	-1.674622648681049e-04,9.119111525554679e-15
9		1.230268770812381e+00,0.000000000000000e+00
	-1.674622648681048e+00,9.331522919926760e-11
	1.000000000000000e+00,0.000000000000000e+00
	0.000000000000000e+00,0.000000000000000e+00
	1.674622648681049e-04,-9.331522919926762e-15
	5.095536412513447e-25,2.879877350387923e-14
	1.674622653003929e-12,-5.243908449244473e-16
	-1.674622665427275e-04,-1.894285973902802e-14
	-1.674622648681049e-04,9.331522919926761e-15
	-5.095536412513447e-25,-2.879877350387924e-14
	-1.674622648681049e-04,9.331522919926761e-15
10		1.258925411794167e+00,0.000000000000000e+00
	-1.674622648681048e+00,9.548882011268295e-11
	1.000000000000000e+00,0.000000000000000e+00
	0.000000000000000e+00,0.000000000000000e+00
	1.674622648681049e-04,-9.548882011268295e-15
	5.335681645175696e-25,2.946958311280028e-14
	1.674622653003929e-12,-5.366054768273772e-16
	-1.674622665427275e-04,-1.938409562470461e-14
	-1.674622648681049e-04,9.548882011268296e-15
	-5.335681645175696e-25,-2.946958311280029e-14
	-1.674622648681049e-04,9.548882011268296e-15
11		1.288249551693134e+00,0.000000000000000e+00
	-1.674622648681048e+00,9.771304046246602e-11
	1.000000000000000e+00,0.000000000000000e+00
	0.000000000000000e+00,0.000000000000000e+00
	1.674622648681049e-04,-9.771304046246601e-15
	5.587144573974664e-25,3.015601788476378e-14
	1.674622653003929e-12,-5.491046240569256e-16
	-1.674622665427275e-04,-1.983560921446026e-14
	-1.674622648681049e-04,9.771304046246602e-15
	-5.587144573974664e-25,-3.015601788476379e-14
	-1.674622648681049e-04,9.771304046246602e-15
12		1.318256738556407e+00,0.000000000000000e+00
	-1.674622648681048e+00,9.998906955968724e-11
	1.000000000000000e+00,0.000000000000000e+00
	0.000000000000000e+00,0.000000000000000e+00
	1.674622648681049e-04,-9.998906955968725e-15
	5.850458585496550e-25,3.085844177657187e-14
	1.674622653003929e-12,-5.618949138264117e-16
	-1.674622665427275e-04,-2.029763990677673e-14
	-1.674622648681049e-04,9.998906955968725e-15
	-5.850458585496550e-25,-3.085844177657187e-14
	-1.674622648681049e-04,9.998906955968725e-15
13		1.348962882591653e+00,0.000000000000000e+00
	-1.674622648681048e+00,1.023181141851008e-10
	1.000000000000000e+00,0.000000000000000e+00
	0.000000000000000e+00,0.000000000000000e+00
	1.674622648681049e-04,-1.023181141851008e-14
	6.126182204062921e-25,3.157722722266966e-14
	1.674622653003929e-12,-5.749831277167667e-16
	-1.674622665427275e-04,-2.077043267644281e-14
	-1.674622648681049e-04,1.023181141851008e-14
	-6.126182204062921e-25,-3.157722722266966e-14
	-1.674622648681049e-04,1.023181141851008e-14
14		1.380384264602885e+00,0.000000000000000e+00
	-1.674622648681048e+00,1.047014092289957e-10
	1.000000000000000e+00,0.000000000000000e+00
	0.000000000000000e+00,0.000000000000000e+00
	1.674622648681049e-04,-1.047014092289957e-14
	6.414900276435667e-25,3.231275533261493e-14
	1.674622653003929e-12,-5.883762052722408e-16
	-1.674622665427275e-04,-2.125423820444312e-14
	-1.674622648681049e-04,1.047014092289957e-14
	-6.414900276435667e-25,-3.231275533261493e-14
	-1.674622648681049e-04,1.047014092289957e-14
15		1.412537544622754e+00,0.000000000000000e+00
	-1.674622648681048e+00,1.071402183459508e-10
	1.000000000000000e+00,0.000000000000000e+00
	0.000000000000000e+00,0.000000000000000e+00
	1.674622648681049e-04,-1.071402183459508e-14
	6.717225212355394e-25,3.306541609314742e-14
	1.674622653003929e-12,-6.020812476798192e-16
	-1.674622665427275e-04,-2.174931301087252e-14
	-1.674622648681049e-04,1.071402183459508e-14
	-6.717225212355394e-25,-3.306541609314742e-14
	-1.674622648681049e-04,1.071402183459508e-14
16		1.445439770745927e+00,0.000000000000000e+00
	-1.674622648681048e+00,1.096358346248413e-10
	1.000000000000000e+00,0.000000000000000e+00
	0.000000000000000e+00,0.000000000000000e+00
	1.674622648681049e-04,-1.096358346248413e-14
	7.033798283544597e-25,3.383560857496502e-14
	1.674622653003929e-12,-6.161055215344154e-16
	-1.674622665427275e-04,-2.225591959094647e-14
	-1.674622648681049e-04,1.096358346248413e-14
	-7.033798283544597e-25,-3.383560857496502e-14
	-1.674622648681049e-04,1.096358346248413e-14
17		1.479108388168207e+00,0.000000000000000e+00
	-1.674622648681048e+00,1.121895812744518e-10
	1.000000000000000e+00,0.000000000000000e+00
	0.000000000000000e+00,0.000000000000000e+00
	1.674622648681049e-04,-1.121895812744518e-14
	7.365290983930961e-25,3.462374114431629e-14
	1.674622653003929e-12,-6.304564626916433e-16
	-1.674622665427275e-04,-2.277432655417947e-14
	-1.674622648681049e-04,1.121895812744518e-14
	-7.365290983930961e-25,-3.462374114431630e-14
	-1.674622648681049e-04,1.121895812744518e-14
18		1.513561248436208e+00,0.000000000000000e+00
	-1.674622648681048e+00,1.148028123250586e-10
	1.000000000000000e+00,0.000000000000000e+00
	0.000000000000000e+00,0.000000000000000e+00
	1.674622648681049e-04,-1.148028123250586e-14
	7.712406453976011e-25,3.543023167952169e-14
	1.674622653003929e-12,-6.451416802104773e-16
	-1.674622665427275e-04,-2.330480876680535e-14
	-1.674622648681049e-04,1.148028123250586e-14
	-7.712406453976011e-25,-3.543023167952169e-14
	-1.674622648681049e-04,1.148028123250586e-14
19		1.548816618912481e+00,0.000000000000000e+00
	-1.674622648681048e+00,1.174769133463550e-10
	1.000000000000000e+00,0.000000000000000e+00
	0.000000000000000e+00,0.000000000000000e+00
	1.674622648681049e-04,-1.174769133463550e-14
	8.075880972130284e-25,3.625550779253811e-14
	1.674622653003929e-12,-6.601689603876084e-16
	-1.674622665427275e-04,-2.384764749751500e-14
	-1.674622648681049e-04,1.174769133463550e-14
	-8.075880972130284e-25,-3.625550779253812e-14
	-1.674622648681049e-04,1.174769133463550e-14
20		1.584893192461113e+00,0.000000000000000e+00
	-1.674622648681048e+00,1.202133021820985e-10
	1.000000000000000e+00,0.000000000000000e+00
	0.000000000000000e+00,0.000000000000000e+00
	1.674622648681049e-04,-1.202133021820985e-14
	8.456485516578674e-25,3.710000705568452e-14
	1.674622653003929e-12,-6.755462708859085e-16
	-1.674622665427275e-04,-2.440313056658876e-14
	-1.674622648681049e-04,1.202133021820985e-14
	-8.456485516578674e-25,-3.710000705568453e-14
	-1.674622648681049e-04,1.202133021820985e-14
21		1.621810097358929e+00,0.000000000000000e+00
	-1.674622648681048e+00,1.230134297018701e-10
	1.000000000000000e+00,0.000000000000000e+00
	0.000000000000000e+00,0.000000000000000e+00
	1.674622648681049e-04,-1.230134297018701e-14
	8.855027400588486e-25,3.796417723364850e-14
	1.674622653003929e-12,-6.912817649589478e-16
	-1.674622665427275e-04,-2.497155249850255e-14
	-1.674622648681049e-04,1.230134297018701e-14
	-8.855027400588486e-25,-3.796417723364851e-14
	-1.674622648681049e-04,1.230134297018701e-14
22		1.659586907437560e+00,0.000000000000000e+00
	-1.674622648681048e+00,1.258787805703448e-10
	1.000000000000000e+00,0.000000000000000e+00
	0.000000000000000e+00,0.000000000000000e+00
	1.674622648681049e-04,-1.258787805703448e-14
	9.272351984929150e-25,3.884847652089706e-14
	1.674622653003929e-12,-7.073837857739666e-16
	-1.674622665427275e-04,-2.555321467808861e-14
	-1.674622648681049e-04,1.258787805703448e-14
	-9.272351984929150e-25,-3.884847652089706e-14
	-1.674622648681049e-04,1.258787805703448e-14
23		1.698243652461743e+00,0.000000000000000e+00
	-1.674622648681048e+00,1.288108740344807e-10
	1.000000000000000e+00,0.000000000000000e+00
	0.000000000000000e+00,0.000000000000000e+00
	1.674622648681049e-04,-1.288108740344806e-14
	9.709344470995740e-25,3.975337378461738e-14
	1.674622653003929e-12,-7.238608708355265e-16
	-1.674622665427275e-04,-2.614842551033378e-14
	-1.674622648681049e-04,1.288108740344807e-14
	-9.709344470995740e-25,-3.975337378461738e-14
	-1.674622648681049e-04,1.288108740344807e-14
24		1.737800828749374e+00,0.000000000000000e+00
	-1.674622648681048e+00,1.318112647290430e-10
	1.000000000000000e+00,0.000000000000000e+00
	0.000000000000000e+00,0.000000000000000e+00
	1.674622648681049e-04,-1.318112647290430e-14
	1.016693177843979e-24,4.067934881331640e-14
	1.674622653003929e-12,-7.407217565122373e-16
	-1.674622665427275e-04,-2.675750058389986e-14
	-1.674622648681049e-04,1.318112647290430e-14
	-1.016693177843979e-24,-4.067934881331640e-14
	-1.674622648681049e-04,1.318112647290430e-14
25		1.778279410038922e+00,0.000000000000000e+00
	-1.674622648681048e+00,1.348815435008930e-10
	1.000000000000000e+00,0.000000000000000e+00
	0.000000000000000e+00,0.000000000000000e+00
	1.674622648681049e-04,-1.348815435008930e-14
	1.064608451129021e-24,4.162689257121108e-14
	1.674622653003929e-12,-7.579753826688614e-16
	-1.674622665427275e-04,-2.738076283845291e-14
	-1.674622648681049e-04,1.348815435008930e-14
	-1.064608451129021e-24,-4.162689257121108e-14
	-1.674622648681049e-04,1.348815435008930e-14
26		1.819700858609982e+00,0.000000000000000e+00
	-1.674622648681048e+00,1.380233382524755e-10
	1.000000000000000e+00,0.000000000000000e+00
	0.000000000000000e+00,0.000000000000000e+00
	1.674622648681049e-04,-1.380233382524755e-14
	1.114781901673449e-24,4.259650745854408e-14
	1.674622653003929e-12,-7.756308974063659e-16
	-1.674622665427275e-04,-2.801854273589016e-14
	-1.674622648681049e-04,1.380233382524755e-14
	-1.114781901673449e-24,-4.259650745854409e-14
	-1.674622648681049e-04,1.380233382524755e-14
27		1.862087136662866e+00,0.000000000000000e+00
	-1.674622648681048e+00,1.412383148049543e-10
	1.000000000000000e+00,0.000000000000000e+00
	0.000000000000000e+00,0.000000000000000e+00
	1.674622648681049e-04,-1.412383148049543e-14
	1.167319954092739e-24,4.358870757796303e-14
	1.674622653003929e-12,-7.936976619123778e-16
	-1.674622665427275e-04,-2.867117843555522e-14
	-1.674622648681049e-04,1.412383148049543e-14
	-1.167319954092739e-24,-4.358870757796303e-14
	-1.674622648681049e-04,1.412383148049543e-14
28		1.905460717963246e+00,0.000000000000000e+00
	-1.674622648681048e+00,1.445281777814528e-10
	1.000000000000000e+00,0.000000000000000e+00
	0.000000000000000e+00,0.000000000000000e+00
	1.674622648681049e-04,-1.445281777814529e-14
	1.222334048639972e-24,4.460401900710457e-14
	1.674622653003929e-12,-8.121852554245495e-16
	-1.674622665427275e-04,-2.933901597353473e-14
	-1.674622648681049e-04,1.445281777814528e-14
	-1.222334048639972e-24,-4.460401900710457e-14
	-1.674622648681049e-04,1.445281777814528e-14
29		1.949844599758044e+00,0.000000000000000e+00
	-1.674622648681048e+00,1.478946715108677e-10
	1.000000000000000e+00,0.000000000000000e+00
	0.000000000000000e+00,0.000000000000000e+00
	1.674622648681049e-04,-1.478946715108677e-14
	1.279940877585552e-24,4.564298007752767e-14
	1.674622653003929e-12,-8.311034803096987e-16
	-1.674622665427275e-04,-3.002240944613121e-14
	-1.674622648681049e-04,1.478946715108677e-14
	-1.279940877585552e-24,-4.564298007752767e-14
	-1.674622648681049e-04,1.478946715108677e-14
30		1.995262314968878e+00,0.000000000000000e+00
	-1.674622648681048e+00,1.513395809527350e-10
	1.000000000000000e+00,0.000000000000000e+00
	0.000000000000000e+00,0.000000000000000e+00
	1.674622648681049e-04,-1.513395809527350e-14
	1.340262632737153e-24,4.670614166014413e-14
	1.674622653003929e-12,-8.504623672610572e-16
	-1.674622665427275e-04,-3.072172119760957e-14
	-1.674622648681049e-04,1.513395809527350e-14
	-1.340262632737153e-24,-4.670614166014413e-14
	-1.674622648681049e-04,1.513395809527350e-14
31		2.041737944669527e+00,0.000000000000000e+00
	-1.674622648681048e+00,1.548647326436396e-10
	1.000000000000000e+00,0.000000000000000e+00
	0.000000000000000e+00,0.000000000000000e+00
	1.674622648681049e-04,-1.548647326436396e-14
	1.403427264624931e-24,4.779406745729767e-14
	1.674622653003929e-12,-8.702721806167427e-16
	-1.674622665427275e-04,-3.143732201231696e-14
	-1.674622648681049e-04,1.548647326436396e-14
	-1.403427264624931e-24,-4.779406745729768e-14
	-1.674622648681049e-04,1.548647326436396e-14
32		2.089296130854037e+00,0.000000000000000e+00
	-1.674622648681048e+00,1.584719956656689e-10
	1.000000000000000e+00,0.000000000000000e+00
	0.000000000000000e+00,0.000000000000000e+00
	1.674622648681049e-04,-1.584719956656690e-14
	1.469568753901749e-24,4.890733430164635e-14
	1.674622653003929e-12,-8.905434238020033e-16
	-1.674622665427275e-04,-3.216959131127745e-14
	-1.674622648681049e-04,1.584719956656689e-14
	-1.469568753901749e-24,-4.890733430164635e-14
	-1.674622648681049e-04,1.584719956656689e-14
33		2.137962089502230e+00,0.000000000000000e+00
	-1.674622648681048e+00,1.621632826374251e-10
	1.000000000000000e+00,0.000000000000000e+00
	0.000000000000000e+00,0.000000000000000e+00
	1.674622648681049e-04,-1.621632826374251e-14
	1.538827395534109e-24,5.004653246200686e-14
	1.674622653003929e-12,-9.112868448983005e-16
	-1.674622665427275e-04,-3.291891735336605e-14
	-1.674622648681049e-04,1.621632826374251e-14
	-1.538827395534109e-24,-5.004653246200686e-14
	-1.674622648681049e-04,1.621632826374251e-14
34		2.187761623949550e+00,0.000000000000000e+00
	-1.674622648681048e+00,1.659405507281203e-10
	1.000000000000000e+00,0.000000000000000e+00
	0.000000000000000e+00,0.000000000000000e+00
	1.674622648681049e-04,-1.659405507281204e-14
	1.611350096386578e-24,5.121226595632289e-14
	1.674622653003929e-12,-9.325134423420689e-16
	-1.674622665427275e-04,-3.368569744116879e-14
	-1.674622648681049e-04,1.659405507281203e-14
	-1.611350096386578e-24,-5.121226595632290e-14
	-1.674622648681049e-04,1.659405507281203e-14
35		2.238721138568337e+00,0.000000000000000e+00
	-1.674622648681048e+00,1.698058026952945e-10
	1.000000000000000e+00,0.000000000000000e+00
	0.000000000000000e+00,0.000000000000000e+00
	1.674622648681049e-04,-1.698058026952945e-14
	1.687290686830954e-24,5.240515287192344e-14
	1.674622653003929e-12,-9.542344707562412e-16
	-1.674622665427275e-04,-3.447033813163775e-14
	-1.674622648681049e-04,1.698058026952945e-14
	-1.687290686830954e-24,-5.240515287192346e-14
	-1.674622648681049e-04,1.698058026952945e-14
36		2.290867652767770e+00,0.000000000000000e+00
	-1.674622648681048e+00,1.737610879467033e-10
	1.000000000000000e+00,0.000000000000000e+00
	0.000000000000000e+00,0.000000000000000e+00
	1.674622648681049e-04,-1.737610879467033e-14
	1.766810247041102e-24,5.362582569324090e-14
	1.674622653003929e-12,-9.764614469176024e-16
	-1.674622665427275e-04,-3.527325545165297e-14
	-1.674622648681049e-04,1.737610879467033e-14
	-1.766810247041102e-24,-5.362582569324090e-14
	-1.674622648681049e-04,1.737610879467033e-14
37		2.344228815319919e+00,0.000000000000000e+00
	-1.674622648681048e+00,1.778085036269413e-10
	1.000000000000000e+00,0.000000000000000e+00
	0.000000000000000e+00,0.000000000000000e+00
	1.674622648681049e-04,-1.778085036269413e-14
	1.850077448665600e-24,5.487493163716262e-14
	1.674622653003929e-12,-9.992061558631028e-16
	-1.674622665427275e-04,-3.609487511860539e-14
	-1.674622648681049e-04,1.778085036269413e-14
	-1.850077448665600e-24,-5.487493163716262e-14
	-1.674622648681049e-04,1.778085036269413e-14
38		2.398832919019488e+00,0.000000000000000e+00
	-1.674622648681048e+00,1.819501957293760e-10
	1.000000000000000e+00,0.000000000000000e+00
