Title: * GA CMOS Amp | W=1.361615256495278e-05 L=1e-06 Vbias=1.4958216816179553
Date: Sat Sep  6 22:13:06 2025
Plotname: AC Analysis
Flags: complex forward log
No. Variables: 13
No. Points:          901
Offset:    0.0000000000000000e+00
Command: Linear Technology Corporation LTspice
Variables:
	0	frequency	frequency
	1	V(out)	voltage
	2	V(g)	voltage
	3	V(vdd)	voltage
	4	V(m1#dbody)	voltage
	5	V(m1#sbody)	voltage
	6	Id(M1)	device_current
	7	Ig(M1)	device_current
	8	Ib(M1)	device_current
	9	Is(M1)	device_current
	10	I(Rload)	device_current
	11	I(Vg)	device_current
	12	I(Vdd)	device_current
Values:
0		1.000000000000000e+00,0.000000000000000e+00
	3.489293030950479e-02,1.407652049117049e-09
	1.000000000000000e+00,0.000000000000000e+00
	0.000000000000000e+00,0.000000000000000e+00
	5.005966954058557e-04,1.554620766163307e-13
	5.005966951435357e-04,1.446455220407773e-13
	-3.489293030950491e-06,-1.407652049117052e-13
	3.078415733530285e-04,3.487862285968258e-12
	-2.669849042958681e-04,-7.796817018996403e-14
	-3.736737602620998e-05,-3.269128910866588e-12
	3.489293030950480e-06,1.407652049117049e-13
	-3.078415733531736e-04,-3.487862285968257e-12
	3.489293030950480e-06,1.407652049117049e-13
1		1.023292992280754e+00,0.000000000000000e+00
	3.489293030950479e-02,1.440440477431120e-09
	1.000000000000000e+00,0.000000000000000e+00
	0.000000000000000e+00,0.000000000000000e+00
	5.005966954058557e-04,1.590832535669049e-13
	5.005966951435357e-04,1.480147490691187e-13
	-3.489293030950491e-06,-1.440440477431122e-13
	3.078415733530285e-04,3.569105035271649e-12
	-2.669849042958681e-04,-7.978428217634338e-14
	-3.736737602620998e-05,-3.345276705352194e-12
	3.489293030950480e-06,1.440440477431120e-13
	-3.078415733531736e-04,-3.569105035271649e-12
	3.489293030950480e-06,1.440440477431120e-13
2		1.047128548050899e+00,0.000000000000000e+00
	3.489293030950479e-02,1.473992646352809e-09
	1.000000000000000e+00,0.000000000000000e+00
	0.000000000000000e+00,0.000000000000000e+00
	5.005966954058557e-04,1.627887785642361e-13
	5.005966951435357e-04,1.514624554766235e-13
	-3.489293030950491e-06,-1.473992646352811e-13
	3.078415733530285e-04,3.652240171307432e-12
	-2.669849042958681e-04,-8.164269684520246e-14
	-3.736737602620998e-05,-3.423198209826948e-12
	3.489293030950480e-06,1.473992646352809e-13
	-3.078415733531736e-04,-3.652240171307432e-12
	3.489293030950480e-06,1.473992646352809e-13
3		1.071519305237606e+00,0.000000000000000e+00
	3.489293030950479e-02,1.508326345686193e-09
	1.000000000000000e+00,0.000000000000000e+00
	0.000000000000000e+00,0.000000000000000e+00
	5.005966954058557e-04,1.665806163267262e-13
	5.005966951435357e-04,1.549904692828645e-13
	-3.489293030950491e-06,-1.508326345686201e-13
	3.078415733530285e-04,3.737311773425156e-12
	-2.669849042958681e-04,-8.354439955259768e-14
	-3.736737602620998e-05,-3.502934739303939e-12
	3.489293030950480e-06,1.508326345686193e-13
	-3.078415733531736e-04,-3.737311773425156e-12
	3.489293030950480e-06,1.508326345686193e-13
4		1.096478196143185e+00,0.000000000000000e+00
	3.489293030950479e-02,1.543459779613119e-09
	1.000000000000000e+00,0.000000000000000e+00
	0.000000000000000e+00,0.000000000000000e+00
	5.005966954058557e-04,1.704607773369479e-13
	5.005966951435357e-04,1.586006610874607e-13
	-3.489293030950497e-06,-1.543459779613120e-13
	3.078415733530286e-04,3.824364947714318e-12
	-2.669849042958681e-04,-8.549039860647658e-14
	-3.736737602620998e-05,-3.584528571146530e-12
	3.489293030950480e-06,1.543459779613119e-13
	-3.078415733531736e-04,-3.824364947714320e-12
	3.489293030950480e-06,1.543459779613119e-13
5		1.122018454301963e+00,0.000000000000000e+00
	3.489293030950479e-02,1.579411576345303e-09
	1.000000000000000e+00,0.000000000000000e+00
	0.000000000000000e+00,0.000000000000000e+00
	5.005966954058557e-04,1.744313189076288e-13
	5.005966951435357e-04,1.622949450618935e-13
	-3.489293030950497e-06,-1.579411576345308e-13
	3.078415733530286e-04,3.913445850920216e-12
	-2.669849042958681e-04,-8.748172580129585e-14
	-3.736737602620998e-05,-3.668022967484390e-12
	3.489293030950480e-06,1.579411576345303e-13
	-3.078415733531736e-04,-3.913445850920216e-12
	3.489293030950480e-06,1.579411576345303e-13
6		1.148153621496882e+00,0.000000000000000e+00
	3.489293030950479e-02,1.616200798001248e-09
	1.000000000000000e+00,0.000000000000000e+00
	0.000000000000000e+00,0.000000000000000e+00
	5.005966954058557e-04,1.784943462724659e-13
	5.005966951435357e-04,1.660752799644256e-13
	-3.489293030950497e-06,-1.616200798001242e-13
	3.078415733530286e-04,4.004601714916850e-12
	-2.669849042958681e-04,-8.951943696509249e-14
	-3.736737602620998e-05,-3.753462198151633e-12
	3.489293030950480e-06,1.616200798001248e-13
	-3.078415733531736e-04,-4.004601714916850e-12
	3.489293030950480e-06,1.616200798001248e-13
7		1.174897554939529e+00,0.000000000000000e+00
	3.489293030950479e-02,1.653846950713239e-09
	1.000000000000000e+00,0.000000000000000e+00
	0.000000000000000e+00,0.000000000000000e+00
	5.005966954058557e-04,1.826520137023487e-13
	5.005966951435357e-04,1.699436701786610e-13
	-3.489293030950497e-06,-1.653846950713240e-13
	3.078415733530286e-04,4.097880871749902e-12
	-2.669849042958681e-04,-9.160461251929783e-14
	-3.736737602620998e-05,-3.840891564159280e-12
	3.489293030950480e-06,1.653846950713239e-13
	-3.078415733531736e-04,-4.097880871749901e-12
	3.489293030950480e-06,1.653846950713239e-13
8		1.202264434617413e+00,0.000000000000000e+00
	3.489293030950480e-02,1.692369994969751e-09
	1.000000000000000e+00,0.000000000000000e+00
	0.000000000000000e+00,0.000000000000000e+00
	5.005966954058557e-04,1.869065256475817e-13
	5.005966951435357e-04,1.739021667762956e-13
	-3.489293030950491e-06,-1.692369994969757e-13
	3.078415733530286e-04,4.193332779263023e-12
	-2.669849042958681e-04,-9.373835805159131e-14
	-3.736737602620999e-05,-3.930357421714456e-12
	3.489293030950480e-06,1.692369994969751e-13
	-3.078415733531736e-04,-4.193332779263023e-12
	3.489293030950480e-06,1.692369994969751e-13
9		1.230268770812381e+00,0.000000000000000e+00
	3.489293030950480e-02,1.731790356198761e-09
	1.000000000000000e+00,0.000000000000000e+00
	0.000000000000000e+00,0.000000000000000e+00
	5.005966954058557e-04,1.912601379067135e-13
	5.005966951435357e-04,1.779528686046223e-13
	-3.489293030950491e-06,-1.731790356198759e-13
	3.078415733530286e-04,4.291008047321029e-12
	-2.669849042958681e-04,-9.592180490209762e-14
	-3.736737602620999e-05,-4.021907206799055e-12
	3.489293030950480e-06,1.731790356198761e-13
	-3.078415733531736e-04,-4.291008047321029e-12
	3.489293030950480e-06,1.731790356198761e-13
10		1.258925411794167e+00,0.000000000000000e+00
	3.489293030950480e-02,1.772128935597583e-09
	1.000000000000000e+00,0.000000000000000e+00
	0.000000000000000e+00,0.000000000000000e+00
	5.005966954058557e-04,1.957151588225905e-13
	5.005966951435357e-04,1.820979233993678e-13
	-3.489293030950491e-06,-1.772128935597586e-13
	3.078415733530286e-04,4.390958464643933e-12
	-2.669849042958681e-04,-9.815611076323819e-14
	-3.736737602620999e-05,-4.115589460320936e-12
	3.489293030950480e-06,1.772128935597584e-13
	-3.078415733531736e-04,-4.390958464643933e-12
	3.489293030950480e-06,1.772128935597584e-13
11		1.288249551693134e+00,0.000000000000000e+00
	3.489293030950480e-02,1.813407121214959e-09
	1.000000000000000e+00,0.000000000000000e+00
	0.000000000000000e+00,0.000000000000000e+00
	5.005966954058557e-04,2.002739505062717e-13
	5.005966951435357e-04,1.863395289234506e-13
	-3.489293030950491e-06,-1.813407121214963e-13
	3.078415733530286e-04,4.493237026265996e-12
	-2.669849042958681e-04,-1.004424602935551e-13
	-3.736737602620999e-05,-4.211453853850944e-12
	3.489293030950480e-06,1.813407121214959e-13
	-3.078415733531736e-04,-4.493237026265997e-12
	3.489293030950480e-06,1.813407121214959e-13
12		1.318256738556407e+00,0.000000000000000e+00
	3.489293030950480e-02,1.855646799291284e-09
	1.000000000000000e+00,0.000000000000000e+00
	0.000000000000000e+00,0.000000000000000e+00
	5.005966954058557e-04,2.049389300894504e-13
	5.005966951435357e-04,1.906799341322639e-13
	-3.489293030950491e-06,-1.855646799291286e-13
	3.078415733530286e-04,4.597897961634408e-12
	-2.669849042958681e-04,-1.027820657458329e-13
	-3.736737602620999e-05,-4.309551215959447e-12
	3.489293030950480e-06,1.855646799291284e-13
	-3.078415733531736e-04,-4.597897961634409e-12
	3.489293030950480e-06,1.855646799291284e-13
13		1.348962882591653e+00,0.000000000000000e+00
	3.489293030950480e-02,1.898870365862982e-09
	1.000000000000000e+00,0.000000000000000e+00
	0.000000000000000e+00,0.000000000000000e+00
	5.005966954058557e-04,2.097125710060500e-13
	5.005966951435357e-04,1.951214403661015e-13
	-3.489293030950491e-06,-1.898870365862983e-13
	3.078415733530286e-04,4.704996763362453e-12
	-2.669849042958681e-04,-1.051761676098505e-13
	-3.736737602620999e-05,-4.409933559166305e-12
	3.489293030950480e-06,1.898870365862982e-13
	-3.078415733531736e-04,-4.704996763362454e-12
	3.489293030950480e-06,1.898870365862982e-13
14		1.380384264602885e+00,0.000000000000000e+00
	3.489293030950480e-02,1.943100738637182e-09
	1.000000000000000e+00,0.000000000000000e+00
	0.000000000000000e+00,0.000000000000000e+00
	5.005966954058557e-04,2.145974043036711e-13
	5.005966951435357e-04,1.996664025703587e-13
	-3.489293030950491e-06,-1.943100738637182e-13
	3.078415733530286e-04,4.814590216652429e-12
	-2.669849042958681e-04,-1.076260352701061e-13
	-3.736737602620999e-05,-4.512654107518605e-12
	3.489293030950480e-06,1.943100738637182e-13
	-3.078415733531736e-04,-4.814590216652429e-12
	3.489293030950480e-06,1.943100738637182e-13
15		1.412537544622754e+00,0.000000000000000e+00
	3.489293030950480e-02,1.988361369142985e-09
	1.000000000000000e+00,0.000000000000000e+00
	0.000000000000000e+00,0.000000000000000e+00
	5.005966954058557e-04,2.195960199855863e-13
	5.005966951435357e-04,2.043172305441560e-13
	-3.489293030950491e-06,-1.988361369142990e-13
	3.078415733530286e-04,4.926736429403908e-12
	-2.669849042958681e-04,-1.101329676788608e-13
	-3.736737602620999e-05,-4.617767324810748e-12
	3.489293030950480e-06,1.988361369142985e-13
	-3.078415733531736e-04,-4.926736429403909e-12
	3.489293030950480e-06,1.988361369142985e-13
16		1.445439770745927e+00,0.000000000000000e+00
	3.489293030950480e-02,2.034676255165782e-09
	1.000000000000000e+00,0.000000000000000e+00
	0.000000000000000e+00,0.000000000000000e+00
	5.005966954058557e-04,2.247110683839948e-13
	5.005966951435357e-04,2.090763902180460e-13
	-3.489293030950491e-06,-2.034676255165775e-13
	3.078415733530286e-04,5.041494863023322e-12
	-2.669849042958681e-04,-1.126982940448610e-13
	-3.736737602620999e-05,-4.725328943461883e-12
	3.489293030950480e-06,2.034676255165782e-13
	-3.078415733531736e-04,-5.041494863023322e-12
	3.489293030950480e-06,2.034676255165782e-13
17		1.479108388168207e+00,0.000000000000000e+00
	3.489293030950480e-02,2.082069953471192e-09
	1.000000000000000e+00,0.000000000000000e+00
	0.000000000000000e+00,0.000000000000000e+00
	5.005966954058557e-04,2.299452615652633e-13
	5.005966951435357e-04,2.139464049614829e-13
	-3.489293030950491e-06,-2.082069953471198e-13
	3.078415733530286e-04,5.158926363951187e-12
	-2.669849042958681e-04,-1.153233745381022e-13
	-3.736737602620999e-05,-4.835395994065965e-12
	3.489293030950480e-06,2.082069953471192e-13
	-3.078415733531736e-04,-5.158926363951186e-12
	3.489293030950480e-06,2.082069953471192e-13
18		1.513561248436208e+00,0.000000000000000e+00
	3.489293030950480e-02,2.130567592825387e-09
	1.000000000000000e+00,0.000000000000000e+00
	0.000000000000000e+00,0.000000000000000e+00
	5.005966954058557e-04,2.353013747678989e-13
	5.005966951435357e-04,2.189298569207458e-13
	-3.489293030950491e-06,-2.130567592825389e-13
	3.078415733530286e-04,5.279093195923680e-12
	-2.669849042958681e-04,-1.180096010110087e-13
	-3.736737602620999e-05,-4.948026835630132e-12
	3.489293030950480e-06,2.130567592825387e-13
	-3.078415733531736e-04,-5.279093195923681e-12
	3.489293030950480e-06,2.130567592825387e-13
19		1.548816618912481e+00,0.000000000000000e+00
	3.489293030950480e-02,2.180194887318693e-09
	1.000000000000000e+00,0.000000000000000e+00
	0.000000000000000e+00,0.000000000000000e+00
	5.005966954058557e-04,2.407822478740184e-13
	5.005966951435357e-04,2.240293883880274e-13
	-3.489293030950491e-06,-2.180194887318695e-13
	3.078415733530286e-04,5.402059072985712e-12
	-2.669849042958681e-04,-1.207583977364130e-13
	-3.736737602620999e-05,-5.063281186517429e-12
	3.489293030950480e-06,2.180194887318693e-13
	-3.078415733531736e-04,-5.402059072985712e-12
	3.489293030950480e-06,2.180194887318693e-13
20		1.584893192461113e+00,0.000000000000000e+00
	3.489293030950480e-02,2.230978149999547e-09
	1.000000000000000e+00,0.000000000000000e+00
	0.000000000000000e+00,0.000000000000000e+00
	5.005966954058557e-04,2.463907869150905e-13
	5.005966951435357e-04,2.292477032024118e-13
	-3.489293030950491e-06,-2.230978149999548e-13
	3.078415733530286e-04,5.527889193272945e-12
	-2.669849042958681e-04,-1.235712221627235e-13
	-3.736737602620999e-05,-5.181220156110267e-12
	3.489293030950480e-06,2.230978149999547e-13
	-3.078415733531736e-04,-5.527889193272945e-12
	3.489293030950480e-06,2.230978149999547e-13
21		1.621810097358929e+00,0.000000000000000e+00
	3.489293030950480e-02,2.282944306826018e-09
	1.000000000000000e+00,0.000000000000000e+00
	0.000000000000000e+00,0.000000000000000e+00
	5.005966954058557e-04,2.521299656127527e-13
	5.005966951435357e-04,2.345875681834861e-13
	-3.489293030950491e-06,-2.282944306826013e-13
	3.078415733530286e-04,5.656650273580716e-12
	-2.669849042958681e-04,-1.264495656866832e-13
	-3.736737602620999e-05,-5.301906277211432e-12
	3.489293030950480e-06,2.282944306826018e-13
	-3.078415733531736e-04,-5.656650273580716e-12
	3.489293030950480e-06,2.282944306826018e-13
22		1.659586907437560e+00,0.000000000000000e+00
	3.489293030950480e-02,2.336120910942307e-09
	1.000000000000000e+00,0.000000000000000e+00
	0.000000000000000e+00,0.000000000000000e+00
	5.005966954058557e-04,2.580028269555173e-13
	5.005966951435357e-04,2.400518145983450e-13
	-3.489293030950491e-06,-2.336120910942309e-13
	3.078415733530286e-04,5.788410584738158e-12
	-2.669849042958681e-04,-1.293949544441278e-13
	-3.736737602621000e-05,-5.425403539199799e-12
	3.489293030950480e-06,2.336120910942307e-13
	-3.078415733531736e-04,-5.788410584738159e-12
	3.489293030950480e-06,2.336120910942307e-13
23		1.698243652461743e+00,0.000000000000000e+00
	3.489293030950480e-02,2.390536157287795e-09
	1.000000000000000e+00,0.000000000000000e+00
	0.000000000000000e+00,0.000000000000000e+00
	5.005966954058557e-04,2.640124848122049e-13
	5.005966951435357e-04,2.456433396627652e-13
	-3.489293030950491e-06,-2.390536157287795e-13
	3.078415733530286e-04,5.923239987806299e-12
	-2.669849042958681e-04,-1.324089501191634e-13
	-3.736737602621000e-05,-5.551777421958356e-12
	3.489293030950480e-06,2.390536157287795e-13
	-3.078415733531736e-04,-5.923239987806300e-12
	3.489293030950480e-06,2.390536157287795e-13
24		1.737800828749374e+00,0.000000000000000e+00
	3.489293030950480e-02,2.446218897546363e-09
	1.000000000000000e+00,0.000000000000000e+00
	0.000000000000000e+00,0.000000000000000e+00
	5.005966954058557e-04,2.701621255829583e-13
	5.005966951435357e-04,2.513651080773486e-13
	-3.489293030950491e-06,-2.446218897546364e-13
	3.078415733530286e-04,6.061209971119324e-12
	-2.669849042958681e-04,-1.354931507721918e-13
	-3.736737602621000e-05,-5.681094930592497e-12
	3.489293030950480e-06,2.446218897546363e-13
	-3.078415733531736e-04,-6.061209971119325e-12
	3.489293030950480e-06,2.446218897546363e-13
25		1.778279410038922e+00,0.000000000000000e+00
	3.489293030950480e-02,2.503198655443945e-09
	1.000000000000000e+00,0.000000000000000e+00
	0.000000000000000e+00,0.000000000000000e+00
	5.005966954058557e-04,2.764550098887143e-13
	5.005966951435357e-04,2.572201535994453e-13
	-3.489293030950491e-06,-2.503198655443950e-13
	3.078415733530286e-04,6.202393688188639e-12
	-2.669849042958681e-04,-1.386491916872235e-13
	-3.736737602621000e-05,-5.813424630957019e-12
	3.489293030950480e-06,2.503198655443945e-13
	-3.078415733531736e-04,-6.202393688188639e-12
	3.489293030950480e-06,2.503198655443945e-13
26		1.819700858609982e+00,0.000000000000000e+00
	3.489293030950480e-02,2.561505642402395e-09
	1.000000000000000e+00,0.000000000000000e+00
	0.000000000000000e+00,0.000000000000000e+00
	5.005966954058557e-04,2.828944743000279e-13
	5.005966951435357e-04,2.632115806516915e-13
	-3.489293030950491e-06,-2.561505642402400e-13
	3.078415733530286e-04,6.346865996489813e-12
	-2.669849042958681e-04,-1.418787462389268e-13
	-3.736737602621000e-05,-5.948836686010646e-12
	3.489293030950480e-06,2.561505642402395e-13
	-3.078415733531736e-04,-6.346865996489812e-12
	3.489293030950480e-06,2.561505642402395e-13
27		1.862087136662866e+00,0.000000000000000e+00
	3.489293030950480e-02,2.621170773557982e-09
	1.000000000000000e+00,0.000000000000000e+00
	0.000000000000000e+00,0.000000000000000e+00
	5.005966954058557e-04,2.894839331061665e-13
	5.005966951435357e-04,2.693425659680165e-13
	-3.489293030950491e-06,-2.621170773557987e-13
	3.078415733530286e-04,6.494703497153031e-12
	-2.669849042958681e-04,-1.451835267798732e-13
	-3.736737602621000e-05,-6.087402893017359e-12
	3.489293030950480e-06,2.621170773557982e-13
	-3.078415733531736e-04,-6.494703497153030e-12
	3.489293030950480e-06,2.621170773557982e-13
28		1.905460717963246e+00,0.000000000000000e+00
	3.489293030950480e-02,2.682225684153006e-09
	1.000000000000000e+00,0.000000000000000e+00
	0.000000000000000e+00,0.000000000000000e+00
	5.005966954058557e-04,2.962268801254107e-13
	5.005966951435357e-04,2.756163602779880e-13
	-3.489293030950497e-06,-2.682225684153007e-13
	3.078415733530286e-04,6.645984575578003e-12
	-2.669849042958681e-04,-1.485652855484494e-13
	-3.736737602621000e-05,-6.229196721614253e-12
	3.489293030950480e-06,2.682225684153006e-13
	-3.078415733531736e-04,-6.645984575578003e-12
	3.489293030950480e-06,2.682225684153006e-13
29		1.949844599758044e+00,0.000000000000000e+00
	3.489293030950480e-02,2.744702746309223e-09
	1.000000000000000e+00,0.000000000000000e+00
	0.000000000000000e+00,0.000000000000000e+00
	5.005966954058557e-04,3.031268905575238e-13
	5.005966951435357e-04,2.820362900303928e-13
	-3.489293030950497e-06,-2.744702746309222e-13
	3.078415733530286e-04,6.800789442994953e-12
	-2.669849042958681e-04,-1.520258155979175e-13
	-3.736737602621000e-05,-6.374293352766113e-12
	3.489293030950480e-06,2.744702746309223e-13
	-3.078415733531736e-04,-6.800789442994953e-12
	3.489293030950480e-06,2.744702746309223e-13
30		1.995262314968878e+00,0.000000000000000e+00
	3.489293030950480e-02,2.808635086191968e-09
	1.000000000000000e+00,0.000000000000000e+00
	0.000000000000000e+00,0.000000000000000e+00
	5.005966954058557e-04,3.101876228793691e-13
	5.005966951435357e-04,2.886057591569631e-13
	-3.489293030950497e-06,-2.808635086191974e-13
	3.078415733530286e-04,6.959200178993667e-12
	-2.669849042958681e-04,-1.555669517471151e-13
	-3.736737602621000e-05,-6.522769718627354e-12
	3.489293030950480e-06,2.808635086191968e-13
	-3.078415733531736e-04,-6.959200178993668e-12
	3.489293030950480e-06,2.808635086191968e-13
31		2.041737944669527e+00,0.000000000000000e+00
	3.489293030950480e-02,2.874056601574092e-09
	1.000000000000000e+00,0.000000000000000e+00
	0.000000000000000e+00,0.000000000000000e+00
	5.005966954058557e-04,3.174128207846837e-13
	5.005966951435357e-04,2.953282508771874e-13
	-3.489293030950497e-06,-2.874056601574098e-13
	3.078415733530286e-04,7.121300775043189e-12
	-2.669849042958681e-04,-1.591905715533011e-13
	-3.736737602621000e-05,-6.674704543332478e-12
	3.489293030950480e-06,2.874056601574092e-13
	-3.078415733531736e-04,-7.121300775043188e-12
	3.489293030950480e-06,2.874056601574092e-13
32		2.089296130854037e+00,0.000000000000000e+00
	3.489293030950481e-02,2.941001979809008e-09
	1.000000000000000e+00,0.000000000000000e+00
	0.000000000000000e+00,0.000000000000000e+00
	5.005966954058557e-04,3.248063151690339e-13
	5.005966951435357e-04,3.022073295451584e-13
	-3.489293030950484e-06,-2.941001979809012e-13
