LTspice 24.0.9 for Windows
Circuit: * GA CMOS Amp | W=3.833009658785291e-06 L=9.795610601685306e-07 Vbias=1.37044174027591
Start Time: Sat Sep  6 22:15:58 2025
solver = Normal
Maximum thread count: 2
tnom = 27
temp = 27
method = modified trap
AsciiRawFile = 1
Direct Newton iteration for .op point succeeded.
Semiconductor Device Operating Points:
                        --- BSIM4 MOSFETS ---
Name:      m1
Model:      n
Id:      1.30e-04
Vgs:     1.37e+00
Vds:     5.00e-01
Vbs:     0.00e+00
Vth:     2.36e-01
Vdsat:   7.87e-01
Gm:      2.73e-05
Gds:     1.40e-04
Gmb      7.20e-05
Cbd:     1.68e-15
Cbs:     3.07e-15


.measure op idd find i(vdd)
  Error: FIND can not be evaluated over an interval.

gain_db: MAX(db(v(out)/v(g)))=(30.5542dB,125.946°) FROM 1 TO 1e+09
gain_lin: MAX(mag(v(out)/v(g)))=(1.22849dB,0°) FROM 1 TO 1e+09
fc: mag(v(out)/v(g))=1 AT 8.08464e+08

Total elapsed time: 6.146 seconds.

