LTspice 24.0.9 for Windows
Circuit: * GA CMOS Amp | W=1.7304325167132944e-05 L=5.809419627692048e-07 Vbias=0.9557606682747373
Start Time: Mon Sep  8 18:45:29 2025
solver = Normal
Maximum thread count: 2
tnom = 27
temp = 27
method = modified trap
AsciiRawFile = 1
Instance "m1": Length shorter than recommended for a level 3 MOSFET.
Direct Newton iteration for .op point succeeded.
Semiconductor Device Operating Points:
                        --- MOSFET Transistors ---
Name:          m1
Model:        n_1u
Id:          1.26e-04
Vgs:         9.56e-01
Vds:         5.42e-01
Vbs:         0.00e+00
Vth:         7.52e-01
Vdsat:       1.88e-01
Gm:          8.05e-04
Gds:         6.74e-05
Gmb:         1.38e-04
Cbd:         0.00e+00
Cbs:         0.00e+00
Cgsov:       3.46e-15
Cgdov:       3.46e-15
Cgbov:       3.81e-17
Cgs:         7.59e-15
Cgd:         0.00e+00
Cgb:         0.00e+00



gain_db: MAX(db(v(out)/v(g)))=(29.6877dB,63.4434°) FROM 1 TO 1e+09
gain_lin: MAX(mag(v(out)/v(g)))=(13.6387dB,0°) FROM 1 TO 1e+09

Measurement "fc" FAIL'ed

Total elapsed time: 0.487 seconds.

