Title: * GA CMOS Amp | W=3.0446688326994936e-06 L=1e-06 Vbias=1.5
Date: Sat Sep  6 22:14:50 2025
Plotname: AC Analysis
Flags: complex forward log
No. Variables: 13
No. Points:          901
Offset:    0.0000000000000000e+00
Command: Linear Technology Corporation LTspice
Variables:
	0	frequency	frequency
	1	V(out)	voltage
	2	V(g)	voltage
	3	V(vdd)	voltage
	4	V(m1#dbody)	voltage
	5	V(m1#sbody)	voltage
	6	Id(M1)	device_current
	7	Ig(M1)	device_current
	8	Ib(M1)	device_current
	9	Is(M1)	device_current
	10	I(Rload)	device_current
	11	I(Vg)	device_current
	12	I(Vdd)	device_current
Values:
0		1.000000000000000e+00,0.000000000000000e+00
	-1.253813379769979e-01,1.489157283387583e-09
	1.000000000000000e+00,0.000000000000000e+00
	0.000000000000000e+00,0.000000000000000e+00
	1.152098483857426e-04,1.604647966737393e-13
	1.152098493260914e-04,1.681069281553924e-13
	1.253813379769980e-05,-1.489157283387584e-13
	6.893559427958950e-05,6.941002147628408e-13
	-6.144525295765954e-05,-8.915284258532031e-14
	-2.002847511962975e-05,-4.560316438387621e-13
	-1.253813379769979e-05,1.489157283387583e-13
	-6.893559428000628e-05,-6.941002147628409e-13
	-1.253813379769979e-05,1.489157283387583e-13
1		1.023292992280754e+00,0.000000000000000e+00
	-1.253813379769979e-01,1.523844212494359e-09
	1.000000000000000e+00,0.000000000000000e+00
	0.000000000000000e+00,0.000000000000000e+00
	1.152098483857426e-04,1.642025019439935e-13
	1.152098493260914e-04,1.720226415352572e-13
	1.253813379769980e-05,-1.523844212494359e-13
	6.893559427958950e-05,7.102678857073816e-13
	-6.144525295765954e-05,-9.122947905946747e-14
	-2.002847511962975e-05,-4.666539853984782e-13
	-1.253813379769979e-05,1.523844212494359e-13
	-6.893559428000628e-05,-7.102678857073817e-13
	-1.253813379769979e-05,1.523844212494359e-13
2		1.047128548050899e+00,0.000000000000000e+00
	-1.253813379769979e-01,1.559339103973062e-09
	1.000000000000000e+00,0.000000000000000e+00
	0.000000000000000e+00,0.000000000000000e+00
	1.152098483857426e-04,1.680272695542555e-13
	1.152098493260914e-04,1.760295635966529e-13
	1.253813379769980e-05,-1.559339103973062e-13
	6.893559427958950e-05,7.268121500864311e-13
	-6.144525295765954e-05,-9.335448661097687e-14
	-2.002847511962975e-05,-4.775237530781480e-13
	-1.253813379769979e-05,1.559339103973062e-13
	-6.893559428000628e-05,-7.268121500864311e-13
	-1.253813379769979e-05,1.559339103973062e-13
3		1.071519305237606e+00,0.000000000000000e+00
	-1.253813379769979e-01,1.595660777684984e-09
	1.000000000000000e+00,0.000000000000000e+00
	0.000000000000000e+00,0.000000000000000e+00
	1.152098483857426e-04,1.719411274469389e-13
	1.152098493260914e-04,1.801298188626942e-13
	1.253813379769980e-05,-1.595660777684985e-13
	6.893559427958950e-05,7.437417798879524e-13
	-6.144525295765954e-05,-9.552899194698009e-14
	-2.002847511962975e-05,-4.886467101724740e-13
	-1.253813379769979e-05,1.595660777684984e-13
	-6.893559428000628e-05,-7.437417798879525e-13
	-1.253813379769979e-05,1.595660777684984e-13
4		1.096478196143185e+00,0.000000000000000e+00
	-1.253813379769979e-01,1.632828491862303e-09
	1.000000000000000e+00,0.000000000000000e+00
	0.000000000000000e+00,0.000000000000000e+00
	1.152098483857426e-04,1.759461508013046e-13
	1.152098493260914e-04,1.843255813429966e-13
	1.253813379769980e-05,-1.632828491862302e-13
	6.893559427958950e-05,7.610657514257568e-13
	-6.144525295765954e-05,-9.775414801898931e-14
	-2.002847511962975e-05,-5.000287542205373e-13
	-1.253813379769979e-05,1.632828491862303e-13
	-6.893559428000628e-05,-7.610657514257568e-13
	-1.253813379769979e-05,1.632828491862303e-13
5		1.122018454301963e+00,0.000000000000000e+00
	-1.253813379769979e-01,1.670861953319047e-09
	1.000000000000000e+00,0.000000000000000e+00
	0.000000000000000e+00,0.000000000000000e+00
	1.152098483857426e-04,1.800444631337478e-13
	1.152098493260914e-04,1.886190756863646e-13
	1.253813379769980e-05,-1.670861953319048e-13
	6.893559427958950e-05,7.787932500988634e-13
	-6.144525295765954e-05,-1.000311346342074e-13
	-2.002847511962975e-05,-5.116759201327514e-13
	-1.253813379769979e-05,1.670861953319047e-13
	-6.893559428000628e-05,-7.787932500988634e-13
	-1.253813379769979e-05,1.670861953319047e-13
6		1.148153621496882e+00,0.000000000000000e+00
	-1.253813379769979e-01,1.709781327899913e-09
	1.000000000000000e+00,0.000000000000000e+00
	0.000000000000000e+00,0.000000000000000e+00
	1.152098483857426e-04,1.842382374237146e-13
	1.152098493260914e-04,1.930125783603300e-13
	1.253813379769980e-05,-1.709781327899913e-13
	6.893559427958950e-05,7.969336752617197e-13
	-6.144525295765954e-05,-1.023611590810770e-13
	-2.002847511962975e-05,-5.235943833906513e-13
	-1.253813379769979e-05,1.709781327899913e-13
	-6.893559428000628e-05,-7.969336752617196e-13
	-1.253813379769979e-05,1.709781327899913e-13
7		1.174897554939529e+00,0.000000000000000e+00
	-1.253813379769979e-01,1.749607251172463e-09
	1.000000000000000e+00,0.000000000000000e+00
	0.000000000000000e+00,0.000000000000000e+00
	1.152098483857426e-04,1.885296972658450e-13
	1.152098493260914e-04,1.975084188581656e-13
	1.253813379769980e-05,-1.749607251172463e-13
	6.893559427958950e-05,8.154966452078638e-13
	-6.144525295765954e-05,-1.047454567694016e-13
	-2.002847511962975e-05,-5.357904633212159e-13
	-1.253813379769979e-05,1.749607251172463e-13
	-6.893559428000628e-05,-8.154966452078637e-13
	-1.253813379769979e-05,1.749607251172463e-13
8		1.202264434617413e+00,0.000000000000000e+00
	-1.253813379769979e-01,1.790360839368375e-09
	1.000000000000000e+00,0.000000000000000e+00
	0.000000000000000e+00,0.000000000000000e+00
	1.152098483857426e-04,1.929211180489512e-13
	1.152098493260914e-04,2.021089809340128e-13
	1.253813379769980e-05,-1.790360839368375e-13
	6.893559427958950e-05,8.344920022696716e-13
	-6.144525295765954e-05,-1.071852918853753e-13
	-2.002847511962975e-05,-5.482706264474587e-13
	-1.253813379769979e-05,1.790360839368375e-13
	-6.893559428000628e-05,-8.344920022696717e-13
	-1.253813379769979e-05,1.790360839368375e-13
9		1.230268770812381e+00,0.000000000000000e+00
	-1.253813379769979e-01,1.832063700579547e-09
	1.000000000000000e+00,0.000000000000000e+00
	0.000000000000000e+00,0.000000000000000e+00
	1.152098483857426e-04,1.974148281624599e-13
	1.152098493260914e-04,2.068167038667799e-13
	1.253813379769980e-05,-1.832063700579547e-13
	6.893559427958950e-05,8.539298180368900e-13
	-6.144525295765954e-05,-1.096819580618717e-13
	-2.002847511962975e-05,-5.610414899170636e-13
	-1.253813379769979e-05,1.832063700579547e-13
	-6.893559428000628e-05,-8.539298180368899e-13
	-1.253813379769979e-05,1.832063700579547e-13
10		1.258925411794167e+00,0.000000000000000e+00
	-1.253813379769979e-01,1.874737946214996e-09
	1.000000000000000e+00,0.000000000000000e+00
	0.000000000000000e+00,0.000000000000000e+00
	1.152098483857426e-04,2.020132102309544e-13
	1.152098493260914e-04,2.116340837534798e-13
	1.253813379769980e-05,-1.874737946214996e-13
	6.893559427958950e-05,8.738203986967291e-13
	-6.144525295765954e-05,-1.122367790643449e-13
	-2.002847511962975e-05,-5.741098250108846e-13
	-1.253813379769979e-05,1.874737946214996e-13
	-6.893559428000628e-05,-8.738203986967291e-13
	-1.253813379769979e-05,1.874737946214996e-13
11		1.288249551693134e+00,0.000000000000000e+00
	-1.253813379769979e-01,1.918406202724619e-09
	1.000000000000000e+00,0.000000000000000e+00
	0.000000000000000e+00,0.000000000000000e+00
	1.152098483857426e-04,2.067187023774745e-13
	1.152098493260914e-04,2.165636748326941e-13
	1.253813379769980e-05,-1.918406202724620e-13
	6.893559427958950e-05,8.941742904983376e-13
	-6.144525295765954e-05,-1.148511094927074e-13
	-2.002847511962975e-05,-5.874825607331683e-13
	-1.253813379769979e-05,1.918406202724619e-13
	-6.893559428000628e-05,-8.941742904983377e-13
	-1.253813379769979e-05,1.918406202724619e-13
12		1.318256738556407e+00,0.000000000000000e+00
	-1.253813379769979e-01,1.963091623596034e-09
	1.000000000000000e+00,0.000000000000000e+00
	0.000000000000000e+00,0.000000000000000e+00
	1.152098483857426e-04,2.115337995162405e-13
	1.152098493260914e-04,2.216080908388638e-13
	1.253813379769980e-05,-1.963091623596035e-13
	6.893559427958950e-05,9.150022853445642e-13
	-6.144525295765954e-05,-1.175263354995571e-13
	-2.002847511962975e-05,-6.011667874854036e-13
	-1.253813379769979e-05,1.963091623596035e-13
	-6.893559428000628e-05,-9.150022853445642e-13
	-1.253813379769979e-05,1.963091623596035e-13
13		1.348962882591653e+00,0.000000000000000e+00
	-1.253813379769979e-01,2.008817901630870e-09
	1.000000000000000e+00,0.000000000000000e+00
	0.000000000000000e+00,0.000000000000000e+00
	1.152098483857426e-04,2.164610546754909e-13
	1.152098493260914e-04,2.267700063881261e-13
	1.253813379769980e-05,-2.008817901630870e-13
	6.893559427958950e-05,9.363154265139675e-13
	-6.144525295765954e-05,-1.202638755251336e-13
	-2.002847511962975e-05,-6.151697608257468e-13
	-1.253813379769979e-05,2.008817901630870e-13
	-6.893559428000628e-05,-9.363154265139675e-13
	-1.253813379769979e-05,2.008817901630870e-13
14		1.380384264602885e+00,0.000000000000000e+00
	-1.253813379769979e-01,2.055609281506999e-09
	1.000000000000000e+00,0.000000000000000e+00
	0.000000000000000e+00,0.000000000000000e+00
	1.152098483857426e-04,2.215030803511310e-13
	1.152098493260914e-04,2.320521583964313e-13
	1.253813379769980e-05,-2.055609281506999e-13
	6.893559427958950e-05,9.581250145161084e-13
	-6.144525295765954e-05,-1.230651810493941e-13
	-2.002847511962975e-05,-6.294989053160144e-13
	-1.253813379769979e-05,2.055609281506999e-13
	-6.893559428000628e-05,-9.581250145161086e-13
	-1.253813379769979e-05,2.055609281506999e-13
15		1.412537544622754e+00,0.000000000000000e+00
	-1.253813379769979e-01,2.103490572633388e-09
	1.000000000000000e+00,0.000000000000000e+00
	0.000000000000000e+00,0.000000000000000e+00
	1.152098483857426e-04,2.266625498919132e-13
	1.152098493260914e-04,2.374573475306917e-13
	1.253813379769980e-05,-2.103490572633388e-13
	6.893559427958950e-05,9.804426130832295e-13
	-6.144525295765954e-05,-1.259317373616073e-13
	-2.002847511962975e-05,-6.441618184582835e-13
	-1.253813379769979e-05,2.103490572633388e-13
	-6.893559428000628e-05,-9.804426130832295e-13
	-1.253813379769979e-05,2.103490572633388e-13
16		1.445439770745927e+00,0.000000000000000e+00
	-1.253813379769979e-01,2.152487162304376e-09
	1.000000000000000e+00,0.000000000000000e+00
	0.000000000000000e+00,0.000000000000000e+00
	1.152098483857426e-04,2.319421989168815e-13
	1.152098493260914e-04,2.429884396937324e-13
	1.253813379769980e-05,-2.152487162304377e-13
	6.893559427958950e-05,1.003280055301499e-12
	-6.144525295765954e-05,-1.288650643478731e-13
	-2.002847511962975e-05,-6.591662747231887e-13
	-1.253813379769979e-05,2.152487162304376e-13
	-6.893559428000628e-05,-1.003280055301499e-12
	-1.253813379769979e-05,2.152487162304376e-13
17		1.479108388168207e+00,0.000000000000000e+00
	-1.253813379769979e-01,2.202625029160354e-09
	1.000000000000000e+00,0.000000000000000e+00
	0.000000000000000e+00,0.000000000000000e+00
	1.152098483857426e-04,2.373448267658335e-13
	1.152098493260914e-04,2.486483675438310e-13
	1.253813379769980e-05,-2.202625029160354e-13
	6.893559427958950e-05,1.026649449885072e-12
	-6.144525295765954e-05,-1.318667172969870e-13
	-2.002847511962975e-05,-6.745202296720494e-13
	-1.253813379769979e-05,2.202625029160354e-13
	-6.893559428000628e-05,-1.026649449885072e-12
	-1.253813379769979e-05,2.202625029160354e-13
18		1.513561248436208e+00,0.000000000000000e+00
	-1.253813379769979e-01,2.253930756961982e-09
	1.000000000000000e+00,0.000000000000000e+00
	0.000000000000000e+00,0.000000000000000e+00
	1.152098483857426e-04,2.428732979835671e-13
	1.152098493260914e-04,2.544401320496516e-13
	1.253813379769980e-05,-2.253930756961982e-13
	6.893559427958950e-05,1.050563187596285e-12
	-6.144525295765954e-05,-1.349382877250741e-13
	-2.002847511962975e-05,-6.902318241750130e-13
	-1.253813379769979e-05,2.253930756961982e-13
	-6.893559428000628e-05,-1.050563187596285e-12
	-1.253813379769979e-05,2.253930756961982e-13
19		1.548816618912481e+00,0.000000000000000e+00
	-1.253813379769979e-01,2.306431548685251e-09
	1.000000000000000e+00,0.000000000000000e+00
	0.000000000000000e+00,0.000000000000000e+00
	1.152098483857426e-04,2.485305438386995e-13
	1.152098493260914e-04,2.603668040813981e-13
	1.253813379769980e-05,-2.306431548685252e-13
	6.893559427958950e-05,1.075033947815410e-12
	-6.144525295765954e-05,-1.380814042194324e-13
	-2.002847511962975e-05,-7.063093887274523e-13
	-1.253813379769979e-05,2.306431548685251e-13
	-6.893559428000628e-05,-1.075033947815410e-12
	-1.253813379769979e-05,2.306431548685251e-13
20		1.584893192461113e+00,0.000000000000000e+00
	-1.253813379769979e-01,2.360155240944865e-09
	1.000000000000000e+00,0.000000000000000e+00
	0.000000000000000e+00,0.000000000000000e+00
	1.152098483857426e-04,2.543195638778660e-13
	1.152098493260914e-04,2.664315260390307e-13
	1.253813379769980e-05,-2.360155240944865e-13
	6.893559427958950e-05,1.100074705263423e-12
	-6.144525295765954e-05,-1.412977333020313e-13
	-2.002847511962975e-05,-7.227614478669050e-13
	-1.253813379769979e-05,2.360155240944865e-13
	-6.893559428000628e-05,-1.100074705263423e-12
	-1.253813379769979e-05,2.360155240944865e-13
21		1.621810097358929e+00,0.000000000000000e+00
	-1.253813379769979e-01,2.415130318753575e-09
	1.000000000000000e+00,0.000000000000000e+00
	0.000000000000000e+00,0.000000000000000e+00
	1.152098483857426e-04,2.602434275161178e-13
	1.152098493260914e-04,2.726375135184074e-13
	1.253813379769980e-05,-2.415130318753575e-13
	6.893559427958950e-05,1.125698736881377e-12
	-6.144525295765954e-05,-1.445889803131236e-13
	-2.002847511962975e-05,-7.395967246928956e-13
	-1.253813379769979e-05,2.415130318753575e-13
	-6.893559428000628e-05,-1.125698736881377e-12
	-1.253813379769979e-05,2.415130318753575e-13
22		1.659586907437560e+00,0.000000000000000e+00
	-1.253813379769979e-01,2.471385930625317e-09
	1.000000000000000e+00,0.000000000000000e+00
	0.000000000000000e+00,0.000000000000000e+00
	1.152098483857426e-04,2.663052756643678e-13
	1.152098493260914e-04,2.789880570162357e-13
	1.253813379769980e-05,-2.471385930625318e-13
	6.893559427958950e-05,1.151919628870010e-12
	-6.144525295765954e-05,-1.479568903154393e-13
	-2.002847511962975e-05,-7.568241454920383e-13
	-1.253813379769979e-05,2.471385930625318e-13
	-6.893559428000628e-05,-1.151919628870009e-12
	-1.253813379769979e-05,2.471385930625318e-13
23		1.698243652461743e+00,0.000000000000000e+00
	-1.253813379769979e-01,2.528951904030137e-09
	1.000000000000000e+00,0.000000000000000e+00
	0.000000000000000e+00,0.000000000000000e+00
	1.152098483857426e-04,2.725083223947421e-13
	1.152098493260914e-04,2.854865236747376e-13
	1.253813379769980e-05,-2.528951904030137e-13
	6.893559427958950e-05,1.178751283893327e-12
	-6.144525295765954e-05,-1.514032490194412e-13
	-2.002847511962975e-05,-7.744528444708725e-13
	-1.253813379769979e-05,2.528951904030137e-13
	-6.893559428000628e-05,-1.178751283893327e-12
	-1.253813379769979e-05,2.528951904030137e-13
24		1.737800828749374e+00,0.000000000000000e+00
	-1.253813379769979e-01,2.587858761209109e-09
	1.000000000000000e+00,0.000000000000000e+00
	0.000000000000000e+00,0.000000000000000e+00
	1.152098483857426e-04,2.788558566447240e-13
	1.152098493260914e-04,2.921363590669524e-13
	1.253813379769980e-05,-2.587858761209110e-13
	6.893559427958950e-05,1.206207928449984e-12
	-6.144525295765954e-05,-1.549298837301321e-13
	-2.002847511962975e-05,-7.924921685989405e-13
	-1.253813379769979e-05,2.587858761209109e-13
	-6.893559428000628e-05,-1.206207928449984e-12
	-1.253813379769979e-05,2.587858761209109e-13
25		1.778279410038922e+00,0.000000000000000e+00
	-1.253813379769979e-01,2.648137735357635e-09
	1.000000000000000e+00,0.000000000000000e+00
	0.000000000000000e+00,0.000000000000000e+00
	1.152098483857426e-04,2.853512439609926e-13
	1.152098493260914e-04,2.989410890236266e-13
	1.253813379769980e-05,-2.648137735357636e-13
	6.893559427958950e-05,1.234304120416354e-12
	-6.144525295765954e-05,-1.585386643159162e-13
	-2.002847511962975e-05,-8.109516825646738e-13
	-1.253813379769979e-05,2.648137735357635e-13
	-6.893559428000628e-05,-1.234304120416353e-12
	-1.253813379769979e-05,2.648137735357635e-13
26		1.819700858609982e+00,0.000000000000000e+00
	-1.253813379769979e-01,2.709820787185693e-09
	1.000000000000000e+00,0.000000000000000e+00
	0.000000000000000e+00,0.000000000000000e+00
	1.152098483857426e-04,2.919979282838796e-13
	1.152098493260914e-04,3.059043215026542e-13
	1.253813379769980e-05,-2.709820787185696e-13
	6.893559427958950e-05,1.263054756765315e-12
	-6.144525295765954e-05,-1.622315042000280e-13
	-2.002847511962975e-05,-8.298411738467171e-13
	-1.253813379769979e-05,2.709820787185693e-13
	-6.893559428000628e-05,-1.263054756765315e-12
	-1.253813379769979e-05,2.709820787185693e-13
27		1.862087136662866e+00,0.000000000000000e+00
	-1.253813379769979e-01,2.772940621863838e-09
	1.000000000000000e+00,0.000000000000000e+00
	0.000000000000000e+00,0.000000000000000e+00
	1.152098483857426e-04,2.987994337733922e-13
	1.152098493260914e-04,3.130297485020648e-13
	1.253813379769980e-05,-2.772940621863838e-13
	6.893559427958950e-05,1.292475081464819e-12
	-6.144525295765954e-05,-1.660103613750543e-13
	-2.002847511962975e-05,-8.491706579033807e-13
	-1.253813379769979e-05,2.772940621863838e-13
	-6.893559428000628e-05,-1.292475081464819e-12
	-1.253813379769979e-05,2.772940621863838e-13
28		1.905460717963246e+00,0.000000000000000e+00
	-1.253813379769979e-01,2.837530706363901e-09
	1.000000000000000e+00,0.000000000000000e+00
	0.000000000000000e+00,0.000000000000000e+00
	1.152098483857426e-04,3.057593666777695e-13
	1.152098493260914e-04,3.203211480175698e-13
	1.253813379769980e-05,-2.837530706363901e-13
	6.893559427958950e-05,1.322580693560446e-12
	-6.144525295765954e-05,-1.698772394410887e-13
	-2.002847511962975e-05,-8.689503834829671e-13
	-1.253813379769979e-05,2.837530706363901e-13
	-6.893559428000628e-05,-1.322580693560446e-12
	-1.253813379769979e-05,2.837530706363901e-13
29		1.949844599758044e+00,0.000000000000000e+00
	-1.253813379769979e-01,2.903625287203639e-09
	1.000000000000000e+00,0.000000000000000e+00
	0.000000000000000e+00,0.000000000000000e+00
	1.152098483857426e-04,3.128814172455630e-13
	1.152098493260914e-04,3.277823860457053e-13
	1.253813379769980e-05,-2.903625287203639e-13
	6.893559427958950e-05,1.353387555446224e-12
	-6.144525295765954e-05,-1.738341886680658e-13
	-2.002847511962975e-05,-8.891908380577942e-13
	-1.253813379769979e-05,2.903625287203639e-13
	-6.893559428000628e-05,-1.353387555446224e-12
	-1.253813379769979e-05,2.903625287203639e-13
30		1.995262314968878e+00,0.000000000000000e+00
	-1.253813379769979e-01,2.971259408604675e-09
	1.000000000000000e+00,0.000000000000000e+00
	0.000000000000000e+00,0.000000000000000e+00
	1.152098483857426e-04,3.201693616822553e-13
	1.152098493260914e-04,3.354174186336351e-13
	1.253813379769980e-05,-2.971259408604675e-13
	6.893559427958950e-05,1.384912001328101e-12
	-6.144525295765954e-05,-1.778833070828422e-13
	-2.002847511962975e-05,-9.099027533847917e-13
	-1.253813379769979e-05,2.971259408604675e-13
	-6.893559428000628e-05,-1.384912001328101e-12
	-1.253813379769979e-05,2.971259408604675e-13
31		2.041737944669527e+00,0.000000000000000e+00
	-1.253813379769979e-01,3.040468931073421e-09
	1.000000000000000e+00,0.000000000000000e+00
	0.000000000000000e+00,0.000000000000000e+00
	1.152098483857426e-04,3.276270641524540e-13
	1.152098493260914e-04,3.432302939766987e-13
	1.253813379769980e-05,-3.040468931073422e-13
	6.893559427958950e-05,1.417170745884561e-12
	-6.144525295765954e-05,-1.820267415815978e-13
	-2.002847511962975e-05,-9.310971111956205e-13
	-1.253813379769979e-05,3.040468931073421e-13
	-6.893559428000628e-05,-1.417170745884560e-12
	-1.253813379769979e-05,3.040468931073421e-13
32		2.089296130854037e+00,0.000000000000000e+00
	-1.253813379769979e-01,3.111290550414787e-09
	1.000000000000000e+00,0.000000000000000e+00
	0.000000000000000e+00,0.000000000000000e+00
	1.152098483857426e-04,3.352584788287233e-13
	1.152098493260914e-04,3.512251545648191e-13
