Title: * GA CMOS Amp | W=1e-06 L=6.651354212018824e-07 Vbias=0.7935136817895628
Date: Mon Sep  8 18:43:28 2025
Plotname: AC Analysis
Flags: complex forward log
No. Variables: 11
No. Points:          901
Offset:    0.0000000000000000e+00
Command: Linear Technology Corporation LTspice
Variables:
	0	frequency	frequency
	1	V(out)	voltage
	2	V(g)	voltage
	3	V(vdd)	voltage
	4	Id(M1)	device_current
	5	Ig(M1)	device_current
	6	Ib(M1)	device_current
	7	Is(M1)	device_current
	8	I(Rload)	device_current
	9	I(Vg)	device_current
	10	I(Vdd)	device_current
Values:
0		1.000000000000000e+00,0.000000000000000e+00
	-3.469714060481254e-03,1.260967027073081e-11
	1.000000000000000e+00,0.000000000000000e+00
	0.000000000000000e+00,0.000000000000000e+00
	3.469714060481255e-07,-1.260967027073081e-15
	1.584577899468701e-26,6.306012735823581e-15
	3.469714084969355e-15,-4.244039848392986e-16
	-3.469714095178395e-07,-4.620641723911201e-15
	-3.469714060481255e-07,1.260967027073081e-15
	-1.584577899468701e-26,-6.306012735823581e-15
	-3.469714060481255e-07,1.260967027073081e-15
1		1.023292992280754e+00,0.000000000000000e+00
	-3.469714060481254e-03,1.290338722300980e-11
	1.000000000000000e+00,0.000000000000000e+00
	0.000000000000000e+00,0.000000000000000e+00
	3.469714060481255e-07,-1.290338722300980e-15
	1.659256755144205e-26,6.452898641801458e-15
	3.469714084969355e-15,-4.342896235820825e-16
	-3.469714095178395e-07,-4.728270295918395e-15
	-3.469714060481255e-07,1.290338722300980e-15
	-1.659256755144205e-26,-6.452898641801457e-15
	-3.469714060481255e-07,1.290338722300980e-15
2		1.047128548050899e+00,0.000000000000000e+00
	-3.469714060481254e-03,1.320394572199095e-11
	1.000000000000000e+00,0.000000000000000e+00
	0.000000000000000e+00,0.000000000000000e+00
	3.469714060481255e-07,-1.320394572199095e-15
	1.737455116857799e-26,6.603205960053427e-15
	3.469714084969355e-15,-4.444055284317915e-16
	-3.469714095178395e-07,-4.838405859422540e-15
	-3.469714060481255e-07,1.320394572199095e-15
	-1.737455116857799e-26,-6.603205960053426e-15
	-3.469714060481255e-07,1.320394572199095e-15
3		1.071519305237606e+00,0.000000000000000e+00
	-3.469714060481254e-03,1.351150512776878e-11
	1.000000000000000e+00,0.000000000000000e+00
	0.000000000000000e+00,0.000000000000000e+00
	3.469714060481255e-07,-1.351150512776878e-15
	1.819338853818912e-26,6.757014385509180e-15
	3.469714084969355e-15,-4.547570629750773e-16
	-3.469714095178395e-07,-4.951106809757225e-15
	-3.469714060481255e-07,1.351150512776878e-15
	-1.819338853818912e-26,-6.757014385509179e-15
	-3.469714060481255e-07,1.351150512776878e-15
4		1.096478196143185e+00,0.000000000000000e+00
	-3.469714060481254e-03,1.382622851241127e-11
	1.000000000000000e+00,0.000000000000000e+00
	0.000000000000000e+00,0.000000000000000e+00
	3.469714060481255e-07,-1.382622851241127e-15
	1.905081652411985e-26,6.914405469431789e-15
	3.469714084969355e-15,-4.653497157325743e-16
	-3.469714095178395e-07,-5.066432902458088e-15
	-3.469714060481255e-07,1.382622851241127e-15
	-1.905081652411985e-26,-6.914405469431788e-15
	-3.469714060481255e-07,1.382622851241127e-15
5		1.122018454301963e+00,0.000000000000000e+00
	-3.469714060481254e-03,1.414828274642281e-11
	1.000000000000000e+00,0.000000000000000e+00
	0.000000000000000e+00,0.000000000000000e+00
	3.469714060481255e-07,-1.414828274642281e-15
	1.994865384608571e-26,7.075462662657270e-15
	3.469714084969355e-15,-4.761891030689846e-16
	-3.469714095178395e-07,-5.184445284946004e-15
	-3.469714060481255e-07,1.414828274642281e-15
	-1.994865384608571e-26,-7.075462662657268e-15
	-3.469714060481255e-07,1.414828274642281e-15
6		1.148153621496882e+00,0.000000000000000e+00
	-3.469714060481254e-03,1.447783858722116e-11
	1.000000000000000e+00,0.000000000000000e+00
	0.000000000000000e+00,0.000000000000000e+00
	3.469714060481255e-07,-1.447783858722116e-15
	2.088880493742172e-26,7.240271359841307e-15
	3.469714084969355e-15,-4.872809721709479e-16
	-3.469714095178395e-07,-5.305206528948243e-15
	-3.469714060481255e-07,1.447783858722116e-15
	-2.088880493742172e-26,-7.240271359841306e-15
	-3.469714060481255e-07,1.447783858722116e-15
7		1.174897554939529e+00,0.000000000000000e+00
	-3.469714060481254e-03,1.481507076967530e-11
	1.000000000000000e+00,0.000000000000000e+00
	0.000000000000000e+00,0.000000000000000e+00
	3.469714060481255e-07,-1.481507076967531e-15
	2.187326398464086e-26,7.408918944736658e-15
	3.469714084969355e-15,-4.986312040942865e-16
	-3.469714095178395e-07,-5.428780663674840e-15
	-3.469714060481255e-07,1.481507076967530e-15
	-2.187326398464086e-26,-7.408918944736656e-15
	-3.469714060481255e-07,1.481507076967530e-15
8		1.202264434617413e+00,0.000000000000000e+00
	-3.469714060481254e-03,1.516015809875218e-11
	1.000000000000000e+00,0.000000000000000e+00
	0.000000000000000e+00,0.000000000000000e+00
	3.469714060481255e-07,-1.516015809875218e-15
	2.290411915737102e-26,7.581494836525140e-15
	3.469714084969355e-15,-5.102458168821956e-16
	-3.469714095178395e-07,-5.555233209767727e-15
	-3.469714060481255e-07,1.516015809875218e-15
	-2.290411915737102e-26,-7.581494836525139e-15
	-3.469714060481255e-07,1.516015809875218e-15
9		1.230268770812381e+00,0.000000000000000e+00
	-3.469714060481254e-03,1.551328354432142e-11
	1.000000000000000e+00,0.000000000000000e+00
	0.000000000000000e+00,0.000000000000000e+00
	3.469714060481255e-07,-1.551328354432143e-15
	2.398355703764271e-26,7.758090537228899e-15
	3.469714084969355e-15,-5.221309687561213e-16
	-3.469714095178395e-07,-5.684631214040635e-15
	-3.469714060481255e-07,1.551328354432143e-15
	-2.398355703764271e-26,-7.758090537228897e-15
	-3.469714060481255e-07,1.551328354432143e-15
10		1.258925411794167e+00,0.000000000000000e+00
	-3.469714060481254e-03,1.587463433816846e-11
	1.000000000000000e+00,0.000000000000000e+00
	0.000000000000000e+00,0.000000000000000e+00
	3.469714060481255e-07,-1.587463433816845e-15
	2.511386725792275e-26,7.938799680225963e-15
	3.469714084969355e-15,-5.342929613809005e-16
	-3.469714095178395e-07,-5.817043285028217e-15
	-3.469714060481255e-07,1.587463433816846e-15
	-2.511386725792275e-26,-7.938799680225962e-15
	-3.469714060481255e-07,1.587463433816846e-15
11		1.288249551693134e+00,0.000000000000000e+00
	-3.469714060481254e-03,1.624440207326721e-11
	1.000000000000000e+00,0.000000000000000e+00
	0.000000000000000e+00,0.000000000000000e+00
	3.469714060481255e-07,-1.624440207326721e-15
	2.629744735773167e-26,8.123718079895921e-15
	3.469714084969355e-15,-5.467382432060072e-16
	-3.469714095178395e-07,-5.952539629363193e-15
	-3.469714060481255e-07,1.624440207326721e-15
	-2.629744735773167e-26,-8.123718079895920e-15
	-3.469714060481255e-07,1.624440207326721e-15
12		1.318256738556407e+00,0.000000000000000e+00
	-3.469714060481254e-03,1.662278280536529e-11
	1.000000000000000e+00,0.000000000000000e+00
	0.000000000000000e+00,0.000000000000000e+00
	3.469714060481255e-07,-1.662278280536529e-15
	2.753680786914653e-26,8.312943782421959e-15
	3.469714084969355e-15,-5.594734128845977e-16
	-3.469714095178395e-07,-6.091192089000833e-15
	-3.469714060481255e-07,1.662278280536529e-15
	-2.753680786914653e-26,-8.312943782421957e-15
	-3.469714060481255e-07,1.662278280536529e-15
13		1.348962882591653e+00,0.000000000000000e+00
	-3.469714060481254e-03,1.700997715693531e-11
	1.000000000000000e+00,0.000000000000000e+00
	0.000000000000000e+00,0.000000000000000e+00
	3.469714060481255e-07,-1.700997715693531e-15
	2.883457764197599e-26,8.506577117776257e-15
	3.469714084969355e-15,-5.725052227722057e-16
	-3.469714095178395e-07,-6.233074179310520e-15
	-3.469714060481255e-07,1.700997715693531e-15
	-2.883457764197599e-26,-8.506577117776256e-15
	-3.469714060481255e-07,1.700997715693531e-15
14		1.380384264602885e+00,0.000000000000000e+00
	-3.469714060481254e-03,1.740619042354761e-11
	1.000000000000000e+00,0.000000000000000e+00
	0.000000000000000e+00,0.000000000000000e+00
	3.469714060481255e-07,-1.740619042354761e-15
	3.019350941990325e-26,8.704720752916260e-15
	3.469714084969355e-15,-5.858405825069305e-16
	-3.469714095178395e-07,-6.378261128054568e-15
	-3.469714060481255e-07,1.740619042354761e-15
	-3.019350941990325e-26,-8.704720752916257e-15
	-3.469714060481255e-07,1.740619042354761e-15
15		1.412537544622754e+00,0.000000000000000e+00
	-3.469714060481254e-03,1.781163268272064e-11
	1.000000000000000e+00,0.000000000000000e+00
	0.000000000000000e+00,0.000000000000000e+00
	3.469714060481255e-07,-1.781163268272065e-15
	3.161648567942445e-26,8.907479746220057e-15
	3.469714084969355e-15,-5.994865626730150e-16
	-3.469714095178395e-07,-6.526829915274978e-15
	-3.469714060481255e-07,1.781163268272064e-15
	-3.161648567942445e-26,-8.907479746220056e-15
	-3.469714060481255e-07,1.781163268272064e-15
16		1.445439770745927e+00,0.000000000000000e+00
	-3.469714060481254e-03,1.822651890530688e-11
	1.000000000000000e+00,0.000000000000000e+00
	0.000000000000000e+00,0.000000000000000e+00
	3.469714060481255e-07,-1.822651890530688e-15
	3.310652474396777e-26,9.114961603189734e-15
	3.469714084969355e-15,-6.134503985497747e-16
	-3.469714095178395e-07,-6.678859314109271e-15
	-3.469714060481255e-07,1.822651890530688e-15
	-3.310652474396777e-26,-9.114961603189732e-15
	-3.469714060481255e-07,1.822651890530688e-15
17		1.479108388168207e+00,0.000000000000000e+00
	-3.469714060481254e-03,1.865106906947321e-11
	1.000000000000000e+00,0.000000000000000e+00
	0.000000000000000e+00,0.000000000000000e+00
	3.469714060481255e-07,-1.865106906947321e-15
	3.466678718616214e-26,9.327276333452200e-15
	3.469714084969355e-15,-6.277394939478184e-16
	-3.469714095178395e-07,-6.834429932557060e-15
	-3.469714060481255e-07,1.865106906947321e-15
	-3.466678718616214e-26,-9.327276333452198e-15
	-3.469714060481255e-07,1.865106906947321e-15
18		1.513561248436208e+00,0.000000000000000e+00
	-3.469714060481254e-03,1.908550827733627e-11
	1.000000000000000e+00,0.000000000000000e+00
	0.000000000000000e+00,0.000000000000000e+00
	3.469714060481255e-07,-1.908550827733627e-15
	3.630058253183551e-26,9.544536509087765e-15
	3.469714084969355e-15,-6.423614251346706e-16
	-3.469714095178395e-07,-6.993624256219467e-15
	-3.469714060481255e-07,1.908550827733627e-15
	-3.630058253183551e-26,-9.544536509087763e-15
	-3.469714060481255e-07,1.908550827733627e-15
19		1.548816618912481e+00,0.000000000000000e+00
	-3.469714060481254e-03,1.953006687431452e-11
	1.000000000000000e+00,0.000000000000000e+00
	0.000000000000000e+00,0.000000000000000e+00
	3.469714060481255e-07,-1.953006687431453e-15
	3.801137627996275e-26,9.766857324317321e-15
	3.469714084969355e-15,-6.573239448517867e-16
	-3.469714095178395e-07,-7.156526692034081e-15
	-3.469714060481255e-07,1.953006687431452e-15
	-3.801137627996275e-26,-9.766857324317319e-15
	-3.469714060481255e-07,1.953006687431452e-15
20		1.584893192461113e+00,0.000000000000000e+00
	-3.469714060481254e-03,1.998498057126055e-11
	1.000000000000000e+00,0.000000000000000e+00
	0.000000000000000e+00,0.000000000000000e+00
	3.469714060481255e-07,-1.998498057126055e-15
	3.980279725345381e-26,9.994356656579871e-15
	3.469714084969355e-15,-6.726349864251734e-16
	-3.469714095178395e-07,-7.323223613028643e-15
	-3.469714060481255e-07,1.998498057126055e-15
	-3.980279725345381e-26,-9.994356656579870e-15
	-3.469714060481255e-07,1.998498057126055e-15
21		1.621810097358929e+00,0.000000000000000e+00
	-3.469714060481254e-03,2.045049056943793e-11
	1.000000000000000e+00,0.000000000000000e+00
	0.000000000000000e+00,0.000000000000000e+00
	3.469714060481255e-07,-2.045049056943794e-15
	4.167864529637340e-26,1.022715512903269e-14
	3.469714084969355e-15,-6.883026679717409e-16
	-3.469714095178395e-07,-7.493803404117155e-15
	-3.469714060481255e-07,2.045049056943794e-15
	-4.167864529637340e-26,-1.022715512903269e-14
	-3.469714060481255e-07,2.045049056943794e-15
22		1.659586907437560e+00,0.000000000000000e+00
	-3.469714060481254e-03,2.092684368840949e-11
	1.000000000000000e+00,0.000000000000000e+00
	0.000000000000000e+00,0.000000000000000e+00
	3.469714060481255e-07,-2.092684368840949e-15
	4.364289933391993e-26,1.046537617450732e-14
	3.469714084969355e-15,-7.043352967036307e-16
	-3.469714095178395e-07,-7.668356508962744e-15
	-3.469714060481255e-07,2.092684368840949e-15
	-4.364289933391993e-26,-1.046537617450732e-14
	-3.469714060481255e-07,2.092684368840949e-15
23		1.698243652461743e+00,0.000000000000000e+00
	-3.469714060481254e-03,2.141429249690416e-11
	1.000000000000000e+00,0.000000000000000e+00
	0.000000000000000e+00,0.000000000000000e+00
	3.469714060481255e-07,-2.141429249690416e-15
	4.569972581225915e-26,1.070914610095531e-14
	3.469714084969355e-15,-7.207413733328100e-16
	-3.469714095178395e-07,-7.846975477932086e-15
	-3.469714060481255e-07,2.141429249690416e-15
	-4.569972581225915e-26,-1.070914610095531e-14
	-3.469714060481255e-07,2.141429249690416e-15
24		1.737800828749374e+00,0.000000000000000e+00
	-3.469714060481254e-03,2.191309544673236e-11
	1.000000000000000e+00,0.000000000000000e+00
	0.000000000000000e+00,0.000000000000000e+00
	3.469714060481255e-07,-2.191309544673236e-15
	4.785348753611513e-26,1.095859415841833e-14
	3.469714084969355e-15,-7.375295965782701e-16
	-3.469714095178395e-07,-8.029755017166823e-15
	-3.469714060481255e-07,2.191309544673236e-15
	-4.785348753611513e-26,-1.095859415841833e-14
	-3.469714060481255e-07,2.191309544673236e-15
25		1.778279410038922e+00,0.000000000000000e+00
	-3.469714060481254e-03,2.242351700982053e-11
	1.000000000000000e+00,0.000000000000000e+00
	0.000000000000000e+00,0.000000000000000e+00
	3.469714060481255e-07,-2.242351700982053e-15
	5.010875292286407e-26,1.121385260755829e-14
	3.469714084969355e-15,-7.547088677781959e-16
	-3.469714095178395e-07,-8.216792038798037e-15
	-3.469714060481255e-07,2.242351700982053e-15
	-5.010875292286407e-26,-1.121385260755828e-14
	-3.469714060481255e-07,2.242351700982053e-15
26		1.819700858609982e+00,0.000000000000000e+00
	-3.469714060481254e-03,2.294582781843763e-11
	1.000000000000000e+00,0.000000000000000e+00
	0.000000000000000e+00,0.000000000000000e+00
	3.469714060481255e-07,-2.294582781843763e-15
	5.247030569275990e-26,1.147505678978365e-14
	3.469714084969355e-15,-7.722882956095683e-16
	-3.469714095178395e-07,-8.408185712330321e-15
	-3.469714060481255e-07,2.294582781843763e-15
	-5.247030569275990e-26,-1.147505678978365e-14
	-3.469714060481255e-07,2.294582781843763e-15
27		1.862087136662866e+00,0.000000000000000e+00
	-3.469714060481254e-03,2.348030480868801e-11
	1.000000000000000e+00,0.000000000000000e+00
	0.000000000000000e+00,0.000000000000000e+00
	3.469714060481255e-07,-2.348030480868802e-15
	5.494315501584652e-26,1.174234519900930e-14
	3.469714084969355e-15,-7.902772009177206e-16
	-3.469714095178395e-07,-8.604037517222777e-15
	-3.469714060481255e-07,2.348030480868801e-15
	-5.494315501584652e-26,-1.174234519900930e-14
	-3.469714060481255e-07,2.348030480868801e-15
28		1.905460717963246e+00,0.000000000000000e+00
	-3.469714060481254e-03,2.402723136734653e-11
	1.000000000000000e+00,0.000000000000000e+00
	0.000000000000000e+00,0.000000000000000e+00
	3.469714060481255e-07,-2.402723136734653e-15
	5.753254613707884e-26,1.201585955508777e-14
	3.469714084969355e-15,-8.086851216583535e-16
	-3.469714095178395e-07,-8.804451296694765e-15
	-3.469714060481255e-07,2.402723136734653e-15
	-5.753254613707884e-26,-1.201585955508777e-14
	-3.469714060481255e-07,2.402723136734653e-15
29		1.949844599758044e+00,0.000000000000000e+00
	-3.469714060481254e-03,2.458689748211403e-11
	1.000000000000000e+00,0.000000000000000e+00
	0.000000000000000e+00,0.000000000000000e+00
	3.469714060481255e-07,-2.458689748211403e-15
	6.024397150219078e-26,1.229574487895106e-14
	3.469714084969355e-15,-8.275218179546996e-16
	-3.469714095178395e-07,-9.009533312784955e-15
	-3.469714060481255e-07,2.458689748211403e-15
	-6.024397150219078e-26,-1.229574487895106e-14
	-3.469714060481255e-07,2.458689748211403e-15
30		1.995262314968878e+00,0.000000000000000e+00
	-3.469714060481254e-03,2.515959989537260e-11
	1.000000000000000e+00,0.000000000000000e+00
	0.000000000000000e+00,0.000000000000000e+00
	3.469714060481255e-07,-2.515959989537260e-15
	6.308318240790877e-26,1.258214956950259e-14
	3.469714084969355e-15,-8.467972772724771e-16
	-3.469714095178395e-07,-9.219392302692849e-15
	-3.469714060481255e-07,2.515959989537260e-15
	-6.308318240790877e-26,-1.258214956950258e-14
	-3.469714060481255e-07,2.515959989537260e-15
31		2.041737944669527e+00,0.000000000000000e+00
	-3.469714060481254e-03,2.574564226152237e-11
	1.000000000000000e+00,0.000000000000000e+00
	0.000000000000000e+00,0.000000000000000e+00
	3.469714060481255e-07,-2.574564226152238e-15
	6.605620120122353e-26,1.287522548230030e-14
	3.469714084969355e-15,-8.665217197153484e-16
	-3.469714095178395e-07,-9.434139536432716e-15
	-3.469714060481255e-07,2.574564226152237e-15
	-6.605620120122353e-26,-1.287522548230030e-14
	-3.469714060481255e-07,2.574564226152237e-15
32		2.089296130854037e+00,0.000000000000000e+00
	-3.469714060481254e-03,2.634533530798308e-11
	1.000000000000000e+00,0.000000000000000e+00
	0.000000000000000e+00,0.000000000000000e+00
	3.469714060481255e-07,-2.634533530798308e-15
	6.916933405359533e-26,1.317512801007249e-14
	3.469714084969355e-15,-8.867056034437819e-16
	-3.469714095178395e-07,-9.653888875830402e-15
	-3.469714060481255e-07,2.634533530798308e-15
	-6.916933405359533e-26,-1.317512801007249e-14
	-3.469714060481255e-07,2.634533530798308e-15
33		2.137962089502230e+00,0.000000000000000e+00
	-3.469714060481254e-03,2.695899699994581e-11
	1.000000000000000e+00,0.000000000000000e+00
	0.000000000000000e+00,0.000000000000000e+00
	3.469714060481255e-07,-2.695899699994580e-15
	7.242918433718890e-26,1.348201616510906e-14
	3.469714084969355e-15,-9.073596302201004e-16
	-3.469714095178395e-07,-9.878756834894376e-15
	-3.469714060481255e-07,2.695899699994581e-15
	-7.242918433718890e-26,-1.348201616510906e-14
	-3.469714060481255e-07,2.695899699994581e-15
34		2.187761623949550e+00,0.000000000000000e+00
	-3.469714060481254e-03,2.758695270896241e-11
	1.000000000000000e+00,0.000000000000000e+00
	0.000000000000000e+00,0.000000000000000e+00
	3.469714060481255e-07,-2.758695270896242e-15
	7.584266663151155e-26,1.379605266357195e-14
	3.469714084969355e-15,-9.284947510826841e-16
	-3.469714095178395e-07,-1.010886264159302e-14
	-3.469714060481255e-07,2.758695270896241e-15
	-7.584266663151155e-26,-1.379605266357194e-14
	-3.469714060481255e-07,2.758695270896241e-15
35		2.238721138568337e+00,0.000000000000000e+00
	-3.469714060481254e-03,2.822953538546180e-11
	1.000000000000000e+00,0.000000000000000e+00
	0.000000000000000e+00,0.000000000000000e+00
	3.469714060481255e-07,-2.822953538546180e-15
	7.941702139016309e-26,1.411740401176941e-14
	3.469714084969355e-15,-9.501221721523760e-16
	-3.469714095178395e-07,-1.034432830107085e-14
	-3.469714060481255e-07,2.822953538546180e-15
	-7.941702139016309e-26,-1.411740401176940e-14
	-3.469714060481255e-07,2.822953538546180e-15
36		2.290867652767770e+00,0.000000000000000e+00
	-3.469714060481254e-03,2.888708573528464e-11
	1.000000000000000e+00,0.000000000000000e+00
	0.000000000000000e+00,0.000000000000000e+00
	3.469714060481255e-07,-2.888708573528464e-15
	8.315983029880872e-26,1.444624059443984e-14
	3.469714084969355e-15,-9.722533605740945e-16
	-3.469714095178395e-07,-1.058527866033728e-14
	-3.469714060481255e-07,2.888708573528464e-15
	-8.315983029880872e-26,-1.444624059443983e-14
	-3.469714060481255e-07,2.888708573528464e-15
37		2.344228815319919e+00,0.000000000000000e+00
	-3.469714060481254e-03,2.955995240033010e-11
	1.000000000000000e+00,0.000000000000000e+00
	0.000000000000000e+00,0.000000000000000e+00
	3.469714060481255e-07,-2.955995240033011e-15
	8.707903235695074e-26,1.478273676509204e-14
	3.469714084969355e-15,-9.949000505968814e-16
	-3.469714095178395e-07,-1.083184147446215e-14
	-3.469714060481255e-07,2.955995240033010e-15
	-8.707903235695074e-26,-1.478273676509204e-14
	-3.469714060481255e-07,2.955995240033010e-15
38		2.398832919019488e+00,0.000000000000000e+00
	-3.469714060481254e-03,3.024849214341045e-11
	1.000000000000000e+00,0.000000000000000e+00
	0.000000000000000e+00,0.000000000000000e+00
