Title: * GA CMOS Amp | W=1.2072495901351112e-06 L=6.399019669107283e-07 Vbias=1.2376559696684084
Date: Sat Sep  6 22:07:09 2025
Plotname: AC Analysis
Flags: complex forward log
No. Variables: 13
No. Points:          901
Offset:    0.0000000000000000e+00
Command: Linear Technology Corporation LTspice
Variables:
	0	frequency	frequency
	1	V(out)	voltage
	2	V(g)	voltage
	3	V(vdd)	voltage
	4	V(m1#dbody)	voltage
	5	V(m1#sbody)	voltage
	6	Id(M1)	device_current
	7	Ig(M1)	device_current
	8	Ib(M1)	device_current
	9	Is(M1)	device_current
	10	I(Rload)	device_current
	11	I(Vg)	device_current
	12	I(Vdd)	device_current
Values:
0		1.000000000000000e+00,0.000000000000000e+00
	-4.663700593813579e-01,5.853617065262972e-10
	1.000000000000000e+00,0.000000000000000e+00
	0.000000000000000e+00,0.000000000000000e+00
	3.543712464080557e-06,4.573963512973441e-14
	3.543715961855860e-06,5.610735829577716e-14
	4.663700593813579e-05,-5.853617065262970e-14
	2.485434785844223e-06,1.743031039997585e-13
	-1.889981614566277e-06,-2.923280741457108e-14
	-4.723245910941373e-05,-8.653412593255776e-14
	-4.663700593813579e-05,5.853617065262972e-14
	-2.485434785981511e-06,-1.743031039997586e-13
	-4.663700593813579e-05,5.853617065262972e-14
1		1.023292992280754e+00,0.000000000000000e+00
	-4.663700593813579e-01,5.989965322378631e-10
	1.000000000000000e+00,0.000000000000000e+00
	0.000000000000000e+00,0.000000000000000e+00
	3.543712464080557e-06,4.680504809773583e-14
	3.543715961855860e-06,5.741426655945420e-14
	4.663700593813579e-05,-5.989965322378632e-14
	2.485434785844223e-06,1.783631448557364e-13
	-1.889981614566277e-06,-2.991372697202346e-14
	-4.723245910941373e-05,-8.854976465992664e-14
	-4.663700593813579e-05,5.989965322378630e-14
	-2.485434785981511e-06,-1.783631448557364e-13
	-4.663700593813579e-05,5.989965322378630e-14
2		1.047128548050899e+00,0.000000000000000e+00
	-4.663700593813579e-01,6.129489538394780e-10
	1.000000000000000e+00,0.000000000000000e+00
	0.000000000000000e+00,0.000000000000000e+00
	3.543712464080557e-06,4.789527772177671e-14
	3.543715961855860e-06,5.875161662722872e-14
	4.663700593813579e-05,-6.129489538394781e-14
	2.485434785844223e-06,1.825177562120321e-13
	-1.889981614566277e-06,-3.061050718347138e-14
	-4.723245910941373e-05,-9.061235364461290e-14
	-4.663700593813579e-05,6.129489538394781e-14
	-2.485434785981511e-06,-1.825177562120321e-13
	-4.663700593813579e-05,6.129489538394781e-14
3		1.071519305237606e+00,0.000000000000000e+00
	-4.663700593813579e-01,6.272263690897574e-10
	1.000000000000000e+00,0.000000000000000e+00
	0.000000000000000e+00,0.000000000000000e+00
	3.543712464080557e-06,4.901090205603463e-14
	3.543715961855860e-06,6.012011757980859e-14
	4.663700593813579e-05,-6.272263690897575e-14
	2.485434785844223e-06,1.867691408985795e-13
	-1.889981614566277e-06,-3.132351749100594e-14
	-4.723245910941373e-05,-9.272298649859778e-14
	-4.663700593813579e-05,6.272263690897575e-14
	-2.485434785981511e-06,-1.867691408985795e-13
	-4.663700593813579e-05,6.272263690897575e-14
4		1.096478196143185e+00,0.000000000000000e+00
	-4.663700593813579e-01,6.418363480632504e-10
	1.000000000000000e+00,0.000000000000000e+00
	0.000000000000000e+00,0.000000000000000e+00
	3.543712464080557e-06,5.015251261929863e-14
	3.543715961855860e-06,6.152049501451308e-14
	4.663700593813579e-05,-6.418363480632504e-14
	2.485434785844223e-06,1.911195530558131e-13
	-1.889981614566277e-06,-3.205313594213001e-14
	-4.723245910941373e-05,-9.488278230735809e-14
	-4.663700593813579e-05,6.418363480632504e-14
	-2.485434785981511e-06,-1.911195530558132e-13
	-4.663700593813579e-05,6.418363480632504e-14
5		1.122018454301963e+00,0.000000000000000e+00
	-4.663700593813579e-01,6.567866371641952e-10
	1.000000000000000e+00,0.000000000000000e+00
	0.000000000000000e+00,0.000000000000000e+00
	3.543712464080557e-06,5.132071470860039e-14
	3.543715961855860e-06,6.295349142999434e-14
	4.663700593813579e-05,-6.567866371641953e-14
	2.485434785844223e-06,1.955712993298434e-13
	-1.889981614566277e-06,-3.279974939020402e-14
	-4.723245910941373e-05,-9.709288622321987e-14
	-4.663700593813579e-05,6.567866371641953e-14
	-2.485434785981511e-06,-1.955712993298434e-13
	-4.663700593813579e-05,6.567866371641953e-14
6		1.148153621496882e+00,0.000000000000000e+00
	-4.663700593813579e-01,6.720851632337633e-10
	1.000000000000000e+00,0.000000000000000e+00
	0.000000000000000e+00,0.000000000000000e+00
	3.543712464080557e-06,5.251612772015060e-14
	3.543715961855860e-06,6.441986661991971e-14
	4.663700593813579e-05,-6.720851632337631e-14
	2.485434785844223e-06,2.001267400954705e-13
	-1.889981614566277e-06,-3.356375369956071e-14
	-4.723245910941373e-05,-9.935447007253348e-14
	-4.663700593813579e-05,6.720851632337634e-14
	-2.485434785981511e-06,-2.001267400954705e-13
	-4.663700593813579e-05,6.720851632337634e-14
7		1.174897554939529e+00,0.000000000000000e+00
	-4.663700593813579e-01,6.877400377529766e-10
	1.000000000000000e+00,0.000000000000000e+00
	0.000000000000000e+00,0.000000000000000e+00
	3.543712464080557e-06,5.373938547775114e-14
	3.543715961855860e-06,6.592039807582468e-14
	4.663700593813579e-05,-6.877400377529766e-14
	2.485434785844223e-06,2.047882907076868e-13
	-1.889981614566277e-06,-3.434555395539770e-14
	-4.723245910941373e-05,-1.016687329769914e-13
	-4.663700593813579e-05,6.877400377529766e-14
	-2.485434785981511e-06,-2.047882907076868e-13
	-4.663700593813579e-05,6.877400377529766e-14
8		1.202264434617413e+00,0.000000000000000e+00
	-4.663700593813579e-01,7.037595611435224e-10
	1.000000000000000e+00,0.000000000000000e+00
	0.000000000000000e+00,0.000000000000000e+00
	3.543712464080557e-06,5.499113656885691e-14
	3.543715961855860e-06,6.745588139934915e-14
	4.663700593813579e-05,-7.037595611435222e-14
	2.485434785844223e-06,2.095584227823298e-13
	-1.889981614566277e-06,-3.514556467855903e-14
	-4.723245910941373e-05,-1.040369019894185e-13
	-4.663700593813579e-05,7.037595611435224e-14
	-2.485434785981511e-06,-2.095584227823298e-13
	-4.663700593813579e-05,7.037595611435224e-14
9		1.230268770812381e+00,0.000000000000000e+00
	-4.663700593813579e-01,7.201522271687453e-10
	1.000000000000000e+00,0.000000000000000e+00
	0.000000000000000e+00,0.000000000000000e+00
	3.543712464080557e-06,5.627204468846517e-14
	3.543715961855860e-06,6.902713072407563e-14
	4.663700593813579e-05,-7.201522271687453e-14
	2.485434785844223e-06,2.144396655065656e-13
	-1.889981614566277e-06,-3.596421004531943e-14
	-4.723245910941373e-05,-1.064602327443716e-13
	-4.663700593813579e-05,7.201522271687453e-14
	-2.485434785981511e-06,-2.144396655065656e-13
	-4.663700593813579e-05,7.201522271687453e-14
10		1.258925411794167e+00,0.000000000000000e+00
	-4.663700593813579e-01,7.369267274371549e-10
	1.000000000000000e+00,0.000000000000000e+00
	0.000000000000000e+00,0.000000000000000e+00
	3.543712464080557e-06,5.758278899101584e-14
	3.543715961855860e-06,7.063497914719413e-14
	4.663700593813579e-05,-7.369267274371547e-14
	2.485434785844223e-06,2.194346069798975e-13
	-1.889981614566277e-06,-3.680192411228847e-14
	-4.723245910941373e-05,-1.089400101238936e-13
	-4.663700593813579e-05,7.369267274371549e-14
	-2.485434785981511e-06,-2.194346069798975e-13
	-4.663700593813579e-05,7.369267274371549e-14
11		1.288249551693134e+00,0.000000000000000e+00
	-4.663700593813579e-01,7.540919560108299e-10
	1.000000000000000e+00,0.000000000000000e+00
	0.000000000000000e+00,0.000000000000000e+00
	3.543712464080557e-06,5.892406445048786e-14
	3.543715961855860e-06,7.228027917122095e-14
	4.663700593813579e-05,-7.540919560108300e-14
	2.485434785844223e-06,2.245458955864106e-13
	-1.889981614566277e-06,-3.765915104655291e-14
	-4.723245910941373e-05,-1.114775489387747e-13
	-4.663700593813579e-05,7.540919560108298e-14
	-2.485434785981511e-06,-2.245458955864106e-13
	-4.663700593813579e-05,7.540919560108298e-14
12		1.318256738556407e+00,0.000000000000000e+00
	-4.663700593813579e-01,7.716570141211690e-10
	1.000000000000000e+00,0.000000000000000e+00
	0.000000000000000e+00,0.000000000000000e+00
	3.543712464080557e-06,6.029658222888373e-14
	3.543715961855860e-06,7.396390315600693e-14
	4.663700593813579e-05,-7.716570141211690e-14
	2.485434785844223e-06,2.297762413989799e-13
	-1.889981614566277e-06,-3.853634536118002e-14
	-4.723245910941373e-05,-1.140741946256830e-13
	-4.663700593813579e-05,7.716570141211690e-14
	-2.485434785981511e-06,-2.297762413989799e-13
	-4.663700593813579e-05,7.716570141211690e-14
13		1.348962882591653e+00,0.000000000000000e+00
	-4.663700593813579e-01,7.896312149944831e-10
	1.000000000000000e+00,0.000000000000000e+00
	0.000000000000000e+00,0.000000000000000e+00
	3.543712464080557e-06,6.170107005329698e-14
	3.543715961855860e-06,7.568674378127426e-14
	4.663700593813579e-05,-7.896312149944831e-14
	2.485434785844223e-06,2.351284176161870e-13
	-1.889981614566277e-06,-3.943397215620646e-14
	-4.723245910941373e-05,-1.167313239605322e-13
	-4.663700593813579e-05,7.896312149944832e-14
	-2.485434785981511e-06,-2.351284176161870e-13
	-4.663700593813579e-05,7.896312149944832e-14
14		1.380384264602885e+00,0.000000000000000e+00
	-4.663700593813579e-01,8.080240887899921e-10
	1.000000000000000e+00,0.000000000000000e+00
	0.000000000000000e+00,0.000000000000000e+00
	3.543712464080557e-06,6.313827260176269e-14
	3.543715961855860e-06,7.744971451992689e-14
	4.663700593813579e-05,-8.080240887899922e-14
	2.485434785844223e-06,2.406052620327068e-13
	-1.889981614566277e-06,-4.035250736524044e-14
	-4.723245910941373e-05,-1.194503457884672e-13
	-4.663700593813579e-05,8.080240887899922e-14
	-2.485434785981511e-06,-2.406052620327068e-13
	-4.663700593813579e-05,8.080240887899922e-14
15		1.412537544622754e+00,0.000000000000000e+00
	-4.663700593813579e-01,8.268453876528408e-10
	1.000000000000000e+00,0.000000000000000e+00
	0.000000000000000e+00,0.000000000000000e+00
	3.543712464080557e-06,6.460895189809568e-14
	3.543715961855860e-06,7.925375012238616e-14
	4.663700593813579e-05,-8.268453876528408e-14
	2.485434785844223e-06,2.462096785439435e-13
	-1.889981614566277e-06,-4.129243800780807e-14
	-4.723245910941373e-05,-1.222327017708513e-13
	-4.663700593813579e-05,8.268453876528408e-14
	-2.485434785981511e-06,-2.462096785439435e-13
	-4.663700593813579e-05,8.268453876528408e-14
16		1.445439770745927e+00,0.000000000000000e+00
	-4.663700593813579e-01,8.461050908848153e-10
	1.000000000000000e+00,0.000000000000000e+00
	0.000000000000000e+00,0.000000000000000e+00
	3.543712464080557e-06,6.611388771592565e-14
	3.543715961855860e-06,8.109980711220771e-14
	4.663700593813579e-05,-8.461050908848154e-14
	2.485434785844223e-06,2.519446386857145e-13
	-1.889981614566277e-06,-4.225426244757745e-14
	-4.723245910941373e-05,-1.250798671496555e-13
	-4.663700593813579e-05,8.461050908848154e-14
	-2.485434785981511e-06,-2.519446386857145e-13
	-4.663700593813579e-05,8.461050908848154e-14
17		1.479108388168207e+00,0.000000000000000e+00
	-4.663700593813579e-01,8.658134102355021e-10
	1.000000000000000e+00,0.000000000000000e+00
	0.000000000000000e+00,0.000000000000000e+00
	3.543712464080557e-06,6.765387799214335e-14
	3.543715961855860e-06,8.298886429324302e-14
	4.663700593813579e-05,-8.658134102355021e-14
	2.485434785844223e-06,2.578131832097981e-13
	-1.889981614566277e-06,-4.323849065659784e-14
	-4.723245910941373e-05,-1.279933515296501e-13
	-4.663700593813579e-05,8.658134102355021e-14
	-2.485434785981511e-06,-2.578131832097982e-13
	-4.663700593813579e-05,8.658134102355021e-14
18		1.513561248436208e+00,0.000000000000000e+00
	-4.663700593813579e-01,8.859807953166911e-10
	1.000000000000000e+00,0.000000000000000e+00
	0.000000000000000e+00,0.000000000000000e+00
	3.543712464080557e-06,6.922973924997743e-14
	3.543715961855860e-06,8.492192326861407e-14
	4.663700593813579e-05,-8.859807953166912e-14
	2.485434785844223e-06,2.638184236961807e-13
	-1.889981614566277e-06,-4.424564448569343e-14
	-4.723245910941373e-05,-1.309746996788181e-13
	-4.663700593813579e-05,8.859807953166911e-14
	-2.485434785981511e-06,-2.638184236961807e-13
	-4.663700593813579e-05,8.859807953166911e-14
19		1.548816618912481e+00,0.000000000000000e+00
	-4.663700593813579e-01,9.066179391428991e-10
	1.000000000000000e+00,0.000000000000000e+00
	0.000000000000000e+00,0.000000000000000e+00
	3.543712464080557e-06,7.084230703192577e-14
	3.543715961855860e-06,8.690000897177671e-14
	4.663700593813579e-05,-9.066179391428990e-14
	2.485434785844223e-06,2.699635442028565e-13
	-1.889981614566277e-06,-4.527625794115568e-14
	-4.723245910941373e-05,-1.340254923474109e-13
	-4.663700593813579e-05,9.066179391428992e-14
	-2.485434785981511e-06,-2.699635442028565e-13
	-4.663700593813579e-05,9.066179391428992e-14
20		1.584893192461113e+00,0.000000000000000e+00
	-4.663700593813579e-01,9.277357838009481e-10
	1.000000000000000e+00,0.000000000000000e+00
	0.000000000000000e+00,0.000000000000000e+00
	3.543712464080557e-06,7.249243634277123e-14
	3.543715961855860e-06,8.892417020995376e-14
	4.663700593813579e-05,-9.277357838009480e-14
	2.485434785844223e-06,2.762518029540587e-13
	-1.889981614566277e-06,-4.633087746788045e-14
	-4.723245910941373e-05,-1.371473471060834e-13
	-4.663700593813579e-05,9.277357838009482e-14
	-2.485434785981511e-06,-2.762518029540587e-13
	-4.663700593813579e-05,9.277357838009482e-14
21		1.621810097358929e+00,0.000000000000000e+00
	-4.663700593813579e-01,9.493455262516027e-10
	1.000000000000000e+00,0.000000000000000e+00
	0.000000000000000e+00,0.000000000000000e+00
	3.543712464080557e-06,7.418100210291645e-14
	3.543715961855860e-06,9.099548022022667e-14
	4.663700593813579e-05,-9.493455262516026e-14
	2.485434785844223e-06,2.826865340678119e-13
	-1.889981614566277e-06,-4.741006223910035e-14
	-4.723245910941373e-05,-1.403419192035513e-13
	-4.663700593813579e-05,9.493455262516027e-14
	-2.485434785981511e-06,-2.826865340678120e-13
	-4.663700593813579e-05,9.493455262516027e-14
22		1.659586907437560e+00,0.000000000000000e+00
	-4.663700593813579e-01,9.714586242663498e-10
	1.000000000000000e+00,0.000000000000000e+00
	0.000000000000000e+00,0.000000000000000e+00
	3.543712464080557e-06,7.590889961227830e-14
	3.543715961855860e-06,9.311503723857993e-14
	4.663700593813579e-05,-9.714586242663498e-14
	2.485434785844223e-06,2.892711493237266e-13
	-1.889981614566277e-06,-4.851438445286578e-14
	-4.723245910941373e-05,-1.436109024442259e-13
	-4.663700593813579e-05,9.714586242663498e-14
	-2.485434785981511e-06,-2.892711493237266e-13
	-4.663700593813579e-05,9.714586242663498e-14
23		1.698243652461743e+00,0.000000000000000e+00
	-4.663700593813579e-01,9.940868025024578e-10
	1.000000000000000e+00,0.000000000000000e+00
	0.000000000000000e+00,0.000000000000000e+00
	3.543712464080557e-06,7.767704502498763e-14
	3.543715961855860e-06,9.528396508220029e-14
	4.663700593813579e-05,-9.940868025024580e-14
	2.485434785844223e-06,2.960091399719691e-13
	-1.889981614566277e-06,-4.964442963543192e-14
	-4.723245910941373e-05,-1.469560300862914e-13
	-4.663700593813579e-05,9.940868025024578e-14
	-2.485434785981511e-06,-2.960091399719691e-13
	-4.663700593813579e-05,9.940868025024578e-14
24		1.737800828749374e+00,0.000000000000000e+00
	-4.663700593813579e-01,1.017242058719547e-09
	1.000000000000000e+00,0.000000000000000e+00
	0.000000000000000e+00,0.000000000000000e+00
	3.543712464080557e-06,7.948637583514645e-14
	3.543715961855860e-06,9.750341374533964e-14
	4.663700593813579e-05,-1.017242058719547e-13
	2.485434785844223e-06,3.029040785843688e-13
	-1.889981614566277e-06,-5.080079695171248e-14
	-4.723245910941373e-05,-1.503790757607016e-13
	-4.663700593813579e-05,1.017242058719547e-13
	-2.485434785981511e-06,-3.029040785843688e-13
	-4.663700593813579e-05,1.017242058719547e-13
25		1.778279410038922e+00,0.000000000000000e+00
	-4.663700593813579e-01,1.040936670140960e-09
	1.000000000000000e+00,0.000000000000000e+00
	0.000000000000000e+00,0.000000000000000e+00
	3.543712464080557e-06,8.133785137389962e-14
	3.543715961855860e-06,9.977456000905698e-14
	4.663700593813579e-05,-1.040936670140960e-13
	2.485434785844223e-06,3.099596209486434e-13
	-1.889981614566277e-06,-5.198409952296486e-14
	-4.723245910941373e-05,-1.538818544115825e-13
	-4.663700593813579e-05,1.040936670140960e-13
	-2.485434785981511e-06,-3.099596209486434e-13
	-4.663700593813579e-05,1.040936670140960e-13
26		1.819700858609982e+00,0.000000000000000e+00
	-4.663700593813579e-01,1.065183199963307e-09
	1.000000000000000e+00,0.000000000000000e+00
	0.000000000000000e+00,0.000000000000000e+00
	3.543712464080557e-06,8.323245331808502e-14
	3.543715961855860e-06,1.020986080651636e-13
	4.663700593813579e-05,-1.065183199963307e-13
	2.485434785844223e-06,3.171795080067457e-13
	-1.889981614566277e-06,-5.319496475187525e-14
	-4.723245910941373e-05,-1.574662232585397e-13
	-4.663700593813579e-05,1.065183199963307e-13
	-2.485434785981511e-06,-3.171795080067456e-13
	-4.663700593813579e-05,1.065183199963307e-13
27		1.862087136662866e+00,0.000000000000000e+00
	-4.663700593813579e-01,1.089994504017641e-09
	1.000000000000000e+00,0.000000000000000e+00
	0.000000000000000e+00,0.000000000000000e+00
	3.543712464080557e-06,8.517118621073139e-14
	3.543715961855860e-06,1.044767901547012e-13
	4.663700593813579e-05,-1.089994504017641e-13
	2.485434785844223e-06,3.245675678383601e-13
	-1.889981614566277e-06,-5.443403465521566e-14
	-4.723245910941373e-05,-1.611340827813803e-13
	-4.663700593813579e-05,1.089994504017641e-13
	-2.485434785981511e-06,-3.245675678383602e-13
	-4.663700593813579e-05,1.089994504017641e-13
28		1.905460717963246e+00,0.000000000000000e+00
	-4.663700593813579e-01,1.115383737585789e-09
	1.000000000000000e+00,0.000000000000000e+00
	0.000000000000000e+00,0.000000000000000e+00
	3.543712464080557e-06,8.715507799368061e-14
	3.543715961855860e-06,1.069103672212926e-13
	4.663700593813579e-05,-1.115383737585789e-13
	2.485434785844223e-06,3.321277176906022e-13
	-1.889981614566277e-06,-5.570196620424989e-14
	-4.723245910941373e-05,-1.648873777277734e-13
	-4.663700593813579e-05,1.115383737585789e-13
	-2.485434785981511e-06,-3.321277176906022e-13
	-4.663700593813579e-05,1.115383737585789e-13
29		1.949844599758044e+00,0.000000000000000e+00
	-4.663700593813579e-01,1.141364362375453e-09
	1.000000000000000e+00,0.000000000000000e+00
	0.000000000000000e+00,0.000000000000000e+00
	3.543712464080557e-06,8.918518055261595e-14
	3.543715961855860e-06,1.094006295797108e-13
	4.663700593813579e-05,-1.141364362375453e-13
	2.485434785844223e-06,3.398639660549939e-13
	-1.889981614566277e-06,-5.699943167306832e-14
	-4.723245910941373e-05,-1.687280981443802e-13
	-4.663700593813579e-05,1.141364362375453e-13
	-2.485434785981511e-06,-3.398639660549939e-13
	-4.663700593813579e-05,1.141364362375453e-13
30		1.995262314968878e+00,0.000000000000000e+00
	-4.663700593813579e-01,1.167950153657793e-09
	1.000000000000000e+00,0.000000000000000e+00
	0.000000000000000e+00,0.000000000000000e+00
	3.543712464080557e-06,9.126257027478567e-14
	3.543715961855860e-06,1.119488976000206e-13
	4.663700593813579e-05,-1.167950153657792e-13
	2.485434785844223e-06,3.477804147928193e-13
	-1.889981614566277e-06,-5.832711899503646e-14
	-4.723245910941373e-05,-1.726582804320036e-13
	-4.663700593813579e-05,1.167950153657793e-13
	-2.485434785981511e-06,-3.477804147928194e-13
	-4.663700593813579e-05,1.167950153657793e-13
31		2.041737944669527e+00,0.000000000000000e+00
	-4.663700593813579e-01,1.195155207571249e-09
	1.000000000000000e+00,0.000000000000000e+00
	0.000000000000000e+00,0.000000000000000e+00
	3.543712464080557e-06,9.338834861971806e-14
	3.543715961855860e-06,1.145565224076568e-13
	4.663700593813579e-05,-1.195155207571249e-13
	2.485434785844223e-06,3.558812613099859e-13
	-1.889981614566277e-06,-5.968573212754648e-14
	-4.723245910941373e-05,-1.766800084253145e-13
	-4.663700593813579e-05,1.195155207571249e-13
	-2.485434785981511e-06,-3.558812613099859e-13
	-4.663700593813579e-05,1.195155207571249e-13
32		2.089296130854037e+00,0.000000000000000e+00
	-4.663700593813579e-01,1.222993948595509e-09
	1.000000000000000e+00,0.000000000000000e+00
	0.000000000000000e+00,0.000000000000000e+00
	3.543712464080557e-06,9.556364270322952e-14
