Title: * GA CMOS Amp | W=2.5210634542879555e-05 L=4.6849222028131916e-07 Vbias=0.8506972491731174
Date: Mon Sep  8 18:42:28 2025
Plotname: AC Analysis
Flags: complex forward log
No. Variables: 11
No. Points:          901
Offset:    0.0000000000000000e+00
Command: Linear Technology Corporation LTspice
Variables:
	0	frequency	frequency
	1	V(out)	voltage
	2	V(g)	voltage
	3	V(vdd)	voltage
	4	Id(M1)	device_current
	5	Ig(M1)	device_current
	6	Ib(M1)	device_current
	7	Is(M1)	device_current
	8	I(Rload)	device_current
	9	I(Vg)	device_current
	10	I(Vdd)	device_current
Values:
0		1.000000000000000e+00,0.000000000000000e+00
	-4.868852007489990e+00,1.916414479598827e-09
	1.000000000000000e+00,0.000000000000000e+00
	0.000000000000000e+00,0.000000000000000e+00
	4.868852007489993e-04,-1.916414479598827e-13
	1.232315614860877e-22,4.495006431209044e-13
	4.869081591911406e-12,1.332841790539988e-14
	-4.868852056180809e-04,-2.711876130664216e-13
	-4.868852007489991e-04,1.916414479598827e-13
	-1.232315614860877e-22,-4.495006431209044e-13
	-4.868852007489991e-04,1.916414479598827e-13
1		1.023292992280754e+00,0.000000000000000e+00
	-4.868852007489990e+00,1.961053507278847e-09
	1.000000000000000e+00,0.000000000000000e+00
	0.000000000000000e+00,0.000000000000000e+00
	4.868852007489993e-04,-1.961053507278848e-13
	1.290392860529722e-22,4.599708581313137e-13
	4.869081591911406e-12,1.363887664078503e-14
	-4.868852056180809e-04,-2.775043840442139e-13
	-4.868852007489991e-04,1.961053507278847e-13
	-1.290392860529722e-22,-4.599708581313137e-13
	-4.868852007489991e-04,1.961053507278847e-13
2		1.047128548050899e+00,0.000000000000000e+00
	-4.868852007489990e+00,2.006732311486039e-09
	1.000000000000000e+00,0.000000000000000e+00
	0.000000000000000e+00,0.000000000000000e+00
	4.868852007489993e-04,-2.006732311486040e-13
	1.351207202461734e-22,4.706849557791382e-13
	4.869081591911406e-12,1.395656688909688e-14
	-4.868852056180809e-04,-2.839682915196311e-13
	-4.868852007489991e-04,2.006732311486039e-13
	-1.351207202461734e-22,-4.706849557791382e-13
	-4.868852007489991e-04,2.006732311486039e-13
3		1.071519305237606e+00,0.000000000000000e+00
	-4.868852007489990e+00,2.053475111727023e-09
	1.000000000000000e+00,0.000000000000000e+00
	0.000000000000000e+00,0.000000000000000e+00
	4.868852007489993e-04,-2.053475111727024e-13
	1.414887636029673e-22,4.816486168207687e-13
	4.869081591911406e-12,1.428165709391059e-14
	-4.868852056180809e-04,-2.905827627419769e-13
	-4.868852007489991e-04,2.053475111727024e-13
	-1.414887636029673e-22,-4.816486168207687e-13
	-4.868852007489991e-04,2.053475111727024e-13
4		1.096478196143185e+00,0.000000000000000e+00
	-4.868852007489990e+00,2.101306691653202e-09
	1.000000000000000e+00,0.000000000000000e+00
	0.000000000000000e+00,0.000000000000000e+00
	4.868852007489993e-04,-2.101306691653201e-13
	1.481569235970921e-22,4.928676543344107e-13
	4.869081591911406e-12,1.461431962235535e-14
	-4.868852056180809e-04,-2.973513047914460e-13
	-4.868852007489991e-04,2.101306691653202e-13
	-1.481569235970921e-22,-4.928676543344107e-13
	-4.868852007489991e-04,2.101306691653202e-13
5		1.122018454301963e+00,0.000000000000000e+00
	-4.868852007489990e+00,2.150252412201376e-09
	1.000000000000000e+00,0.000000000000000e+00
	0.000000000000000e+00,0.000000000000000e+00
	4.868852007489993e-04,-2.150252412201377e-13
	1.551393442899111e-22,5.043480168022556e-13
	4.869081591911406e-12,1.495473085650745e-14
	-4.868852056180809e-04,-3.042775064386253e-13
	-4.868852007489991e-04,2.150252412201377e-13
	-1.551393442899111e-22,-5.043480168022556e-13
	-4.868852007489991e-04,2.150252412201377e-13
6		1.148153621496882e+00,0.000000000000000e+00
	-4.868852007489990e+00,2.200338225040456e-09
	1.000000000000000e+00,0.000000000000000e+00
	0.000000000000000e+00,0.000000000000000e+00
	4.868852007489993e-04,-2.200338225040456e-13
	1.624508363318633e-22,5.160957912644442e-13
	4.869081591911406e-12,1.530307128690872e-14
	-4.868852056180809e-04,-3.113650400473073e-13
	-4.868852007489991e-04,2.200338225040456e-13
	-1.624508363318633e-22,-5.160957912644442e-13
	-4.868852007489991e-04,2.200338225040456e-13
7		1.174897554939529e+00,0.000000000000000e+00
	-4.868852007489990e+00,2.251590686331371e-09
	1.000000000000000e+00,0.000000000000000e+00
	0.000000000000000e+00,0.000000000000000e+00
	4.868852007489993e-04,-2.251590686331372e-13
	1.701069083778382e-22,5.281172065464965e-13
	4.869081591911406e-12,1.565952560826657e-14
	-4.868852056180809e-04,-3.186176635216258e-13
	-4.868852007489991e-04,2.251590686331372e-13
	-1.701069083778382e-22,-5.281172065464965e-13
	-4.868852007489991e-04,2.251590686331372e-13
8		1.202264434617413e+00,0.000000000000000e+00
	-4.868852007489990e+00,2.304036970807506e-09
	1.000000000000000e+00,0.000000000000000e+00
	0.000000000000000e+00,0.000000000000000e+00
	4.868852007489993e-04,-2.304036970807507e-13
	1.781237999831131e-22,5.404186365619175e-13
	4.869081591911406e-12,1.602428281738025e-14
	-4.868852056180809e-04,-3.260392222985470e-13
	-4.868852007489991e-04,2.304036970807506e-13
	-1.781237999831131e-22,-5.404186365619175e-13
	-4.868852007489991e-04,2.304036970807506e-13
9		1.230268770812381e+00,0.000000000000000e+00
	-4.868852007489990e+00,2.357704886183097e-09
	1.000000000000000e+00,0.000000000000000e+00
	0.000000000000000e+00,0.000000000000000e+00
	4.868852007489993e-04,-2.357704886183098e-13
	1.865185160496261e-22,5.530066036917299e-13
	4.869081591911406e-12,1.639753631334999e-14
	-4.868852056180809e-04,-3.336336513867702e-13
	-4.868852007489991e-04,2.357704886183098e-13
	-1.865185160496261e-22,-5.530066036917299e-13
	-4.868852007489991e-04,2.357704886183098e-13
10		1.258925411794167e+00,0.000000000000000e+00
	-4.868852007489990e+00,2.412622887897257e-09
	1.000000000000000e+00,0.000000000000000e+00
	0.000000000000000e+00,0.000000000000000e+00
	4.868852007489993e-04,-2.412622887897256e-13
	1.953088628956534e-22,5.658877822427275e-13
	4.869081591911406e-12,1.677948400012023e-14
	-4.868852056180809e-04,-3.414049774531221e-13
	-4.868852007489991e-04,2.412622887897257e-13
	-1.953088628956534e-22,-5.658877822427275e-13
	-4.868852007489991e-04,2.412622887897257e-13
11		1.288249551693134e+00,0.000000000000000e+00
	-4.868852007489990e+00,2.468820094201419e-09
	1.000000000000000e+00,0.000000000000000e+00
	0.000000000000000e+00,0.000000000000000e+00
	4.868852007489993e-04,-2.468820094201418e-13
	2.045134860253978e-22,5.790690019862805e-13
	4.869081591911406e-12,1.717032839141002e-14
	-4.868852056180809e-04,-3.493573209575487e-13
	-4.868852007489991e-04,2.468820094201419e-13
	-2.045134860253978e-22,-5.790690019862805e-13
	-4.868852007489991e-04,2.468820094201419e-13
12		1.318256738556407e+00,0.000000000000000e+00
	-4.868852007489990e+00,2.526326301598223e-09
	1.000000000000000e+00,0.000000000000000e+00
	0.000000000000000e+00,0.000000000000000e+00
	4.868852007489993e-04,-2.526326301598223e-13
	2.141519096786027e-22,5.925572517795708e-13
	4.869081591911406e-12,1.757027671808922e-14
	-4.868852056180809e-04,-3.574948983378378e-13
	-4.868852007489991e-04,2.526326301598223e-13
	-2.141519096786027e-22,-5.925572517795708e-13
	-4.868852007489991e-04,2.526326301598223e-13
13		1.348962882591653e+00,0.000000000000000e+00
	-4.868852007489990e+00,2.585172000640016e-09
	1.000000000000000e+00,0.000000000000000e+00
	0.000000000000000e+00,0.000000000000000e+00
	4.868852007489993e-04,-2.585172000640016e-13
	2.242445782440827e-22,6.063596832711773e-13
	4.869081591911406e-12,1.797954103805431e-14
	-4.868852056180809e-04,-3.658220242452300e-13
	-4.868852007489991e-04,2.585172000640016e-13
	-2.242445782440827e-22,-6.063596832711773e-13
	-4.868852007489991e-04,2.585172000640016e-13
14		1.380384264602885e+00,0.000000000000000e+00
	-4.868852007489990e+00,2.645388392095346e-09
	1.000000000000000e+00,0.000000000000000e+00
	0.000000000000000e+00,0.000000000000000e+00
	4.868852007489993e-04,-2.645388392095346e-13
	2.348128996250126e-22,6.204836146929734e-13
	4.869081591911406e-12,1.839833834866525e-14
	-4.868852056180809e-04,-3.743431138321040e-13
	-4.868852007489991e-04,2.645388392095346e-13
	-2.348128996250126e-22,-6.204836146929734e-13
	-4.868852007489991e-04,2.645388392095346e-13
15		1.412537544622754e+00,0.000000000000000e+00
	-4.868852007489990e+00,2.707007403492019e-09
	1.000000000000000e+00,0.000000000000000e+00
	0.000000000000000e+00,0.000000000000000e+00
	4.868852007489993e-04,-2.707007403492020e-13
	2.458792906479610e-22,6.349365347403511e-13
	4.869081591911406e-12,1.882689070179946e-14
	-4.868852056180809e-04,-3.830626850929486e-13
	-4.868852007489991e-04,2.707007403492019e-13
	-2.458792906479610e-22,-6.349365347403511e-13
	-4.868852007489991e-04,2.707007403492019e-13
16		1.445439770745927e+00,0.000000000000000e+00
	-4.868852007489990e+00,2.770061706045502e-09
	1.000000000000000e+00,0.000000000000000e+00
	0.000000000000000e+00,0.000000000000000e+00
	4.868852007489993e-04,-2.770061706045504e-13
	2.574672246119845e-22,6.497261065428269e-13
	4.869081591911406e-12,1.926542532158707e-14
	-4.868852056180809e-04,-3.919853612598636e-13
	-4.868852007489991e-04,2.770061706045503e-13
	-2.574672246119845e-22,-6.497261065428269e-13
	-4.868852007489991e-04,2.770061706045503e-13
17		1.479108388168207e+00,0.000000000000000e+00
	-4.868852007489990e+00,2.834584731981633e-09
	1.000000000000000e+00,0.000000000000000e+00
	0.000000000000000e+00,0.000000000000000e+00
	4.868852007489993e-04,-2.834584731981634e-13
	2.696012810786421e-22,6.648601717271332e-13
	4.869081591911406e-12,1.971417472488829e-14
	-4.868852056180809e-04,-4.011158732538582e-13
	-4.868852007489991e-04,2.834584731981633e-13
	-2.696012810786421e-22,-6.648601717271332e-13
	-4.868852007489991e-04,2.834584731981633e-13
18		1.513561248436208e+00,0.000000000000000e+00
	-4.868852007489990e+00,2.900610692262825e-09
	1.000000000000000e+00,0.000000000000000e+00
	0.000000000000000e+00,0.000000000000000e+00
	4.868852007489993e-04,-2.900610692262824e-13
	2.823071980085411e-22,6.803467545749543e-13
	4.869081591911406e-12,2.017337684457650e-14
	-4.868852056180809e-04,-4.104590621932484e-13
	-4.868852007489991e-04,2.900610692262825e-13
	-2.823071980085411e-22,-6.803467545749543e-13
	-4.868852007489991e-04,2.900610692262825e-13
19		1.548816618912481e+00,0.000000000000000e+00
	-4.868852007489990e+00,2.968174594727176e-09
	1.000000000000000e+00,0.000000000000000e+00
	0.000000000000000e+00,0.000000000000000e+00
	4.868852007489993e-04,-2.968174594727176e-13
	2.956119263550013e-22,6.961940662775048e-13
	4.869081591911406e-12,2.064327515569405e-14
	-4.868852056180809e-04,-4.200198819604812e-13
	-4.868852007489991e-04,2.968174594727176e-13
	-2.956119263550013e-22,-6.961940662775048e-13
	-4.868852007489991e-04,2.968174594727176e-13
20		1.584893192461113e+00,0.000000000000000e+00
	-4.868852007489990e+00,3.037312262650086e-09
	1.000000000000000e+00,0.000000000000000e+00
	0.000000000000000e+00,0.000000000000000e+00
	4.868852007489993e-04,-3.037312262650086e-13
	3.095436872306420e-22,7.124105092892135e-13
	4.869081591911406e-12,2.112411880454502e-14
	-4.868852056180809e-04,-4.298034018287499e-13
	-4.868852007489991e-04,3.037312262650086e-13
	-3.095436872306420e-22,-7.124105092892135e-13
	-4.868852007489991e-04,3.037312262650086e-13
21		1.621810097358929e+00,0.000000000000000e+00
	-4.868852007489990e+00,3.108060353738234e-09
	1.000000000000000e+00,0.000000000000000e+00
	0.000000000000000e+00,0.000000000000000e+00
	4.868852007489993e-04,-3.108060353738234e-13
	3.241320317681438e-22,7.290046817828153e-13
	4.869081591911406e-12,2.161616274079692e-14
	-4.868852056180809e-04,-4.398148091497888e-13
	-4.868852007489991e-04,3.108060353738234e-13
	-3.241320317681438e-22,-7.290046817828153e-13
	-4.868852007489991e-04,3.108060353738234e-13
22		1.659586907437560e+00,0.000000000000000e+00
	-4.868852007489990e+00,3.180456379565977e-09
	1.000000000000000e+00,0.000000000000000e+00
	0.000000000000000e+00,0.000000000000000e+00
	4.868852007489993e-04,-3.180456379565977e-13
	3.394079038021645e-22,7.459853822082160e-13
	4.869081591911406e-12,2.211966785265789e-14
	-4.868852056180809e-04,-4.500594121042762e-13
	-4.868852007489991e-04,3.180456379565977e-13
	-3.394079038021645e-22,-7.459853822082160e-13
	-4.868852007489991e-04,3.180456379565977e-13
23		1.698243652461743e+00,0.000000000000000e+00
	-4.868852007489990e+00,3.254538725464482e-09
	1.000000000000000e+00,0.000000000000000e+00
	0.000000000000000e+00,0.000000000000000e+00
	4.868852007489993e-04,-3.254538725464483e-13
	3.554037055053599e-22,7.633616139575475e-13
	4.869081591911406e-12,2.263490110520264e-14
	-4.868852056180809e-04,-4.605426425163018e-13
	-4.868852007489991e-04,3.254538725464483e-13
	-3.554037055053599e-22,-7.633616139575475e-13
	-4.868852007489991e-04,3.254538725464483e-13
24		1.737800828749374e+00,0.000000000000000e+00
	-4.868852007489990e+00,3.330346670874142e-09
	1.000000000000000e+00,0.000000000000000e+00
	0.000000000000000e+00,0.000000000000000e+00
	4.868852007489993e-04,-3.330346670874141e-13
	3.721533661177369e-22,7.811425901388844e-13
	4.869081591911406e-12,2.316213568192194e-14
	-4.868852056180809e-04,-4.712700587333922e-13
	-4.868852007489991e-04,3.330346670874142e-13
	-3.721533661177369e-22,-7.811425901388844e-13
	-4.868852007489991e-04,3.330346670874142e-13
25		1.778279410038922e+00,0.000000000000000e+00
	-4.868852007489990e+00,3.407920410171048e-09
	1.000000000000000e+00,0.000000000000000e+00
	0.000000000000000e+00,0.000000000000000e+00
	4.868852007489993e-04,-3.407920410171051e-13
	3.896924139151207e-22,7.993377384611578e-13
	4.869081591911406e-12,2.370165112956676e-14
	-4.868852056180809e-04,-4.822473485736195e-13
	-4.868852007489991e-04,3.407920410171048e-13
	-3.896924139151207e-22,-7.993377384611578e-13
	-4.868852007489991e-04,3.407920410171048e-13
26		1.819700858609982e+00,0.000000000000000e+00
	-4.868852007489990e+00,3.487301073978587e-09
	1.000000000000000e+00,0.000000000000000e+00
	0.000000000000000e+00,0.000000000000000e+00
	4.868852007489993e-04,-3.487301073978586e-13
	4.080580515693904e-22,8.179567062328489e-13
	4.869081591911406e-12,2.425373350636873e-14
	-4.868852056180809e-04,-4.934803323413590e-13
	-4.868852007489991e-04,3.487301073978587e-13
	-4.080580515693904e-22,-8.179567062328489e-13
	-4.868852007489991e-04,3.487301073978587e-13
27		1.862087136662866e+00,0.000000000000000e+00
	-4.868852007489990e+00,3.568530750975435e-09
	1.000000000000000e+00,0.000000000000000e+00
	0.000000000000000e+00,0.000000000000000e+00
	4.868852007489993e-04,-3.568530750975436e-13
	4.272892350603348e-22,8.370093654771219e-13
	4.869081591911406e-12,2.481867553371187e-14
	-4.868852056180809e-04,-5.049749659132902e-13
	-4.868852007489991e-04,3.568530750975435e-13
	-4.272892350603348e-22,-8.370093654771219e-13
	-4.868852007489991e-04,3.568530750975435e-13
28		1.905460717963246e+00,0.000000000000000e+00
	-4.868852007489990e+00,3.651652510211540e-09
	1.000000000000000e+00,0.000000000000000e+00
	0.000000000000000e+00,0.000000000000000e+00
	4.868852007489993e-04,-3.651652510211539e-13
	4.474267563065079e-22,8.565058181660993e-13
	4.869081591911406e-12,2.539677675133718e-14
	-4.868852056180809e-04,-5.167373438962826e-13
	-4.868852007489991e-04,3.651652510211540e-13
	-4.474267563065079e-22,-8.565058181660993e-13
	-4.868852007489991e-04,3.651652510211540e-13
29		1.949844599758044e+00,0.000000000000000e+00
	-4.868852007489990e+00,3.736710423943894e-09
	1.000000000000000e+00,0.000000000000000e+00
	0.000000000000000e+00,0.000000000000000e+00
	4.868852007489993e-04,-3.736710423943896e-13
	4.685133296903574e-22,8.764564015770634e-13
	4.869081591911406e-12,2.598834367616224e-14
	-4.868852056180809e-04,-5.287737028588361e-13
	-4.868852007489991e-04,3.736710423943894e-13
	-4.685133296903574e-22,-8.764564015770634e-13
	-4.868852007489991e-04,3.736710423943894e-13
30		1.995262314968878e+00,0.000000000000000e+00
	-4.868852007489990e+00,3.823749591004232e-09
	1.000000000000000e+00,0.000000000000000e+00
	0.000000000000000e+00,0.000000000000000e+00
	4.868852007489993e-04,-3.823749591004232e-13
	4.905936826611562e-22,8.968716937734152e-13
	4.869081591911406e-12,2.659368996480082e-14
	-4.868852056180809e-04,-5.410904246377927e-13
	-4.868852007489991e-04,3.823749591004232e-13
	-4.905936826611562e-22,-8.968716937734152e-13
	-4.868852007489991e-04,3.823749591004232e-13
31		2.041737944669527e+00,0.000000000000000e+00
	-4.868852007489990e+00,3.912816160711030e-09
	1.000000000000000e+00,0.000000000000000e+00
	0.000000000000000e+00,0.000000000000000e+00
	4.868852007489993e-04,-3.912816160711030e-13
	5.137146506079200e-22,9.177625192133061e-13
	4.869081591911406e-12,2.721313657986763e-14
	-4.868852056180809e-04,-5.536940397220707e-13
	-4.868852007489991e-04,3.912816160711030e-13
	-5.137146506079200e-22,-9.177625192133061e-13
	-4.868852007489991e-04,3.912816160711030e-13
32		2.089296130854037e+00,0.000000000000000e+00
	-4.868852007489990e+00,4.003957357338482e-09
	1.000000000000000e+00,0.000000000000000e+00
	0.000000000000000e+00,0.000000000000000e+00
	4.868852007489993e-04,-4.003957357338482e-13
	5.379252762035466e-22,9.391399544889072e-13
	4.869081591911406e-12,2.784701196015754e-14
	-4.868852056180809e-04,-5.665912307152165e-13
	-4.868852007489991e-04,4.003957357338482e-13
	-5.379252762035466e-22,-9.391399544889072e-13
	-4.868852007489991e-04,4.003957357338482e-13
33		2.137962089502230e+00,0.000000000000000e+00
	-4.868852007489990e+00,4.097221505155436e-09
	1.000000000000000e+00,0.000000000000000e+00
	0.000000000000000e+00,0.000000000000000e+00
	4.868852007489993e-04,-4.097221505155437e-13
	5.632769134308989e-22,9.610153341993650e-13
	4.869081591911406e-12,2.849565219478779e-14
	-4.868852056180809e-04,-5.797888358786091e-13
	-4.868852007489991e-04,4.097221505155436e-13
	-5.632769134308989e-22,-9.610153341993650e-13
	-4.868852007489991e-04,4.097221505155436e-13
34		2.187761623949550e+00,0.000000000000000e+00
	-4.868852007489990e+00,4.192658054047562e-09
	1.000000000000000e+00,0.000000000000000e+00
	0.000000000000000e+00,0.000000000000000e+00
	4.868852007489993e-04,-4.192658054047561e-13
	5.898233365114894e-22,9.834002569605572e-13
	4.869081591911406e-12,2.915940120139584e-14
	-4.868852056180809e-04,-5.932938527571969e-13
	-4.868852007489991e-04,4.192658054047562e-13
	-5.898233365114894e-22,-9.834002569605572e-13
	-4.868852007489991e-04,4.192658054047562e-13
35		2.238721138568337e+00,0.000000000000000e+00
	-4.868852007489990e+00,4.290317605736333e-09
	1.000000000000000e+00,0.000000000000000e+00
	0.000000000000000e+00,0.000000000000000e+00
	4.868852007489993e-04,-4.290317605736333e-13
	6.176208539678128e-22,1.006306591554831e-12
	4.869081591911406e-12,2.983861090849169e-14
	-4.868852056180809e-04,-6.071134418896893e-13
	-4.868852007489991e-04,4.290317605736333e-13
	-6.176208539678128e-22,-1.006306591554831e-12
	-4.868852007489991e-04,4.290317605736333e-13
36		2.290867652767770e+00,0.000000000000000e+00
	-4.868852007489990e+00,4.390251940608732e-09
	1.000000000000000e+00,0.000000000000000e+00
	0.000000000000000e+00,0.000000000000000e+00
	4.868852007489993e-04,-4.390251940608733e-13
	6.467284280612725e-22,1.029746483223990e-12
	4.869081591911406e-12,3.053364144205134e-14
	-4.868852056180809e-04,-6.212549306051677e-13
	-4.868852007489991e-04,4.390251940608732e-13
	-6.467284280612725e-22,-1.029746483223990e-12
	-4.868852007489991e-04,4.390251940608732e-13
37		2.344228815319919e+00,0.000000000000000e+00
	-4.868852007489990e+00,4.492514045171896e-09
	1.000000000000000e+00,0.000000000000000e+00
	0.000000000000000e+00,0.000000000000000e+00
	4.868852007489993e-04,-4.492514045171898e-13
	6.772077998590405e-22,1.053732360108859e-12
	4.869081591911406e-12,3.124486131646454e-14
	-4.868852056180809e-04,-6.357258169081342e-13
	-4.868852007489991e-04,4.492514045171896e-13
	-6.772077998590405e-22,-1.053732360108859e-12
	-4.868852007489991e-04,4.492514045171896e-13
38		2.398832919019488e+00,0.000000000000000e+00
	-4.868852007489990e+00,4.597158140147266e-09
	1.000000000000000e+00,0.000000000000000e+00
	0.000000000000000e+00,0.000000000000000e+00
