Title: * GA CMOS Amp | W=1.5164262517833681e-05 L=1e-06 Vbias=1.3859071327171781
Date: Mon Sep  8 18:45:55 2025
Plotname: AC Analysis
Flags: complex forward log
No. Variables: 11
No. Points:          901
Offset:    0.0000000000000000e+00
Command: Linear Technology Corporation LTspice
Variables:
	0	frequency	frequency
	1	V(out)	voltage
	2	V(g)	voltage
	3	V(vdd)	voltage
	4	Id(M1)	device_current
	5	Ig(M1)	device_current
	6	Ib(M1)	device_current
	7	Is(M1)	device_current
	8	I(Rload)	device_current
	9	I(Vg)	device_current
	10	I(Vdd)	device_current
Values:
0		1.000000000000000e+00,0.000000000000000e+00
	-3.508562650973526e-01,1.526890833687636e-10
	1.000000000000000e+00,0.000000000000000e+00
	0.000000000000000e+00,0.000000000000000e+00
	3.508562650973522e-05,-1.526890833687636e-14
	1.252380034616413e-23,1.988394512815820e-13
	3.511290650598520e-13,1.367509886340219e-15
	-3.508562686086429e-05,-1.849380528310459e-13
	-3.508562650973526e-05,1.526890833687636e-14
	-1.252380034616413e-23,-1.988394512815820e-13
	-3.508562650973526e-05,1.526890833687636e-14
1		1.023292992280754e+00,0.000000000000000e+00
	-3.508562650973526e-01,1.562456690090276e-10
	1.000000000000000e+00,0.000000000000000e+00
	0.000000000000000e+00,0.000000000000000e+00
	3.508562650973522e-05,-1.562456690090274e-14
	1.311402887255820e-23,2.034710170853933e-13
	3.511290650598520e-13,1.399363283566585e-15
	-3.508562686086429e-05,-1.892458134680572e-13
	-3.508562650973526e-05,1.562456690090276e-14
	-1.311402887255820e-23,-2.034710170853933e-13
	-3.508562650973526e-05,1.562456690090276e-14
2		1.047128548050899e+00,0.000000000000000e+00
	-3.508562650973526e-01,1.598850981711562e-10
	1.000000000000000e+00,0.000000000000000e+00
	0.000000000000000e+00,0.000000000000000e+00
	3.508562650973522e-05,-1.598850981711561e-14
	1.373207401241944e-23,2.082104659157205e-13
	3.511290650598520e-13,1.431958641728717e-15
	-3.508562686086429e-05,-1.936539147403336e-13
	-3.508562650973526e-05,1.598850981711562e-14
	-1.373207401241944e-23,-2.082104659157205e-13
	-3.508562650973526e-05,1.598850981711562e-14
3		1.071519305237606e+00,0.000000000000000e+00
	-3.508562650973526e-01,1.636093005286645e-10
	1.000000000000000e+00,0.000000000000000e+00
	0.000000000000000e+00,0.000000000000000e+00
	3.508562650973522e-05,-1.636093005286644e-14
	1.437924672235226e-23,2.130603106910676e-13
	3.511290650598520e-13,1.465313243316861e-15
	-3.508562686086429e-05,-1.981646938815181e-13
	-3.508562650973526e-05,1.636093005286645e-14
	-1.437924672235226e-23,-2.130603106910676e-13
	-3.508562650973526e-05,1.636093005286645e-14
4		1.096478196143185e+00,0.000000000000000e+00
	-3.508562650973526e-01,1.674202507029382e-10
	1.000000000000000e+00,0.000000000000000e+00
	0.000000000000000e+00,0.000000000000000e+00
	3.508562650973522e-05,-1.674202507029381e-14
	1.505691974244237e-23,2.180231228633297e-13
	3.511290650598520e-13,1.499444773382311e-15
	-3.508562686086429e-05,-2.027805425664182e-13
	-3.508562650973526e-05,1.674202507029383e-14
	-1.505691974244237e-23,-2.180231228633297e-13
	-3.508562650973526e-05,1.674202507029383e-14
5		1.122018454301963e+00,0.000000000000000e+00
	-3.508562650973526e-01,1.713199693102037e-10
	1.000000000000000e+00,0.000000000000000e+00
	0.000000000000000e+00,0.000000000000000e+00
	3.508562650973522e-05,-1.713199693102037e-14
	1.576653050802261e-23,2.231015337812112e-13
	3.511290650598520e-13,1.534371328914125e-15
	-3.508562686086429e-05,-2.075039081791050e-13
	-3.508562650973526e-05,1.713199693102037e-14
	-1.576653050802261e-23,-2.231015337812112e-13
	-3.508562650973526e-05,1.713199693102037e-14
6		1.148153621496882e+00,0.000000000000000e+00
	-3.508562650973526e-01,1.753105240328853e-10
	1.000000000000000e+00,0.000000000000000e+00
	0.000000000000000e+00,0.000000000000000e+00
	3.508562650973522e-05,-1.753105240328853e-14
	1.650958419866592e-23,2.282982360854013e-13
	3.511290650598520e-13,1.570111428434345e-15
	-3.508562686086429e-05,-2.123372951105472e-13
	-3.508562650973526e-05,1.753105240328854e-14
	-1.650958419866592e-23,-2.282982360854013e-13
	-3.508562650973526e-05,1.753105240328854e-14
7		1.174897554939529e+00,0.000000000000000e+00
	-3.508562650973526e-01,1.793940307159183e-10
	1.000000000000000e+00,0.000000000000000e+00
	0.000000000000000e+00,0.000000000000000e+00
	3.508562650973522e-05,-1.793940307159183e-14
	1.728765693087312e-23,2.336159851362484e-13
	3.511290650598520e-13,1.606684021816759e-15
	-3.508562686086429e-05,-2.172832660864733e-13
	-3.508562650973526e-05,1.793940307159183e-14
	-1.728765693087312e-23,-2.336159851362484e-13
	-3.508562650973526e-05,1.793940307159183e-14
8		1.202264434617413e+00,0.000000000000000e+00
	-3.508562650973526e-01,1.835726544885976e-10
	1.000000000000000e+00,0.000000000000000e+00
	0.000000000000000e+00,0.000000000000000e+00
	3.508562650973522e-05,-1.835726544885975e-14
	1.810239910122724e-23,2.390576004746878e-13
	3.511290650598520e-13,1.644108500334561e-15
	-3.508562686086429e-05,-2.223444435261626e-13
	-3.508562650973526e-05,1.835726544885976e-14
	-1.810239910122724e-23,-2.390576004746878e-13
	-3.508562650973526e-05,1.835726544885976e-14
9		1.230268770812381e+00,0.000000000000000e+00
	-3.508562650973526e-01,1.878486109125579e-10
	1.000000000000000e+00,0.000000000000000e+00
	0.000000000000000e+00,0.000000000000000e+00
	3.508562650973522e-05,-1.878486109125583e-14
	1.895553888710598e-23,2.446259673172003e-13
	3.511290650598520e-13,1.682404706941570e-15
	-3.508562686086429e-05,-2.275235109328860e-13
	-3.508562650973526e-05,1.878486109125579e-14
	-1.895553888710598e-23,-2.446259673172003e-13
	-3.508562650973526e-05,1.878486109125579e-14
10		1.258925411794167e+00,0.000000000000000e+00
	-3.508562650973526e-01,1.922241671564946e-10
	1.000000000000000e+00,0.000000000000000e+00
	0.000000000000000e+00,0.000000000000000e+00
	3.508562650973522e-05,-1.922241671564948e-14
	1.984888591237766e-23,2.503240380855919e-13
	3.511290650598520e-13,1.721592946793466e-15
	-3.508562686086429e-05,-2.328232143167359e-13
	-3.508562650973526e-05,1.922241671564946e-14
	-1.984888591237766e-23,-2.503240380855919e-13
	-3.508562650973526e-05,1.922241671564946e-14
11		1.288249551693134e+00,0.000000000000000e+00
	-3.508562650973526e-01,1.967016431982452e-10
	1.000000000000000e+00,0.000000000000000e+00
	0.000000000000000e+00,0.000000000000000e+00
	3.508562650973522e-05,-1.967016431982453e-14
	2.078433508585597e-23,2.561548339724068e-13
	3.511290650598520e-13,1.761693998013706e-15
	-3.508562686086429e-05,-2.382463636505960e-13
	-3.508562650973526e-05,1.967016431982452e-14
	-2.078433508585597e-23,-2.561548339724068e-13
	-3.508562650973526e-05,1.967016431982452e-14
12		1.318256738556407e+00,0.000000000000000e+00
	-3.508562650973526e-01,2.012834130548736e-10
	1.000000000000000e+00,0.000000000000000e+00
	0.000000000000000e+00,0.000000000000000e+00
	3.508562650973522e-05,-2.012834130548736e-14
	2.176387062065573e-23,2.621214465428039e-13
	3.511290650598520e-13,1.802729122710492e-15
	-3.508562686086429e-05,-2.437958343600270e-13
	-3.508562650973526e-05,2.012834130548736e-14
	-2.176387062065573e-23,-2.621214465428039e-13
	-3.508562650973526e-05,2.012834130548736e-14
13		1.348962882591653e+00,0.000000000000000e+00
	-3.508562650973526e-01,2.059719060414046e-10
	1.000000000000000e+00,0.000000000000000e+00
	0.000000000000000e+00,0.000000000000000e+00
	3.508562650973522e-05,-2.059719060414047e-14
	2.278957024297487e-23,2.682270393737456e-13
	3.511290650598520e-13,1.844720078250032e-15
	-3.508562686086429e-05,-2.494745688478551e-13
	-3.508562650973526e-05,2.059719060414046e-14
	-2.278957024297487e-23,-2.682270393737456e-13
	-3.508562650973526e-05,2.059719060414046e-14
14		1.380384264602885e+00,0.000000000000000e+00
	-3.508562650973526e-01,2.107696080588793e-10
	1.000000000000000e+00,0.000000000000000e+00
	0.000000000000000e+00,0.000000000000000e+00
	3.508562650973522e-05,-2.107696080588795e-14
	2.386360959923026e-23,2.744748497313677e-13
	3.511290650598520e-13,1.887689128792951e-15
	-3.508562686086429e-05,-2.552855780542727e-13
	-3.508562650973526e-05,2.107696080588793e-14
	-2.386360959923026e-23,-2.744748497313677e-13
	-3.508562650973526e-05,2.107696080588793e-14
15		1.412537544622754e+00,0.000000000000000e+00
	-3.508562650973526e-01,2.156790629124123e-10
	1.000000000000000e+00,0.000000000000000e+00
	0.000000000000000e+00,0.000000000000000e+00
	3.508562650973522e-05,-2.156790629124123e-14
	2.498826687089549e-23,2.808681902874216e-13
	3.511290650598520e-13,1.931659057098367e-15
	-3.508562686086429e-05,-2.612319430532788e-13
	-3.508562650973526e-05,2.156790629124123e-14
	-2.498826687089549e-23,-2.808681902874216e-13
	-3.508562650973526e-05,2.156790629124123e-14
16		1.445439770745927e+00,0.000000000000000e+00
	-3.508562650973526e-01,2.207028736599514e-10
	1.000000000000000e+00,0.000000000000000e+00
	0.000000000000000e+00,0.000000000000000e+00
	3.508562650973522e-05,-2.207028736599514e-14
	2.616592760682918e-23,2.874104508756958e-13
	3.511290650598520e-13,1.976653176604447e-15
	-3.508562686086429e-05,-2.673168166863051e-13
	-3.508562650973526e-05,2.207028736599514e-14
	-2.616592760682918e-23,-2.874104508756958e-13
	-3.508562650973526e-05,2.207028736599514e-14
17		1.479108388168207e+00,0.000000000000000e+00
	-3.508562650973526e-01,2.258437039924529e-10
	1.000000000000000e+00,0.000000000000000e+00
	0.000000000000000e+00,0.000000000000000e+00
	3.508562650973522e-05,-2.258437039924531e-14
	2.739908978334398e-23,2.941051002893514e-13
	3.511290650598520e-13,2.022695343788790e-15
	-3.508562686086429e-05,-2.735434252338949e-13
	-3.508562650973526e-05,2.258437039924529e-14
	-2.739908978334398e-23,-2.941051002893514e-13
	-3.508562650973526e-05,2.258437039924529e-14
18		1.513561248436208e+00,0.000000000000000e+00
	-3.508562650973526e-01,2.311042796462060e-10
	1.000000000000000e+00,0.000000000000000e+00
	0.000000000000000e+00,0.000000000000000e+00
	3.508562650973522e-05,-2.311042796462062e-14
	2.869036910274923e-23,3.009556881201218e-13
	3.511290650598520e-13,2.069809970817959e-15
	-3.508562686086429e-05,-2.799150701263191e-13
	-3.508562650973526e-05,2.311042796462060e-14
	-2.869036910274923e-23,-3.009556881201218e-13
	-3.508562650973526e-05,2.311042796462060e-14
19		1.548816618912481e+00,0.000000000000000e+00
	-3.508562650973526e-01,2.364873898480543e-10
	1.000000000000000e+00,0.000000000000000e+00
	0.000000000000000e+00,0.000000000000000e+00
	3.508562650973522e-05,-2.364873898480544e-14
	3.004250454160618e-23,3.079658466403528e-13
	3.511290650598520e-13,2.118022038490818e-15
	-3.508562686086429e-05,-2.864351296940382e-13
	-3.508562650973526e-05,2.364873898480543e-14
	-3.004250454160618e-23,-3.079658466403528e-13
	-3.508562650973526e-05,2.364873898480543e-14
20		1.584893192461113e+00,0.000000000000000e+00
	-3.508562650973526e-01,2.419958887942807e-10
	1.000000000000000e+00,0.000000000000000e+00
	0.000000000000000e+00,0.000000000000000e+00
	3.508562650973522e-05,-2.419958887942808e-14
	3.145836416046464e-23,3.151392927288824e-13
	3.511290650598520e-13,2.167357109483892e-15
	-3.508562686086429e-05,-2.931070609589383e-13
	-3.508562650973526e-05,2.419958887942807e-14
	-3.145836416046464e-23,-3.151392927288824e-13
	-3.508562650973526e-05,2.419958887942807e-14
21		1.621810097358929e+00,0.000000000000000e+00
	-3.508562650973526e-01,2.476326971639401e-10
	1.000000000000000e+00,0.000000000000000e+00
	0.000000000000000e+00,0.000000000000000e+00
	3.508562650973522e-05,-2.476326971639402e-14
	3.294095118740378e-23,3.224798298417786e-13
	3.511290650598520e-13,2.217841341904679e-15
	-3.508562686086429e-05,-2.999344014672893e-13
	-3.508562650973526e-05,2.476326971639401e-14
	-3.294095118740378e-23,-3.224798298417786e-13
	-3.508562650973526e-05,2.476326971639401e-14
22		1.659586907437560e+00,0.000000000000000e+00
	-3.508562650973526e-01,2.534008036674421e-10
	1.000000000000000e+00,0.000000000000000e+00
	0.000000000000000e+00,0.000000000000000e+00
	3.508562650973522e-05,-2.534008036674422e-14
	3.449341038828168e-23,3.299913500289820e-13
	3.511290650598520e-13,2.269501503161695e-15
	-3.508562686086429e-05,-3.069207711653995e-13
	-3.508562650973526e-05,2.534008036674421e-14
	-3.449341038828168e-23,-3.299913500289820e-13
	-3.508562650973526e-05,2.534008036674421e-14
23		1.698243652461743e+00,0.000000000000000e+00
	-3.508562650973526e-01,2.593032666312047e-10
	1.000000000000000e+00,0.000000000000000e+00
	0.000000000000000e+00,0.000000000000000e+00
	3.508562650973522e-05,-2.593032666312052e-14
	3.611903473720521e-23,3.376778359979228e-13
	3.511290650598520e-13,2.322364984155969e-15
	-3.508562686086429e-05,-3.140698743189583e-13
	-3.508562650973526e-05,2.593032666312047e-14
	-3.611903473720521e-23,-3.376778359979228e-13
	-3.508562650973526e-05,2.593032666312047e-14
24		1.737800828749374e+00,0.000000000000000e+00
	-3.508562650973526e-01,2.653432156192197e-10
	1.000000000000000e+00,0.000000000000000e+00
	0.000000000000000e+00,0.000000000000000e+00
	3.508562650973522e-05,-2.653432156192199e-14
	3.782127240136969e-23,3.455433632252041e-13
	3.511290650598520e-13,2.376459813804989e-15
	-3.508562686086429e-05,-3.213855014770871e-13
	-3.508562650973526e-05,2.653432156192197e-14
	-3.782127240136969e-23,-3.455433632252041e-13
	-3.508562650973526e-05,2.653432156192197e-14
25		1.778279410038922e+00,0.000000000000000e+00
	-3.508562650973526e-01,2.715238530923887e-10
	1.000000000000000e+00,0.000000000000000e+00
	0.000000000000000e+00,0.000000000000000e+00
	3.508562650973522e-05,-2.715238530923886e-14
	3.960373405508379e-23,3.535921021174746e-13
	3.511290650598520e-13,2.431814673903459e-15
	-3.508562686086429e-05,-3.288715314821392e-13
	-3.508562650973526e-05,2.715238530923887e-14
	-3.960373405508379e-23,-3.535921021174746e-13
	-3.508562650973526e-05,2.715238530923887e-14
26		1.819700858609982e+00,0.000000000000000e+00
	-3.508562650973526e-01,2.778484561065103e-10
	1.000000000000000e+00,0.000000000000000e+00
	0.000000000000000e+00,0.000000000000000e+00
	3.508562650973522e-05,-2.778484561065103e-14
	4.147020053849386e-23,3.618283202226325e-13
	3.511290650598520e-13,2.488458914330971e-15
	-3.508562686086429e-05,-3.365319335263125e-13
	-3.508562650973526e-05,2.778484561065103e-14
	-4.147020053849386e-23,-3.618283202226325e-13
	-3.508562650973526e-05,2.778484561065103e-14
27		1.862087136662866e+00,0.000000000000000e+00
	-3.508562650973526e-01,2.843203780498187e-10
	1.000000000000000e+00,0.000000000000000e+00
	0.000000000000000e+00,0.000000000000000e+00
	3.508562650973522e-05,-2.843203780498186e-14
	4.342463087725270e-23,3.702563844925366e-13
	3.511290650598520e-13,2.546422568613414e-15
	-3.508562686086429e-05,-3.443707692561681e-13
	-3.508562650973526e-05,2.843203780498187e-14
	-4.342463087725270e-23,-3.702563844925366e-13
	-3.508562650973526e-05,2.843203780498187e-14
28		1.905460717963246e+00,0.000000000000000e+00
	-3.508562650973526e-01,2.909430504209942e-10
	1.000000000000000e+00,0.000000000000000e+00
	0.000000000000000e+00,0.000000000000000e+00
	3.508562650973522e-05,-2.909430504209943e-14
	4.547117068014387e-23,3.788807635984211e-13
	3.511290650598520e-13,2.605736369847690e-15
	-3.508562686086429e-05,-3.523921949261694e-13
	-3.508562650973526e-05,2.909430504209942e-14
	-4.547117068014387e-23,-3.788807635984211e-13
	-3.508562650973526e-05,2.909430504209942e-14
29		1.949844599758044e+00,0.000000000000000e+00
	-3.508562650973526e-01,2.977199846485895e-10
	1.000000000000000e+00,0.000000000000000e+00
	0.000000000000000e+00,0.000000000000000e+00
	3.508562650973522e-05,-2.977199846485893e-14
	4.761416093247370e-23,3.877060303002454e-13
	3.511290650598520e-13,2.666431766996251e-15
	-3.508562686086429e-05,-3.606004636023827e-13
	-3.508562650973526e-05,2.977199846485895e-14
	-4.761416093247370e-23,-3.877060303002454e-13
	-3.508562650973526e-05,2.977199846485895e-14
30		1.995262314968878e+00,0.000000000000000e+00
	-3.508562650973526e-01,3.046547739528353e-10
	1.000000000000000e+00,0.000000000000000e+00
	0.000000000000000e+00,0.000000000000000e+00
	3.508562650973522e-05,-3.046547739528355e-14
	4.985814720388304e-23,3.967368638712308e-13
	3.511290650598520e-13,2.728540941562076e-15
	-3.508562686086429e-05,-3.689999274175093e-13
	-3.508562650973526e-05,3.046547739528353e-14
	-4.985814720388304e-23,-3.967368638712308e-13
	-3.508562650973526e-05,3.046547739528353e-14
31		2.041737944669527e+00,0.000000000000000e+00
	-3.508562650973526e-01,3.117510952508135e-10
	1.000000000000000e+00,0.000000000000000e+00
	0.000000000000000e+00,0.000000000000000e+00
	3.508562650973522e-05,-3.117510952508141e-14
	5.220788929011003e-23,4.059780525788739e-13
	3.511290650598520e-13,2.792096824651620e-15
	-3.508562686086429e-05,-3.775950398784441e-13
	-3.508562650973526e-05,3.117510952508135e-14
	-5.220788929011003e-23,-4.059780525788739e-13
	-3.508562650973526e-05,3.117510952508135e-14
32		2.089296130854037e+00,0.000000000000000e+00
	-3.508562650973526e-01,3.190127111060074e-10
	1.000000000000000e+00,0.000000000000000e+00
	0.000000000000000e+00,0.000000000000000e+00
	3.508562650973522e-05,-3.190127111060072e-14
	5.466837130915505e-23,4.154344962237493e-13
	3.511290650598520e-13,2.857133114435273e-15
	-3.508562686086429e-05,-3.863903582275838e-13
	-3.508562650973526e-05,3.190127111060074e-14
	-5.466837130915505e-23,-4.154344962237493e-13
	-3.508562650973526e-05,3.190127111060074e-14
33		2.137962089502230e+00,0.000000000000000e+00
	-3.508562650973526e-01,3.264434717232620e-10
	1.000000000000000e+00,0.000000000000000e+00
	0.000000000000000e+00,0.000000000000000e+00
	3.508562650973522e-05,-3.264434717232623e-14
	5.724481227326297e-23,4.251112087374480e-13
	3.511290650598520e-13,2.923684294014967e-15
	-3.508562686086429e-05,-3.953905458591367e-13
	-3.508562650973526e-05,3.264434717232620e-14
	-5.724481227326297e-23,-4.251112087374480e-13
	-3.508562650973526e-05,3.264434717232620e-14
34		2.187761623949550e+00,0.000000000000000e+00
	-3.508562650973526e-01,3.340473169902145e-10
	1.000000000000000e+00,0.000000000000000e+00
	0.000000000000000e+00,0.000000000000000e+00
	3.508562650973522e-05,-3.340473169902149e-14
	5.994267715914816e-23,4.350133208410314e-13
	3.511290650598520e-13,2.991785649706771e-15
	-3.508562686086429e-05,-4.046003747917167e-13
	-3.508562650973526e-05,3.340473169902145e-14
	-5.994267715914816e-23,-4.350133208410314e-13
	-3.508562650973526e-05,3.340473169902145e-14
35		2.238721138568337e+00,0.000000000000000e+00
	-3.508562650973526e-01,3.418282785662742e-10
	1.000000000000000e+00,0.000000000000000e+00
	0.000000000000000e+00,0.000000000000000e+00
	3.508562650973522e-05,-3.418282785662743e-14
	6.276768849994263e-23,4.451460827654068e-13
	3.511290650598520e-13,3.061473289751054e-15
	-3.508562686086429e-05,-4.140247281985304e-13
	-3.508562650973526e-05,3.418282785662742e-14
	-6.276768849994263e-23,-4.451460827654068e-13
	-3.508562650973526e-05,3.418282785662742e-14
36		2.290867652767770e+00,0.000000000000000e+00
	-3.508562650973526e-01,3.497904820202619e-10
	1.000000000000000e+00,0.000000000000000e+00
	0.000000000000000e+00,0.000000000000000e+00
	3.508562650973522e-05,-3.497904820202618e-14
	6.572583852345606e-23,4.555148670350693e-13
	3.511290650598520e-13,3.132784163456939e-15
	-3.508562686086429e-05,-4.236686029965001e-13
	-3.508562650973526e-05,3.497904820202619e-14
	-6.572583852345606e-23,-4.555148670350693e-13
	-3.508562650973526e-05,3.497904820202619e-14
37		2.344228815319919e+00,0.000000000000000e+00
	-3.508562650973526e-01,3.579381490178411e-10
	1.000000000000000e+00,0.000000000000000e+00
	0.000000000000000e+00,0.000000000000000e+00
	3.508562650973522e-05,-3.579381490178411e-14
	6.882340186249443e-23,4.661251713166859e-13
	3.511290650598520e-13,3.205756080793619e-15
	-3.508562686086429e-05,-4.335371124956954e-13
	-3.508562650973526e-05,3.579381490178412e-14
	-6.882340186249443e-23,-4.661251713166859e-13
	-3.508562650973526e-05,3.579381490178412e-14
38		2.398832919019488e+00,0.000000000000000e+00
	-3.508562650973526e-01,3.662755995599011e-10
	1.000000000000000e+00,0.000000000000000e+00
	0.000000000000000e+00,0.000000000000000e+00
