Title: * GA CMOS Amp | W=6.7075422166799925e-06 L=9.598511951234974e-07 Vbias=0.8559606943810817
Date: Mon Sep  8 18:43:03 2025
Plotname: AC Analysis
Flags: complex forward log
No. Variables: 11
No. Points:          901
Offset:    0.0000000000000000e+00
Command: Linear Technology Corporation LTspice
Variables:
	0	frequency	frequency
	1	V(out)	voltage
	2	V(g)	voltage
	3	V(vdd)	voltage
	4	Id(M1)	device_current
	5	Ig(M1)	device_current
	6	Ib(M1)	device_current
	7	Is(M1)	device_current
	8	I(Rload)	device_current
	9	I(Vg)	device_current
	10	I(Vdd)	device_current
Values:
0		1.000000000000000e+00,0.000000000000000e+00
	-7.397020613291388e-01,1.462879812409221e-10
	1.000000000000000e+00,0.000000000000000e+00
	0.000000000000000e+00,0.000000000000000e+00
	7.397020613291389e-05,-1.462879812409221e-14
	1.233053514900654e-24,6.187911663480361e-14
	7.397020550335004e-13,-1.925474348393980e-15
	-7.397020687261595e-05,-4.532484416231742e-14
	-7.397020613291389e-05,1.462879812409221e-14
	-1.233053514900654e-24,-6.187911663480361e-14
	-7.397020613291389e-05,1.462879812409221e-14
1		1.023292992280754e+00,0.000000000000000e+00
	-7.397020613291388e-01,1.496954660587340e-10
	1.000000000000000e+00,0.000000000000000e+00
	0.000000000000000e+00,0.000000000000000e+00
	7.397020613291389e-05,-1.496954660587340e-14
	1.291165536726980e-24,6.332046642091797e-14
	7.397020550335004e-13,-1.970324407527906e-15
	-7.397020687261595e-05,-4.638059540751667e-14
	-7.397020613291389e-05,1.496954660587340e-14
	-1.291165536726980e-24,-6.332046642091797e-14
	-7.397020613291389e-05,1.496954660587340e-14
2		1.047128548050899e+00,0.000000000000000e+00
	-7.397020613291388e-01,1.531823213941039e-10
	1.000000000000000e+00,0.000000000000000e+00
	0.000000000000000e+00,0.000000000000000e+00
	7.397020613291389e-05,-1.531823213941040e-14
	1.352016293766283e-24,6.479538955647415e-14
	7.397020550335004e-13,-2.016219158743022e-15
	-7.397020687261595e-05,-4.746093825832073e-14
	-7.397020613291389e-05,1.531823213941039e-14
	-1.352016293766283e-24,-6.479538955647415e-14
	-7.397020613291389e-05,1.531823213941039e-14
3		1.071519305237606e+00,0.000000000000000e+00
	-7.397020613291388e-01,1.567503960238848e-10
	1.000000000000000e+00,0.000000000000000e+00
	0.000000000000000e+00,0.000000000000000e+00
	7.397020613291389e-05,-1.567503960238848e-14
	1.415734858632646e-24,6.630466806524155e-14
	7.397020550335004e-13,-2.063182936043933e-15
	-7.397020687261595e-05,-4.856644552680914e-14
	-7.397020613291389e-05,1.567503960238848e-14
	-1.415734858632646e-24,-6.630466806524155e-14
	-7.397020613291389e-05,1.567503960238848e-14
4		1.096478196143185e+00,0.000000000000000e+00
	-7.397020613291388e-01,1.604015817884742e-10
	1.000000000000000e+00,0.000000000000000e+00
	0.000000000000000e+00,0.000000000000000e+00
	7.397020613291389e-05,-1.604015817884743e-14
	1.482456386945047e-24,6.784910218666318e-14
	7.397020550335004e-13,-2.111240640246993e-15
	-7.397020687261595e-05,-4.969770336756876e-14
	-7.397020613291389e-05,1.604015817884742e-14
	-1.482456386945047e-24,-6.784910218666318e-14
	-7.397020613291389e-05,1.604015817884742e-14
5		1.122018454301963e+00,0.000000000000000e+00
	-7.397020613291388e-01,1.641378145948940e-10
	1.000000000000000e+00,0.000000000000000e+00
	0.000000000000000e+00,0.000000000000000e+00
	7.397020613291389e-05,-1.641378145948940e-14
	1.552322404010551e-24,6.942951080015324e-14
	7.397020550335004e-13,-2.160417752183084e-15
	-7.397020687261595e-05,-5.085531158848076e-14
	-7.397020613291389e-05,1.641378145948940e-14
	-1.552322404010551e-24,-6.942951080015324e-14
	-7.397020613291389e-05,1.641378145948940e-14
6		1.148153621496882e+00,0.000000000000000e+00
	-7.397020613291388e-01,1.679610754432327e-10
	1.000000000000000e+00,0.000000000000000e+00
	0.000000000000000e+00,0.000000000000000e+00
	7.397020613291389e-05,-1.679610754432327e-14
	1.625481105018450e-24,7.104673185927773e-14
	7.397020550335004e-13,-2.210740346207884e-15
	-7.397020687261595e-05,-5.203988396874658e-14
	-7.397020613291389e-05,1.679610754432327e-14
	-1.625481105018450e-24,-7.104673185927773e-14
	-7.397020613291389e-05,1.679610754432327e-14
7		1.174897554939529e+00,0.000000000000000e+00
	-7.397020613291388e-01,1.718733914769990e-10
	1.000000000000000e+00,0.000000000000000e+00
	0.000000000000000e+00,0.000000000000000e+00
	7.397020613291389e-05,-1.718733914769990e-14
	1.702087669382140e-24,7.270162283604869e-14
	7.397020550335004e-13,-2.262235104026857e-15
	-7.397020687261595e-05,-5.325204858432193e-14
	-7.397020613291389e-05,1.718733914769990e-14
	-1.702087669382140e-24,-7.270162283604869e-14
	-7.397020613291389e-05,1.718733914769990e-14
8		1.202264434617413e+00,0.000000000000000e+00
	-7.397020613291388e-01,1.758768370579398e-10
	1.000000000000000e+00,0.000000000000000e+00
	0.000000000000000e+00,0.000000000000000e+00
	7.397020613291389e-05,-1.758768370579398e-14
	1.782304589895461e-24,7.439506117556708e-14
	7.397020550335004e-13,-2.314929328842210e-15
	-7.397020687261595e-05,-5.449244814093089e-14
	-7.397020613291389e-05,1.758768370579398e-14
	-1.782304589895461e-24,-7.439506117556708e-14
	-7.397020613291389e-05,1.758768370579398e-14
9		1.230268770812381e+00,0.000000000000000e+00
	-7.397020613291388e-01,1.799735348658939e-10
	1.000000000000000e+00,0.000000000000000e+00
	0.000000000000000e+00,0.000000000000000e+00
	7.397020613291389e-05,-1.799735348658939e-14
	1.866302017401688e-24,7.612794476125580e-14
	7.397020550335004e-13,-2.368850959829422e-15
	-7.397020687261595e-05,-5.576174031483699e-14
	-7.397020613291389e-05,1.799735348658939e-14
	-1.866302017401688e-24,-7.612794476125580e-14
	-7.397020613291389e-05,1.799735348658939e-14
10		1.258925411794167e+00,0.000000000000000e+00
	-7.397020613291388e-01,1.841656570242652e-10
	1.000000000000000e+00,0.000000000000000e+00
	0.000000000000000e+00,0.000000000000000e+00
	7.397020613291389e-05,-1.841656570242652e-14
	1.954258121706294e-24,7.790119239092941e-14
	7.397020550335004e-13,-2.424028586950980e-15
	-7.397020687261595e-05,-5.706059810155191e-14
	-7.397020613291389e-05,1.841656570242652e-14
	-1.954258121706294e-24,-7.790119239092941e-14
	-7.397020613291389e-05,1.841656570242652e-14
11		1.288249551693134e+00,0.000000000000000e+00
	-7.397020613291388e-01,1.884554262517114e-10
	1.000000000000000e+00,0.000000000000000e+00
	0.000000000000000e+00,0.000000000000000e+00
	7.397020613291389e-05,-1.884554262517115e-14
	2.046359469498990e-24,7.971574426395288e-14
	7.397020550335004e-13,-2.480491466115161e-15
	-7.397020687261595e-05,-5.838971017266657e-14
	-7.397020613291389e-05,1.884554262517114e-14
	-2.046359469498990e-24,-7.971574426395288e-14
	-7.397020613291389e-05,1.884554262517114e-14
12		1.318256738556407e+00,0.000000000000000e+00
	-7.397020613291388e-01,1.928451170406587e-10
	1.000000000000000e+00,0.000000000000000e+00
	0.000000000000000e+00,0.000000000000000e+00
	7.397020613291389e-05,-1.928451170406587e-14
	2.142801420086686e-24,8.157256247974770e-14
	7.397020550335004e-13,-2.538269534687865e-15
	-7.397020687261595e-05,-5.974978124099396e-14
	-7.397020613291389e-05,1.928451170406587e-14
	-2.142801420086686e-24,-8.157256247974770e-14
	-7.397020613291389e-05,1.928451170406587e-14
13		1.348962882591653e+00,0.000000000000000e+00
	-7.397020613291388e-01,1.973370568632679e-10
	1.000000000000000e+00,0.000000000000000e+00
	0.000000000000000e+00,0.000000000000000e+00
	7.397020613291389e-05,-1.973370568632680e-14
	2.243788539776777e-24,8.347263154790980e-14
	7.397020550335004e-13,-2.597393427365820e-15
	-7.397020687261595e-05,-6.114153243421718e-14
	-7.397020613291389e-05,1.973370568632679e-14
	-2.243788539776777e-24,-8.347263154790980e-14
	-7.397020613291389e-05,1.973370568632679e-14
14		1.380384264602885e+00,0.000000000000000e+00
	-7.397020613291388e-01,2.019336274054908e-10
	1.000000000000000e+00,0.000000000000000e+00
	0.000000000000000e+00,0.000000000000000e+00
	7.397020613291389e-05,-2.019336274054908e-14
	2.349535035789706e-24,8.541695891020949e-14
	7.397020550335004e-13,-2.657894492419538e-15
	-7.397020687261595e-05,-6.256570167724088e-14
	-7.397020613291389e-05,2.019336274054908e-14
	-2.349535035789706e-24,-8.541695891020949e-14
	-7.397020613291389e-05,2.019336274054908e-14
15		1.412537544622754e+00,0.000000000000000e+00
	-7.397020613291388e-01,2.066372658298716e-10
	1.000000000000000e+00,0.000000000000000e+00
	0.000000000000000e+00,0.000000000000000e+00
	7.397020613291389e-05,-2.066372658298716e-14
	2.460265210621193e-24,8.740657547475051e-14
	7.397020550335004e-13,-2.719804808314531e-15
	-7.397020687261595e-05,-6.402304408344882e-14
	-7.397020613291389e-05,2.066372658298716e-14
	-2.460265210621193e-24,-8.740657547475051e-14
	-7.397020613291389e-05,2.066372658298716e-14
16		1.445439770745927e+00,0.000000000000000e+00
	-7.397020613291388e-01,2.114504660677629e-10
	1.000000000000000e+00,0.000000000000000e+00
	0.000000000000000e+00,0.000000000000000e+00
	7.397020613291389e-05,-2.114504660677629e-14
	2.576213937817909e-24,8.944253616257100e-14
	7.397020550335004e-13,-2.783157200719752e-15
	-7.397020687261595e-05,-6.551433235507496e-14
	-7.397020613291389e-05,2.114504660677629e-14
	-2.576213937817909e-24,-8.944253616257100e-14
	-7.397020613291389e-05,2.114504660677629e-14
17		1.479108388168207e+00,0.000000000000000e+00
	-7.397020613291388e-01,2.163757801416411e-10
	1.000000000000000e+00,0.000000000000000e+00
	0.000000000000000e+00,0.000000000000000e+00
	7.397020613291389e-05,-2.163757801416411e-14
	2.697627160175756e-24,9.152592046697682e-14
	7.397020550335004e-13,-2.847985259912220e-15
	-7.397020687261595e-05,-6.704035719290049e-14
	-7.397020613291389e-05,2.163757801416411e-14
	-2.697627160175756e-24,-9.152592046697682e-14
	-7.397020613291389e-05,2.163757801416411e-14
18		1.513561248436208e+00,0.000000000000000e+00
	-7.397020613291388e-01,2.214158195182225e-10
	1.000000000000000e+00,0.000000000000000e+00
	0.000000000000000e+00,0.000000000000000e+00
	7.397020613291389e-05,-2.214158195182225e-14
	2.824762411417512e-24,9.365783302590304e-14
	7.397020550335004e-13,-2.914323358587073e-15
	-7.397020687261595e-05,-6.860192771549372e-14
	-7.397020613291389e-05,2.214158195182225e-14
	-2.824762411417512e-24,-9.365783302590304e-14
	-7.397020613291389e-05,2.214158195182225e-14
19		1.548816618912481e+00,0.000000000000000e+00
	-7.397020613291388e-01,2.265732564930973e-10
	1.000000000000000e+00,0.000000000000000e+00
	0.000000000000000e+00,0.000000000000000e+00
	7.397020613291389e-05,-2.265732564930973e-14
	2.957889362456376e-24,9.583940420760755e-14
	7.397020550335004e-13,-2.982206670082252e-15
	-7.397020687261595e-05,-7.019987188821556e-14
	-7.397020613291389e-05,2.265732564930973e-14
	-2.957889362456376e-24,-9.583940420760755e-14
	-7.397020613291389e-05,2.265732564930973e-14
20		1.584893192461113e+00,0.000000000000000e+00
	-7.397020613291388e-01,2.318508256076164e-10
	1.000000000000000e+00,0.000000000000000e+00
	0.000000000000000e+00,0.000000000000000e+00
	7.397020613291389e-05,-2.318508256076164e-14
	3.097290393404147e-24,9.807179071000743e-14
	7.397020550335004e-13,-3.051671187028097e-15
	-7.397020687261595e-05,-7.183503696221769e-14
	-7.397020613291389e-05,2.318508256076164e-14
	-3.097290393404147e-24,-9.807179071000743e-14
	-7.397020613291389e-05,2.318508256076164e-14
21		1.621810097358929e+00,0.000000000000000e+00
	-7.397020613291388e-01,2.372513250987810e-10
	1.000000000000000e+00,0.000000000000000e+00
	0.000000000000000e+00,0.000000000000000e+00
	7.397020613291389e-05,-2.372513250987810e-14
	3.243261192537283e-24,1.003561761739754e-13
	7.397020550335004e-13,-3.122753740430942e-15
	-7.397020687261595e-05,-7.350828992366631e-14
	-7.397020613291389e-05,2.372513250987810e-14
	-3.243261192537283e-24,-1.003561761739754e-13
	-7.397020613291389e-05,2.372513250987810e-14
22		1.659586907437560e+00,0.000000000000000e+00
	-7.397020613291388e-01,2.427776183829056e-10
	1.000000000000000e+00,0.000000000000000e+00
	0.000000000000000e+00,0.000000000000000e+00
	7.397020613291389e-05,-2.427776183829056e-14
	3.396111383491394e-24,1.026937718109218e-13
	7.397020550335004e-13,-3.195492019201492e-15
	-7.397020687261595e-05,-7.522051795342972e-14
	-7.397020613291389e-05,2.427776183829056e-14
	-3.396111383491394e-24,-1.026937718109218e-13
	-7.397020613291389e-05,2.427776183829056e-14
23		1.698243652461743e+00,0.000000000000000e+00
	-7.397020613291388e-01,2.484326355738385e-10
	1.000000000000000e+00,0.000000000000000e+00
	0.000000000000000e+00,0.000000000000000e+00
	7.397020613291389e-05,-2.484326355738385e-14
	3.556165182014475e-24,1.050858170449951e-13
	7.397020550335004e-13,-3.269924590137973e-15
	-7.397020687261595e-05,-7.697262889747329e-14
	-7.397020613291389e-05,2.484326355738385e-14
	-3.556165182014475e-24,-1.050858170449951e-13
	-7.397020613291389e-05,2.484326355738385e-14
24		1.737800828749374e+00,0.000000000000000e+00
	-7.397020613291388e-01,2.542193750365473e-10
	1.000000000000000e+00,0.000000000000000e+00
	0.000000000000000e+00,0.000000000000000e+00
	7.397020613291389e-05,-2.542193750365473e-14
	3.723762083671979e-24,1.075335801702409e-13
	7.397020550335004e-13,-3.346090918374710e-15
	-7.397020687261595e-05,-7.876555174821146e-14
	-7.397020613291389e-05,2.542193750365473e-14
	-3.723762083671979e-24,-1.075335801702409e-13
	-7.397020613291389e-05,2.542193750365473e-14
25		1.778279410038922e+00,0.000000000000000e+00
	-7.397020613291388e-01,2.601409049768917e-10
	1.000000000000000e+00,0.000000000000000e+00
	0.000000000000000e+00,0.000000000000000e+00
	7.397020613291389e-05,-2.601409049768917e-14
	3.899257583962431e-24,1.100383590230682e-13
	7.397020550335004e-13,-3.424031388307106e-15
	-7.397020687261595e-05,-8.060023713707190e-14
	-7.397020613291389e-05,2.601409049768917e-14
	-3.899257583962431e-24,-1.100383590230682e-13
	-7.397020613291389e-05,2.601409049768917e-14
26		1.819700858609982e+00,0.000000000000000e+00
	-7.397020613291388e-01,2.662003650684268e-10
	1.000000000000000e+00,0.000000000000000e+00
	0.000000000000000e+00,0.000000000000000e+00
	7.397020613291389e-05,-2.662003650684268e-14
	4.083023932371038e-24,1.126014816703793e-13
	7.397020550335004e-13,-3.503787325004010e-15
	-7.397020687261595e-05,-8.247765783853265e-14
	-7.397020613291389e-05,2.662003650684268e-14
	-4.083023932371038e-24,-1.126014816703793e-13
	-7.397020613291389e-05,2.662003650684268e-14
27		1.862087136662866e+00,0.000000000000000e+00
	-7.397020613291388e-01,2.724009681170996e-10
	1.000000000000000e+00,0.000000000000000e+00
	0.000000000000000e+00,0.000000000000000e+00
	7.397020613291389e-05,-2.724009681170997e-14
	4.275450921960760e-24,1.152243071137290e-13
	7.397020550335004e-13,-3.585401016118737e-15
	-7.397020687261595e-05,-8.439880928590027e-14
	-7.397020613291389e-05,2.724009681170996e-14
	-4.275450921960760e-24,-1.152243071137290e-13
	-7.397020613291389e-05,2.724009681170996e-14
28		1.905460717963246e+00,0.000000000000000e+00
	-7.397020613291388e-01,2.787460017647212e-10
	1.000000000000000e+00,0.000000000000000e+00
	0.000000000000000e+00,0.000000000000000e+00
	7.397020613291389e-05,-2.787460017647212e-14
	4.476946716175650e-24,1.179082260098843e-13
	7.397020550335004e-13,-3.668915734310594e-15
	-7.397020687261595e-05,-8.636471009910157e-14
	-7.397020613291389e-05,2.787460017647212e-14
	-4.476946716175650e-24,-1.179082260098843e-13
	-7.397020613291389e-05,2.787460017647212e-14
29		1.949844599758044e+00,0.000000000000000e+00
	-7.397020613291388e-01,2.852388302321179e-10
	1.000000000000000e+00,0.000000000000000e+00
	0.000000000000000e+00,0.000000000000000e+00
	7.397020613291389e-05,-2.852388302321180e-14
	4.687938714610252e-24,1.206546614081699e-13
	7.397020550335004e-13,-3.754375760188611e-15
	-7.397020687261595e-05,-8.837640262476953e-14
	-7.397020613291389e-05,2.852388302321179e-14
	-4.687938714610252e-24,-1.206546614081699e-13
	-7.397020613291389e-05,2.852388302321179e-14
30		1.995262314968878e+00,0.000000000000000e+00
	-7.397020613291388e-01,2.918828961028860e-10
	1.000000000000000e+00,0.000000000000000e+00
	0.000000000000000e+00,0.000000000000000e+00
	7.397020613291389e-05,-2.918828961028859e-14
	4.908874459581432e-24,1.234650695049875e-13
	7.397020550335004e-13,-3.841826405789771e-15
	-7.397020687261595e-05,-9.043495348890909e-14
	-7.397020613291389e-05,2.918828961028860e-14
	-4.908874459581432e-24,-1.234650695049875e-13
	-7.397020613291389e-05,2.918828961028860e-14
31		2.041737944669527e+00,0.000000000000000e+00
	-7.397020613291388e-01,2.986817221486946e-10
	1.000000000000000e+00,0.000000000000000e+00
	0.000000000000000e+00,0.000000000000000e+00
	7.397020613291389e-05,-2.986817221486946e-14
	5.140222585425648e-24,1.263409404159099e-13
	7.397020550335004e-13,-3.931314038603803e-15
	-7.397020687261595e-05,-9.254145416243660e-14
	-7.397020613291389e-05,2.986817221486946e-14
	-5.140222585425648e-24,-1.263409404159099e-13
	-7.397020613291389e-05,2.986817221486946e-14
32		2.089296130854037e+00,0.000000000000000e+00
	-7.397020613291388e-01,3.056389131971065e-10
	1.000000000000000e+00,0.000000000000000e+00
	0.000000000000000e+00,0.000000000000000e+00
	7.397020613291389e-05,-3.056389131971065e-14
	5.382473812535200e-24,1.292837989657609e-13
	7.397020550335004e-13,-4.022886106158245e-15
	-7.397020687261595e-05,-9.469702153989200e-14
	-7.397020613291389e-05,3.056389131971066e-14
	-5.382473812535200e-24,-1.292837989657609e-13
	-7.397020613291389e-05,3.056389131971066e-14
33		2.137962089502230e+00,0.000000000000000e+00
	-7.397020613291388e-01,3.127581580429048e-10
	1.000000000000000e+00,0.000000000000000e+00
	0.000000000000000e+00,0.000000000000000e+00
	7.397020613291389e-05,-3.127581580429048e-14
	5.636141988241973e-24,1.322952054970969e-13
	7.397020550335004e-13,-4.116591161175315e-15
	-7.397020687261595e-05,-9.690279853163111e-14
	-7.397020613291389e-05,3.127581580429048e-14
	-5.636141988241973e-24,-1.322952054970969e-13
	-7.397020613291389e-05,3.127581580429048e-14
34		2.187761623949550e+00,0.000000000000000e+00
	-7.397020613291388e-01,3.200432314039410e-10
	1.000000000000000e+00,0.000000000000000e+00
	0.000000000000000e+00,0.000000000000000e+00
	7.397020613291389e-05,-3.200432314039410e-14
	5.901765176756525e-24,1.353767566975216e-13
	7.397020550335004e-13,-4.212478887315609e-15
	-7.397020687261595e-05,-9.915995466981186e-14
	-7.397020613291389e-05,3.200432314039410e-14
	-5.901765176756525e-24,-1.353767566975216e-13
	-7.397020613291389e-05,3.200432314039410e-14
35		2.238721138568337e+00,0.000000000000000e+00
	-7.397020613291388e-01,3.274979959225406e-10
	1.000000000000000e+00,0.000000000000000e+00
	0.000000000000000e+00,0.000000000000000e+00
	7.397020613291389e-05,-3.274979959225406e-14
	6.179906800474421e-24,1.385300864462705e-13
	7.397020550335004e-13,-4.310600125520684e-15
	-7.397020687261595e-05,-1.014696867284957e-13
	-7.397020613291389e-05,3.274979959225406e-14
	-6.179906800474421e-24,-1.385300864462705e-13
	-7.397020613291389e-05,3.274979959225406e-14
36		2.290867652767770e+00,0.000000000000000e+00
	-7.397020613291388e-01,3.351264042135268e-10
	1.000000000000000e+00,0.000000000000000e+00
	0.000000000000000e+00,0.000000000000000e+00
	7.397020613291389e-05,-3.351264042135268e-14
	6.471156835070661e-24,1.417568666805156e-13
	7.397020550335004e-13,-4.411006900969853e-15
	-7.397020687261595e-05,-1.038332193581931e-13
	-7.397020613291389e-05,3.351264042135268e-14
	-6.471156835070661e-24,-1.417568666805156e-13
	-7.397020613291389e-05,3.351264042135268e-14
37		2.344228815319919e+00,0.000000000000000e+00
	-7.397020613291388e-01,3.429325009599493e-10
	1.000000000000000e+00,0.000000000000000e+00
	0.000000000000000e+00,0.000000000000000e+00
	7.397020613291389e-05,-3.429325009599494e-14
	6.776133060917194e-24,1.450588082818488e-13
	7.397020550335004e-13,-4.513752450664488e-15
	-7.397020687261595e-05,-1.062518057351893e-13
	-7.397020613291389e-05,3.429325009599493e-14
	-6.776133060917194e-24,-1.450588082818488e-13
	-7.397020613291389e-05,3.429325009599493e-14
38		2.398832919019488e+00,0.000000000000000e+00
	-7.397020613291388e-01,3.509204250576292e-10
	1.000000000000000e+00,0.000000000000000e+00
