LTspice 24.0.9 for Windows
Circuit: * GA CMOS Amp | W=3.4308337751563545e-05 L=6.051302079604332e-07 Vbias=1.4185046971727238
Start Time: Sat Sep  6 22:39:26 2025
solver = Normal
Maximum thread count: 2
tnom = 27
temp = 27
method = modified trap
AsciiRawFile = 1
Direct Newton iteration for .op point succeeded.
Semiconductor Device Operating Points:
                        --- BSIM4 MOSFETS ---
Name:      m1
Model:      n
Id:      1.77e-04
Vgs:     1.42e+00
Vds:     3.42e-02
Vbs:     0.00e+00
Vth:     2.45e-01
Vdsat:   8.14e-01
Gm:     -2.71e-05
Gds:     5.21e-03
Gmb      8.83e-05
Cbd:     1.70e-14
Cbs:     2.74e-14


.measure op idd find i(vdd)
  Error: FIND can not be evaluated over an interval.

gain_db: MAX(db(v(out)/v(g)))=(32.1311dB,180°) FROM 1 TO 1e+09
gain_lin: MAX(mag(v(out)/v(g)))=(-7.382dB,0°) FROM 1 TO 1e+09

Measurement "fc" FAIL'ed

Total elapsed time: 0.453 seconds.

