LTspice 24.0.9 for Windows
Circuit: * GA CMOS Amp | W=1.3809825592818056e-05 L=5.269776876655587e-07 Vbias=1.074595854266989
Start Time: Mon Sep  8 18:45:40 2025
solver = Normal
Maximum thread count: 2
tnom = 27
temp = 27
method = modified trap
AsciiRawFile = 1
Instance "m1": Length shorter than recommended for a level 3 MOSFET.
Direct Newton iteration for .op point succeeded.
Semiconductor Device Operating Points:
                        --- MOSFET Transistors ---
Name:          m1
Model:        n_1u
Id:          1.67e-04
Vgs:         1.07e+00
Vds:         1.35e-01
Vbs:         0.00e+00
Vth:         7.35e-01
Vdsat:       2.44e-01
Gm:          5.09e-04
Gds:         6.91e-04
Gmb:         8.02e-05
Cbd:         0.00e+00
Cbs:         0.00e+00
Cgsov:       2.76e-15
Cgdov:       2.76e-15
Cgbov:       3.27e-17
Cgs:         4.70e-15
Cgd:         2.72e-15
Cgb:         0.00e+00



gain_db: MAX(db(v(out)/v(g)))=(28.8036dB,97.971°) FROM 1 TO 1e+09
gain_lin: MAX(mag(v(out)/v(g)))=(-3.81311dB,0°) FROM 1 TO 1e+09

Measurement "fc" FAIL'ed

Total elapsed time: 0.540 seconds.

