LTspice 24.0.9 for Windows
Circuit: * GA CMOS Amp | W=1e-06 L=6.183538425907534e-07 Vbias=0.9964411476741829
Start Time: Mon Sep  8 18:47:15 2025
solver = Normal
Maximum thread count: 2
tnom = 27
temp = 27
method = modified trap
AsciiRawFile = 1
Instance "m1": Length shorter than recommended for a level 3 MOSFET.
Instance "m1": Width narrower than recommended for a level 3 MOSFET.
Direct Newton iteration for .op point succeeded.
Semiconductor Device Operating Points:
                        --- MOSFET Transistors ---
Name:          m1
Model:        n_1u
Id:          1.13e-06
Vgs:         9.96e-01
Vds:         1.79e+00
Vbs:         0.00e+00
Vth:         9.52e-01
Vdsat:       7.00e-02
Gm:          2.11e-05
Gds:         2.39e-07
Gmb:         9.60e-06
Cbd:         0.00e+00
Cbs:         0.00e+00
Cgsov:       2.00e-16
Cgdov:       2.00e-16
Cgbov:       4.18e-17
Cgs:         4.82e-16
Cgd:         0.00e+00
Cgb:         0.00e+00



gain_db: MAX(db(v(out)/v(g)))=(29.6754dB,116.393°) FROM 1 TO 1e+09
gain_lin: MAX(mag(v(out)/v(g)))=(-13.5266dB,0°) FROM 1 TO 1e+09

Measurement "fc" FAIL'ed

Total elapsed time: 0.388 seconds.

