LTspice 24.0.9 for Windows
Circuit: * GA CMOS Amp | W=9.636096490958214e-06 L=6.023763710816115e-07 Vbias=0.8312866823986261
Start Time: Mon Sep  8 18:45:46 2025
solver = Normal
Maximum thread count: 2
tnom = 27
temp = 27
method = modified trap
AsciiRawFile = 1
Instance "m1": Length shorter than recommended for a level 3 MOSFET.
Direct Newton iteration for .op point succeeded.
Semiconductor Device Operating Points:
                        --- MOSFET Transistors ---
Name:          m1
Model:        n_1u
Id:          1.80e-05
Vgs:         8.31e-01
Vds:         1.62e+00
Vbs:         0.00e+00
Vth:         7.67e-01
Vdsat:       9.64e-02
Gm:          2.80e-04
Gds:         5.09e-06
Gmb:         5.44e-05
Cbd:         0.00e+00
Cbs:         0.00e+00
Cgsov:       1.93e-15
Cgdov:       1.93e-15
Cgbov:       4.02e-17
Cgs:         4.46e-15
Cgd:         0.00e+00
Cgb:         0.00e+00



gain_db: MAX(db(v(out)/v(g)))=(29.1219dB,72.6888°) FROM 1 TO 1e+09
gain_lin: MAX(mag(v(out)/v(g)))=(8.50497dB,0°) FROM 1 TO 1e+09

Measurement "fc" FAIL'ed

Total elapsed time: 0.535 seconds.

