Title: * GA CMOS Amp | W=1.1531083424181747e-05 L=6.070615094108287e-07 Vbias=0.8813150855055555
Date: Mon Sep  8 18:46:31 2025
Plotname: AC Analysis
Flags: complex forward log
No. Variables: 11
No. Points:          901
Offset:    0.0000000000000000e+00
Command: Linear Technology Corporation LTspice
Variables:
	0	frequency	frequency
	1	V(out)	voltage
	2	V(g)	voltage
	3	V(vdd)	voltage
	4	Id(M1)	device_current
	5	Ig(M1)	device_current
	6	Ib(M1)	device_current
	7	Is(M1)	device_current
	8	I(Rload)	device_current
	9	I(Vg)	device_current
	10	I(Vdd)	device_current
Values:
0		1.000000000000000e+00,0.000000000000000e+00
	-3.737214782087751e+00,6.005375769293534e-10
	1.000000000000000e+00,0.000000000000000e+00
	0.000000000000000e+00,0.000000000000000e+00
	3.737214782087751e-04,-6.005375769293534e-14
	8.702021771237054e-24,1.186709684310442e-13
	3.737214801947247e-12,-1.589349055475924e-15
	-3.737214819459899e-04,-5.702786168263296e-14
	-3.737214782087751e-04,6.005375769293535e-14
	-8.702021771237054e-24,-1.186709684310442e-13
	-3.737214782087751e-04,6.005375769293535e-14
1		1.023292992280754e+00,0.000000000000000e+00
	-3.737214782087751e+00,6.145258940730717e-10
	1.000000000000000e+00,0.000000000000000e+00
	0.000000000000000e+00,0.000000000000000e+00
	3.737214782087751e-04,-6.145258940730717e-14
	9.112135422422776e-24,1.214351703826582e-13
	3.737214801947247e-12,-1.626369750756543e-15
	-3.737214819459899e-04,-5.835621122459444e-14
	-3.737214782087751e-04,6.145258940730717e-14
	-9.112135422422776e-24,-1.214351703826582e-13
	-3.737214782087751e-04,6.145258940730717e-14
2		1.047128548050899e+00,0.000000000000000e+00
	-3.737214782087751e+00,6.288400409800392e-10
	1.000000000000000e+00,0.000000000000000e+00
	0.000000000000000e+00,0.000000000000000e+00
	3.737214782087751e-04,-6.288400409800391e-14
	9.541577134524728e-24,1.242637588689935e-13
	3.737214801947247e-12,-1.664252768806579e-15
	-3.737214819459899e-04,-5.971550200218297e-14
	-3.737214782087751e-04,6.288400409800392e-14
	-9.541577134524728e-24,-1.242637588689935e-13
	-3.737214782087751e-04,6.288400409800392e-14
3		1.071519305237606e+00,0.000000000000000e+00
	-3.737214782087751e+00,6.434876072004162e-10
	1.000000000000000e+00,0.000000000000000e+00
	0.000000000000000e+00,0.000000000000000e+00
	3.737214782087751e-04,-6.434876072004163e-14
	9.991257810990537e-24,1.271582336451064e-13
	3.737214801947247e-12,-1.703018195703574e-15
	-3.737214819459899e-04,-6.110645472936118e-14
	-3.737214782087751e-04,6.434876072004162e-14
	-9.991257810990537e-24,-1.271582336451064e-13
	-3.737214782087751e-04,6.434876072004162e-14
4		1.096478196143185e+00,0.000000000000000e+00
	-3.737214782087751e+00,6.584763590676964e-10
	1.000000000000000e+00,0.000000000000000e+00
	0.000000000000000e+00,0.000000000000000e+00
	3.737214782087751e-04,-6.584763590676964e-14
	1.046213128482473e-23,1.301201293998362e-13
	3.737214801947247e-12,-1.742686585390084e-15
	-3.737214819459899e-04,-6.252980690767643e-14
	-3.737214782087751e-04,6.584763590676964e-14
	-1.046213128482473e-23,-1.301201293998362e-13
	-3.737214782087751e-04,6.584763590676964e-14
5		1.122018454301963e+00,0.000000000000000e+00
	-3.737214782087751e+00,6.738142438165194e-10
	1.000000000000000e+00,0.000000000000000e+00
	0.000000000000000e+00,0.000000000000000e+00
	3.737214782087751e-04,-6.738142438165194e-14
	1.095519634179641e-23,1.331510165695173e-13
	3.737214801947247e-12,-1.783278970571376e-15
	-3.737214819459899e-04,-6.398631321729398e-14
	-3.737214782087751e-04,6.738142438165194e-14
	-1.095519634179641e-23,-1.331510165695173e-13
	-3.737214782087751e-04,6.738142438165194e-14
6		1.148153621496882e+00,0.000000000000000e+00
	-3.737214782087751e+00,6.895093937963998e-10
	1.000000000000000e+00,0.000000000000000e+00
	0.000000000000000e+00,0.000000000000000e+00
	3.737214782087751e-04,-6.895093937963998e-14
	1.147149883899780e-23,1.362525021706456e-13
	3.737214801947247e-12,-1.824816873867309e-15
	-3.737214819459899e-04,-6.547674591713834e-14
	-3.737214782087751e-04,6.895093937963998e-14
	-1.147149883899780e-23,-1.362525021706456e-13
	-3.737214782087751e-04,6.895093937963998e-14
7		1.174897554939529e+00,0.000000000000000e+00
	-3.737214782087751e+00,7.055701307836066e-10
	1.000000000000000e+00,0.000000000000000e+00
	0.000000000000000e+00,0.000000000000000e+00
	3.737214782087751e-04,-7.055701307836068e-14
	1.201213392324734e-23,1.394262306519399e-13
	3.737214801947247e-12,-1.867322319224088e-15
	-3.737214819459899e-04,-6.700189525435513e-14
	-3.737214782087751e-04,7.055701307836066e-14
	-1.201213392324734e-23,-1.394262306519399e-13
	-3.737214782087751e-04,7.055701307836066e-14
8		1.202264434617413e+00,0.000000000000000e+00
	-3.737214782087751e+00,7.220049703934800e-10
	1.000000000000000e+00,0.000000000000000e+00
	0.000000000000000e+00,0.000000000000000e+00
	3.737214782087751e-04,-7.220049703934799e-14
	1.257824835404295e-23,1.426738847662502e-13
	3.737214801947247e-12,-1.910817843591456e-15
	-3.737214819459899e-04,-6.856256988331073e-14
	-3.737214782087751e-04,7.220049703934801e-14
	-1.257824835404295e-23,-1.426738847662502e-13
	-3.737214782087751e-04,7.220049703934801e-14
9		1.230268770812381e+00,0.000000000000000e+00
	-3.737214782087751e+00,7.388226265955215e-10
	1.000000000000000e+00,0.000000000000000e+00
	0.000000000000000e+00,0.000000000000000e+00
	3.737214782087751e-04,-7.388226265955214e-14
	1.317104293599261e-23,1.459971864627756e-13
	3.737214801947247e-12,-1.955326508872152e-15
	-3.737214819459899e-04,-7.015959729435135e-14
	-3.737214782087751e-04,7.388226265955216e-14
	-1.317104293599261e-23,-1.459971864627756e-13
	-3.737214782087751e-04,7.388226265955216e-14
10		1.258925411794167e+00,0.000000000000000e+00
	-3.737214782087751e+00,7.560320163336574e-10
	1.000000000000000e+00,0.000000000000000e+00
	0.000000000000000e+00,0.000000000000000e+00
	3.737214782087751e-04,-7.560320163336575e-14
	1.379177506588200e-23,1.493978978000649e-13
	3.737214801947247e-12,-2.000871914149655e-15
	-3.737214819459899e-04,-7.179382425254949e-14
	-3.737214782087751e-04,7.560320163336574e-14
	-1.379177506588200e-23,-1.493978978000649e-13
	-3.737214782087751e-04,7.560320163336574e-14
11		1.288249551693134e+00,0.000000000000000e+00
	-3.737214782087751e+00,7.736422642541204e-10
	1.000000000000000e+00,0.000000000000000e+00
	0.000000000000000e+00,0.000000000000000e+00
	3.737214782087751e-04,-7.736422642541203e-14
	1.444176139978162e-23,1.528778218802827e-13
	3.737214801947247e-12,-2.047478208200740e-15
	-3.737214819459899e-04,-7.346611724666995e-14
	-3.737214782087751e-04,7.736422642541204e-14
	-1.444176139978162e-23,-1.528778218802827e-13
	-3.737214782087751e-04,7.736422642541204e-14
12		1.318256738556407e+00,0.000000000000000e+00
	-3.737214782087751e+00,7.916627075434567e-10
	1.000000000000000e+00,0.000000000000000e+00
	0.000000000000000e+00,0.000000000000000e+00
	3.737214782087751e-04,-7.916627075434567e-14
	1.512238064585085e-23,1.564388038052387e-13
	3.737214801947247e-12,-2.095170102299391e-15
	-3.737214819459899e-04,-7.517736294859361e-14
	-3.737214782087751e-04,7.916627075434567e-14
	-1.512238064585085e-23,-1.564388038052387e-13
	-3.737214782087751e-04,7.916627075434567e-14
13		1.348962882591653e+00,0.000000000000000e+00
	-3.737214782087751e+00,8.101029008792275e-10
	1.000000000000000e+00,0.000000000000000e+00
	0.000000000000000e+00,0.000000000000000e+00
	3.737214782087751e-04,-8.101029008792274e-14
	1.583507648876283e-23,1.600827316546845e-13
	3.737214801947247e-12,-2.143972883319118e-15
	-3.737214819459899e-04,-7.692846868344265e-14
	-3.737214782087751e-04,8.101029008792275e-14
	-1.583507648876283e-23,-1.600827316546845e-13
	-3.737214782087751e-04,8.101029008792275e-14
14		1.380384264602885e+00,0.000000000000000e+00
	-3.737214782087751e+00,8.289726214960238e-10
	1.000000000000000e+00,0.000000000000000e+00
	0.000000000000000e+00,0.000000000000000e+00
	3.737214782087751e-04,-8.289726214960239e-14
	1.658136065195316e-23,1.638115374873991e-13
	3.737214801947247e-12,-2.193912427140378e-15
	-3.737214819459899e-04,-7.872036291065632e-14
	-3.737214782087751e-04,8.289726214960239e-14
	-1.658136065195316e-23,-1.638115374873991e-13
	-3.737214782087751e-04,8.289726214960239e-14
15		1.412537544622754e+00,0.000000000000000e+00
	-3.737214782087751e+00,8.482818743694873e-10
	1.000000000000000e+00,0.000000000000000e+00
	0.000000000000000e+00,0.000000000000000e+00
	3.737214782087751e-04,-8.482818743694873e-14
	1.736281610418803e-23,1.676271983655915e-13
	3.737214801947247e-12,-2.245015212370416e-15
	-3.737214819459899e-04,-8.055399571627240e-14
	-3.737214782087751e-04,8.482818743694874e-14
	-1.736281610418803e-23,-1.676271983655915e-13
	-3.737214782087751e-04,8.482818743694874e-14
16		1.445439770745927e+00,0.000000000000000e+00
	-3.737214782087751e+00,8.680408975210791e-10
	1.000000000000000e+00,0.000000000000000e+00
	0.000000000000000e+00,0.000000000000000e+00
	3.737214782087751e-04,-8.680408975210790e-14
	1.818110041725318e-23,1.715317374031657e-13
	3.737214801947247e-12,-2.297308334382353e-15
	-3.737214819459899e-04,-8.243033931667542e-14
	-3.737214782087751e-04,8.680408975210791e-14
	-1.818110041725318e-23,-1.715317374031657e-13
	-3.737214782087751e-04,8.680408975210791e-14
17		1.479108388168207e+00,0.000000000000000e+00
	-3.737214782087751e+00,8.882601674464164e-10
	1.000000000000000e+00,0.000000000000000e+00
	0.000000000000000e+00,0.000000000000000e+00
	3.737214782087751e-04,-8.882601674464164e-14
	1.903794928188592e-23,1.755272248384020e-13
	3.737214801947247e-12,-2.350819519681642e-15
	-3.737214819459899e-04,-8.435038857407868e-14
	-3.737214782087751e-04,8.882601674464165e-14
	-1.903794928188592e-23,-1.755272248384020e-13
	-3.737214782087751e-04,8.882601674464165e-14
18		1.513561248436208e+00,0.000000000000000e+00
	-3.737214782087751e+00,9.089504046700473e-10
	1.000000000000000e+00,0.000000000000000e+00
	0.000000000000000e+00,0.000000000000000e+00
	3.737214782087751e-04,-9.089504046700473e-14
	1.993518018940788e-23,1.796157791316251e-13
	3.737214801947247e-12,-2.405577140607029e-15
	-3.737214819459899e-04,-8.631516152401331e-14
	-3.737214782087751e-04,9.089504046700473e-14
	-1.993518018940788e-23,-1.796157791316251e-13
	-3.737214782087751e-04,9.089504046700473e-14
19		1.548816618912481e+00,0.000000000000000e+00
	-3.737214782087751e+00,9.301225794296149e-10
	1.000000000000000e+00,0.000000000000000e+00
	0.000000000000000e+00,0.000000000000000e+00
	3.737214782087751e-04,-9.301225794296150e-14
	2.087469628686772e-23,1.837995680884396e-13
	3.737214801947247e-12,-2.461610230373938e-15
	-3.737214819459899e-04,-8.832569991510418e-14
	-3.737214782087751e-04,9.301225794296149e-14
	-2.087469628686772e-23,-1.837995680884396e-13
	-3.737214782087751e-04,9.301225794296149e-14
20		1.584893192461113e+00,0.000000000000000e+00
	-3.737214782087751e+00,9.517879174924242e-10
	1.000000000000000e+00,0.000000000000000e+00
	0.000000000000000e+00,0.000000000000000e+00
	3.737214782087751e-04,-9.517879174924242e-14
	2.185849041387131e-23,1.880808100091296e-13
	3.737214801947247e-12,-2.518948498468280e-15
	-3.737214819459899e-04,-9.038306976141892e-14
	-3.737214782087751e-04,9.517879174924243e-14
	-2.185849041387131e-23,-1.880808100091296e-13
	-3.737214782087751e-04,9.517879174924243e-14
21		1.621810097358929e+00,0.000000000000000e+00
	-3.737214782087751e+00,9.739579061074901e-10
	1.000000000000000e+00,0.000000000000000e+00
	0.000000000000000e+00,0.000000000000000e+00
	3.737214782087751e-04,-9.739579061074901e-14
	2.288864932966156e-23,1.924617748648302e-13
	3.737214801947247e-12,-2.577622346398705e-15
	-3.737214819459899e-04,-9.248836190768251e-14
	-3.737214782087751e-04,9.739579061074902e-14
	-2.288864932966156e-23,-1.924617748648302e-13
	-3.737214782087751e-04,9.739579061074902e-14
22		1.659586907437560e+00,0.000000000000000e+00
	-3.737214782087751e+00,9.966443000962314e-10
	1.000000000000000e+00,0.000000000000000e+00
	0.000000000000000e+00,0.000000000000000e+00
	3.737214782087751e-04,-9.966443000962314e-14
	2.396735813941471e-23,1.969447855010970e-13
	3.737214801947247e-12,-2.637662883816061e-15
	-3.737214819459899e-04,-9.464269260765775e-14
	-3.737214782087751e-04,9.966443000962314e-14
	-2.396735813941471e-23,-1.969447855010970e-13
	-3.737214782087751e-04,9.966443000962314e-14
23		1.698243652461743e+00,0.000000000000000e+00
	-3.737214782087751e+00,1.019859128085030e-09
	1.000000000000000e+00,0.000000000000000e+00
	0.000000000000000e+00,0.000000000000000e+00
	3.737214782087751e-04,-1.019859128085030e-13
	2.509690492914123e-23,2.015322188695088e-13
	3.737214801947247e-12,-2.699101945008028e-15
	-3.737214819459899e-04,-9.684720411599771e-14
	-3.737214782087751e-04,1.019859128085030e-13
	-2.509690492914123e-23,-2.015322188695088e-13
	-3.737214782087751e-04,1.019859128085030e-13
24		1.737800828749374e+00,0.000000000000000e+00
	-3.737214782087751e+00,1.043614698882972e-09
	1.000000000000000e+00,0.000000000000000e+00
	0.000000000000000e+00,0.000000000000000e+00
	3.737214782087751e-04,-1.043614698882972e-13
	2.627968561902311e-23,2.062265072879595e-13
	3.737214801947247e-12,-2.761972105778060e-15
	-3.737214819459899e-04,-9.910306529388426e-14
	-3.737214782087751e-04,1.043614698882972e-13
	-2.627968561902311e-23,-2.062265072879595e-13
	-3.737214782087751e-04,1.043614698882972e-13
25		1.778279410038922e+00,0.000000000000000e+00
	-3.737214782087751e+00,1.067923608008134e-09
	1.000000000000000e+00,0.000000000000000e+00
	0.000000000000000e+00,0.000000000000000e+00
	3.737214782087751e-04,-1.067923608008134e-13
	2.751820904548177e-23,2.110301397303048e-13
	3.737214801947247e-12,-2.826306700717609e-15
	-3.737214819459899e-04,-1.014114722287738e-13
	-3.737214782087751e-04,1.067923608008134e-13
	-2.751820904548177e-23,-2.110301397303048e-13
	-3.737214782087751e-04,1.067923608008134e-13
26		1.819700858609982e+00,0.000000000000000e+00
	-3.737214782087751e+00,1.092798744365903e-09
	1.000000000000000e+00,0.000000000000000e+00
	0.000000000000000e+00,0.000000000000000e+00
	3.737214782087751e-04,-1.092798744365903e-13
	2.881510228275646e-23,2.159456631460492e-13
	3.737214801947247e-12,-2.892139840880477e-15
	-3.737214819459899e-04,-1.037736488685785e-13
	-3.737214782087751e-04,1.092798744365903e-13
	-2.881510228275646e-23,-2.159456631460492e-13
	-3.737214782087751e-04,1.092798744365903e-13
27		1.862087136662866e+00,0.000000000000000e+00
	-3.737214782087751e+00,1.118253297082835e-09
	1.000000000000000e+00,0.000000000000000e+00
	0.000000000000000e+00,0.000000000000000e+00
	3.737214782087751e-04,-1.118253297082836e-13
	3.017311621528093e-23,2.209756838107725e-13
	3.737214801947247e-12,-2.959506431868941e-15
	-3.737214819459899e-04,-1.061908476706200e-13
	-3.737214782087751e-04,1.118253297082836e-13
	-3.017311621528093e-23,-2.209756838107725e-13
	-3.737214782087751e-04,1.118253297082836e-13
28		1.905460717963246e+00,0.000000000000000e+00
	-3.737214782087751e+00,1.144300762499714e-09
	1.000000000000000e+00,0.000000000000000e+00
	0.000000000000000e+00,0.000000000000000e+00
	3.737214782087751e-04,-1.144300762499714e-13
	3.159513137267817e-23,2.261228687080112e-13
	3.737214801947247e-12,-3.028442192341306e-15
	-3.737214819459899e-04,-1.086643502656985e-13
	-3.737214782087751e-04,1.144300762499714e-13
	-3.159513137267817e-23,-2.261228687080112e-13
	-3.737214782087751e-04,1.144300762499714e-13
29		1.949844599758044e+00,0.000000000000000e+00
	-3.737214782087751e+00,1.170954951327480e-09
	1.000000000000000e+00,0.000000000000000e+00
	0.000000000000000e+00,0.000000000000000e+00
	3.737214782087751e-04,-1.170954951327481e-13
	3.308416403974991e-23,2.313899469433289e-13
	3.737214801947247e-12,-3.098983672950273e-15
	-3.737214819459899e-04,-1.111954681376305e-13
	-3.737214782087751e-04,1.170954951327481e-13
	-3.308416403974991e-23,-2.313899469433289e-13
	-3.737214782087751e-04,1.170954951327481e-13
30		1.995262314968878e+00,0.000000000000000e+00
	-3.737214782087751e+00,1.198229995969862e-09
	1.000000000000000e+00,0.000000000000000e+00
	0.000000000000000e+00,0.000000000000000e+00
	3.737214782087751e-04,-1.198229995969862e-13
	3.464337265442110e-23,2.367797111913239e-13
	3.737214801947247e-12,-3.171168275722429e-15
	-3.737214819459899e-04,-1.137855433186152e-13
	-3.737214782087751e-04,1.198229995969862e-13
	-3.464337265442110e-23,-2.367797111913239e-13
	-3.737214782087751e-04,1.198229995969862e-13
31		2.041737944669527e+00,0.000000000000000e+00
	-3.737214782087751e+00,1.226140358016556e-09
	1.000000000000000e+00,0.000000000000000e+00
	0.000000000000000e+00,0.000000000000000e+00
	3.737214782087751e-04,-1.226140358016556e-13
	3.627606450721020e-23,2.422950191763426e-13
	3.737214801947247e-12,-3.245034273889840e-15
	-3.737214819459899e-04,-1.164359491007971e-13
	-3.737214782087751e-04,1.226140358016556e-13
	-3.627606450721020e-23,-2.422950191763426e-13
	-3.737214782087751e-04,1.226140358016556e-13
32		2.089296130854037e+00,0.000000000000000e+00
	-3.737214782087751e+00,1.254700835910957e-09
	1.000000000000000e+00,0.000000000000000e+00
	0.000000000000000e+00,0.000000000000000e+00
	3.737214782087751e-04,-1.254700835910957e-13
	3.798570275643579e-23,2.479387951876823e-13
	3.737214801947247e-12,-3.320620832182338e-15
	-3.737214819459899e-04,-1.191480907644043e-13
	-3.737214782087751e-04,1.254700835910957e-13
	-3.798570275643579e-23,-2.479387951876823e-13
	-3.737214782087751e-04,1.254700835910957e-13
33		2.137962089502230e+00,0.000000000000000e+00
	-3.737214782087751e+00,1.283926572796487e-09
	1.000000000000000e+00,0.000000000000000e+00
	0.000000000000000e+00,0.000000000000000e+00
	3.737214782087751e-04,-1.283926572796487e-13
	3.977591377403967e-23,2.537140316300885e-13
	3.737214801947247e-12,-3.397968027593651e-15
	-3.737214819459899e-04,-1.219234063228461e-13
	-3.737214782087751e-04,1.283926572796487e-13
	-3.977591377403967e-23,-2.537140316300885e-13
	-3.737214782087751e-04,1.283926572796487e-13
34		2.187761623949550e+00,0.000000000000000e+00
	-3.737214782087751e+00,1.313833064545691e-09
	1.000000000000000e+00,0.000000000000000e+00
	0.000000000000000e+00,0.000000000000000e+00
	3.737214782087751e-04,-1.313833064545690e-13
	4.165049483760793e-23,2.596237906103671e-13
	3.737214801947247e-12,-3.477116870630683e-15
	-3.737214819459899e-04,-1.247633672851674e-13
	-3.737214782087751e-04,1.313833064545691e-13
	-4.165049483760793e-23,-2.596237906103671e-13
	-3.737214782087751e-04,1.313833064545691e-13
35		2.238721138568337e+00,0.000000000000000e+00
	-3.737214782087751e+00,1.344436167976353e-09
	1.000000000000000e+00,0.000000000000000e+00
	0.000000000000000e+00,0.000000000000000e+00
	3.737214782087751e-04,-1.344436167976353e-13
	4.361342218490587e-23,2.656712055609545e-13
	3.737214801947247e-12,-3.558109327057534e-15
	-3.737214819459899e-04,-1.276694794362617e-13
	-3.737214782087751e-04,1.344436167976353e-13
	-4.361342218490587e-23,-2.656712055609545e-13
	-3.737214782087751e-04,1.344436167976353e-13
36		2.290867652767770e+00,0.000000000000000e+00
	-3.737214782087751e+00,1.375752109258993e-09
	1.000000000000000e+00,0.000000000000000e+00
	0.000000000000000e+00,0.000000000000000e+00
	3.737214782087751e-04,-1.375752109258992e-13
	4.566885944801138e-23,2.718594829013045e-13
	3.737214801947247e-12,-3.640988340146747e-15
	-3.737214819459899e-04,-1.306432836352585e-13
	-3.737214782087751e-04,1.375752109258993e-13
	-4.566885944801138e-23,-2.718594829013045e-13
	-3.737214782087751e-04,1.375752109258993e-13
37		2.344228815319919e+00,0.000000000000000e+00
	-3.737214782087751e+00,1.407797492520193e-09
	1.000000000000000e+00,0.000000000000000e+00
	0.000000000000000e+00,0.000000000000000e+00
	3.737214782087751e-04,-1.407797492520193e-13
	4.782116648493674e-23,2.781919037379743e-13
	3.737214801947247e-12,-3.725797853448134e-15
	-3.737214819459899e-04,-1.336863566325069e-13
	-3.737214782087751e-04,1.407797492520193e-13
	-4.782116648493674e-23,-2.781919037379743e-13
	-3.737214782087751e-04,1.407797492520193e-13
38		2.398832919019488e+00,0.000000000000000e+00
	-3.737214782087751e+00,1.440589308646331e-09
	1.000000000000000e+00,0.000000000000000e+00
