Title: * GA CMOS Amp | W=5e-05 L=5.853668468910877e-07 Vbias=1.0603142584644545
Date: Mon Sep  8 18:45:00 2025
Plotname: AC Analysis
Flags: complex forward log
No. Variables: 11
No. Points:          901
Offset:    0.0000000000000000e+00
Command: Linear Technology Corporation LTspice
Variables:
	0	frequency	frequency
	1	V(out)	voltage
	2	V(g)	voltage
	3	V(vdd)	voltage
	4	Id(M1)	device_current
	5	Ig(M1)	device_current
	6	Ib(M1)	device_current
	7	Is(M1)	device_current
	8	I(Rload)	device_current
	9	I(Vg)	device_current
	10	I(Vdd)	device_current
Values:
0		1.000000000000000e+00,0.000000000000000e+00
	-1.077311444175415e-01,4.248949511756076e-11
	1.000000000000000e+00,0.000000000000000e+00
	0.000000000000000e+00,0.000000000000000e+00
	1.077311444175420e-05,-4.248949511756070e-15
	7.059723711734139e-24,3.528171790146575e-13
	1.183028284709731e-13,7.053822687614166e-16
	-1.077311456005702e-05,-3.492736117716629e-13
	-1.077311444175415e-05,4.248949511756077e-15
	-7.059723711734139e-24,-3.528171790146575e-13
	-1.077311444175415e-05,4.248949511756077e-15
1		1.023292992280754e+00,0.000000000000000e+00
	-1.077311444175415e-01,4.347920259934725e-11
	1.000000000000000e+00,0.000000000000000e+00
	0.000000000000000e+00,0.000000000000000e+00
	1.077311444175420e-05,-4.347920259934740e-15
	7.392438239908677e-24,3.610353468419634e-13
	1.183028284709731e-13,7.218127325027363e-16
	-1.077311456005702e-05,-3.574092393145314e-13
	-1.077311444175415e-05,4.347920259934726e-15
	-7.392438239908677e-24,-3.610353468419634e-13
	-1.077311444175415e-05,4.347920259934726e-15
2		1.047128548050899e+00,0.000000000000000e+00
	-1.077311444175415e-01,4.449196332986718e-11
	1.000000000000000e+00,0.000000000000000e+00
	0.000000000000000e+00,0.000000000000000e+00
	1.077311444175420e-05,-4.449196332986735e-15
	7.740833120711517e-24,3.694449403890326e-13
	1.183028284709731e-13,7.386259109089649e-16
	-1.077311456005702e-05,-3.657343699669548e-13
	-1.077311444175415e-05,4.449196332986718e-15
	-7.740833120711517e-24,-3.694449403890326e-13
	-1.077311444175415e-05,4.449196332986718e-15
3		1.071519305237606e+00,0.000000000000000e+00
	-1.077311444175415e-01,4.552831428826537e-11
	1.000000000000000e+00,0.000000000000000e+00
	0.000000000000000e+00,0.000000000000000e+00
	1.077311444175420e-05,-4.552831428826573e-15
	8.105647346394963e-24,3.780504185336780e-13
	1.183028284709731e-13,7.558307185502198e-16
	-1.077311456005702e-05,-3.742534178234016e-13
	-1.077311444175415e-05,4.552831428826537e-15
	-8.105647346394963e-24,-3.780504185336780e-13
	-1.077311444175415e-05,4.552831428826537e-15
4		1.096478196143185e+00,0.000000000000000e+00
	-1.077311444175415e-01,4.658880496153767e-11
	1.000000000000000e+00,0.000000000000000e+00
	0.000000000000000e+00,0.000000000000000e+00
	1.077311444175420e-05,-4.658880496153803e-15
	8.487654736843180e-24,3.868563440143187e-13
	1.183028284709731e-13,7.734362776429334e-16
	-1.077311456005702e-05,-3.829708997958079e-13
	-1.077311444175415e-05,4.658880496153767e-15
	-8.487654736843180e-24,-3.868563440143187e-13
	-1.077311444175415e-05,4.658880496153767e-15
5		1.122018454301963e+00,0.000000000000000e+00
	-1.077311444175415e-01,4.767399763587634e-11
	1.000000000000000e+00,0.000000000000000e+00
	0.000000000000000e+00,0.000000000000000e+00
	1.077311444175420e-05,-4.767399763587679e-15
	8.887665580947943e-24,3.958673858492051e-13
	1.183028284709731e-13,7.914519228877038e-16
	-1.077311456005702e-05,-3.918914380085051e-13
	-1.077311444175415e-05,4.767399763587634e-15
	-8.887665580947943e-24,-3.958673858492051e-13
	-1.077311444175415e-05,4.767399763587634e-15
6		1.148153621496882e+00,0.000000000000000e+00
	-1.077311444175415e-01,4.878446769480150e-11
	1.000000000000000e+00,0.000000000000000e+00
	0.000000000000000e+00,0.000000000000000e+00
	1.077311444175420e-05,-4.878446769480160e-15
	9.306528355339972e-24,4.050883218119929e-13
	1.183028284709731e-13,8.098872064181155e-16
	-1.077311456005702e-05,-4.010197622489309e-13
	-1.077311444175415e-05,4.878446769480150e-15
	-9.306528355339972e-24,-4.050883218119929e-13
	-1.077311444175415e-05,4.878446769480150e-15
7		1.174897554939529e+00,0.000000000000000e+00
	-1.077311444175415e-01,4.992080392423720e-11
	1.000000000000000e+00,0.000000000000000e+00
	0.000000000000000e+00,0.000000000000000e+00
	1.077311444175420e-05,-4.992080392423758e-15
	9.745131524121670e-24,4.145240409649833e-13
	1.183028284709731e-13,8.287519028655045e-16
	-1.077311456005702e-05,-4.103607124754250e-13
	-1.077311444175415e-05,4.992080392423720e-15
	-9.745131524121670e-24,-4.145240409649833e-13
	-1.077311444175415e-05,4.992080392423720e-15
8		1.202264434617413e+00,0.000000000000000e+00
	-1.077311444175415e-01,5.108360882469350e-11
	1.000000000000000e+00,0.000000000000000e+00
	0.000000000000000e+00,0.000000000000000e+00
	1.077311444175420e-05,-5.108360882469395e-15
	1.020440542341858e-23,4.241795462513677e-13
	1.183028284709731e-13,8.480560145416858e-16
	-1.077311456005702e-05,-4.199192413834400e-13
	-1.077311444175415e-05,5.108360882469351e-15
	-1.020440542341858e-23,-4.241795462513677e-13
	-1.077311444175415e-05,5.108360882469351e-15
9		1.230268770812381e+00,0.000000000000000e+00
	-1.077311444175415e-01,5.227349893072015e-11
	1.000000000000000e+00,0.000000000000000e+00
	0.000000000000000e+00,0.000000000000000e+00
	1.077311444175420e-05,-5.227349893072016e-15
	1.068532423474702e-23,4.340599571478545e-13
	1.183028284709731e-13,8.678097767420173e-16
	-1.077311456005702e-05,-4.297004170315245e-13
	-1.077311444175415e-05,5.227349893072015e-15
	-1.068532423474702e-23,-4.340599571478545e-13
	-1.077311444175415e-05,5.227349893072015e-15
10		1.258925411794167e+00,0.000000000000000e+00
	-1.077311444175415e-01,5.349110513780143e-11
	1.000000000000000e+00,0.000000000000000e+00
	0.000000000000000e+00,0.000000000000000e+00
	1.077311444175420e-05,-5.349110513780179e-15
	1.118890805138374e-23,4.441705123790840e-13
	1.183028284709731e-13,8.880236631728640e-16
	-1.077311456005702e-05,-4.397094255284767e-13
	-1.077311444175415e-05,5.349110513780143e-15
	-1.118890805138374e-23,-4.441705123790840e-13
	-1.077311444175415e-05,5.349110513780143e-15
11		1.288249551693134e+00,0.000000000000000e+00
	-1.077311444175415e-01,5.473707303686525e-11
	1.000000000000000e+00,0.000000000000000e+00
	0.000000000000000e+00,0.000000000000000e+00
	1.077311444175420e-05,-5.473707303686529e-15
	1.171622504212047e-23,4.545165726952687e-13
	1.183028284709731e-13,9.087083915041684e-16
	-1.077311456005702e-05,-4.499515737830864e-13
	-1.077311444175415e-05,5.473707303686525e-15
	-1.171622504212047e-23,-4.545165726952687e-13
	-1.077311444175415e-05,5.473707303686525e-15
12		1.318256738556407e+00,0.000000000000000e+00
	-1.077311444175415e-01,5.601206325658402e-11
	1.000000000000000e+00,0.000000000000000e+00
	0.000000000000000e+00,0.000000000000000e+00
	1.077311444175420e-05,-5.601206325658436e-15
	1.226839371699320e-23,4.651036237145343e-13
	1.183028284709731e-13,9.298749290530113e-16
	-1.077311456005702e-05,-4.604322923179289e-13
	-1.077311444175415e-05,5.601206325658402e-15
	-1.226839371699320e-23,-4.651036237145343e-13
	-1.077311444175415e-05,5.601206325658402e-15
13		1.348962882591653e+00,0.000000000000000e+00
	-1.077311444175415e-01,5.731675181364874e-11
	1.000000000000000e+00,0.000000000000000e+00
	0.000000000000000e+00,0.000000000000000e+00
	1.077311444175420e-05,-5.731675181364928e-15
	1.284658529979186e-23,4.759372788314678e-13
	1.183028284709731e-13,9.515344985975030e-16
	-1.077311456005702e-05,-4.711571381487004e-13
	-1.077311444175415e-05,5.731675181364874e-15
	-1.284658529979186e-23,-4.759372788314678e-13
	-1.077311444175415e-05,5.731675181364874e-15
14		1.380384264602885e+00,0.000000000000000e+00
	-1.077311444175415e-01,5.865183047120197e-11
	1.000000000000000e+00,0.000000000000000e+00
	0.000000000000000e+00,0.000000000000000e+00
	1.077311444175420e-05,-5.865183047120209e-15
	1.345202621238309e-23,4.870232821934124e-13
	1.183028284709731e-13,9.736985843281527e-16
	-1.077311456005702e-05,-4.821317977306203e-13
	-1.077311444175415e-05,5.865183047120198e-15
	-1.345202621238309e-23,-4.870232821934124e-13
	-1.077311444175415e-05,5.865183047120198e-15
15		1.412537544622754e+00,0.000000000000000e+00
	-1.077311444175415e-01,6.001800710561977e-11
	1.000000000000000e+00,0.000000000000000e+00
	0.000000000000000e+00,0.000000000000000e+00
	1.077311444175420e-05,-6.001800710562034e-15
	1.408600067611534e-23,4.983675117460910e-13
	1.183028284709731e-13,9.963789379366625e-16
	-1.077311456005702e-05,-4.933620899734656e-13
	-1.077311444175415e-05,6.001800710561977e-15
	-1.408600067611534e-23,-4.983675117460910e-13
	-1.077311444175415e-05,6.001800710561977e-15
16		1.445439770745927e+00,0.000000000000000e+00
	-1.077311444175415e-01,6.141600608183722e-11
	1.000000000000000e+00,0.000000000000000e+00
	0.000000000000000e+00,0.000000000000000e+00
	1.077311444175420e-05,-6.141600608183714e-15
	1.474985343582464e-23,5.099759823501712e-13
	1.183028284709731e-13,1.019587584846844e-15
	-1.077311456005702e-05,-5.048539693268344e-13
	-1.077311444175415e-05,6.141600608183722e-15
	-1.474985343582464e-23,-5.099759823501712e-13
	-1.077311444175415e-05,6.141600608183722e-15
17		1.479108388168207e+00,0.000000000000000e+00
	-1.077311444175415e-01,6.284656863741619e-11
	1.000000000000000e+00,0.000000000000000e+00
	0.000000000000000e+00,0.000000000000000e+00
	1.077311444175420e-05,-6.284656863741621e-15
	1.544499261221863e-23,5.218548489704237e-13
	1.183028284709731e-13,1.043336830590177e-15
	-1.077311456005702e-05,-5.166135289372723e-13
	-1.077311444175415e-05,6.284656863741620e-15
	-1.544499261221863e-23,-5.218548489704237e-13
	-1.077311444175415e-05,6.284656863741620e-15
18		1.513561248436208e+00,0.000000000000000e+00
	-1.077311444175415e-01,6.431045327555941e-11
	1.000000000000000e+00,0.000000000000000e+00
	0.000000000000000e+00,0.000000000000000e+00
	1.077311444175420e-05,-6.431045327555961e-15
	1.617289268868936e-23,5.340104099391661e-13
	1.183028284709731e-13,1.067639267331270e-15
	-1.077311456005702e-05,-5.286470038789414e-13
	-1.077311444175415e-05,6.431045327555941e-15
	-1.617289268868936e-23,-5.340104099391661e-13
	-1.077311444175415e-05,6.431045327555941e-15
19		1.548816618912481e+00,0.000000000000000e+00
	-1.077311444175415e-01,6.580843616727881e-11
	1.000000000000000e+00,0.000000000000000e+00
	0.000000000000000e+00,0.000000000000000e+00
	1.077311444175420e-05,-6.580843616727885e-15
	1.693509763889030e-23,5.464491102957213e-13
	1.183028284709731e-13,1.092507780543769e-15
	-1.077311456005702e-05,-5.409607744595372e-13
	-1.077311444175415e-05,6.580843616727881e-15
	-1.693509763889030e-23,-5.464491102957213e-13
	-1.077311444175415e-05,6.580843616727881e-15
20		1.584893192461113e+00,0.000000000000000e+00
	-1.077311444175415e-01,6.734131156293174e-11
	1.000000000000000e+00,0.000000000000000e+00
	0.000000000000000e+00,0.000000000000000e+00
	1.077311444175420e-05,-6.734131156293144e-15
	1.773322420171142e-23,5.591775452036646e-13
	1.183028284709731e-13,1.117955555842673e-15
	-1.077311456005702e-05,-5.535613696032141e-13
	-1.077311444175415e-05,6.734131156293174e-15
	-1.773322420171142e-23,-5.591775452036646e-13
	-1.077311444175415e-05,6.734131156293174e-15
21		1.621810097358929e+00,0.000000000000000e+00
	-1.077311444175415e-01,6.890989221334296e-11
	1.000000000000000e+00,0.000000000000000e+00
	0.000000000000000e+00,0.000000000000000e+00
	1.077311444175420e-05,-6.890989221334328e-15
	1.856896531059914e-23,5.722024634476645e-13
	1.183028284709731e-13,1.143996085975232e-15
	-1.077311456005702e-05,-5.664554703123054e-13
	-1.077311444175415e-05,6.890989221334296e-15
	-1.856896531059914e-23,-5.722024634476645e-13
	-1.077311444175415e-05,6.890989221334296e-15
22		1.659586907437560e+00,0.000000000000000e+00
	-1.077311444175415e-01,7.051500980073597e-11
	1.000000000000000e+00,0.000000000000000e+00
	0.000000000000000e+00,0.000000000000000e+00
	1.077311444175420e-05,-7.051500980073582e-15
	1.944409368449521e-23,5.855307710117794e-13
	1.183028284709731e-13,1.170643177975124e-15
	-1.077311456005702e-05,-5.796499132096810e-13
	-1.077311444175415e-05,7.051500980073598e-15
	-1.944409368449521e-23,-5.855307710117794e-13
	-1.077311444175415e-05,7.051500980073598e-15
23		1.698243652461743e+00,0.000000000000000e+00
	-1.077311444175415e-01,7.215751537970181e-11
	1.000000000000000e+00,0.000000000000000e+00
	0.000000000000000e+00,0.000000000000000e+00
	1.077311444175420e-05,-7.215751537970202e-15
	2.036046558801113e-23,5.991695347411008e-13
	1.183028284709731e-13,1.197910960483232e-15
	-1.077311456005702e-05,-5.931516941636139e-13
	-1.077311444175415e-05,7.215751537970181e-15
	-2.036046558801113e-23,-5.991695347411008e-13
	-1.077311444175415e-05,7.215751537970181e-15
24		1.737800828749374e+00,0.000000000000000e+00
	-1.077311444175415e-01,7.383827982843960e-11
	1.000000000000000e+00,0.000000000000000e+00
	0.000000000000000e+00,0.000000000000000e+00
	1.077311444175420e-05,-7.383827982843936e-15
	2.132002476881439e-23,6.131259860886882e-13
	1.183028284709731e-13,1.225813891238669e-15
	-1.077311456005702e-05,-6.069679719970830e-13
	-1.077311444175415e-05,7.383827982843961e-15
	-2.132002476881439e-23,-6.131259860886882e-13
	-1.077311444175415e-05,7.383827982843961e-15
25		1.778279410038922e+00,0.000000000000000e+00
	-1.077311444175415e-01,7.555819431050760e-11
	1.000000000000000e+00,0.000000000000000e+00
	0.000000000000000e+00,0.000000000000000e+00
	1.077311444175420e-05,-7.555819431050786e-15
	2.232480658057783e-23,6.274075249497818e-13
	1.183028284709731e-13,1.254366764744939e-15
	-1.077311456005702e-05,-6.211060722834760e-13
	-1.077311444175415e-05,7.555819431050761e-15
	-2.232480658057783e-23,-6.274075249497818e-13
	-1.077311444175415e-05,7.555819431050761e-15
26		1.819700858609982e+00,0.000000000000000e+00
	-1.077311444175415e-01,7.731817074732996e-11
	1.000000000000000e+00,0.000000000000000e+00
	0.000000000000000e+00,0.000000000000000e+00
	1.077311444175420e-05,-7.731817074733025e-15
	2.337694230023762e-23,6.420217235853241e-13
	1.183028284709731e-13,1.283584720113464e-15
	-1.077311456005702e-05,-6.355734912307045e-13
	-1.077311444175415e-05,7.731817074732997e-15
	-2.337694230023762e-23,-6.420217235853241e-13
	-1.077311444175415e-05,7.731817074732997e-15
27		1.862087136662866e+00,0.000000000000000e+00
	-1.077311444175415e-01,7.911914230170954e-11
	1.000000000000000e+00,0.000000000000000e+00
	0.000000000000000e+00,0.000000000000000e+00
	1.077311444175420e-05,-7.911914230170992e-15
	2.447866364871748e-23,6.569763306368736e-13
	1.183028284709731e-13,1.313483249090625e-15
	-1.077311456005702e-05,-6.503778996557932e-13
	-1.077311444175415e-05,7.911914230170954e-15
	-2.447866364871748e-23,-6.569763306368736e-13
	-1.077311444175415e-05,7.911914230170954e-15
28		1.905460717963246e+00,0.000000000000000e+00
	-1.077311444175415e-01,8.096206387260315e-11
	1.000000000000000e+00,0.000000000000000e+00
	0.000000000000000e+00,0.000000000000000e+00
	1.077311444175420e-05,-8.096206387260350e-15
	2.563230752470786e-23,6.722792752350363e-13
	1.183028284709731e-13,1.344078204272624e-15
	-1.077311456005702e-05,-6.655271470520486e-13
	-1.077311444175415e-05,8.096206387260316e-15
	-2.563230752470786e-23,-6.722792752350363e-13
	-1.077311444175415e-05,8.096206387260316e-15
29		1.949844599758044e+00,0.000000000000000e+00
	-1.077311444175415e-01,8.284791260142163e-11
	1.000000000000000e+00,0.000000000000000e+00
	0.000000000000000e+00,0.000000000000000e+00
	1.077311444175420e-05,-8.284791260142161e-15
	2.684032096154150e-23,6.879386712035971e-13
	1.183028284709731e-13,1.375385807509559e-15
	-1.077311456005702e-05,-6.810292657509645e-13
	-1.077311444175415e-05,8.284791260142163e-15
	-2.684032096154150e-23,-6.879386712035971e-13
	-1.077311444175415e-05,8.284791260142163e-15
30		1.995262314968878e+00,0.000000000000000e+00
	-1.077311444175415e-01,8.477768839012311e-11
	1.000000000000000e+00,0.000000000000000e+00
	0.000000000000000e+00,0.000000000000000e+00
	1.077311444175420e-05,-8.477768839012343e-15
	2.810526631767906e-23,7.039628213615746e-13
	1.183028284709731e-13,1.407422658507018e-15
	-1.077311456005702e-05,-6.968924751810692e-13
	-1.077311444175415e-05,8.477768839012311e-15
	-2.810526631767906e-23,-7.039628213615746e-13
	-1.077311444175415e-05,8.477768839012311e-15
31		2.041737944669527e+00,0.000000000000000e+00
	-1.077311444175415e-01,8.675241443137443e-11
	1.000000000000000e+00,0.000000000000000e+00
	0.000000000000000e+00,0.000000000000000e+00
	1.077311444175420e-05,-8.675241443137463e-15
	2.942982671181512e-23,7.203602219254876e-13
	1.183028284709731e-13,1.440205743627191e-15
	-1.077311456005702e-05,-7.131251862259773e-13
	-1.077311444175415e-05,8.675241443137442e-15
	-2.942982671181512e-23,-7.203602219254876e-13
	-1.077311444175415e-05,8.675241443137442e-15
32		2.089296130854037e+00,0.000000000000000e+00
	-1.077311444175415e-01,8.877313775106122e-11
	1.000000000000000e+00,0.000000000000000e+00
	0.000000000000000e+00,0.000000000000000e+00
	1.077311444175420e-05,-8.877313775106156e-15
	3.081681171413255e-23,7.371395670141604e-13
	1.183028284709731e-13,1.473752444896269e-15
	-1.077311456005702e-05,-7.297360056839505e-13
	-1.077311444175415e-05,8.877313775106123e-15
	-3.081681171413255e-23,-7.371395670141604e-13
	-1.077311444175415e-05,8.877313775106123e-15
33		2.137962089502230e+00,0.000000000000000e+00
	-1.077311444175415e-01,9.084092976343502e-11
	1.000000000000000e+00,0.000000000000000e+00
	0.000000000000000e+00,0.000000000000000e+00
	1.077311444175420e-05,-9.084092976343525e-15
	3.226916330577757e-23,7.543097532584595e-13
	1.183028284709731e-13,1.508080549219051e-15
	-1.077311456005702e-05,-7.467337408313350e-13
	-1.077311444175415e-05,9.084092976343503e-15
	-3.226916330577757e-23,-7.543097532584595e-13
	-1.077311444175415e-05,9.084092976343503e-15
34		2.187761623949550e+00,0.000000000000000e+00
	-1.077311444175415e-01,9.295688683919123e-11
	1.000000000000000e+00,0.000000000000000e+00
	0.000000000000000e+00,0.000000000000000e+00
	1.077311444175420e-05,-9.295688683919120e-15
	3.378996211919623e-23,7.718798845184064e-13
	1.183028284709731e-13,1.543208257810739e-15
	-1.077311456005702e-05,-7.641274040922980e-13
	-1.077311444175415e-05,9.295688683919123e-15
	-3.378996211919623e-23,-7.718798845184064e-13
	-1.077311444175415e-05,9.295688683919123e-15
35		2.238721138568337e+00,0.000000000000000e+00
	-1.077311444175415e-01,9.512213088677943e-11
	1.000000000000000e+00,0.000000000000000e+00
	0.000000000000000e+00,0.000000000000000e+00
	1.077311444175420e-05,-9.512213088678039e-15
	3.538243397256884e-23,7.898592767101630e-13
	1.183028284709731e-13,1.579154195847498e-15
	-1.077311456005702e-05,-7.819262178173325e-13
	-1.077311444175415e-05,9.512213088677944e-15
	-3.538243397256884e-23,-7.898592767101630e-13
	-1.077311444175415e-05,9.512213088677944e-15
36		2.290867652767770e+00,0.000000000000000e+00
	-1.077311444175415e-01,9.733780994725406e-11
	1.000000000000000e+00,0.000000000000000e+00
	0.000000000000000e+00,0.000000000000000e+00
	1.077311444175420e-05,-9.733780994725481e-15
	3.704995671220283e-23,8.082574627454549e-13
	1.183028284709731e-13,1.615937422341377e-15
	-1.077311456005702e-05,-8.001396191730708e-13
	-1.077311444175415e-05,9.733780994725407e-15
	-3.704995671220283e-23,-8.082574627454549e-13
	-1.077311444175415e-05,9.733780994725407e-15
37		2.344228815319919e+00,0.000000000000000e+00
	-1.077311444175415e-01,9.960509880298097e-11
	1.000000000000000e+00,0.000000000000000e+00
	0.000000000000000e+00,0.000000000000000e+00
	1.077311444175420e-05,-9.960509880298182e-15
	3.879606737739762e-23,8.270841975860466e-13
	1.183028284709731e-13,1.653577440246362e-15
	-1.077311456005702e-05,-8.187772651459948e-13
	-1.077311444175415e-05,9.960509880298097e-15
	-3.879606737739762e-23,-8.270841975860466e-13
	-1.077311444175415e-05,9.960509880298097e-15
38		2.398832919019488e+00,0.000000000000000e+00
	-1.077311444175415e-01,1.019251996005225e-10
	1.000000000000000e+00,0.000000000000000e+00
	0.000000000000000e+00,0.000000000000000e+00
