LTspice 24.0.9 for Windows
Circuit: * GA CMOS Amp | W=3.1921541083997094e-06 L=6.429081928881887e-07 Vbias=0.767483507488939
Start Time: Mon Sep  8 18:47:42 2025
solver = Normal
Maximum thread count: 2
tnom = 27
temp = 27
method = modified trap
AsciiRawFile = 1
Instance "m1": Length shorter than recommended for a level 3 MOSFET.
Direct Newton iteration for .op point succeeded.
Semiconductor Device Operating Points:
                        --- MOSFET Transistors ---
Name:          m1
Model:        n_1u
Id:          4.84e-07
Vgs:         7.67e-01
Vds:         1.80e+00
Vbs:         0.00e+00
Vth:         8.20e-01
Vdsat:       4.57e-02
Gm:          8.96e-06
Gds:         6.92e-08
Gmb:         2.35e-06
Cbd:         0.00e+00
Cbs:         0.00e+00
Cgsov:       6.38e-16
Cgdov:       6.38e-16
Cgbov:       4.43e-17
Cgs:         1.38e-15
Cgd:         0.00e+00
Cgb:         1.82e-16



gain_db: MAX(db(v(out)/v(g)))=(30.7336dB,127.532°) FROM 1 TO 1e+09
gain_lin: MAX(mag(v(out)/v(g)))=(-20.1756dB,0°) FROM 1 TO 1e+09

Measurement "fc" FAIL'ed

Total elapsed time: 0.411 seconds.

