Title: * GA CMOS Amp | W=1.2104129945171846e-05 L=1e-06 Vbias=0.6574732594920447
Date: Mon Sep  8 18:45:19 2025
Plotname: AC Analysis
Flags: complex forward log
No. Variables: 11
No. Points:          901
Offset:    0.0000000000000000e+00
Command: Linear Technology Corporation LTspice
Variables:
	0	frequency	frequency
	1	V(out)	voltage
	2	V(g)	voltage
	3	V(vdd)	voltage
	4	Id(M1)	device_current
	5	Ig(M1)	device_current
	6	Ib(M1)	device_current
	7	Is(M1)	device_current
	8	I(Rload)	device_current
	9	I(Vg)	device_current
	10	I(Vdd)	device_current
Values:
0		1.000000000000000e+00,0.000000000000000e+00
	-2.723919687758339e-02,1.562358419200084e-10
	1.000000000000000e+00,0.000000000000000e+00
	0.000000000000000e+00,0.000000000000000e+00
	2.723919687758339e-06,-1.562358419200084e-14
	2.376425005664067e-24,1.041211709009440e-13
	2.723919680241191e-14,-3.253802268821843e-15
	-2.723919714997536e-06,-8.524378444012133e-14
	-2.723919687758339e-06,1.562358419200084e-14
	-2.376425005664067e-24,-1.041211709009440e-13
	-2.723919687758339e-06,1.562358419200084e-14
1		1.023292992280754e+00,0.000000000000000e+00
	-2.723919687758339e-02,1.598750421798283e-10
	1.000000000000000e+00,0.000000000000000e+00
	0.000000000000000e+00,0.000000000000000e+00
	2.723919687758339e-06,-1.598750421798283e-14
	2.488422465732866e-24,1.065464645310028e-13
	2.723919680241191e-14,-3.329593059952603e-15
	-2.723919714997536e-06,-8.722936725306734e-14
	-2.723919687758339e-06,1.598750421798283e-14
	-2.488422465732866e-24,-1.065464645310028e-13
	-2.723919687758339e-06,1.598750421798283e-14
2		1.047128548050899e+00,0.000000000000000e+00
	-2.723919687758339e-02,1.635990103032083e-10
	1.000000000000000e+00,0.000000000000000e+00
	0.000000000000000e+00,0.000000000000000e+00
	2.723919687758339e-06,-1.635990103032083e-14
	2.605698203480094e-24,1.090282505068651e-13
	2.723919680241191e-14,-3.407149245396134e-15
	-2.723919714997536e-06,-8.926120023114810e-14
	-2.723919687758339e-06,1.635990103032083e-14
	-2.605698203480094e-24,-1.090282505068650e-13
	-2.723919687758339e-06,1.635990103032083e-14
3		1.071519305237606e+00,0.000000000000000e+00
	-2.723919687758339e-02,1.674097207873399e-10
	1.000000000000000e+00,0.000000000000000e+00
	0.000000000000000e+00,0.000000000000000e+00
	2.723919687758339e-06,-1.674097207873399e-14
	2.728500976468948e-24,1.115678447043056e-13
	2.723919680241191e-14,-3.486511946468517e-15
	-2.723919714997536e-06,-9.134036067910307e-14
	-2.723919687758339e-06,1.674097207873399e-14
	-2.728500976468948e-24,-1.115678447043056e-13
	-2.723919687758339e-06,1.674097207873399e-14
4		1.096478196143185e+00,0.000000000000000e+00
	-2.723919687758339e-02,1.713091941213626e-10
	1.000000000000000e+00,0.000000000000000e+00
	0.000000000000000e+00,0.000000000000000e+00
	2.723919687758339e-06,-1.713091941213626e-14
	2.857091265845390e-24,1.141665936497833e-13
	2.723919680241191e-14,-3.567723242324389e-15
	-2.723919714997536e-06,-9.346795099532270e-14
	-2.723919687758339e-06,1.713091941213626e-14
	-2.857091265845390e-24,-1.141665936497833e-13
	-2.723919687758339e-06,1.713091941213626e-14
5		1.122018454301963e+00,0.000000000000000e+00
	-2.723919687758339e-02,1.752994978576537e-10
	1.000000000000000e+00,0.000000000000000e+00
	0.000000000000000e+00,0.000000000000000e+00
	2.723919687758339e-06,-1.752994978576537e-14
	2.991741828853591e-24,1.168258752343878e-13
	2.723919680241191e-14,-3.650826192267710e-15
	-2.723919714997536e-06,-9.564509925635467e-14
	-2.723919687758339e-06,1.752994978576537e-14
	-2.991741828853591e-24,-1.168258752343877e-13
	-2.723919687758339e-06,1.752994978576537e-14
6		1.148153621496882e+00,0.000000000000000e+00
	-2.723919687758339e-02,1.793827477080721e-10
	1.000000000000000e+00,0.000000000000000e+00
	0.000000000000000e+00,0.000000000000000e+00
	2.723919687758339e-06,-1.793827477080721e-14
	3.132738277390603e-24,1.195470994444147e-13
	2.723919680241191e-14,-3.735864858582560e-15
	-2.723919714997536e-06,-9.787295981502490e-14
	-2.723919687758339e-06,1.793827477080721e-14
	-3.132738277390603e-24,-1.195470994444147e-13
	-2.723919687758339e-06,1.793827477080721e-14
7		1.174897554939529e+00,0.000000000000000e+00
	-2.723919687758339e-02,1.835611086657367e-10
	1.000000000000000e+00,0.000000000000000e+00
	0.000000000000000e+00,0.000000000000000e+00
	2.723919687758339e-06,-1.835611086657367e-14
	3.280379683827498e-24,1.223317091089600e-13
	2.723919680241191e-14,-3.822884329895482e-15
	-2.723919714997536e-06,-1.001527139124908e-13
	-2.723919687758339e-06,1.835611086657367e-14
	-3.280379683827498e-24,-1.223317091089600e-13
	-2.723919687758339e-06,1.835611086657367e-14
8		1.202264434617413e+00,0.000000000000000e+00
	-2.723919687758339e-02,1.878367961529344e-10
	1.000000000000000e+00,0.000000000000000e+00
	0.000000000000000e+00,0.000000000000000e+00
	2.723919687758339e-06,-1.878367961529344e-14
	3.434979215381957e-24,1.251811806649264e-13
	2.723919680241191e-14,-3.911930745081929e-15
	-2.723919714997536e-06,-1.024855703045511e-13
	-2.723919687758339e-06,1.878367961529344e-14
	-3.434979215381957e-24,-1.251811806649264e-13
	-2.723919687758339e-06,1.878367961529344e-14
9		1.230268770812381e+00,0.000000000000000e+00
	-2.723919687758339e-02,1.922120771957663e-10
	1.000000000000000e+00,0.000000000000000e+00
	0.000000000000000e+00,0.000000000000000e+00
	2.723919687758339e-06,-1.922120771957662e-14
	3.596864798387926e-24,1.280970249398503e-13
	2.723919680241191e-14,-4.003051317729994e-15
	-2.723919714997536e-06,-1.048727659025436e-13
	-2.723919687758339e-06,1.922120771957663e-14
	-3.596864798387926e-24,-1.280970249398502e-13
	-2.723919687758339e-06,1.922120771957663e-14
10		1.258925411794167e+00,0.000000000000000e+00
	-2.723919687758339e-02,1.966892716261549e-10
	1.000000000000000e+00,0.000000000000000e+00
	0.000000000000000e+00,0.000000000000000e+00
	2.723919687758339e-06,-1.966892716261549e-14
	3.766379813871341e-24,1.310807879529618e-13
	2.723919680241191e-14,-4.096294361173346e-15
	-2.723919714997536e-06,-1.073155664291729e-13
	-2.723919687758339e-06,1.966892716261549e-14
	-3.766379813871341e-24,-1.310807879529617e-13
	-2.723919687758339e-06,1.966892716261549e-14
11		1.288249551693134e+00,0.000000000000000e+00
	-2.723919687758339e-02,2.012707533118502e-10
	1.000000000000000e+00,0.000000000000000e+00
	0.000000000000000e+00,0.000000000000000e+00
	2.723919687758339e-06,-2.012707533118502e-14
	3.943883825907316e-24,1.341340517349053e-13
	2.723919680241191e-14,-4.191709314107844e-15
	-2.723919714997536e-06,-1.098152670896124e-13
	-2.723919687758339e-06,2.012707533118502e-14
	-3.943883825907316e-24,-1.341340517349053e-13
	-2.723919687758339e-06,2.012707533118502e-14
12		1.318256738556407e+00,0.000000000000000e+00
	-2.723919687758339e-02,2.059589514150846e-10
	1.000000000000000e+00,0.000000000000000e+00
	0.000000000000000e+00,0.000000000000000e+00
	2.723919687758339e-06,-2.059589514150847e-14
	4.129753344303754e-24,1.372584351665527e-13
	2.723919680241191e-14,-4.289346766804510e-15
	-2.723919714997536e-06,-1.123731932582397e-13
	-2.723919687758339e-06,2.059589514150847e-14
	-4.129753344303754e-24,-1.372584351665527e-13
	-2.723919687758339e-06,2.059589514150847e-14
13		1.348962882591653e+00,0.000000000000000e+00
	-2.723919687758339e-02,2.107563516805484e-10
	1.000000000000000e+00,0.000000000000000e+00
	0.000000000000000e+00,0.000000000000000e+00
	2.723919687758339e-06,-2.107563516805484e-14
	4.324382623229135e-24,1.404555948373556e-13
	2.723919680241191e-14,-4.389258487933156e-15
	-2.723919714997536e-06,-1.149907011813676e-13
	-2.723919687758339e-06,2.107563516805484e-14
	-4.324382623229135e-24,-1.404555948373556e-13
	-2.723919687758339e-06,2.107563516805484e-14
14		1.380384264602885e+00,0.000000000000000e+00
	-2.723919687758339e-02,2.156654977533633e-10
	1.000000000000000e+00,0.000000000000000e+00
	0.000000000000000e+00,0.000000000000000e+00
	2.723919687758339e-06,-2.156654977533634e-14
	4.528184497478466e-24,1.437272259236909e-13
	2.723919680241191e-14,-4.491497452010821e-15
	-2.723919714997536e-06,-1.176691786963437e-13
	-2.723919687758339e-06,2.156654977533634e-14
	-4.528184497478466e-24,-1.437272259236908e-13
	-2.723919687758339e-06,2.156654977533634e-14
15		1.412537544622754e+00,0.000000000000000e+00
	-2.723919687758339e-02,2.206889925277574e-10
	1.000000000000000e+00,0.000000000000000e+00
	0.000000000000000e+00,0.000000000000000e+00
	2.723919687758339e-06,-2.206889925277574e-14
	4.741591258151219e-24,1.470750630876656e-13
	2.723919680241191e-14,-4.596117867489555e-15
	-2.723919714997536e-06,-1.204100459674003e-13
	-2.723919687758339e-06,2.206889925277574e-14
	-4.741591258151219e-24,-1.470750630876656e-13
	-2.723919687758339e-06,2.206889925277574e-14
16		1.445439770745927e+00,0.000000000000000e+00
	-2.723919687758339e-02,2.258294995271539e-10
	1.000000000000000e+00,0.000000000000000e+00
	0.000000000000000e+00,0.000000000000000e+00
	2.723919687758339e-06,-2.258294995271539e-14
	4.965055569598721e-24,1.505008813968580e-13
	2.723919680241191e-14,-4.703175205498418e-15
	-2.723919714997536e-06,-1.232147562386442e-13
	-2.723919687758339e-06,2.258294995271539e-14
	-4.965055569598721e-24,-1.505008813968579e-13
	-2.723919687758339e-06,2.258294995271539e-14
17		1.479108388168207e+00,0.000000000000000e+00
	-2.723919687758339e-02,2.310897443164064e-10
	1.000000000000000e+00,0.000000000000000e+00
	0.000000000000000e+00,0.000000000000000e+00
	2.723919687758339e-06,-2.310897443164064e-14
	5.199051429585940e-24,1.540064972654817e-13
	2.723919680241191e-14,-4.812726229255126e-15
	-2.723919714997536e-06,-1.260847966045859e-13
	-2.723919687758339e-06,2.310897443164064e-14
	-5.199051429585940e-24,-1.540064972654816e-13
	-2.723919687758339e-06,2.310897443164064e-14
18		1.513561248436208e+00,0.000000000000000e+00
	-2.723919687758339e-02,2.364725159469299e-10
	1.000000000000000e+00,0.000000000000000e+00
	0.000000000000000e+00,0.000000000000000e+00
	2.723919687758339e-06,-2.364725159469299e-14
	5.444075174704279e-24,1.575937694174725e-13
	2.723919680241191e-14,-4.924829024162536e-15
	-2.723919714997536e-06,-1.290216887986170e-13
	-2.723919687758339e-06,2.364725159469299e-14
	-5.444075174704279e-24,-1.575937694174725e-13
	-2.723919687758339e-06,2.364725159469299e-14
19		1.548816618912481e+00,0.000000000000000e+00
	-2.723919687758339e-02,2.419806684354923e-10
	1.000000000000000e+00,0.000000000000000e+00
	0.000000000000000e+00,0.000000000000000e+00
	2.723919687758339e-06,-2.419806684354923e-14
	5.700646533168039e-24,1.612645998720087e-13
	2.723919680241191e-14,-5.039543028606409e-15
	-2.723919714997536e-06,-1.320269899998530e-13
	-2.723919687758339e-06,2.419806684354923e-14
	-5.700646533168039e-24,-1.612645998720086e-13
	-2.723919687758339e-06,2.419806684354923e-14
20		1.584893192461113e+00,0.000000000000000e+00
	-2.723919687758339e-02,2.476171222774519e-10
	1.000000000000000e+00,0.000000000000000e+00
	0.000000000000000e+00,0.000000000000000e+00
	2.723919687758339e-06,-2.476171222774519e-14
	5.969309727227643e-24,1.650209349519863e-13
	2.723919680241191e-14,-5.156929065470265e-15
	-2.723919714997536e-06,-1.351022936587708e-13
	-2.723919687758339e-06,2.476171222774519e-14
	-5.969309727227643e-24,-1.650209349519862e-13
	-2.723919687758339e-06,2.476171222774519e-14
21		1.621810097358929e+00,0.000000000000000e+00
	-2.723919687758339e-02,2.533848659952432e-10
	1.000000000000000e+00,0.000000000000000e+00
	0.000000000000000e+00,0.000000000000000e+00
	2.723919687758339e-06,-2.533848659952431e-14
	6.250634627537993e-24,1.688647663159857e-13
	2.723919680241191e-14,-5.277049374384631e-15
	-2.723919714997536e-06,-1.382492303420767e-13
	-2.723919687758339e-06,2.533848659952432e-14
	-6.250634627537993e-24,-1.688647663159857e-13
	-2.723919687758339e-06,2.533848659952432e-14
22		1.659586907437560e+00,0.000000000000000e+00
	-2.723919687758339e-02,2.592869577229302e-10
	1.000000000000000e+00,0.000000000000000e+00
	0.000000000000000e+00,0.000000000000000e+00
	2.723919687758339e-06,-2.592869577229303e-14
	6.545217961930533e-24,1.727981320142753e-13
	2.723919680241191e-14,-5.399967644727347e-15
	-2.723919714997536e-06,-1.414694685972549e-13
	-2.723919687758339e-06,2.592869577229302e-14
	-6.545217961930533e-24,-1.727981320142753e-13
	-2.723919687758339e-06,2.592869577229302e-14
23		1.698243652461743e+00,0.000000000000000e+00
	-2.723919687758339e-02,2.653265268276706e-10
	1.000000000000000e+00,0.000000000000000e+00
	0.000000000000000e+00,0.000000000000000e+00
	2.723919687758339e-06,-2.653265268276707e-14
	6.853684581152985e-24,1.768231175694126e-13
	2.723919680241191e-14,-5.525749049392331e-15
	-2.723919714997536e-06,-1.447647158372532e-13
	-2.723919687758339e-06,2.653265268276707e-14
	-6.853684581152985e-24,-1.768231175694125e-13
	-2.723919687758339e-06,2.653265268276707e-14
24		1.737800828749374e+00,0.000000000000000e+00
	-2.723919687758339e-02,2.715067755689469e-10
	1.000000000000000e+00,0.000000000000000e+00
	0.000000000000000e+00,0.000000000000000e+00
	2.723919687758339e-06,-2.715067755689469e-14
	7.176688784261562e-24,1.809418570820158e-13
	2.723919680241191e-14,-5.654460279345200e-15
	-2.723919714997536e-06,-1.481367192457759e-13
	-2.723919687758339e-06,2.715067755689469e-14
	-7.176688784261562e-24,-1.809418570820157e-13
	-2.723919687758339e-06,2.715067755689469e-14
25		1.778279410038922e+00,0.000000000000000e+00
	-2.723919687758339e-02,2.778309807964468e-10
	1.000000000000000e+00,0.000000000000000e+00
	0.000000000000000e+00,0.000000000000000e+00
	2.723919687758339e-06,-2.778309807964468e-14
	7.514915706476985e-24,1.851565343622924e-13
	2.723919680241191e-14,-5.786169578983785e-15
	-2.723919714997536e-06,-1.515872667036640e-13
	-2.723919687758339e-06,2.778309807964468e-14
	-7.514915706476985e-24,-1.851565343622924e-13
	-2.723919687758339e-06,2.778309807964468e-14
26		1.819700858609982e+00,0.000000000000000e+00
	-2.723919687758339e-02,2.843024956874928e-10
	1.000000000000000e+00,0.000000000000000e+00
	0.000000000000000e+00,0.000000000000000e+00
	2.723919687758339e-06,-2.843024956874927e-14
	7.869082772448144e-24,1.894693840879245e-13
	2.723919680241191e-14,-5.920946782322215e-15
	-2.723919714997536e-06,-1.551181877368530e-13
	-2.723919687758339e-06,2.843024956874928e-14
	-7.869082772448144e-24,-1.894693840879245e-13
	-2.723919687758339e-06,2.843024956874928e-14
27		1.862087136662866e+00,0.000000000000000e+00
	-2.723919687758339e-02,2.909247515249407e-10
	1.000000000000000e+00,0.000000000000000e+00
	0.000000000000000e+00,0.000000000000000e+00
	2.723919687758339e-06,-2.909247515249407e-14
	8.239941218005973e-24,1.938826929889238e-13
	2.723919680241191e-14,-6.058863350017582e-15
	-2.723919714997536e-06,-1.587313544864121e-13
	-2.723919687758339e-06,2.909247515249407e-14
	-8.239941218005973e-24,-1.938826929889237e-13
	-2.723919687758339e-06,2.909247515249407e-14
28		1.905460717963246e+00,0.000000000000000e+00
	-2.723919687758339e-02,2.977012595164914e-10
	1.000000000000000e+00,0.000000000000000e+00
	0.000000000000000e+00,0.000000000000000e+00
	2.723919687758339e-06,-2.977012595164914e-14
	8.628277683635351e-24,1.983988010600866e-13
	2.723919680241191e-14,-6.199992407259694e-15
	-2.723919714997536e-06,-1.624286827011777e-13
	-2.723919687758339e-06,2.977012595164914e-14
	-8.628277683635351e-24,-1.983988010600865e-13
	-2.723919687758339e-06,2.977012595164914e-14
29		1.949844599758044e+00,0.000000000000000e+00
	-2.723919687758339e-02,3.046356126563799e-10
	1.000000000000000e+00,0.000000000000000e+00
	0.000000000000000e+00,0.000000000000000e+00
	2.723919687758339e-06,-3.046356126563799e-14
	9.034915883045069e-24,2.030201028016901e-13
	2.723919680241191e-14,-6.344408782542732e-15
	-2.723919714997536e-06,-1.662121327535093e-13
	-2.723919687758339e-06,3.046356126563799e-14
	-9.034915883045069e-24,-2.030201028016900e-13
	-2.723919687758339e-06,3.046356126563799e-14
30		1.995262314968878e+00,0.000000000000000e+00
	-2.723919687758339e-02,3.117314876304276e-10
	1.000000000000000e+00,0.000000000000000e+00
	0.000000000000000e+00,0.000000000000000e+00
	2.723919687758339e-06,-3.117314876304277e-14
	9.460718350374989e-24,2.077490484890877e-13
	2.723919680241191e-14,-6.492189047340467e-15
	-2.723919714997536e-06,-1.700837106787045e-13
	-2.723919687758339e-06,3.117314876304277e-14
	-9.460718350374989e-24,-2.077490484890877e-13
	-2.723919687758339e-06,3.117314876304277e-14
31		2.041737944669527e+00,0.000000000000000e+00
	-2.723919687758339e-02,3.189926467654712e-10
	1.000000000000000e+00,0.000000000000000e+00
	0.000000000000000e+00,0.000000000000000e+00
	2.723919687758339e-06,-3.189926467654712e-14
	9.906588269746663e-24,2.125881454718780e-13
	2.723919680241191e-14,-6.643411556705321e-15
	-2.723919714997536e-06,-1.740454692386256e-13
	-2.723919687758339e-06,3.189926467654713e-14
	-9.906588269746663e-24,-2.125881454718780e-13
	-2.723919687758339e-06,3.189926467654713e-14
32		2.089296130854037e+00,0.000000000000000e+00
	-2.723919687758339e-02,3.264229400241966e-10
	1.000000000000000e+00,0.000000000000000e+00
	0.000000000000000e+00,0.000000000000000e+00
	2.723919687758339e-06,-3.264229400241966e-14
	1.037347139103789e-23,2.175399595033343e-13
	2.723919680241191e-14,-6.798156490813551e-15
	-2.723919714997536e-06,-1.780995090101011e-13
	-2.723919687758339e-06,3.264229400241966e-14
	-1.037347139103789e-23,-2.175399595033343e-13
	-2.723919687758339e-06,3.264229400241966e-14
33		2.137962089502230e+00,0.000000000000000e+00
	-2.723919687758339e-02,3.340263070464413e-10
	1.000000000000000e+00,0.000000000000000e+00
	0.000000000000000e+00,0.000000000000000e+00
	2.723919687758339e-06,-3.340263070464413e-14
	1.086235803594506e-23,2.226071161008010e-13
	2.723919680241191e-14,-6.956505897477441e-15
	-2.723919714997536e-06,-1.822479794986795e-13
	-2.723919687758339e-06,3.340263070464413e-14
	-1.086235803594506e-23,-2.226071161008010e-13
	-2.723919687758339e-06,3.340263070464413e-14
34		2.187761623949550e+00,0.000000000000000e+00
	-2.723919687758339e-02,3.418067792380428e-10
	1.000000000000000e+00,0.000000000000000e+00
	0.000000000000000e+00,0.000000000000000e+00
	2.723919687758339e-06,-3.418067792380428e-14
	1.137428519858817e-23,2.277923019377779e-13
	2.723919680241191e-14,-7.118543735648390e-15
	-2.723919714997536e-06,-1.864930802783252e-13
	-2.723919687758339e-06,3.418067792380429e-14
	-1.137428519858817e-23,-2.277923019377779e-13
	-2.723919687758339e-06,3.418067792380429e-14
35		2.238721138568337e+00,0.000000000000000e+00
	-2.723919687758339e-02,3.497684819083440e-10
	1.000000000000000e+00,0.000000000000000e+00
	0.000000000000000e+00,0.000000000000000e+00
	2.723919687758339e-06,-3.497684819083440e-14
	1.191033874511446e-23,2.330982662684298e-13
	2.723919680241191e-14,-7.284355919933054e-15
	-2.723919714997536e-06,-1.908370621576623e-13
	-2.723919687758339e-06,3.497684819083439e-14
	-1.191033874511446e-23,-2.330982662684297e-13
	-2.723919687758339e-06,3.497684819083439e-14
36		2.290867652767770e+00,0.000000000000000e+00
	-2.723919687758339e-02,3.579156364574861e-10
	1.000000000000000e+00,0.000000000000000e+00
	0.000000000000000e+00,0.000000000000000e+00
	2.723919687758339e-06,-3.579156364574861e-14
	1.247165571696608e-23,2.385278223852775e-13
	2.723919680241191e-14,-7.454030366146340e-15
	-2.723919714997536e-06,-1.952822283733825e-13
	-2.723919687758339e-06,3.579156364574861e-14
	-1.247165571696608e-23,-2.385278223852774e-13
	-2.723919687758339e-06,3.579156364574861e-14
37		2.344228815319919e+00,0.000000000000000e+00
	-2.723919687758339e-02,3.662525626146515e-10
	1.000000000000000e+00,0.000000000000000e+00
	0.000000000000000e+00,0.000000000000000e+00
	2.723919687758339e-06,-3.662525626146515e-14
	1.305942674269739e-23,2.440838491108428e-13
	2.723919680241191e-14,-7.627657037925498e-15
	-2.723919714997536e-06,-1.998309358114522e-13
	-2.723919687758339e-06,3.662525626146515e-14
	-1.305942674269739e-23,-2.440838491108428e-13
	-2.723919687758339e-06,3.662525626146515e-14
38		2.398832919019488e+00,0.000000000000000e+00
	-2.723919687758339e-02,3.747836807284410e-10
	1.000000000000000e+00,0.000000000000000e+00
	0.000000000000000e+00,0.000000000000000e+00
