Title: * GA CMOS Amp | W=2.888139054222735e-06 L=4.1133476727911456e-07 Vbias=1.1277152267258972
Date: Sat Sep  6 22:33:50 2025
Plotname: AC Analysis
Flags: complex forward log
No. Variables: 13
No. Points:          901
Offset:    0.0000000000000000e+00
Command: Linear Technology Corporation LTspice
Variables:
	0	frequency	frequency
	1	V(out)	voltage
	2	V(g)	voltage
	3	V(vdd)	voltage
	4	V(m1#dbody)	voltage
	5	V(m1#sbody)	voltage
	6	Id(M1)	device_current
	7	Ig(M1)	device_current
	8	Ib(M1)	device_current
	9	Is(M1)	device_current
	10	I(Rload)	device_current
	11	I(Vg)	device_current
	12	I(Vdd)	device_current
Values:
0		1.000000000000000e+00,0.000000000000000e+00
	-9.527670161108133e-02,2.966237976697863e-10
	1.000000000000000e+00,0.000000000000000e+00
	0.000000000000000e+00,0.000000000000000e+00
	1.670966010752693e-06,3.058174635012989e-14
	1.670966725331614e-06,3.654356698070416e-14
	9.527670161108138e-06,-2.966237976697860e-14
	1.612137193828852e-06,3.032101856018891e-13
	-8.911822065450607e-07,-1.909252046926736e-14
	-1.024862514839193e-05,-2.544552853656432e-13
	-9.527670161108133e-06,2.966237976697863e-14
	-1.612137193740537e-06,-3.032101856018892e-13
	-9.527670161108133e-06,2.966237976697863e-14
1		1.023292992280754e+00,0.000000000000000e+00
	-9.527670161108133e-02,3.035330534991966e-10
	1.000000000000000e+00,0.000000000000000e+00
	0.000000000000000e+00,0.000000000000000e+00
	1.670966010752693e-06,3.129408673179545e-14
	1.670966725331614e-06,3.739477600429692e-14
	9.527670161108138e-06,-3.035330534991966e-14
	1.612137193828852e-06,3.102728581145600e-13
	-8.911822065450607e-07,-1.953724240117815e-14
	-1.024862514839193e-05,-2.603823103634622e-13
	-9.527670161108133e-06,3.035330534991967e-14
	-1.612137193740537e-06,-3.102728581145600e-13
	-9.527670161108133e-06,3.035330534991967e-14
2		1.047128548050899e+00,0.000000000000000e+00
	-9.527670161108133e-02,3.106032465713071e-10
	1.000000000000000e+00,0.000000000000000e+00
	0.000000000000000e+00,0.000000000000000e+00
	1.670966010752693e-06,3.202301965247240e-14
	1.670966725331614e-06,3.826581223310553e-14
	9.527670161108138e-06,-3.106032465713073e-14
	1.612137193828852e-06,3.175000414035499e-13
	-8.911822065450607e-07,-1.999232323761601e-14
	-1.024862514839193e-05,-2.664473935088032e-13
	-9.527670161108133e-06,3.106032465713071e-14
	-1.612137193740537e-06,-3.175000414035500e-13
	-9.527670161108133e-06,3.106032465713071e-14
3		1.071519305237606e+00,0.000000000000000e+00
	-9.527670161108133e-02,3.178381255960696e-10
	1.000000000000000e+00,0.000000000000000e+00
	0.000000000000000e+00,0.000000000000000e+00
	1.670966010752693e-06,3.276893160204388e-14
	1.670966725331614e-06,3.915713750206805e-14
	9.527670161108138e-06,-3.178381255960701e-14
	1.612137193828852e-06,3.248955674171019e-13
	-8.911822065450607e-07,-2.045800426846414e-14
	-1.024862514839193e-05,-2.726537505890307e-13
	-9.527670161108133e-06,3.178381255960696e-14
	-1.612137193740537e-06,-3.248955674171019e-13
	-9.527670161108133e-06,3.178381255960696e-14
4		1.096478196143185e+00,0.000000000000000e+00
	-9.527670161108133e-02,3.252415266021083e-10
	1.000000000000000e+00,0.000000000000000e+00
	0.000000000000000e+00,0.000000000000000e+00
	1.670966010752693e-06,3.353221807289885e-14
	1.670966725331614e-06,4.006922440364014e-14
	9.527670161108138e-06,-3.252415266021081e-14
	1.612137193828852e-06,3.324633573609996e-13
	-8.911822065450607e-07,-2.093453240396911e-14
	-1.024862514839193e-05,-2.790046722968197e-13
	-9.527670161108133e-06,3.252415266021082e-14
	-1.612137193740537e-06,-3.324633573609996e-13
	-9.527670161108133e-06,3.252415266021082e-14
5		1.122018454301963e+00,0.000000000000000e+00
	-9.527670161108133e-02,3.328173749706319e-10
	1.000000000000000e+00,0.000000000000000e+00
	0.000000000000000e+00,0.000000000000000e+00
	1.670966010752693e-06,3.431328376962743e-14
	1.670966725331614e-06,4.100255653836993e-14
	9.527670161108138e-06,-3.328173749706319e-14
	1.612137193828852e-06,3.402074237776430e-13
	-8.911822065450607e-07,-2.142216030565595e-14
	-1.024862514839193e-05,-2.855035259749239e-13
	-9.527670161108133e-06,3.328173749706319e-14
	-1.612137193740537e-06,-3.402074237776431e-13
	-9.527670161108133e-06,3.328173749706319e-14
6		1.148153621496882e+00,0.000000000000000e+00
	-9.527670161108133e-02,3.405696875167236e-10
	1.000000000000000e+00,0.000000000000000e+00
	0.000000000000000e+00,0.000000000000000e+00
	1.670966010752693e-06,3.511254282360070e-14
	1.670966725331614e-06,4.195762877130937e-14
	9.527670161108138e-06,-3.405696875167239e-14
	1.612137193828852e-06,3.481318726735509e-13
	-8.911822065450607e-07,-2.192114652029268e-14
	-1.024862514839193e-05,-2.921537574015858e-13
	-9.527670161108133e-06,3.405696875167237e-14
	-1.612137193740537e-06,-3.481318726735510e-13
	-9.527670161108133e-06,3.405696875167237e-14
7		1.174897554939529e+00,0.000000000000000e+00
	-9.527670161108133e-02,3.485025746191095e-10
	1.000000000000000e+00,0.000000000000000e+00
	0.000000000000000e+00,0.000000000000000e+00
	1.670966010752693e-06,3.593041901254848e-14
	1.670966725331614e-06,4.293494749439824e-14
	9.527670161108138e-06,-3.485025746191100e-14
	1.612137193828852e-06,3.562409056964204e-13
	-8.911822065450607e-07,-2.243175561697514e-14
	-1.024862514839193e-05,-2.989588926175342e-13
	-9.527670161108133e-06,3.485025746191095e-14
	-1.612137193740537e-06,-3.562409056964204e-13
	-9.527670161108133e-06,3.485025746191095e-14
8		1.202264434617413e+00,0.000000000000000e+00
	-9.527670161108133e-02,3.566202423995353e-10
	1.000000000000000e+00,0.000000000000000e+00
	0.000000000000000e+00,0.000000000000000e+00
	1.670966010752693e-06,3.676734598525203e-14
	1.670966725331614e-06,4.393503089495982e-14
	9.527670161108138e-06,-3.566202423995358e-14
	1.612137193828852e-06,3.645388223628960e-13
	-8.911822065450607e-07,-2.295425832740510e-14
	-1.024862514839193e-05,-3.059225397955373e-13
	-9.527670161108133e-06,3.566202423995354e-14
	-1.612137193740537e-06,-3.645388223628961e-13
	-9.527670161108133e-06,3.566202423995354e-14
9		1.230268770812381e+00,0.000000000000000e+00
	-9.527670161108133e-02,3.649269949529084e-10
	1.000000000000000e+00,0.000000000000000e+00
	0.000000000000000e+00,0.000000000000000e+00
	1.670966010752693e-06,3.762376749147034e-14
	1.670966725331614e-06,4.495840923045084e-14
	9.527670161108138e-06,-3.649269949529085e-14
	1.612137193828852e-06,3.730300223382301e-13
	-8.911822065450607e-07,-2.348893168943579e-14
	-1.024862514839193e-05,-3.130483911535034e-13
	-9.527670161108133e-06,3.649269949529084e-14
	-1.612137193740537e-06,-3.730300223382301e-13
	-9.527670161108133e-06,3.649269949529084e-14
10		1.258925411794167e+00,0.000000000000000e+00
	-9.527670161108133e-02,3.734272366293854e-10
	1.000000000000000e+00,0.000000000000000e+00
	0.000000000000000e+00,0.000000000000000e+00
	1.670966010752693e-06,3.850013761722203e-14
	1.670966725331614e-06,4.600562510961070e-14
	9.527670161108138e-06,-3.734272366293853e-14
	1.612137193828852e-06,3.817190077690440e-13
	-8.911822065450607e-07,-2.403605919396098e-14
	-1.024862514839193e-05,-3.203402249121445e-13
	-9.527670161108133e-06,3.734272366293854e-14
	-1.612137193740537e-06,-3.817190077690441e-13
	-9.527670161108133e-06,3.734272366293854e-14
11		1.288249551693134e+00,0.000000000000000e+00
	-9.527670161108133e-02,3.821254743696169e-10
	1.000000000000000e+00,0.000000000000000e+00
	0.000000000000000e+00,0.000000000000000e+00
	1.670966010752693e-06,3.939692102554797e-14
	1.670966725331614e-06,4.707723378016015e-14
	9.527670161108138e-06,-3.821254743696174e-14
	1.612137193828852e-06,3.906103856704255e-13
	-8.911822065450607e-07,-2.459593093522567e-14
	-1.024862514839193e-05,-3.278019072982381e-13
	-9.527670161108133e-06,3.821254743696170e-14
	-1.612137193740537e-06,-3.906103856704256e-13
	-9.527670161108133e-06,3.821254743696170e-14
12		1.318256738556407e+00,0.000000000000000e+00
	-9.527670161108133e-02,3.910263200943880e-10
	1.000000000000000e+00,0.000000000000000e+00
	0.000000000000000e+00,0.000000000000000e+00
	1.670966010752693e-06,4.031459320288153e-14
	1.670966725331614e-06,4.817380342320067e-14
	9.527670161108138e-06,-3.910263200943880e-14
	1.612137193828852e-06,3.997088703686292e-13
	-8.911822065450607e-07,-2.516884376463783e-14
	-1.024862514839193e-05,-3.354373945945525e-13
	-9.527670161108133e-06,3.910263200943880e-14
	-1.612137193740537e-06,-3.997088703686292e-13
	-9.527670161108133e-06,3.910263200943880e-14
13		1.348962882591653e+00,0.000000000000000e+00
	-9.527670161108133e-02,4.001344931499183e-10
	1.000000000000000e+00,0.000000000000000e+00
	0.000000000000000e+00,0.000000000000000e+00
	1.670966010752693e-06,4.125364071115798e-14
	1.670966725331614e-06,4.929591545447184e-14
	9.527670161108138e-06,-4.001344931499181e-14
	1.612137193828852e-06,4.090192860006746e-13
	-8.911822065450607e-07,-2.575510144816305e-14
	-1.024862514839193e-05,-3.432507352375198e-13
	-9.527670161108133e-06,4.001344931499183e-14
	-1.612137193740537e-06,-4.090192860006746e-13
	-9.527670161108133e-06,4.001344931499183e-14
14		1.380384264602885e+00,0.000000000000000e+00
	-9.527670161108133e-02,4.094548228101228e-10
	1.000000000000000e+00,0.000000000000000e+00
	0.000000000000000e+00,0.000000000000000e+00
	1.670966010752693e-06,4.221456144579600e-14
	1.670966725331614e-06,5.044416483262556e-14
	9.527670161108138e-06,-4.094548228101228e-14
	1.612137193828852e-06,4.185465690721679e-13
	-8.911822065450607e-07,-2.635501482738515e-14
	-1.024862514839193e-05,-3.512460719637705e-13
	-9.527670161108133e-06,4.094548228101228e-14
	-1.612137193740537e-06,-4.185465690721679e-13
	-9.527670161108133e-06,4.094548228101228e-14
15		1.412537544622754e+00,0.000000000000000e+00
	-9.527670161108133e-02,4.189922508371565e-10
	1.000000000000000e+00,0.000000000000000e+00
	0.000000000000000e+00,0.000000000000000e+00
	1.670966010752693e-06,4.319786489968834e-14
	1.670966725331614e-06,5.161916037468100e-14
	9.527670161108138e-06,-4.189922508371570e-14
	1.612137193828852e-06,4.282957710747021e-13
	-8.911822065450607e-07,-2.696890198431859e-14
	-1.024862514839193e-05,-3.594276440066678e-13
	-9.527670161108133e-06,4.189922508371565e-14
	-1.612137193740537e-06,-4.282957710747021e-13
	-9.527670161108133e-06,4.189922508371565e-14
16		1.445439770745927e+00,0.000000000000000e+00
	-9.527670161108133e-02,4.287518341016021e-10
	1.000000000000000e+00,0.000000000000000e+00
	0.000000000000000e+00,0.000000000000000e+00
	1.670966010752693e-06,4.420407243334181e-14
	1.670966725331614e-06,5.282152507882742e-14
	9.527670161108138e-06,-4.287518341016022e-14
	1.612137193828852e-06,4.382720611642246e-13
	-8.911822065450607e-07,-2.759708841005973e-14
	-1.024862514839193e-05,-3.677997893440047e-13
	-9.527670161108133e-06,4.287518341016022e-14
	-1.612137193740537e-06,-4.382720611642247e-13
	-9.527670161108133e-06,4.287518341016022e-14
17		1.479108388168207e+00,0.000000000000000e+00
	-9.527670161108133e-02,4.387387472636899e-10
	1.000000000000000e+00,0.000000000000000e+00
	0.000000000000000e+00,0.000000000000000e+00
	1.670966010752693e-06,4.523371755130956e-14
	1.670966725331614e-06,5.405189645474623e-14
	9.527670161108138e-06,-4.387387472636900e-14
	1.612137193828852e-06,4.484807289017931e-13
	-8.911822065450607e-07,-2.823990717736654e-14
	-1.024862514839193e-05,-3.763669469980576e-13
	-9.527670161108133e-06,4.387387472636899e-14
	-1.612137193740537e-06,-4.484807289017931e-13
	-9.527670161108133e-06,4.387387472636899e-14
18		1.513561248436208e+00,0.000000000000000e+00
	-9.527670161108133e-02,4.489582855169707e-10
	1.000000000000000e+00,0.000000000000000e+00
	0.000000000000000e+00,0.000000000000000e+00
	1.670966010752693e-06,4.628734618506203e-14
	1.670966725331614e-06,5.531092686162676e-14
	9.527670161108138e-06,-4.489582855169709e-14
	1.612137193828852e-06,4.589271870581696e-13
	-8.911822065450607e-07,-2.889769911725816e-14
	-1.024862514839193e-05,-3.851336593892143e-13
	-9.527670161108133e-06,4.489582855169708e-14
	-1.612137193740537e-06,-4.589271870581696e-13
	-9.527670161108133e-06,4.489582855169708e-14
19		1.548816618912481e+00,0.000000000000000e+00
	-9.527670161108133e-02,4.594158673958982e-10
	1.000000000000000e+00,0.000000000000000e+00
	0.000000000000000e+00,0.000000000000000e+00
	1.670966010752693e-06,4.736551698244726e-14
	1.670966725331614e-06,5.659928385405597e-14
	9.527670161108138e-06,-4.594158673958982e-14
	1.612137193828852e-06,4.696169744837436e-13
	-8.911822065450607e-07,-2.957081299972800e-14
	-1.024862514839193e-05,-3.941045747444259e-13
	-9.527670161108133e-06,4.594158673958982e-14
	-1.612137193740537e-06,-4.696169744837437e-13
	-9.527670161108133e-06,4.594158673958982e-14
20		1.584893192461113e+00,0.000000000000000e+00
	-9.527670161108133e-02,4.701170376488069e-10
	1.000000000000000e+00,0.000000000000000e+00
	0.000000000000000e+00,0.000000000000000e+00
	1.670966010752693e-06,4.846880160389335e-14
	1.670966725331614e-06,5.791765053596472e-14
	9.527670161108138e-06,-4.701170376488067e-14
	1.612137193828852e-06,4.805557590453046e-13
	-8.911822065450607e-07,-3.025960571866629e-14
	-1.024862514839193e-05,-4.032844495617577e-13
	-9.527670161108133e-06,4.701170376488069e-14
	-1.612137193740537e-06,-4.805557590453045e-13
	-9.527670161108133e-06,4.701170376488069e-14
21		1.621810097358929e+00,0.000000000000000e+00
	-9.527670161108133e-02,4.810674701778114e-10
	1.000000000000000e+00,0.000000000000000e+00
	0.000000000000000e+00,0.000000000000000e+00
	1.670966010752693e-06,4.959778502551023e-14
	1.670966725331614e-06,5.926672592281836e-14
	9.527670161108138e-06,-4.810674701778112e-14
	1.612137193828852e-06,4.917493406312187e-13
	-8.911822065450607e-07,-3.096444248108985e-14
	-1.024862514839193e-05,-4.126781511323478e-13
	-9.527670161108133e-06,4.810674701778115e-14
	-1.612137193740537e-06,-4.917493406312188e-13
	-9.527670161108133e-06,4.810674701778115e-14
22		1.659586907437560e+00,0.000000000000000e+00
	-9.527670161108133e-02,4.922729710471851e-10
	1.000000000000000e+00,0.000000000000000e+00
	0.000000000000000e+00,0.000000000000000e+00
	1.670966010752693e-06,5.075306584925196e-14
	1.670966725331614e-06,6.064722531224415e-14
	9.527670161108138e-06,-4.922729710471856e-14
	1.612137193828852e-06,5.032036542266078e-13
	-8.911822065450607e-07,-3.168569700077974e-14
	-1.024862514839193e-05,-4.222906601211095e-13
	-9.527670161108133e-06,4.922729710471851e-14
	-1.612137193740537e-06,-5.032036542266077e-13
	-9.527670161108133e-06,4.922729710471851e-14
23		1.698243652461743e+00,0.000000000000000e+00
	-9.527670161108133e-02,5.037394815618111e-10
	1.000000000000000e+00,0.000000000000000e+00
	0.000000000000000e+00,0.000000000000000e+00
	1.670966010752693e-06,5.193525662030318e-14
	1.670966725331614e-06,6.205988066329141e-14
	9.527670161108138e-06,-5.037394815618112e-14
	1.612137193828852e-06,5.149247730601554e-13
	-8.911822065450607e-07,-3.242375169642921e-14
	-1.024862514839193e-05,-4.321270732075451e-13
	-9.527670161108133e-06,5.037394815618111e-14
	-1.612137193740537e-06,-5.149247730601555e-13
	-9.527670161108133e-06,5.037394815618111e-14
24		1.737800828749374e+00,0.000000000000000e+00
	-9.527670161108133e-02,5.154730814173413e-10
	1.000000000000000e+00,0.000000000000000e+00
	0.000000000000000e+00,0.000000000000000e+00
	1.670966010752693e-06,5.314498415185887e-14
	1.670966725331614e-06,6.350544098452596e-14
	9.527670161108138e-06,-5.154730814173417e-14
	1.612137193828852e-06,5.269189118242146e-13
	-8.911822065450607e-07,-3.317899789440722e-14
	-1.024862514839193e-05,-4.421926057880731e-13
	-9.527670161108133e-06,5.154730814173413e-14
	-1.612137193740537e-06,-5.269189118242146e-13
	-9.527670161108133e-06,5.154730814173413e-14
25		1.778279410038922e+00,0.000000000000000e+00
	-9.527670161108133e-02,5.274799919237322e-10
	1.000000000000000e+00,0.000000000000000e+00
	0.000000000000000e+00,0.000000000000000e+00
	1.670966010752693e-06,5.438288985746893e-14
	1.670966725331614e-06,6.498467273116441e-14
	9.527670161108138e-06,-5.274799919237315e-14
	1.612137193828852e-06,5.391924299699194e-13
	-8.911822065450607e-07,-3.395183603624480e-14
	-1.024862514839193e-05,-4.524925947413014e-13
	-9.527670161108133e-06,5.274799919237322e-14
	-1.612137193740537e-06,-5.391924299699195e-13
	-9.527670161108133e-06,5.274799919237322e-14
26		1.819700858609982e+00,0.000000000000000e+00
	-9.527670161108133e-02,5.397665793038639e-10
	1.000000000000000e+00,0.000000000000000e+00
	0.000000000000000e+00,0.000000000000000e+00
	1.670966010752693e-06,5.564963009112405e-14
	1.670966725331614e-06,6.649836021145875e-14
	9.527670161108138e-06,-5.397665793038634e-14
	1.612137193828852e-06,5.517518350790496e-13
	-8.911822065450605e-07,-3.474267589095447e-14
	-1.024862514839193e-05,-4.630325012577089e-13
	-9.527670161108133e-06,5.397665793038639e-14
	-1.612137193740537e-06,-5.517518350790498e-13
	-9.527670161108133e-06,5.397665793038639e-14
27		1.862087136662866e+00,0.000000000000000e+00
	-9.527670161108133e-02,5.523393580689978e-10
	1.000000000000000e+00,0.000000000000000e+00
	0.000000000000000e+00,0.000000000000000e+00
	1.670966010752693e-06,5.694587649526342e-14
	1.670966725331614e-06,6.804730600254706e-14
	9.527670161108138e-06,-5.523393580689981e-14
	1.612137193828852e-06,5.646037863144380e-13
	-8.911822065450605e-07,-3.555193677229523e-14
	-1.024862514839193e-05,-4.738179137352430e-13
	-9.527670161108133e-06,5.523393580689977e-14
	-1.612137193740537e-06,-5.646037863144380e-13
	-9.527670161108133e-06,5.523393580689977e-14
28		1.905460717963246e+00,0.000000000000000e+00
	-9.527670161108133e-02,5.652049944728555e-10
	1.000000000000000e+00,0.000000000000000e+00
	0.000000000000000e+00,0.000000000000000e+00
	1.670966010752693e-06,5.827231635688836e-14
	1.670966725331614e-06,6.963233137599049e-14
	9.527670161108138e-06,-5.652049944728561e-14
	1.612137193828852e-06,5.777550979507447e-13
	-8.911822065450605e-07,-3.638004776109815e-14
	-1.024862514839193e-05,-4.848545507423610e-13
	-9.527670161108133e-06,5.652049944728555e-14
	-1.612137193740537e-06,-5.777550979507447e-13
	-9.527670161108133e-06,5.652049944728555e-14
29		1.949844599758044e+00,0.000000000000000e+00
	-9.527670161108133e-02,5.783703100461554e-10
	1.000000000000000e+00,0.000000000000000e+00
	0.000000000000000e+00,0.000000000000000e+00
	1.670966010752693e-06,5.962965297197104e-14
	1.670966725331614e-06,7.125427673322238e-14
	9.527670161108138e-06,-5.783703100461558e-14
	1.612137193828852e-06,5.912127429874777e-13
	-8.911822065450605e-07,-3.722744793277089e-14
	-1.024862514839193e-05,-4.961482640500913e-13
	-9.527670161108133e-06,5.783703100461554e-14
	-1.612137193740537e-06,-5.912127429874779e-13
	-9.527670161108133e-06,5.783703100461554e-14
30		1.995262314968878e+00,0.000000000000000e+00
	-9.527670161108133e-02,5.918422852134779e-10
	1.000000000000000e+00,0.000000000000000e+00
	0.000000000000000e+00,0.000000000000000e+00
	1.670966010752693e-06,6.101860601835119e-14
	1.670966725331614e-06,7.291400205114002e-14
	9.527670161108138e-06,-5.918422852134782e-14
	1.612137193828852e-06,6.049838568461685e-13
	-8.911822065450605e-07,-3.809458659010109e-14
	-1.024862514839193e-05,-5.077050417347196e-13
	-9.527670161108133e-06,5.918422852134779e-14
	-1.612137193740537e-06,-6.049838568461684e-13
	-9.527670161108133e-06,5.918422852134779e-14
31		2.041737944669527e+00,0.000000000000000e+00
	-9.527670161108133e-02,6.056280629943791e-10
	1.000000000000000e+00,0.000000000000000e+00
	0.000000000000000e+00,0.000000000000000e+00
	1.670966010752693e-06,6.243991193731902e-14
	1.670966725331614e-06,7.461238733807613e-14
	9.527670161108138e-06,-6.056280629943793e-14
	1.612137193828852e-06,6.190757411536670e-13
	-8.911822065450605e-07,-3.898192350148283e-14
	-1.024862514839193e-05,-5.195310113527462e-13
	-9.527670161108133e-06,6.056280629943791e-14
	-1.612137193740537e-06,-6.190757411536671e-13
	-9.527670161108133e-06,6.056280629943791e-14
32		2.089296130854037e+00,0.000000000000000e+00
	-9.527670161108133e-02,6.197349527907155e-10
	1.000000000000000e+00,0.000000000000000e+00
	0.000000000000000e+00,0.000000000000000e+00
	1.670966010752693e-06,6.389432432408598e-14
