LTspice 24.0.9 for Windows
Circuit: * GA CMOS Amp | W=1.1285930605391344e-05 L=1e-06 Vbias=1.4394478485333146
Start Time: Sat Sep  6 22:15:16 2025
solver = Normal
Maximum thread count: 2
tnom = 27
temp = 27
method = modified trap
AsciiRawFile = 1
Direct Newton iteration for .op point succeeded.
Semiconductor Device Operating Points:
                        --- BSIM4 MOSFETS ---
Name:      m1
Model:      n
Id:      1.63e-04
Vgs:     1.44e+00
Vds:     1.69e-01
Vbs:     0.00e+00
Vth:     2.36e-01
Vdsat:   8.32e-01
Gm:     -1.61e-05
Gds:     8.70e-04
Gmb      8.17e-05
Cbd:     5.36e-15
Cbs:     9.03e-15


.measure op idd find i(vdd)
  Error: FIND can not be evaluated over an interval.

gain_db: MAX(db(v(out)/v(g)))=(29.6782dB,180°) FROM 1 TO 1e+09
gain_lin: MAX(mag(v(out)/v(g)))=(-2.34201dB,0°) FROM 1 TO 1e+09

Measurement "fc" FAIL'ed

Total elapsed time: 5.922 seconds.

