LTspice 24.0.9 for Windows
Circuit: * GA CMOS Amp | W=2.904607683521253e-05 L=6.86804594860233e-07 Vbias=0.8682812076288349
Start Time: Mon Sep  8 18:47:16 2025
solver = Normal
Maximum thread count: 2
tnom = 27
temp = 27
method = modified trap
AsciiRawFile = 1
Instance "m1": Length shorter than recommended for a level 3 MOSFET.
Direct Newton iteration for .op point succeeded.
Semiconductor Device Operating Points:
                        --- MOSFET Transistors ---
Name:          m1
Model:        n_1u
Id:          6.76e-05
Vgs:         8.68e-01
Vds:         1.12e+00
Vbs:         0.00e+00
Vth:         7.73e-01
Vdsat:       1.23e-01
Gm:          8.22e-04
Gds:         1.69e-05
Gmb:         1.61e-04
Cbd:         0.00e+00
Cbs:         0.00e+00
Cgsov:       5.81e-15
Cgdov:       5.81e-15
Cgbov:       4.87e-17
Cgs:         1.63e-14
Cgd:         0.00e+00
Cgb:         0.00e+00



gain_db: MAX(db(v(out)/v(g)))=(30.1355dB,58.1631°) FROM 1 TO 1e+09
gain_lin: MAX(mag(v(out)/v(g)))=(16.9433dB,0°) FROM 1 TO 1e+09

Measurement "fc" FAIL'ed

Total elapsed time: 0.420 seconds.

