Title: * GA CMOS Amp | W=3.1446613785412825e-05 L=9.671250435812314e-07 Vbias=1.1037734528238974
Date: Mon Sep  8 18:45:08 2025
Plotname: AC Analysis
Flags: complex forward log
No. Variables: 11
No. Points:          901
Offset:    0.0000000000000000e+00
Command: Linear Technology Corporation LTspice
Variables:
	0	frequency	frequency
	1	V(out)	voltage
	2	V(g)	voltage
	3	V(vdd)	voltage
	4	Id(M1)	device_current
	5	Ig(M1)	device_current
	6	Ib(M1)	device_current
	7	Is(M1)	device_current
	8	I(Rload)	device_current
	9	I(Vg)	device_current
	10	I(Vdd)	device_current
Values:
0		1.000000000000000e+00,0.000000000000000e+00
	-7.403192186478376e-01,4.372057381324594e-10
	1.000000000000000e+00,0.000000000000000e+00
	0.000000000000000e+00,0.000000000000000e+00
	7.403192186478385e-05,-4.372057381324595e-14
	7.175839059045559e-23,4.623407702592153e-13
	7.414859741830537e-13,7.351455274860330e-15
	-7.403192260626982e-05,-4.259716517208297e-13
	-7.403192186478377e-05,4.372057381324594e-14
	-7.175839059045559e-23,-4.623407702592153e-13
	-7.403192186478377e-05,4.372057381324594e-14
1		1.023292992280754e+00,0.000000000000000e+00
	-7.403192186478376e-01,4.473895680158802e-10
	1.000000000000000e+00,0.000000000000000e+00
	0.000000000000000e+00,0.000000000000000e+00
	7.403192186478385e-05,-4.473895680158803e-14
	7.514025934945311e-23,4.731100702519411e-13
	7.414859741830537e-13,7.522692665830055e-15
	-7.403192260626982e-05,-4.358938061161831e-13
	-7.403192186478377e-05,4.473895680158803e-14
	-7.514025934945311e-23,-4.731100702519411e-13
	-7.403192186478377e-05,4.473895680158803e-14
2		1.047128548050899e+00,0.000000000000000e+00
	-7.403192186478376e-01,4.578106097701640e-10
	1.000000000000000e+00,0.000000000000000e+00
	0.000000000000000e+00,0.000000000000000e+00
	7.403192186478385e-05,-4.578106097701639e-14
	7.868151067276083e-23,4.841302194662666e-13
	7.414859741830537e-13,7.697918688025591e-15
	-7.403192260626982e-05,-4.460470771772758e-13
	-7.403192186478377e-05,4.578106097701640e-14
	-7.868151067276083e-23,-4.841302194662666e-13
	-7.403192186478377e-05,4.578106097701640e-14
3		1.071519305237606e+00,0.000000000000000e+00
	-7.403192186478376e-01,4.684743887695877e-10
	1.000000000000000e+00,0.000000000000000e+00
	0.000000000000000e+00,0.000000000000000e+00
	7.403192186478385e-05,-4.684743887695879e-14
	8.238965602921939e-23,4.954070609311741e-13
	7.414859741830537e-13,7.877226248603716e-15
	-7.403192260626982e-05,-4.564368483028191e-13
	-7.403192186478377e-05,4.684743887695877e-14
	-8.238965602921939e-23,-4.954070609311741e-13
	-7.403192186478377e-05,4.684743887695877e-14
4		1.096478196143185e+00,0.000000000000000e+00
	-7.403192186478376e-01,4.793865590909286e-10
	1.000000000000000e+00,0.000000000000000e+00
	0.000000000000000e+00,0.000000000000000e+00
	7.403192186478385e-05,-4.793865590909287e-14
	8.627256089228951e-23,5.069465737772750e-13
	7.414859741830537e-13,8.060710418806082e-15
	-7.403192260626982e-05,-4.670686282869882e-13
	-7.403192186478377e-05,4.793865590909287e-14
	-8.627256089228951e-23,-5.069465737772750e-13
	-7.403192186478377e-05,4.793865590909287e-14
5		1.122018454301963e+00,0.000000000000000e+00
	-7.403192186478376e-01,4.905529065113310e-10
	1.000000000000000e+00,0.000000000000000e+00
	0.000000000000000e+00,0.000000000000000e+00
	7.403192186478385e-05,-4.905529065113308e-14
	9.033846142377597e-23,5.187548764070239e-13
	7.414859741830537e-13,8.248468484368763e-15
	-7.403192260626982e-05,-4.779480542402596e-13
	-7.403192186478377e-05,4.905529065113310e-14
	-9.033846142377597e-23,-5.187548764070239e-13
	-7.403192186478377e-05,4.905529065113310e-14
6		1.148153621496882e+00,0.000000000000000e+00
	-7.403192186478376e-01,5.019793515760009e-10
	1.000000000000000e+00,0.000000000000000e+00
	0.000000000000000e+00,0.000000000000000e+00
	7.403192186478385e-05,-5.019793515760005e-14
	9.459598194383072e-23,5.308382297387762e-13
	7.414859741830537e-13,8.440599997103308e-15
	-7.403192260626982e-05,-4.890808945782795e-13
	-7.403192186478377e-05,5.019793515760009e-14
	-9.459598194383072e-23,-5.308382297387762e-13
	-7.403192186478377e-05,5.019793515760009e-14
7		1.174897554939529e+00,0.000000000000000e+00
	-7.403192186478376e-01,5.136719527373586e-10
	1.000000000000000e+00,0.000000000000000e+00
	0.000000000000000e+00,0.000000000000000e+00
	7.403192186478385e-05,-5.136719527373591e-14
	9.905415322429253e-23,5.432030405264106e-13
	7.414859741830537e-13,8.637206827680851e-15
	-7.403192260626982e-05,-5.004730520803555e-13
	-7.403192186478377e-05,5.136719527373586e-14
	-9.905415322429253e-23,-5.432030405264106e-13
	-7.403192186478377e-05,5.136719527373586e-14
8		1.202264434617413e+00,0.000000000000000e+00
	-7.403192186478376e-01,5.256369095673098e-10
	1.000000000000000e+00,0.000000000000000e+00
	0.000000000000000e+00,0.000000000000000e+00
	7.403192186478385e-05,-5.256369095673097e-14
	1.037224316441648e-22,5.558558647562745e-13
	7.414859741830537e-13,8.838393219645226e-15
	-7.403192260626982e-05,-5.121305670191888e-13
	-7.403192186478377e-05,5.256369095673098e-14
	-1.037224316441648e-22,-5.558558647562745e-13
	-7.403192186478377e-05,5.256369095673098e-14
9		1.230268770812381e+00,0.000000000000000e+00
	-7.403192186478376e-01,5.378805660443406e-10
	1.000000000000000e+00,0.000000000000000e+00
	0.000000000000000e+00,0.000000000000000e+00
	7.403192186478385e-05,-5.378805660443407e-14
	1.086107192478630e-22,5.688034111232543e-13
	7.414859741830537e-13,9.044265844684679e-15
	-7.403192260626982e-05,-5.240596203635049e-13
	-7.403192186478377e-05,5.378805660443406e-14
	-1.086107192478630e-22,-5.688034111232543e-13
	-7.403192186478377e-05,5.378805660443406e-14
10		1.258925411794167e+00,0.000000000000000e+00
	-7.403192186478376e-01,5.504094139171792e-10
	1.000000000000000e+00,0.000000000000000e+00
	0.000000000000000e+00,0.000000000000000e+00
	7.403192186478385e-05,-5.504094139171789e-14
	1.137293847487786e-22,5.820525445878150e-13
	7.414859741830537e-13,9.254933859189938e-15
	-7.403192260626982e-05,-5.362665370552870e-13
	-7.403192186478377e-05,5.504094139171792e-14
	-1.137293847487786e-22,-5.820525445878150e-13
	-7.403192186478377e-05,5.504094139171792e-14
11		1.288249551693134e+00,0.000000000000000e+00
	-7.403192186478376e-01,5.632300961468063e-10
	1.000000000000000e+00,0.000000000000000e+00
	0.000000000000000e+00,0.000000000000000e+00
	7.403192186478385e-05,-5.632300961468071e-14
	1.190892855227107e-22,5.956102900158923e-13
	7.414859741830537e-13,9.470508962130953e-15
	-7.403192260626982e-05,-5.487577893633426e-13
	-7.403192186478377e-05,5.632300961468064e-14
	-1.190892855227107e-22,-5.956102900158923e-13
	-7.403192186478377e-05,5.632300961468064e-14
12		1.318256738556407e+00,0.000000000000000e+00
	-7.403192186478376e-01,5.763494104286423e-10
	1.000000000000000e+00,0.000000000000000e+00
	0.000000000000000e+00,0.000000000000000e+00
	7.403192186478385e-05,-5.763494104286424e-14
	1.247017906378151e-22,6.094838359035701e-13
	7.414859741830537e-13,9.691105454280740e-15
	-7.403192260626982e-05,-5.615400003149866e-13
	-7.403192186478377e-05,5.763494104286424e-14
	-1.247017906378151e-22,-6.094838359035701e-13
	-7.403192186478377e-05,5.763494104286424e-14
13		1.348962882591653e+00,0.000000000000000e+00
	-7.403192186478376e-01,5.897743127967739e-10
	1.000000000000000e+00,0.000000000000000e+00
	0.000000000000000e+00,0.000000000000000e+00
	7.403192186478385e-05,-5.897743127967748e-14
	1.305788049699225e-22,6.236805381885165e-13
	7.414859741830537e-13,9.916840298819234e-15
	-7.403192260626982e-05,-5.746199472076583e-13
	-7.403192186478377e-05,5.897743127967740e-14
	-1.305788049699225e-22,-6.236805381885165e-13
	-7.403192186478377e-05,5.897743127967740e-14
14		1.380384264602885e+00,0.000000000000000e+00
	-7.403192186478376e-01,6.035119213121363e-10
	1.000000000000000e+00,0.000000000000000e+00
	0.000000000000000e+00,0.000000000000000e+00
	7.403192186478385e-05,-6.035119213121377e-14
	1.367327944543766e-22,6.382079241501981e-13
	7.414859741830537e-13,1.014783318334932e-14
	-7.403192260626982e-05,-5.880045652023337e-13
	-7.403192186478377e-05,6.035119213121364e-14
	-1.367327944543766e-22,-6.382079241501981e-13
	-7.403192186478377e-05,6.035119213121364e-14
15		1.412537544622754e+00,0.000000000000000e+00
	-7.403192186478376e-01,6.175695198366030e-10
	1.000000000000000e+00,0.000000000000000e+00
	0.000000000000000e+00,0.000000000000000e+00
	7.403192186478385e-05,-6.175695198366038e-14
	1.431768125279534e-22,6.530736964009449e-13
	7.414859741830537e-13,1.038420658335531e-14
	-7.403192260626982e-05,-6.017009510006398e-13
	-7.403192186478377e-05,6.175695198366030e-14
	-1.431768125279534e-22,-6.530736964009449e-13
	-7.403192186478377e-05,6.175695198366030e-14
16		1.445439770745927e+00,0.000000000000000e+00
	-7.403192186478376e-01,6.319545618949859e-10
	1.000000000000000e+00,0.000000000000000e+00
	0.000000000000000e+00,0.000000000000000e+00
	7.403192186478385e-05,-6.319545618949851e-14
	1.499245278169517e-22,6.682857369699755e-13
	7.414859741830537e-13,1.062608582714307e-14
	-7.403192260626982e-05,-6.157163666076200e-13
	-7.403192186478377e-05,6.319545618949860e-14
	-1.499245278169517e-22,-6.682857369699755e-13
	-7.403192186478377e-05,6.319545618949860e-14
17		1.479108388168207e+00,0.000000000000000e+00
	-7.403192186478376e-01,6.466746746269931e-10
	1.000000000000000e+00,0.000000000000000e+00
	0.000000000000000e+00,0.000000000000000e+00
	7.403192186478385e-05,-6.466746746269928e-14
	1.569902531301813e-22,6.838521114825551e-13
	7.414859741830537e-13,1.087359916228939e-14
	-7.403192260626982e-05,-6.300582431821452e-13
	-7.403192186478377e-05,6.466746746269931e-14
	-1.569902531301813e-22,-6.838521114825551e-13
	-7.403192186478377e-05,6.466746746269931e-14
18		1.513561248436208e+00,0.000000000000000e+00
	-7.403192186478376e-01,6.617376628312388e-10
	1.000000000000000e+00,0.000000000000000e+00
	0.000000000000000e+00,0.000000000000000e+00
	7.403192186478385e-05,-6.617376628312402e-14
	1.643889758183499e-22,6.997810734364957e-13
	7.414859741830537e-13,1.112687782364079e-14
	-7.403192260626982e-05,-6.447341849770125e-13
	-7.403192186478377e-05,6.617376628312388e-14
	-1.643889758183499e-22,-6.997810734364957e-13
	-7.403192186478377e-05,6.617376628312388e-14
19		1.548816618912481e+00,0.000000000000000e+00
	-7.403192186478376e-01,6.771515131034512e-10
	1.000000000000000e+00,0.000000000000000e+00
	0.000000000000000e+00,0.000000000000000e+00
	7.403192186478385e-05,-6.771515131034513e-14
	1.721363895642432e-22,7.160810685782698e-13
	7.414859741830537e-13,1.138605610289570e-14
	-7.403192260626982e-05,-6.597519733708203e-13
	-7.403192186478377e-05,6.771515131034512e-14
	-1.721363895642432e-22,-7.160810685782698e-13
	-7.403192186478377e-05,6.771515131034512e-14
20		1.584893192461113e+00,0.000000000000000e+00
	-7.403192186478376e-01,6.929243980710707e-10
	1.000000000000000e+00,0.000000000000000e+00
	0.000000000000000e+00,0.000000000000000e+00
	7.403192186478385e-05,-6.929243980710719e-14
	1.802489276711300e-22,7.327607393810577e-13
	7.414859741830537e-13,1.165127141980841e-14
	-7.403192260626982e-05,-6.751195709937589e-13
	-7.403192186478377e-05,6.929243980710708e-14
	-1.802489276711300e-22,-7.327607393810577e-13
	-7.403192186478377e-05,6.929243980710708e-14
21		1.621810097358929e+00,0.000000000000000e+00
	-7.403192186478376e-01,7.090646807264865e-10
	1.000000000000000e+00,0.000000000000000e+00
	0.000000000000000e+00,0.000000000000000e+00
	7.403192186478385e-05,-7.090646807264866e-14
	1.887437979200019e-22,7.498289296271004e-13
	7.414859741830537e-13,1.192266439505103e-14
	-7.403192260626982e-05,-6.908451259495027e-13
	-7.403192186478377e-05,7.090646807264865e-14
	-1.887437979200019e-22,-7.498289296271004e-13
	-7.403192186478377e-05,7.090646807264865e-14
22		1.659586907437560e+00,0.000000000000000e+00
	-7.403192186478376e-01,7.255809188612039e-10
	1.000000000000000e+00,0.000000000000000e+00
	0.000000000000000e+00,0.000000000000000e+00
	7.403192186478385e-05,-7.255809188612051e-14
	1.976390190695840e-22,7.672946890967905e-13
	7.414859741830537e-13,1.220037892477117e-14
	-7.403192260626982e-05,-7.069369761354412e-13
	-7.403192186478377e-05,7.255809188612039e-14
	-1.976390190695840e-22,-7.672946890967905e-13
	-7.403192186478377e-05,7.255809188612039e-14
23		1.698243652461743e+00,0.000000000000000e+00
	-7.403192186478376e-01,7.424818696033005e-10
	1.000000000000000e+00,0.000000000000000e+00
	0.000000000000000e+00,0.000000000000000e+00
	7.403192186478385e-05,-7.424818696033006e-14
	2.069534590765376e-22,7.851672783669857e-13
	7.414859741830537e-13,1.248456225688814e-14
	-7.403192260626982e-05,-7.234036536635438e-13
	-7.403192186478377e-05,7.424818696033006e-14
	-2.069534590765376e-22,-7.851672783669857e-13
	-7.403192186478377e-05,7.424818696033006e-14
24		1.737800828749374e+00,0.000000000000000e+00
	-7.403192186478376e-01,7.597764940605700e-10
	1.000000000000000e+00,0.000000000000000e+00
	0.000000000000000e+00,0.000000000000000e+00
	7.403192186478385e-05,-7.597764940605696e-14
	2.167068751169260e-22,8.034561737210885e-13
	7.414859741830537e-13,1.277536506916626e-14
	-7.403192260626982e-05,-7.402538893841978e-13
	-7.403192186478377e-05,7.597764940605700e-14
	-2.167068751169260e-22,-8.034561737210885e-13
	-7.403192186478377e-05,7.597764940605700e-14
25		1.778279410038922e+00,0.000000000000000e+00
	-7.403192186478376e-01,7.774739620718211e-10
	1.000000000000000e+00,0.000000000000000e+00
	0.000000000000000e+00,0.000000000000000e+00
	7.403192186478385e-05,-7.774739620718207e-14
	2.269199554938343e-22,8.221710721734981e-13
	7.414859741830537e-13,1.307294154910609e-14
	-7.403192260626982e-05,-7.574966175154222e-13
	-7.403192186478377e-05,7.774739620718212e-14
	-2.269199554938343e-22,-8.221710721734981e-13
	-7.403192186478377e-05,7.774739620718212e-14
26		1.819700858609982e+00,0.000000000000000e+00
	-7.403192186478376e-01,7.955836570688474e-10
	1.000000000000000e+00,0.000000000000000e+00
	0.000000000000000e+00,0.000000000000000e+00
	7.403192186478385e-05,-7.955836570688480e-14
	2.376143635200334e-22,8.413218966110946e-13
	7.414859741830537e-13,1.337744947569637e-14
	-7.403192260626982e-05,-7.751409803799062e-13
	-7.403192186478377e-05,7.955836570688474e-14
	-2.376143635200334e-22,-8.413218966110946e-13
	-7.403192186478377e-05,7.955836570688474e-14
27		1.862087136662866e+00,0.000000000000000e+00
	-7.403192186478376e-01,8.141151810516461e-10
	1.000000000000000e+00,0.000000000000000e+00
	0.000000000000000e+00,0.000000000000000e+00
	7.403192186478385e-05,-8.141151810516467e-14
	2.488127834687712e-22,8.609188010544862e-13
	7.414859741830537e-13,1.368905030306988e-14
	-7.403192260626982e-05,-7.931963332523914e-13
	-7.403192186478377e-05,8.141151810516462e-14
	-2.488127834687712e-22,-8.609188010544862e-13
	-7.403192186478377e-05,8.141151810516462e-14
28		1.905460717963246e+00,0.000000000000000e+00
	-7.403192186478376e-01,8.330783596795268e-10
	1.000000000000000e+00,0.000000000000000e+00
	0.000000000000000e+00,0.000000000000000e+00
	7.403192186478385e-05,-8.330783596795259e-14
	2.605389686901572e-22,8.809721760418044e-13
	7.414859741830537e-13,1.400790924611004e-14
	-7.403192260626982e-05,-8.116722493199618e-13
	-7.403192186478377e-05,8.330783596795268e-14
	-2.605389686901572e-22,-8.809721760418044e-13
	-7.403192186478377e-05,8.330783596795268e-14
29		1.949844599758044e+00,0.000000000000000e+00
	-7.403192186478376e-01,8.524832474808055e-10
	1.000000000000000e+00,0.000000000000000e+00
	0.000000000000000e+00,0.000000000000000e+00
	7.403192186478385e-05,-8.524832474808060e-14
	2.728177919952031e-22,9.014926541379054e-13
	7.414859741830537e-13,1.433419536804929e-14
	-7.403192260626982e-05,-8.305785247578741e-13
	-7.403192186478377e-05,8.524832474808055e-14
	-2.728177919952031e-22,-9.014926541379054e-13
	-7.403192186478377e-05,8.524832474808055e-14
30		1.995262314968878e+00,0.000000000000000e+00
	-7.403192186478376e-01,8.723401331838480e-10
	1.000000000000000e+00,0.000000000000000e+00
	0.000000000000000e+00,0.000000000000000e+00
	7.403192186478385e-05,-8.723401331838477e-14
	2.856752984143893e-22,9.224911155718960e-13
	7.414859741830537e-13,1.466808167010817e-14
	-7.403192260626982e-05,-8.499251839236194e-13
	-7.403192186478377e-05,8.723401331838481e-14
	-2.856752984143893e-22,-9.224911155718960e-13
	-7.403192186478377e-05,8.723401331838481e-14
31		2.041737944669527e+00,0.000000000000000e+00
	-7.403192186478376e-01,8.926595451722912e-10
	1.000000000000000e+00,0.000000000000000e+00
	0.000000000000000e+00,0.000000000000000e+00
	7.403192186478385e-05,-8.926595451722905e-14
	2.991387604426668e-22,9.439786940059765e-13
	7.414859741830537e-13,1.500974518322320e-14
	-7.403192260626982e-05,-8.697224846719706e-13
	-7.403192186478377e-05,8.926595451722913e-14
	-2.991387604426668e-22,-9.439786940059765e-13
	-7.403192186478377e-05,8.926595451722913e-14
32		2.089296130854037e+00,0.000000000000000e+00
	-7.403192186478376e-01,9.134522570673309e-10
	1.000000000000000e+00,0.000000000000000e+00
	0.000000000000000e+00,0.000000000000000e+00
	7.403192186478385e-05,-9.134522570673312e-14
	3.132367358880756e-22,9.659667824386540e-13
	7.414859741830537e-13,1.535936706191237e-14
	-7.403192260626982e-05,-8.899809237938333e-13
	-7.403192186478377e-05,9.134522570673309e-14
	-3.132367358880756e-22,-9.659667824386540e-13
	-7.403192186478377e-05,9.134522570673309e-14
33		2.137962089502230e+00,0.000000000000000e+00
	-7.403192186478376e-01,9.347292934400379e-10
	1.000000000000000e+00,0.000000000000000e+00
	0.000000000000000e+00,0.000000000000000e+00
	7.403192186478385e-05,-9.347292934400369e-14
	3.279991284466837e-22,9.884670392454624e-13
	7.414859741830537e-13,1.571713268032273e-14
	-7.403192260626982e-05,-9.107112425817814e-13
	-7.403192186478377e-05,9.347292934400379e-14
	-3.279991284466837e-22,-9.884670392454624e-13
	-7.403192186478377e-05,9.347292934400379e-14
34		2.187761623949550e+00,0.000000000000000e+00
	-7.403192186478376e-01,9.565019356567311e-10
	1.000000000000000e+00,0.000000000000000e+00
	0.000000000000000e+00,0.000000000000000e+00
	7.403192186478385e-05,-9.565019356567313e-14
	3.434572511323363e-22,1.011491394360387e-12
	7.414859741830537e-13,1.608323173052107e-14
	-7.403192260626982e-05,-9.319244325252347e-13
	-7.403192186478377e-05,9.565019356567312e-14
	-3.434572511323363e-22,-1.011491394360387e-12
	-7.403192186478377e-05,9.565019356567312e-14
35		2.238721138568337e+00,0.000000000000000e+00
	-7.403192186478376e-01,9.787817278605100e-10
	1.000000000000000e+00,0.000000000000000e+00
	0.000000000000000e+00,0.000000000000000e+00
	7.403192186478385e-05,-9.787817278605093e-14
	3.596438926957566e-22,1.035052055601273e-12
	7.414859741830537e-13,1.645785832306970e-14
	-7.403192260626982e-05,-9.536317411382914e-13
	-7.403192186478377e-05,9.787817278605100e-14
	-3.596438926957566e-22,-1.035052055601273e-12
	-7.403192186478377e-05,9.787817278605100e-14
36		2.290867652767770e+00,0.000000000000000e+00
	-7.403192186478376e-01,1.001580483092108e-09
	1.000000000000000e+00,0.000000000000000e+00
	0.000000000000000e+00,0.000000000000000e+00
	7.403192186478385e-05,-1.001580483092109e-13
	3.765933871738810e-22,1.059161515142572e-12
	7.414859741830537e-13,1.684121108994670e-14
	-7.403192260626982e-05,-9.758446779233075e-13
	-7.403192186478377e-05,1.001580483092108e-13
	-3.765933871738810e-22,-1.059161515142572e-12
	-7.403192186478377e-05,1.001580483092108e-13
37		2.344228815319919e+00,0.000000000000000e+00
	-7.403192186478376e-01,1.024910289553326e-09
	1.000000000000000e+00,0.000000000000000e+00
	0.000000000000000e+00,0.000000000000000e+00
	7.403192186478385e-05,-1.024910289553325e-13
	3.943416867169562e-22,1.083832556138859e-12
	7.414859741830537e-13,1.723349328986343e-14
	-7.403192260626982e-05,-9.985750204733901e-13
	-7.403192186478377e-05,1.024910289553326e-13
	-3.943416867169562e-22,-1.083832556138859e-12
	-7.403192186478377e-05,1.024910289553326e-13
38		2.398832919019488e+00,0.000000000000000e+00
	-7.403192186478376e-01,1.048783517016357e-09
	1.000000000000000e+00,0.000000000000000e+00
	0.000000000000000e+00,0.000000000000000e+00
