Title: * GA CMOS Amp | W=3.9061959305320786e-05 L=1e-06 Vbias=0.9130479607372227
Date: Mon Sep  8 18:46:03 2025
Plotname: AC Analysis
Flags: complex forward log
No. Variables: 11
No. Points:          901
Offset:    0.0000000000000000e+00
Command: Linear Technology Corporation LTspice
Variables:
	0	frequency	frequency
	1	V(out)	voltage
	2	V(g)	voltage
	3	V(vdd)	voltage
	4	Id(M1)	device_current
	5	Ig(M1)	device_current
	6	Ib(M1)	device_current
	7	Is(M1)	device_current
	8	I(Rload)	device_current
	9	I(Vg)	device_current
	10	I(Vdd)	device_current
Values:
0		1.000000000000000e+00,0.000000000000000e+00
	-6.889035068177809e+00,3.610292371514692e-09
	1.000000000000000e+00,0.000000000000000e+00
	0.000000000000000e+00,0.000000000000000e+00
	6.889035068177809e-04,-3.610292371514692e-13
	1.772173593313903e-22,6.717190999168253e-13
	6.889035132282006e-12,-9.381049851188175e-15
	-6.889035137068161e-04,-3.013088129141680e-13
	-6.889035068177809e-04,3.610292371514692e-13
	-1.772173593313903e-22,-6.717190999168253e-13
	-6.889035068177809e-04,3.610292371514692e-13
1		1.023292992280754e+00,0.000000000000000e+00
	-6.889035068177809e+00,3.694386883855649e-09
	1.000000000000000e+00,0.000000000000000e+00
	0.000000000000000e+00,0.000000000000000e+00
	6.889035068177809e-04,-3.694386883855648e-13
	1.855693561660933e-22,6.873654477260231e-13
	6.889035132282006e-12,-9.599562572957370e-15
	-6.889035137068161e-04,-3.083271967675009e-13
	-6.889035068177809e-04,3.694386883855649e-13
	-1.855693561660933e-22,-6.873654477260231e-13
	-6.889035068177809e-04,3.694386883855649e-13
2		1.047128548050899e+00,0.000000000000000e+00
	-6.889035068177809e+00,3.780440209023417e-09
	1.000000000000000e+00,0.000000000000000e+00
	0.000000000000000e+00,0.000000000000000e+00
	6.889035068177809e-04,-3.780440209023417e-13
	1.943149704849415e-22,7.033762457939623e-13
	6.889035132282006e-12,-9.823165109867783e-15
	-6.889035137068161e-04,-3.155090597817528e-13
	-6.889035068177809e-04,3.780440209023417e-13
	-1.943149704849415e-22,-7.033762457939623e-13
	-6.889035068177809e-04,3.780440209023417e-13
3		1.071519305237606e+00,0.000000000000000e+00
	-6.889035068177809e+00,3.868497973630052e-09
	1.000000000000000e+00,0.000000000000000e+00
	0.000000000000000e+00,0.000000000000000e+00
	6.889035068177809e-04,-3.868497973630052e-13
	2.034727529084501e-22,7.197599832577068e-13
	6.889035132282006e-12,-1.005197601894457e-14
	-6.889035137068161e-04,-3.228582098757571e-13
	-6.889035068177809e-04,3.868497973630053e-13
	-2.034727529084501e-22,-7.197599832577068e-13
	-6.889035068177809e-04,3.868497973630053e-13
4		1.096478196143185e+00,0.000000000000000e+00
	-6.889035068177809e+00,3.958606867067929e-09
	1.000000000000000e+00,0.000000000000000e+00
	0.000000000000000e+00,0.000000000000000e+00
	6.889035068177809e-04,-3.958606867067929e-13
	2.130621283209447e-22,7.365253469917241e-13
	6.889035132282006e-12,-1.028611661876004e-14
	-6.889035137068161e-04,-3.303785436661711e-13
	-6.889035068177809e-04,3.958606867067929e-13
	-2.130621283209447e-22,-7.365253469917242e-13
	-6.889035068177809e-04,3.958606867067929e-13
5		1.122018454301963e+00,0.000000000000000e+00
	-6.889035068177809e+00,4.050814666265083e-09
	1.000000000000000e+00,0.000000000000000e+00
	0.000000000000000e+00,0.000000000000000e+00
	6.889035068177809e-04,-4.050814666265083e-13
	2.231034370733454e-22,7.536812262137823e-13
	6.889035132282006e-12,-1.052571105375988e-14
	-6.889035137068161e-04,-3.380740485335141e-13
	-6.889035068177809e-04,4.050814666265083e-13
	-2.231034370733454e-22,-7.536812262137823e-13
	-6.889035068177809e-04,4.050814666265083e-13
6		1.148153621496882e+00,0.000000000000000e+00
	-6.889035068177809e+00,4.145170261017160e-09
	1.000000000000000e+00,0.000000000000000e+00
	0.000000000000000e+00,0.000000000000000e+00
	6.889035068177809e-04,-4.145170261017162e-13
	2.336179781277773e-22,7.712367171981292e-13
	6.889035132282006e-12,-1.077088636008450e-14
	-6.889035137068161e-04,-3.459488047363285e-13
	-6.889035068177809e-04,4.145170261017161e-13
	-2.336179781277773e-22,-7.712367171981292e-13
	-6.889035068177809e-04,4.145170261017161e-13
7		1.174897554939529e+00,0.000000000000000e+00
	-6.889035068177809e+00,4.241723679909445e-09
	1.000000000000000e+00,0.000000000000000e+00
	0.000000000000000e+00,0.000000000000000e+00
	6.889035068177809e-04,-4.241723679909445e-13
	2.446280542355262e-22,7.892011280984593e-13
	6.889035132282006e-12,-1.102177253292686e-14
	-6.889035137068161e-04,-3.540069875745879e-13
	-6.889035068177809e-04,4.241723679909446e-13
	-2.446280542355262e-22,-7.892011280984594e-13
	-6.889035068177809e-04,4.241723679909446e-13
8		1.202264434617413e+00,0.000000000000000e+00
	-6.889035068177809e+00,4.340526116842668e-09
	1.000000000000000e+00,0.000000000000000e+00
	0.000000000000000e+00,0.000000000000000e+00
	6.889035068177809e-04,-4.340526116842668e-13
	2.561570192441633e-22,8.075839838832192e-13
	6.889035132282006e-12,-1.127850259545655e-14
	-6.889035137068161e-04,-3.622528696034958e-13
	-6.889035068177809e-04,4.340526116842668e-13
	-2.561570192441633e-22,-8.075839838832193e-13
	-6.889035068177809e-04,4.340526116842668e-13
9		1.230268770812381e+00,0.000000000000000e+00
	-6.889035068177809e+00,4.441629958176696e-09
	1.000000000000000e+00,0.000000000000000e+00
	0.000000000000000e+00,0.000000000000000e+00
	6.889035068177809e-04,-4.441629958176695e-13
	2.682293276341870e-22,8.263950313858716e-13
	6.889035132282006e-12,-1.154121266935096e-14
	-6.889035137068161e-04,-3.706908228988511e-13
	-6.889035068177809e-04,4.441629958176696e-13
	-2.682293276341870e-22,-8.263950313858716e-13
	-6.889035068177809e-04,4.441629958176696e-13
10		1.258925411794167e+00,0.000000000000000e+00
	-6.889035068177809e+00,4.545088810506471e-09
	1.000000000000000e+00,0.000000000000000e+00
	0.000000000000000e+00,0.000000000000000e+00
	6.889035068177809e-04,-4.545088810506472e-13
	2.808705863902553e-22,8.456442444727964e-13
	6.889035132282006e-12,-1.181004204696871e-14
	-6.889035137068161e-04,-3.793253213751804e-13
	-6.889035068177809e-04,4.545088810506472e-13
	-2.808705863902553e-22,-8.456442444727964e-13
	-6.889035068177809e-04,4.545088810506472e-13
11		1.288249551693134e+00,0.000000000000000e+00
	-6.889035068177809e+00,4.650957529084942e-09
	1.000000000000000e+00,0.000000000000000e+00
	0.000000000000000e+00,0.000000000000000e+00
	6.889035068177809e-04,-4.650957529084942e-13
	2.941076093170329e-22,8.653418293315655e-13
	6.889035132282006e-12,-1.208513326520404e-14
	-6.889035137068161e-04,-3.881609431578672e-13
	-6.889035068177809e-04,4.650957529084942e-13
	-2.941076093170329e-22,-8.653418293315655e-13
	-6.889035068177809e-04,4.650957529084942e-13
12		1.318256738556407e+00,0.000000000000000e+00
	-6.889035068177809e+00,4.759292246908032e-09
	1.000000000000000e+00,0.000000000000000e+00
	0.000000000000000e+00,0.000000000000000e+00
	6.889035068177809e-04,-4.759292246908033e-13
	3.079684739148658e-22,8.854982298823992e-13
	6.889035132282006e-12,-1.236663218106231e-14
	-6.889035137068161e-04,-3.972023730105336e-13
	-6.889035068177809e-04,4.759292246908032e-13
	-3.079684739148658e-22,-8.854982298823992e-13
	-6.889035068177809e-04,4.759292246908032e-13
13		1.348962882591653e+00,0.000000000000000e+00
	-6.889035068177809e+00,4.870150404477115e-09
	1.000000000000000e+00,0.000000000000000e+00
	0.000000000000000e+00,0.000000000000000e+00
	6.889035068177809e-04,-4.870150404477115e-13
	3.224825809359249e-22,9.061241333156715e-13
	6.889035132282006e-12,-1.265468804899482e-14
	-6.889035137068161e-04,-4.064544048189652e-13
	-6.889035068177809e-04,4.870150404477115e-13
	-3.224825809359249e-22,-9.061241333156715e-13
	-6.889035068177809e-04,4.870150404477115e-13
14		1.380384264602885e+00,0.000000000000000e+00
	-6.889035068177809e+00,4.983590780254711e-09
	1.000000000000000e+00,0.000000000000000e+00
	0.000000000000000e+00,0.000000000000000e+00
	6.889035068177809e-04,-4.983590780254712e-13
	3.376807167471416e-22,9.272304757583984e-13
	6.889035132282006e-12,-1.294945360003527e-14
	-6.889035137068161e-04,-4.159219441328918e-13
	-6.889035068177809e-04,4.983590780254711e-13
	-3.376807167471416e-22,-9.272304757583986e-13
	-6.889035068177809e-04,4.983590780254711e-13
15		1.412537544622754e+00,0.000000000000000e+00
	-6.889035068177809e+00,5.099673521829623e-09
	1.000000000000000e+00,0.000000000000000e+00
	0.000000000000000e+00,0.000000000000000e+00
	6.889035068177809e-04,-5.099673521829622e-13
	3.535951186322216e-22,9.488284480727189e-13
	6.889035132282006e-12,-1.325108512278106e-14
	-6.889035137068161e-04,-4.256100107669756e-13
	-6.889035068177809e-04,5.099673521829623e-13
	-3.535951186322216e-22,-9.488284480727189e-13
	-6.889035068177809e-04,5.099673521829623e-13
16		1.445439770745927e+00,0.000000000000000e+00
	-6.889035068177809e+00,5.218460177807964e-09
	1.000000000000000e+00,0.000000000000000e+00
	0.000000000000000e+00,0.000000000000000e+00
	6.889035068177809e-04,-5.218460177807964e-13
	3.702595431712434e-22,9.709295017894363e-13
	6.889035132282006e-12,-1.355974254625758e-14
	-6.889035137068161e-04,-4.355237414623823e-13
	-6.889035068177809e-04,5.218460177807964e-13
	-3.702595431712434e-22,-9.709295017894363e-13
	-6.889035068177809e-04,5.218460177807964e-13
17		1.479108388168207e+00,0.000000000000000e+00
	-6.889035068177809e+00,5.340013730447067e-09
	1.000000000000000e+00,0.000000000000000e+00
	0.000000000000000e+00,0.000000000000000e+00
	6.889035068177809e-04,-5.340013730447067e-13
	3.877093378428934e-22,9.935453551797740e-13
	6.889035132282006e-12,-1.387558952471662e-14
	-6.889035137068161e-04,-4.456683926103507e-13
	-6.889035068177809e-04,5.340013730447067e-13
	-3.877093378428934e-22,-9.935453551797740e-13
	-6.889035068177809e-04,5.340013730447067e-13
18		1.513561248436208e+00,0.000000000000000e+00
	-6.889035068177809e+00,5.464398629049493e-09
	1.000000000000000e+00,0.000000000000000e+00
	0.000000000000000e+00,0.000000000000000e+00
	6.889035068177809e-04,-5.464398629049494e-13
	4.059815160012048e-22,1.016687999468556e-12
	6.889035132282006e-12,-1.419879352440657e-14
	-6.889035137068161e-04,-4.560493430391997e-13
	-6.889035068177809e-04,5.464398629049493e-13
	-4.059815160012048e-22,-1.016687999468556e-12
	-6.889035068177809e-04,5.464398629049493e-13
19		1.548816618912481e+00,0.000000000000000e+00
	-6.889035068177809e+00,5.591680824134906e-09
	1.000000000000000e+00,0.000000000000000e+00
	0.000000000000000e+00,0.000000000000000e+00
	6.889035068177809e-04,-5.591680824134906e-13
	4.251148353858446e-22,1.040369705192112e-12
	6.889035132282006e-12,-1.452952591236675e-14
	-6.889035137068161e-04,-4.666720968662548e-13
	-6.889035068177809e-04,5.591680824134906e-13
	-4.251148353858446e-22,-1.040369705192112e-12
	-6.889035068177809e-04,5.591680824134906e-13
20		1.584893192461113e+00,0.000000000000000e+00
	-6.889035068177809e+00,5.721927802407919e-09
	1.000000000000000e+00,0.000000000000000e+00
	0.000000000000000e+00,0.000000000000000e+00
	6.889035068177809e-04,-5.721927802407922e-13
	4.451498803324764e-22,1.064603028704282e-12
	6.889035132282006e-12,-1.486796204728628e-14
	-6.889035137068161e-04,-4.775422864162038e-13
	-6.889035068177809e-04,5.721927802407920e-13
	-4.451498803324764e-22,-1.064603028704282e-12
	-6.889035068177809e-04,5.721927802407920e-13
21		1.621810097358929e+00,0.000000000000000e+00
	-6.889035068177809e+00,5.855208622540440e-09
	1.000000000000000e+00,0.000000000000000e+00
	0.000000000000000e+00,0.000000000000000e+00
	6.889035068177809e-04,-5.855208622540441e-13
	4.661291478575777e-22,1.089400818833958e-12
	6.889035132282006e-12,-1.521428137248426e-14
	-6.889035137068161e-04,-4.886656752074301e-13
	-6.889035068177809e-04,5.855208622540440e-13
	-4.661291478575777e-22,-1.089400818833959e-12
	-6.889035068177809e-04,5.855208622540440e-13
22		1.659586907437560e+00,0.000000000000000e+00
	-6.889035068177809e+00,5.991593951787480e-09
	1.000000000000000e+00,0.000000000000000e+00
	0.000000000000000e+00,0.000000000000000e+00
	6.889035068177809e-04,-5.991593951787481e-13
	4.880971378003085e-22,1.114776223697705e-12
	6.889035132282006e-12,-1.556866751105080e-14
	-6.889035137068161e-04,-5.000481610079063e-13
	-6.889035068177809e-04,5.991593951787480e-13
	-4.880971378003085e-22,-1.114776223697705e-12
	-6.889035068177809e-04,5.991593951787480e-13
23		1.698243652461743e+00,0.000000000000000e+00
	-6.889035068177809e+00,6.131156103455879e-09
	1.000000000000000e+00,0.000000000000000e+00
	0.000000000000000e+00,0.000000000000000e+00
	6.889035068177809e-04,-6.131156103455880e-13
	5.111004472126369e-22,1.140742697671064e-12
	6.889035132282006e-12,-1.593130836320752e-14
	-6.889035137068161e-04,-5.116957789622688e-13
	-6.889035068177809e-04,6.131156103455879e-13
	-5.111004472126369e-22,-1.140742697671064e-12
	-6.889035068177809e-04,6.131156103455879e-13
24		1.737800828749374e+00,0.000000000000000e+00
	-6.889035068177809e+00,6.273969075245775e-09
	1.000000000000000e+00,0.000000000000000e+00
	0.000000000000000e+00,0.000000000000000e+00
	6.889035068177809e-04,-6.273969075245775e-13
	5.351878691979339e-22,1.167314008522243e-12
	6.889035132282006e-12,-1.630239620593398e-14
	-6.889035137068161e-04,-5.236147047917313e-13
	-6.889035068177809e-04,6.273969075245775e-13
	-5.351878691979339e-22,-1.167314008522243e-12
	-6.889035068177809e-04,6.273969075245775e-13
25		1.778279410038922e+00,0.000000000000000e+00
	-6.889035068177809e+00,6.420108588485165e-09
	1.000000000000000e+00,0.000000000000000e+00
	0.000000000000000e+00,0.000000000000000e+00
	6.889035068177809e-04,-6.420108588485165e-13
	5.604104964076871e-22,1.194504244711967e-12
	6.889035132282006e-12,-1.668212779491657e-14
	-6.889035137068161e-04,-5.358112580685344e-13
	-6.889035068177809e-04,6.420108588485165e-13
	-5.604104964076871e-22,-1.194504244711967e-12
	-6.889035068177809e-04,6.420108588485165e-13
26		1.819700858609982e+00,0.000000000000000e+00
	-6.889035068177809e+00,6.569652128278353e-09
	1.000000000000000e+00,0.000000000000000e+00
	0.000000000000000e+00,0.000000000000000e+00
	6.889035068177809e-04,-6.569652128278353e-13
	5.868218294158653e-22,1.222327822863371e-12
	6.889035132282006e-12,-1.707070446887017e-14
	-6.889035137068161e-04,-5.482919055666659e-13
	-6.889035068177809e-04,6.569652128278354e-13
	-5.868218294158653e-22,-1.222327822863372e-12
	-6.889035068177809e-04,6.569652128278354e-13
27		1.862087136662866e+00,0.000000000000000e+00
	-6.889035068177809e+00,6.722678984589579e-09
	1.000000000000000e+00,0.000000000000000e+00
	0.000000000000000e+00,0.000000000000000e+00
	6.889035068177809e-04,-6.722678984589580e-13
	6.144778902008073e-22,1.250799495405879e-12
	6.889035132282006e-12,-1.746833225629073e-14
	-6.889035137068161e-04,-5.610632646906301e-13
	-6.889035068177809e-04,6.722678984589580e-13
	-6.144778902008073e-22,-1.250799495405879e-12
	-6.889035068177809e-04,6.722678984589580e-13
28		1.905460717963246e+00,0.000000000000000e+00
	-6.889035068177809e+00,6.879270294283613e-09
	1.000000000000000e+00,0.000000000000000e+00
	0.000000000000000e+00,0.000000000000000e+00
	6.889035068177809e-04,-6.879270294283614e-13
	6.434373409753516e-22,1.279934358397139e-12
	6.889035132282006e-12,-1.787522198469411e-14
	-6.889035137068161e-04,-5.741321069840837e-13
	-6.889035068177809e-04,6.879270294283614e-13
	-6.434373409753516e-22,-1.279934358397139e-12
	-6.889035068177809e-04,6.879270294283614e-13
29		1.949844599758044e+00,0.000000000000000e+00
	-6.889035068177809e+00,7.039509084145583e-09
	1.000000000000000e+00,0.000000000000000e+00
	0.000000000000000e+00,0.000000000000000e+00
	6.889035068177809e-04,-7.039509084145583e-13
	6.737616086172516e-22,1.309747859527156e-12
	6.889035132282006e-12,-1.829158939240044e-14
	-6.889035137068161e-04,-5.875053617201971e-13
	-6.889035068177809e-04,7.039509084145584e-13
	-6.737616086172516e-22,-1.309747859527156e-12
	-6.889035068177809e-04,7.039509084145584e-13
30		1.995262314968878e+00,0.000000000000000e+00
	-6.889035068177809e+00,7.203480314902884e-09
	1.000000000000000e+00,0.000000000000000e+00
	0.000000000000000e+00,0.000000000000000e+00
	6.889035068177809e-04,-7.203480314902884e-13
	7.055150149638209e-22,1.340255806308856e-12
	6.889035132282006e-12,-1.871765524292013e-14
	-6.889035137068161e-04,-6.011901195756473e-13
	-6.889035068177809e-04,7.203480314902884e-13
	-7.055150149638209e-22,-1.340255806308856e-12
	-6.889035068177809e-04,7.203480314902884e-13
31		2.041737944669527e+00,0.000000000000000e+00
	-6.889035068177809e+00,7.371270926272479e-09
	1.000000000000000e+00,0.000000000000000e+00
	0.000000000000000e+00,0.000000000000000e+00
	6.889035068177809e-04,-7.371270926272480e-13
	7.387649132471742e-22,1.371474374459444e-12
	6.889035132282006e-12,-1.915364544200729e-14
	-6.889035137068161e-04,-6.151936363901884e-13
	-6.889035068177809e-04,7.371270926272480e-13
	-7.387649132471742e-22,-1.371474374459444e-12
	-6.889035068177809e-04,7.371270926272480e-13
32		2.089296130854037e+00,0.000000000000000e+00
	-6.889035068177809e+00,7.542969883057492e-09
	1.000000000000000e+00,0.000000000000000e+00
	0.000000000000000e+00,0.000000000000000e+00
	6.889035068177809e-04,-7.542969883057492e-13
	7.735818309594624e-22,1.403420116476980e-12
	6.889035132282006e-12,-1.959979115743604e-14
	-6.889035137068161e-04,-6.295233370137942e-13
	-6.889035068177809e-04,7.542969883057492e-13
	-7.735818309594624e-22,-1.403420116476980e-12
	-6.889035068177809e-04,7.542969883057492e-13
33		2.137962089502230e+00,0.000000000000000e+00
	-6.889035068177809e+00,7.718668222317511e-09
	1.000000000000000e+00,0.000000000000000e+00
	0.000000000000000e+00,0.000000000000000e+00
	6.889035068177809e-04,-7.718668222317510e-13
	8.100396194511382e-22,1.436109970416733e-12
	6.889035132282006e-12,-2.005632894157077e-14
	-6.889035137068161e-04,-6.441868192434110e-13
	-6.889035068177809e-04,7.718668222317511e-13
	-8.100396194511382e-22,-1.436109970416733e-12
	-6.889035068177809e-04,7.718668222317511e-13
34		2.187761623949550e+00,0.000000000000000e+00
	-6.889035068177809e+00,7.898459101637655e-09
	1.000000000000000e+00,0.000000000000000e+00
	0.000000000000000e+00,0.000000000000000e+00
	6.889035068177809e-04,-7.898459101637655e-13
	8.482156105795736e-22,1.469561268871964e-12
	6.889035132282006e-12,-2.052350085678715e-14
	-6.889035137068161e-04,-6.591918578514113e-13
	-6.889035068177809e-04,7.898459101637656e-13
	-8.482156105795736e-22,-1.469561268871964e-12
	-6.889035068177809e-04,7.898459101637656e-13
35		2.238721138568337e+00,0.000000000000000e+00
	-6.889035068177809e+00,8.082437848521951e-09
	1.000000000000000e+00,0.000000000000000e+00
	0.000000000000000e+00,0.000000000000000e+00
	6.889035068177809e-04,-8.082437848521952e-13
	8.881907807402958e-22,1.503791748163894e-12
	6.889035132282006e-12,-2.100155460381829e-14
	-6.889035137068161e-04,-6.745464087078802e-13
	-6.889035068177809e-04,8.082437848521951e-13
	-8.881907807402958e-22,-1.503791748163894e-12
	-6.889035068177809e-04,8.082437848521951e-13
36		2.290867652767770e+00,0.000000000000000e+00
	-6.889035068177809e+00,8.270702010937249e-09
	1.000000000000000e+00,0.000000000000000e+00
	0.000000000000000e+00,0.000000000000000e+00
	6.889035068177809e-04,-8.270702010937250e-13
	9.300499226287809e-22,1.538819557745737e-12
	6.889035132282006e-12,-2.149074365308887e-14
	-6.889035137068161e-04,-6.902586129989232e-13
	-6.889035068177809e-04,8.270702010937250e-13
	-9.300499226287809e-22,-1.538819557745737e-12
	-6.889035068177809e-04,8.270702010937250e-13
37		2.344228815319919e+00,0.000000000000000e+00
	-6.889035068177809e+00,8.463351409034428e-09
	1.000000000000000e+00,0.000000000000000e+00
	0.000000000000000e+00,0.000000000000000e+00
	6.889035068177809e-04,-8.463351409034428e-13
	9.738818250971267e-22,1.574663269825782e-12
	6.889035132282006e-12,-2.199132737910801e-14
	-6.889035137068161e-04,-7.063368015432312e-13
	-6.889035068177809e-04,8.463351409034428e-13
	-9.738818250971267e-22,-1.574663269825782e-12
	-6.889035068177809e-04,8.463351409034428e-13
38		2.398832919019488e+00,0.000000000000000e+00
	-6.889035068177809e+00,8.660488188074378e-09
	1.000000000000000e+00,0.000000000000000e+00
	0.000000000000000e+00,0.000000000000000e+00
