LTspice 24.0.9 for Windows
Circuit: * GA CMOS Amp | W=4.39347661432509e-05 L=1.425324461121198e-07 Vbias=1.2864388416138943
Start Time: Sat Sep  6 22:34:48 2025
solver = Normal
Maximum thread count: 2
tnom = 27
temp = 27
method = modified trap
AsciiRawFile = 1
Direct Newton iteration for .op point succeeded.
Semiconductor Device Operating Points:
                        --- BSIM4 MOSFETS ---
Name:      m1
Model:      n
Id:      1.79e-04
Vgs:     1.29e+00
Vds:     6.71e-03
Vbs:     0.00e+00
Vth:     3.24e-01
Vdsat:   6.90e-01
Gm:      1.94e-06
Gds:     2.67e-02
Gmb      8.87e-05
Cbd:     2.19e-14
Cbs:     3.51e-14


.measure op idd find i(vdd)
  Error: FIND can not be evaluated over an interval.

gain_db: MAX(db(v(out)/v(g)))=(38.5073dB,180°) FROM 1 TO 1e+09
gain_lin: MAX(mag(v(out)/v(g)))=(-29.2233dB,0°) FROM 1 TO 1e+09

Measurement "fc" FAIL'ed

Total elapsed time: 6.869 seconds.

