Title: * GA CMOS Amp | W=1.4015071112025005e-05 L=7.040259560874045e-07 Vbias=0.8838787239642137
Date: Mon Sep  8 18:44:09 2025
Plotname: AC Analysis
Flags: complex forward log
No. Variables: 11
No. Points:          901
Offset:    0.0000000000000000e+00
Command: Linear Technology Corporation LTspice
Variables:
	0	frequency	frequency
	1	V(out)	voltage
	2	V(g)	voltage
	3	V(vdd)	voltage
	4	Id(M1)	device_current
	5	Ig(M1)	device_current
	6	Ib(M1)	device_current
	7	Is(M1)	device_current
	8	I(Rload)	device_current
	9	I(Vg)	device_current
	10	I(Vdd)	device_current
Values:
0		1.000000000000000e+00,0.000000000000000e+00
	-3.706195994700694e+00,7.682422526569384e-10
	1.000000000000000e+00,0.000000000000000e+00
	0.000000000000000e+00,0.000000000000000e+00
	3.706195994700695e-04,-7.682422526569384e-14
	1.353017329286778e-23,1.539086641002808e-13
	3.706195994632872e-12,-2.323648545991909e-15
	-3.706196031762655e-04,-7.476079028859502e-14
	-3.706195994700694e-04,7.682422526569384e-14
	-1.353017329286778e-23,-1.539086641002808e-13
	-3.706195994700694e-04,7.682422526569384e-14
1		1.023292992280754e+00,0.000000000000000e+00
	-3.706195994700694e+00,7.861369135178257e-10
	1.000000000000000e+00,0.000000000000000e+00
	0.000000000000000e+00,0.000000000000000e+00
	3.706195994700695e-04,-7.861369135178257e-14
	1.416783071503770e-23,1.574936574251098e-13
	3.706195994632872e-12,-2.377773273636867e-15
	-3.706196031762655e-04,-7.650219279969035e-14
	-3.706195994700694e-04,7.861369135178257e-14
	-1.416783071503770e-23,-1.574936574251098e-13
	-3.706195994700694e-04,7.861369135178257e-14
2		1.047128548050899e+00,0.000000000000000e+00
	-3.706195994700694e+00,8.044483945760120e-10
	1.000000000000000e+00,0.000000000000000e+00
	0.000000000000000e+00,0.000000000000000e+00
	3.706195994700695e-04,-8.044483945760121e-14
	1.483554000566836e-23,1.611621559717806e-13
	3.706195994632872e-12,-2.433158728145078e-15
	-3.706196031762655e-04,-7.828415778603428e-14
	-3.706195994700694e-04,8.044483945760120e-14
	-1.483554000566836e-23,-1.611621559717806e-13
	-3.706195994700694e-04,8.044483945760120e-14
3		1.071519305237606e+00,0.000000000000000e+00
	-3.706195994700694e+00,8.231864048211361e-10
	1.000000000000000e+00,0.000000000000000e+00
	0.000000000000000e+00,0.000000000000000e+00
	3.706195994700695e-04,-8.231864048211361e-14
	1.553471746568654e-23,1.649161048267809e-13
	3.706195994632872e-12,-2.489834275617602e-15
	-3.706196031762655e-04,-8.010763006904971e-14
	-3.706195994700694e-04,8.231864048211362e-14
	-1.553471746568654e-23,-1.649161048267809e-13
	-3.706195994700694e-04,8.231864048211362e-14
4		1.096478196143185e+00,0.000000000000000e+00
	-3.706195994700694e+00,8.423608793942563e-10
	1.000000000000000e+00,0.000000000000000e+00
	0.000000000000000e+00,0.000000000000000e+00
	3.706195994700695e-04,-8.423608793942563e-14
	1.626684614422529e-23,1.687574943834831e-13
	3.706195994632872e-12,-2.547829966179929e-15
	-3.706196031762655e-04,-8.197357647787759e-14
	-3.706195994700694e-04,8.423608793942563e-14
	-1.626684614422529e-23,-1.687574943834831e-13
	-3.706195994700694e-04,8.423608793942563e-14
5		1.122018454301963e+00,0.000000000000000e+00
	-3.706195994700694e+00,8.619819848555964e-10
	1.000000000000000e+00,0.000000000000000e+00
	0.000000000000000e+00,0.000000000000000e+00
	3.706195994700695e-04,-8.619819848555962e-14
	1.703347898437001e-23,1.726883613974771e-13
	3.706195994632872e-12,-2.607176549914841e-15
	-3.706196031762655e-04,-8.388298636200261e-14
	-3.706195994700694e-04,8.619819848555965e-14
	-1.703347898437001e-23,-1.726883613974771e-13
	-3.706195994700694e-04,8.619819848555965e-14
6		1.148153621496882e+00,0.000000000000000e+00
	-3.706195994700694e+00,8.820601245749867e-10
	1.000000000000000e+00,0.000000000000000e+00
	0.000000000000000e+00,0.000000000000000e+00
	3.706195994700695e-04,-8.820601245749867e-14
	1.783624211715888e-23,1.767107900664846e-13
	3.706195994632872e-12,-2.667905493166576e-15
	-3.706196031762655e-04,-8.583687211581933e-14
	-3.706195994700694e-04,8.820601245749868e-14
	-1.783624211715888e-23,-1.767107900664846e-13
	-3.706195994700694e-04,8.820601245749868e-14
7		1.174897554939529e+00,0.000000000000000e+00
	-3.706195994700694e+00,9.026059442478729e-10
	1.000000000000000e+00,0.000000000000000e+00
	0.000000000000000e+00,0.000000000000000e+00
	3.706195994700695e-04,-9.026059442478729e-14
	1.867683831082488e-23,1.808269131354291e-13
	3.706195994632872e-12,-2.730048995224655e-15
	-3.706196031762655e-04,-8.783626971541719e-14
	-3.706195994700694e-04,9.026059442478729e-14
	-1.867683831082488e-23,-1.808269131354291e-13
	-3.706195994700694e-04,9.026059442478729e-14
8		1.202264434617413e+00,0.000000000000000e+00
	-3.706195994700694e+00,9.236303375398014e-10
	1.000000000000000e+00,0.000000000000000e+00
	0.000000000000000e+00,0.000000000000000e+00
	3.706195994700695e-04,-9.236303375398015e-14
	1.955705058259547e-23,1.850389130272453e-13
	3.706195994632872e-12,-2.793640005396523e-15
	-3.706196031762655e-04,-8.988223926786864e-14
	-3.706195994700694e-04,9.236303375398014e-14
	-1.955705058259547e-23,-1.850389130272453e-13
	-3.706195994700694e-04,9.236303375398014e-14
9		1.230268770812381e+00,0.000000000000000e+00
	-3.706195994700694e+00,9.451444518623863e-10
	1.000000000000000e+00,0.000000000000000e+00
	0.000000000000000e+00,0.000000000000000e+00
	3.706195994700695e-04,-9.451444518623863e-14
	2.047874598071119e-23,1.893490230000281e-13
	3.706195994632872e-12,-2.858712240477448e-15
	-3.706196031762655e-04,-9.197586557331199e-14
	-3.706195994700694e-04,9.451444518623863e-14
	-2.047874598071119e-23,-1.893490230000281e-13
	-3.706195994700694e-04,9.451444518623863e-14
10		1.258925411794167e+00,0.000000000000000e+00
	-3.706195994700694e+00,9.671596942838146e-10
	1.000000000000000e+00,0.000000000000000e+00
	0.000000000000000e+00,0.000000000000000e+00
	3.706195994700695e-04,-9.671596942838145e-14
	2.144387954468531e-23,1.937595283311360e-13
	3.706195994632872e-12,-2.925300202627753e-15
	-3.706196031762655e-04,-9.411825870012684e-14
	-3.706195994700694e-04,9.671596942838146e-14
	-2.144387954468531e-23,-1.937595283311360e-13
	-3.706195994700694e-04,9.671596942838146e-14
11		1.288249551693134e+00,0.000000000000000e+00
	-3.706195994700694e+00,9.896877375770238e-10
	1.000000000000000e+00,0.000000000000000e+00
	0.000000000000000e+00,0.000000000000000e+00
	3.706195994700695e-04,-9.896877375770241e-14
	2.245449845220471e-23,1.982727675288758e-13
	3.706195994632872e-12,-2.993439197666456e-15
	-3.706196031762655e-04,-9.631055457350692e-14
	-3.706195994700694e-04,9.896877375770238e-14
	-2.245449845220471e-23,-1.982727675288758e-13
	-3.706195994700694e-04,9.896877375770238e-14
12		1.318256738556407e+00,0.000000000000000e+00
	-3.706195994700694e+00,1.012740526408763e-09
	1.000000000000000e+00,0.000000000000000e+00
	0.000000000000000e+00,0.000000000000000e+00
	3.706195994700695e-04,-1.012740526408763e-13
	2.351274636146829e-23,2.028911335724096e-13
	3.706195994632872e-12,-3.063165353790592e-15
	-3.706196031762655e-04,-9.855391557774277e-14
	-3.706195994700694e-04,1.012740526408763e-13
	-2.351274636146829e-23,-2.028911335724096e-13
	-3.706195994700694e-04,1.012740526408763e-13
13		1.348962882591653e+00,0.000000000000000e+00
	-3.706195994700694e+00,1.036330283672809e-09
	1.000000000000000e+00,0.000000000000000e+00
	0.000000000000000e+00,0.000000000000000e+00
	3.706195994700695e-04,-1.036330283672809e-13
	2.462086795817336e-23,2.076170751805453e-13
	3.706195994632872e-12,-3.134515640731138e-15
	-3.706196031762655e-04,-1.008495311725332e-13
	-3.706195994700694e-04,1.036330283672809e-13
	-2.462086795817336e-23,-2.076170751805453e-13
	-3.706195994700694e-04,1.036330283672809e-13
14		1.380384264602885e+00,0.000000000000000e+00
	-3.706195994700694e+00,1.060469516970711e-09
	1.000000000000000e+00,0.000000000000000e+00
	0.000000000000000e+00,0.000000000000000e+00
	3.706195994700695e-04,-1.060469516970711e-13
	2.578121371679499e-23,2.124530981100784e-13
	3.706195994632872e-12,-3.207527889354593e-15
	-3.706196031762655e-04,-1.031986185236527e-13
	-3.706195994700694e-04,1.060469516970711e-13
	-2.578121371679499e-23,-2.124530981100784e-13
	-3.706195994700694e-04,1.060469516970711e-13
15		1.412537544622754e+00,0.000000000000000e+00
	-3.706195994700694e+00,1.085171025243485e-09
	1.000000000000000e+00,0.000000000000000e+00
	0.000000000000000e+00,0.000000000000000e+00
	3.706195994700695e-04,-1.085171025243485e-13
	2.699624488625747e-23,2.174017664843788e-13
	3.706195994632872e-12,-3.282240811721628e-15
	-3.706196031762655e-04,-1.056024231483087e-13
	-3.706195994700694e-04,1.085171025243485e-13
	-2.699624488625747e-23,-2.174017664843788e-13
	-3.706195994700694e-04,1.085171025243485e-13
16		1.445439770745927e+00,0.000000000000000e+00
	-3.706195994700694e+00,1.110447905557780e-09
	1.000000000000000e+00,0.000000000000000e+00
	0.000000000000000e+00,0.000000000000000e+00
	3.706195994700695e-04,-1.110447905557780e-13
	2.826853871057330e-23,2.224657041529217e-13
	3.706195994632872e-12,-3.358694021612636e-15
	-3.706196031762655e-04,-1.080622195755311e-13
	-3.706195994700694e-04,1.110447905557780e-13
	-2.826853871057330e-23,-2.224657041529217e-13
	-3.706195994700694e-04,1.110447905557780e-13
17		1.479108388168207e+00,0.000000000000000e+00
	-3.706195994700694e+00,1.136313560050116e-09
	1.000000000000000e+00,0.000000000000000e+00
	0.000000000000000e+00,0.000000000000000e+00
	3.706195994700695e-04,-1.136313560050116e-13
	2.960079389552326e-23,2.276475960824882e-13
	3.706195994632872e-12,-3.436928055531485e-15
	-3.706196031762655e-04,-1.105793120219451e-13
	-3.706195994700694e-04,1.136313560050116e-13
	-2.960079389552326e-23,-2.276475960824882e-13
	-3.706195994700694e-04,1.136313560050116e-13
18		1.513561248436208e+00,0.000000000000000e+00
	-3.706195994700694e+00,1.162781703032880e-09
	1.000000000000000e+00,0.000000000000000e+00
	0.000000000000000e+00,0.000000000000000e+00
	3.706195994700695e-04,-1.162781703032880e-13
	3.099583633297321e-23,2.329501897807698e-13
	3.706195994632872e-12,-3.516984394198446e-15
	-3.706196031762655e-04,-1.131550350832834e-13
	-3.706195994700694e-04,1.162781703032880e-13
	-3.099583633297321e-23,-2.329501897807698e-13
	-3.706195994700694e-04,1.162781703032880e-13
19		1.548816618912481e+00,0.000000000000000e+00
	-3.706195994700694e+00,1.189866368265827e-09
	1.000000000000000e+00,0.000000000000000e+00
	0.000000000000000e+00,0.000000000000000e+00
	3.706195994700695e-04,-1.189866368265827e-13
	3.245662509496955e-23,2.383762967531336e-13
	3.706195994632872e-12,-3.598905484544110e-15
	-3.706196031762655e-04,-1.157907544420067e-13
	-3.706195994700694e-04,1.189866368265827e-13
	-3.245662509496955e-23,-2.383762967531336e-13
	-3.706195994700694e-04,1.189866368265827e-13
20		1.584893192461113e+00,0.000000000000000e+00
	-3.706195994700694e+00,1.217581916396972e-09
	1.000000000000000e+00,0.000000000000000e+00
	0.000000000000000e+00,0.000000000000000e+00
	3.706195994700695e-04,-1.217581916396972e-13
	3.398625871032785e-23,2.439287939933190e-13
	3.706195994632872e-12,-3.682734762214714e-15
	-3.706196031762655e-04,-1.184878675914071e-13
	-3.706195994700694e-04,1.217581916396972e-13
	-3.398625871032785e-23,-2.439287939933190e-13
	-3.706195994700694e-04,1.217581916396972e-13
21		1.621810097358929e+00,0.000000000000000e+00
	-3.706195994700694e+00,1.245943042576792e-09
	1.000000000000000e+00,0.000000000000000e+00
	0.000000000000000e+00,0.000000000000000e+00
	3.706195994700695e-04,-1.245943042576792e-13
	3.558798173702784e-23,2.496106255088590e-13
	3.706195994632872e-12,-3.768516674603032e-15
	-3.706196031762655e-04,-1.212478045765768e-13
	-3.706195994700694e-04,1.245943042576792e-13
	-3.558798173702784e-23,-2.496106255088590e-13
	-3.706195994700694e-04,1.245943042576792e-13
22		1.659586907437560e+00,0.000000000000000e+00
	-3.706195994700694e+00,1.274964784249793e-09
	1.000000000000000e+00,0.000000000000000e+00
	0.000000000000000e+00,0.000000000000000e+00
	3.706195994700695e-04,-1.274964784249793e-13
	3.726519164435589e-23,2.554248038820311e-13
	3.706195994632872e-12,-3.856296704414475e-15
	-3.706196031762655e-04,-1.240720287526374e-13
	-3.706195994700694e-04,1.274964784249793e-13
	-3.726519164435589e-23,-2.554248038820311e-13
	-3.706195994700694e-04,1.274964784249793e-13
23		1.698243652461743e+00,0.000000000000000e+00
	-3.706195994700694e+00,1.304662529127556e-09
	1.000000000000000e+00,0.000000000000000e+00
	0.000000000000000e+00,0.000000000000000e+00
	3.706195994700695e-04,-1.304662529127557e-13
	3.902144601939289e-23,2.613744118671684e-13
	3.706195994632872e-12,-3.946121393782687e-15
	-3.706196031762655e-04,-1.269620375606300e-13
	-3.706195994700694e-04,1.304662529127557e-13
	-3.902144601939289e-23,-2.613744118671684e-13
	-3.706195994700694e-04,1.304662529127557e-13
24		1.737800828749374e+00,0.000000000000000e+00
	-3.706195994700694e+00,1.335052023347514e-09
	1.000000000000000e+00,0.000000000000000e+00
	0.000000000000000e+00,0.000000000000000e+00
	3.706195994700695e-04,-1.335052023347514e-13
	4.086047011313342e-23,2.674626040251770e-13
	3.706195994632872e-12,-4.038038368946977e-15
	-3.706196031762655e-04,-1.299193633214786e-13
	-3.706195994700694e-04,1.335052023347514e-13
	-4.086047011313342e-23,-2.674626040251770e-13
	-3.706195994700694e-04,1.335052023347514e-13
25		1.778279410038922e+00,0.000000000000000e+00
	-3.706195994700694e+00,1.366149379821753e-09
	1.000000000000000e+00,0.000000000000000e+00
	0.000000000000000e+00,0.000000000000000e+00
	3.706195994700695e-04,-1.366149379821753e-13
	4.278616474224258e-23,2.736926083961259e-13
	3.706195994632872e-12,-4.132096365504304e-15
	-3.706196031762655e-04,-1.329455740484463e-13
	-3.706195994700694e-04,1.366149379821753e-13
	-4.278616474224258e-23,-2.736926083961259e-13
	-3.706195994700694e-04,1.366149379821753e-13
26		1.819700858609982e+00,0.000000000000000e+00
	-3.706195994700694e+00,1.397971086780297e-09
	1.000000000000000e+00,0.000000000000000e+00
	0.000000000000000e+00,0.000000000000000e+00
	3.706195994700695e-04,-1.397971086780297e-13
	4.480261456321105e-23,2.800677282107962e-13
	3.706195994632872e-12,-4.228345254249276e-15
	-3.706196031762655e-04,-1.360422742785172e-13
	-3.706195994700694e-04,1.397971086780297e-13
	-4.480261456321105e-23,-2.800677282107962e-13
	-3.706195994700694e-04,1.397971086780297e-13
27		1.862087136662866e+00,0.000000000000000e+00
	-3.706195994700694e+00,1.430534016513389e-09
	1.000000000000000e+00,0.000000000000000e+00
	0.000000000000000e+00,0.000000000000000e+00
	3.706195994700695e-04,-1.430534016513388e-13
	4.691409673645927e-23,2.865913436420986e-13
	3.706195994632872e-12,-4.326836067616872e-15
	-3.706196031762655e-04,-1.392111059231429e-13
	-3.706195994700694e-04,1.430534016513389e-13
	-4.691409673645927e-23,-2.865913436420986e-13
	-3.706195994700694e-04,1.430534016513389e-13
28		1.905460717963246e+00,0.000000000000000e+00
	-3.706195994700694e+00,1.463855434317391e-09
	1.000000000000000e+00,0.000000000000000e+00
	0.000000000000000e+00,0.000000000000000e+00
	3.706195994700695e-04,-1.463855434317391e-13
	4.912508999876802e-23,2.932669135972849e-13
	3.706195994632872e-12,-4.427621026739941e-15
	-3.706196031762655e-04,-1.424537491388059e-13
	-3.706195994700694e-04,1.463855434317391e-13
	-4.912508999876802e-23,-2.932669135972849e-13
	-3.706195994700694e-04,1.463855434317391e-13
29		1.949844599758044e+00,0.000000000000000e+00
	-3.706195994700694e+00,1.497953007649086e-09
	1.000000000000000e+00,0.000000000000000e+00
	0.000000000000000e+00,0.000000000000000e+00
	3.706195994700695e-04,-1.497953007649086e-13
	5.144028416327974e-23,3.000979775519072e-13
	3.706195994632872e-12,-4.530753569137967e-15
	-3.706196031762655e-04,-1.457719232178606e-13
	-3.706195994700694e-04,1.497953007649086e-13
	-5.144028416327974e-23,-3.000979775519072e-13
	-3.706195994700694e-04,1.497953007649086e-13
30		1.995262314968878e+00,0.000000000000000e+00
	-3.706195994700694e+00,1.532844815493189e-09
	1.000000000000000e+00,0.000000000000000e+00
	0.000000000000000e+00,0.000000000000000e+00
	3.706195994700695e-04,-1.532844815493188e-13
	5.386459006722080e-23,3.070881574264936e-13
	3.706195994632872e-12,-4.636288377049871e-15
	-3.706196031762655e-04,-1.491673875001249e-13
	-3.706195994700694e-04,1.532844815493189e-13
	-5.386459006722080e-23,-3.070881574264936e-13
	-3.706195994700694e-04,1.532844815493189e-13
31		2.041737944669527e+00,0.000000000000000e+00
	-3.706195994700694e+00,1.568549357948065e-09
	1.000000000000000e+00,0.000000000000000e+00
	0.000000000000000e+00,0.000000000000000e+00
	3.706195994700695e-04,-1.568549357948065e-13
	5.640314998844578e-23,3.142411595069399e-13
	3.706195994632872e-12,-4.744281406427821e-15
	-3.706196031762655e-04,-1.526419423057056e-13
	-3.706195994700694e-04,1.568549357948065e-13
	-5.640314998844578e-23,-3.142411595069399e-13
	-3.706195994700694e-04,1.568549357948065e-13
32		2.089296130854037e+00,0.000000000000000e+00
	-3.706195994700694e+00,1.605085566034731e-09
	1.000000000000000e+00,0.000000000000000e+00
	0.000000000000000e+00,0.000000000000000e+00
	3.706195994700695e-04,-1.605085566034731e-13
	5.906134855289836e-23,3.215607764096303e-13
	3.706195994632872e-12,-4.854789916605495e-15
	-3.706196031762655e-04,-1.561974298895517e-13
	-3.706195994700694e-04,1.605085566034731e-13
	-5.906134855289836e-23,-3.215607764096303e-13
	-3.706195994700694e-04,1.605085566034731e-13
33		2.137962089502230e+00,0.000000000000000e+00
	-3.706195994700694e+00,1.642472811734328e-09
	1.000000000000000e+00,0.000000000000000e+00
	0.000000000000000e+00,0.000000000000000e+00
	3.706195994700695e-04,-1.642472811734328e-13
	6.184482415612456e-23,3.290508890923331e-13
	3.706195994632872e-12,-4.967872500657611e-15
	-3.706196031762655e-04,-1.598357354182427e-13
	-3.706195994700694e-04,1.642472811734328e-13
	-6.184482415612456e-23,-3.290508890923331e-13
	-3.706195994700694e-04,1.642472811734328e-13
34		2.187761623949550e+00,0.000000000000000e+00
	-3.706195994700694e+00,1.680730918259404e-09
	1.000000000000000e+00,0.000000000000000e+00
	0.000000000000000e+00,0.000000000000000e+00
	3.706195994700695e-04,-1.680730918259404e-13
	6.475948092306591e-23,3.367154689119361e-13
	3.706195994632872e-12,-5.083589116467215e-15
	-3.706196031762655e-04,-1.635587879695284e-13
	-3.706195994700694e-04,1.680730918259404e-13
	-6.475948092306591e-23,-3.367154689119361e-13
	-3.706195994700694e-04,1.680730918259404e-13
35		2.238721138568337e+00,0.000000000000000e+00
	-3.706195994700694e+00,1.719880170564445e-09
	1.000000000000000e+00,0.000000000000000e+00
	0.000000000000000e+00,0.000000000000000e+00
	3.706195994700695e-04,-1.719880170564445e-13
	6.781150123149991e-23,3.445585797301123e-13
	3.706195994632872e-12,-5.202001118515640e-15
	-3.706196031762655e-04,-1.673685615551521e-13
	-3.706195994700694e-04,1.719880170564445e-13
	-6.781150123149991e-23,-3.445585797301123e-13
	-3.706195994700694e-04,1.719880170564445e-13
36		2.290867652767770e+00,0.000000000000000e+00
	-3.706195994700694e+00,1.759941326101225e-09
	1.000000000000000e+00,0.000000000000000e+00
	0.000000000000000e+00,0.000000000000000e+00
	3.706195994700695e-04,-1.759941326101225e-13
	7.100735882569230e-23,3.525843800680334e-13
	3.706195994632872e-12,-5.323171290413715e-15
	-3.706196031762655e-04,-1.712670761674972e-13
	-3.706195994700694e-04,1.759941326101225e-13
	-7.100735882569230e-23,-3.525843800680334e-13
	-3.706195994700694e-04,1.759941326101225e-13
37		2.344228815319919e+00,0.000000000000000e+00
	-3.706195994700694e+00,1.800935625824681e-09
	1.000000000000000e+00,0.000000000000000e+00
	0.000000000000000e+00,0.000000000000000e+00
	3.706195994700695e-04,-1.800935625824681e-13
	7.435383254807639e-23,3.607971253112726e-13
	3.706195994632872e-12,-5.447163878190408e-15
	-3.706196031762655e-04,-1.752563988506141e-13
	-3.706195994700694e-04,1.800935625824681e-13
	-7.435383254807639e-23,-3.607971253112726e-13
	-3.706195994700694e-04,1.800935625824681e-13
38		2.398832919019488e+00,0.000000000000000e+00
	-3.706195994700694e+00,1.842884805455150e-09
	1.000000000000000e+00,0.000000000000000e+00
