LTspice 24.0.9 for Windows
Circuit: * GA CMOS Amp | W=4.817754092144642e-05 L=9.690097901427563e-07 Vbias=0.9224697582921961
Start Time: Sat Sep  6 22:01:43 2025
solver = Normal
Maximum thread count: 2
tnom = 27
temp = 27
method = modified trap
AsciiRawFile = 1
Direct Newton iteration for .op point succeeded.
Semiconductor Device Operating Points:
                        --- BSIM4 MOSFETS ---
Name:      m1
Model:      n
Id:      1.76e-04
Vgs:     9.22e-01
Vds:     3.68e-02
Vbs:     0.00e+00
Vth:     2.36e-01
Vdsat:   4.96e-01
Gm:      3.07e-05
Gds:     4.64e-03
Gmb      1.32e-04
Cbd:     2.38e-14
Cbs:     3.85e-14


.measure op idd find i(vdd)
  Error: FIND can not be evaluated over an interval.

gain_db: MAX(db(v(out)/v(g)))=(34.5645dB,149.323°) FROM 1 TO 1e+09
gain_lin: MAX(mag(v(out)/v(g)))=(-3.02988dB,0°) FROM 1 TO 1e+09

Measurement "fc" FAIL'ed

Total elapsed time: 0.972 seconds.

