Title: * GA CMOS Amp | W=4.2484656948684514e-05 L=1e-06 Vbias=0.7944211169501001
Date: Mon Sep  8 18:46:14 2025
Plotname: AC Analysis
Flags: complex forward log
No. Variables: 11
No. Points:          901
Offset:    0.0000000000000000e+00
Command: Linear Technology Corporation LTspice
Variables:
	0	frequency	frequency
	1	V(out)	voltage
	2	V(g)	voltage
	3	V(vdd)	voltage
	4	Id(M1)	device_current
	5	Ig(M1)	device_current
	6	Ib(M1)	device_current
	7	Is(M1)	device_current
	8	I(Rload)	device_current
	9	I(Vg)	device_current
	10	I(Vdd)	device_current
Values:
0		1.000000000000000e+00,0.000000000000000e+00
	-1.314126932080726e+00,1.230705340890197e-09
	1.000000000000000e+00,0.000000000000000e+00
	0.000000000000000e+00,0.000000000000000e+00
	1.314126932080726e-04,-1.230705340890197e-13
	6.570464378532570e-23,4.329005604614723e-13
	1.314126921430486e-12,-1.015899230380945e-14
	-1.314126945221996e-04,-2.996710340686431e-13
	-1.314126932080726e-04,1.230705340890197e-13
	-6.570464378532570e-23,-4.329005604614723e-13
	-1.314126932080726e-04,1.230705340890197e-13
1		1.023292992280754e+00,0.000000000000000e+00
	-1.314126932080726e+00,1.259372150895435e-09
	1.000000000000000e+00,0.000000000000000e+00
	0.000000000000000e+00,0.000000000000000e+00
	1.314126932080726e-04,-1.259372150895435e-13
	6.880120824712967e-23,4.429841098746355e-13
	1.314126921430486e-12,-1.039562563312230e-14
	-1.314126945221996e-04,-3.066512691519697e-13
	-1.314126932080726e-04,1.259372150895435e-13
	-6.880120824712967e-23,-4.429841098746355e-13
	-1.314126932080726e-04,1.259372150895435e-13
2		1.047128548050899e+00,0.000000000000000e+00
	-1.314126932080726e+00,1.288706696684839e-09
	1.000000000000000e+00,0.000000000000000e+00
	0.000000000000000e+00,0.000000000000000e+00
	1.314126932080726e-04,-1.288706696684839e-13
	7.204370929596445e-23,4.533025353264421e-13
	1.314126921430486e-12,-1.063777086074825e-14
	-1.314126945221996e-04,-3.137940947972099e-13
	-1.314126932080726e-04,1.288706696684839e-13
	-7.204370929596445e-23,-4.533025353264421e-13
	-1.314126932080726e-04,1.288706696684839e-13
3		1.071519305237606e+00,0.000000000000000e+00
	-1.314126932080726e+00,1.318724531822875e-09
	1.000000000000000e+00,0.000000000000000e+00
	0.000000000000000e+00,0.000000000000000e+00
	1.314126932080726e-04,-1.318724531822875e-13
	7.543902471128434e-23,4.638613077826472e-13
	1.314126921430486e-12,-1.088555637529214e-14
	-1.314126945221996e-04,-3.211032982250675e-13
	-1.314126932080726e-04,1.318724531822875e-13
	-7.543902471128434e-23,-4.638613077826472e-13
	-1.314126932080726e-04,1.318724531822875e-13
4		1.096478196143185e+00,0.000000000000000e+00
	-1.314126932080726e+00,1.349441572163066e-09
	1.000000000000000e+00,0.000000000000000e+00
	0.000000000000000e+00,0.000000000000000e+00
	1.314126932080726e-04,-1.349441572163067e-13
	7.899435641230305e-23,4.746660256441688e-13
	1.314126921430486e-12,-1.113911355591350e-14
	-1.314126945221996e-04,-3.285827548719486e-13
	-1.314126932080726e-04,1.349441572163066e-13
	-7.899435641230305e-23,-4.746660256441688e-13
	-1.314126932080726e-04,1.349441572163066e-13
5		1.122018454301963e+00,0.000000000000000e+00
	-1.314126932080726e+00,1.380874104286790e-09
	1.000000000000000e+00,0.000000000000000e+00
	0.000000000000000e+00,0.000000000000000e+00
	1.314126932080726e-04,-1.380874104286790e-13
	8.271724573423020e-23,4.857224177154347e-13
	1.314126921430486e-12,-1.139857684198579e-14
	-1.314126945221996e-04,-3.362364304447700e-13
	-1.314126932080726e-04,1.380874104286790e-13
	-8.271724573423020e-23,-4.857224177154347e-13
	-1.314126932080726e-04,1.380874104286790e-13
6		1.148153621496882e+00,0.000000000000000e+00
	-1.314126932080726e+00,1.413038794138635e-09
	1.000000000000000e+00,0.000000000000000e+00
	0.000000000000000e+00,0.000000000000000e+00
	1.314126932080726e-04,-1.413038794138635e-13
	8.661558942445389e-23,4.970363462418696e-13
	1.314126921430486e-12,-1.166408380437781e-14
	-1.314126945221996e-04,-3.440683830236283e-13
	-1.314126932080726e-04,1.413038794138635e-13
	-8.661558942445389e-23,-4.970363462418696e-13
	-1.314126932080726e-04,1.413038794138635e-13
7		1.174897554939529e+00,0.000000000000000e+00
	-1.314126932080726e+00,1.445952695862912e-09
	1.000000000000000e+00,0.000000000000000e+00
	0.000000000000000e+00,0.000000000000000e+00
	1.314126932080726e-04,-1.445952695862912e-13
	9.069765639260128e-23,5.086138100181356e-13
	1.314126921430486e-12,-1.193577521839518e-14
	-1.314126945221996e-04,-3.520827652134492e-13
	-1.314126932080726e-04,1.445952695862912e-13
	-9.069765639260128e-23,-5.086138100181356e-13
	-1.314126932080726e-04,1.445952695862912e-13
8		1.202264434617413e+00,0.000000000000000e+00
	-1.314126932080726e+00,1.479633260845983e-09
	1.000000000000000e+00,0.000000000000000e+00
	0.000000000000000e+00,0.000000000000000e+00
	1.314126932080726e-04,-1.479633260845983e-13
	9.497210525000397e-23,5.204609475687730e-13
	1.314126921430486e-12,-1.221379513842213e-14
	-1.314126945221996e-04,-3.602838263457526e-13
	-1.314126932080726e-04,1.479633260845983e-13
	-9.497210525000397e-23,-5.204609475687730e-13
	-1.314126932080726e-04,1.479633260845983e-13
9		1.230268770812381e+00,0.000000000000000e+00
	-1.314126932080726e+00,1.514098346969215e-09
	1.000000000000000e+00,0.000000000000000e+00
	0.000000000000000e+00,0.000000000000000e+00
	1.314126932080726e-04,-1.514098346969215e-13
	9.944800267577386e-23,5.325840404029264e-13
	1.314126921430486e-12,-1.249829097430008e-14
	-1.314126945221996e-04,-3.686759147317048e-13
	-1.314126932080726e-04,1.514098346969215e-13
	-9.944800267577386e-23,-5.325840404029264e-13
	-1.314126932080726e-04,1.514098346969215e-13
10		1.258925411794167e+00,0.000000000000000e+00
	-1.314126932080726e+00,1.549366228077472e-09
	1.000000000000000e+00,0.000000000000000e+00
	0.000000000000000e+00,0.000000000000000e+00
	1.314126932080726e-04,-1.549366228077472e-13
	1.041348426484451e-22,5.449895163448846e-13
	1.314126921430486e-12,-1.278941356948708e-14
	-1.314126945221996e-04,-3.772634799676504e-13
	-1.314126932080726e-04,1.549366228077472e-13
	-1.041348426484451e-22,-5.449895163448846e-13
	-1.314126932080726e-04,1.549366228077472e-13
11		1.288249551693134e+00,0.000000000000000e+00
	-1.314126932080726e+00,1.585455603668142e-09
	1.000000000000000e+00,0.000000000000000e+00
	0.000000000000000e+00,0.000000000000000e+00
	1.314126932080726e-04,-1.585455603668142e-13
	1.090425665839752e-22,5.576839529421980e-13
	1.314126921430486e-12,-1.308731728103650e-14
	-1.314126945221996e-04,-3.860510752943473e-13
	-1.314126932080726e-04,1.585455603668142e-13
	-1.090425665839752e-22,-5.576839529421980e-13
	-1.314126932080726e-04,1.585455603668142e-13
12		1.318256738556407e+00,0.000000000000000e+00
	-1.314126932080726e+00,1.622385608805862e-09
	1.000000000000000e+00,0.000000000000000e+00
	0.000000000000000e+00,0.000000000000000e+00
	1.314126932080726e-04,-1.622385608805862e-13
	1.141815844228214e-22,5.706740809531811e-13
	1.314126921430486e-12,-1.339216006143949e-14
	-1.314126945221996e-04,-3.950433600111554e-13
	-1.314126932080726e-04,1.622385608805862e-13
	-1.141815844228214e-22,-5.706740809531811e-13
	-1.314126932080726e-04,1.622385608805862e-13
13		1.348962882591653e+00,0.000000000000000e+00
	-1.314126932080726e+00,1.660175824268183e-09
	1.000000000000000e+00,0.000000000000000e+00
	0.000000000000000e+00,0.000000000000000e+00
	1.314126932080726e-04,-1.660175824268184e-13
	1.195627967108202e-22,5.839667879156500e-13
	1.314126921430486e-12,-1.370410354237328e-14
	-1.314126945221996e-04,-4.042451019464584e-13
	-1.314126932080726e-04,1.660175824268183e-13
	-1.195627967108202e-22,-5.839667879156500e-13
	-1.314126932080726e-04,1.660175824268183e-13
14		1.380384264602885e+00,0.000000000000000e+00
	-1.314126932080726e+00,1.698846286927557e-09
	1.000000000000000e+00,0.000000000000000e+00
	0.000000000000000e+00,0.000000000000000e+00
	1.314126932080726e-04,-1.698846286927557e-13
	1.251976177207061e-22,5.975691217987860e-13
	1.314126921430486e-12,-1.402331312040032e-14
	-1.314126945221996e-04,-4.136611799856300e-13
	-1.314126932080726e-04,1.698846286927557e-13
	-1.251976177207061e-22,-5.975691217987860e-13
	-1.314126932080726e-04,1.698846286927557e-13
15		1.412537544622754e+00,0.000000000000000e+00
	-1.314126932080726e+00,1.738417500375148e-09
	1.000000000000000e+00,0.000000000000000e+00
	0.000000000000000e+00,0.000000000000000e+00
	1.314126932080726e-04,-1.738417500375148e-13
	1.310979996633145e-22,6.114882947400622e-13
	1.314126921430486e-12,-1.434995804466448e-14
	-1.314126945221996e-04,-4.232965866578829e-13
	-1.314126932080726e-04,1.738417500375148e-13
	-1.310979996633145e-22,-6.114882947400622e-13
	-1.314126932080726e-04,1.738417500375148e-13
16		1.445439770745927e+00,0.000000000000000e+00
	-1.314126932080726e+00,1.778910445792114e-09
	1.000000000000000e+00,0.000000000000000e+00
	0.000000000000000e+00,0.000000000000000e+00
	1.314126932080726e-04,-1.778910445792114e-13
	1.372764580398238e-22,6.257316868692139e-13
	1.314126921430486e-12,-1.468421150662801e-14
	-1.314126945221996e-04,-4.331564307833744e-13
	-1.314126932080726e-04,1.778910445792114e-13
	-1.372764580398238e-22,-6.257316868692139e-13
	-1.314126932080726e-04,1.778910445792114e-13
17		1.479108388168207e+00,0.000000000000000e+00
	-1.314126932080726e+00,1.820346593074103e-09
	1.000000000000000e+00,0.000000000000000e+00
	0.000000000000000e+00,0.000000000000000e+00
	1.314126932080726e-04,-1.820346593074103e-13
	1.437460981888109e-22,6.403068502212816e-13
	1.314126921430486e-12,-1.502625073190080e-14
	-1.314126945221996e-04,-4.432459401819705e-13
	-1.314126932080726e-04,1.820346593074103e-13
	-1.437460981888109e-22,-6.403068502212816e-13
	-1.314126932080726e-04,1.820346593074103e-13
18		1.513561248436208e+00,0.000000000000000e+00
	-1.314126932080726e+00,1.862747912214875e-09
	1.000000000000000e+00,0.000000000000000e+00
	0.000000000000000e+00,0.000000000000000e+00
	1.314126932080726e-04,-1.862747912214875e-13
	1.505206430844316e-22,6.552215127408000e-13
	1.314126921430486e-12,-1.537625707420770e-14
	-1.314126945221996e-04,-4.535704644451048e-13
	-1.314126932080726e-04,1.862747912214875e-13
	-1.505206430844316e-22,-6.552215127408000e-13
	-1.314126932080726e-04,1.862747912214875e-13
19		1.548816618912481e+00,0.000000000000000e+00
	-1.314126932080726e+00,1.906136884955086e-09
	1.000000000000000e+00,0.000000000000000e+00
	0.000000000000000e+00,0.000000000000000e+00
	1.314126932080726e-04,-1.906136884955087e-13
	1.576144624446885e-22,6.704835823792555e-13
	1.314126921430486e-12,-1.573441611154414e-14
	-1.314126945221996e-04,-4.641354777722026e-13
	-1.314126932080726e-04,1.906136884955087e-13
	-1.576144624446885e-22,-6.704835823792555e-13
	-1.314126932080726e-04,1.906136884955087e-13
20		1.584893192461113e+00,0.000000000000000e+00
	-1.314126932080726e+00,1.950536516702406e-09
	1.000000000000000e+00,0.000000000000000e+00
	0.000000000000000e+00,0.000000000000000e+00
	1.314126932080726e-04,-1.950536516702407e-13
	1.650426032115298e-22,6.861011512879878e-13
	1.314126921430486e-12,-1.610091774457242e-14
	-1.314126945221996e-04,-4.749465818731747e-13
	-1.314126932080726e-04,1.950536516702407e-13
	-1.650426032115298e-22,-6.861011512879878e-13
	-1.314126932080726e-04,1.950536516702407e-13
21		1.621810097358929e+00,0.000000000000000e+00
	-1.314126932080726e+00,1.995970348729284e-09
	1.000000000000000e+00,0.000000000000000e+00
	0.000000000000000e+00,0.000000000000000e+00
	1.314126932080726e-04,-1.995970348729284e-13
	1.728208214674298e-22,7.020825001087555e-13
	1.314126921430486e-12,-1.647595629730993e-14
	-1.314126945221996e-04,-4.860095089385171e-13
	-1.314126932080726e-04,1.995970348729284e-13
	-1.728208214674298e-22,-7.020825001087555e-13
	-1.314126932080726e-04,1.995970348729284e-13
22		1.659586907437560e+00,0.000000000000000e+00
	-1.314126932080726e+00,2.042462470654850e-09
	1.000000000000000e+00,0.000000000000000e+00
	0.000000000000000e+00,0.000000000000000e+00
	1.314126932080726e-04,-2.042462470654850e-13
	1.809656158561536e-22,7.184361023642413e-13
	1.314126921430486e-12,-1.685973062016115e-14
	-1.314126945221996e-04,-4.973301246785951e-13
	-1.314126932080726e-04,2.042462470654850e-13
	-1.809656158561536e-22,-7.184361023642413e-13
	-1.314126932080726e-04,2.042462470654850e-13
23		1.698243652461743e+00,0.000000000000000e+00
	-1.314126932080726e+00,2.090037533217543e-09
	1.000000000000000e+00,0.000000000000000e+00
	0.000000000000000e+00,0.000000000000000e+00
	1.314126932080726e-04,-2.090037533217543e-13
	1.894942625785909e-22,7.351706289508266e-13
	1.314126921430486e-12,-1.725244419535209e-14
	-1.314126945221996e-04,-5.089144314337202e-13
	-1.314126932080726e-04,2.090037533217543e-13
	-1.894942625785909e-22,-7.351706289508266e-13
	-1.314126932080726e-04,2.090037533217543e-13
24		1.737800828749374e+00,0.000000000000000e+00
	-1.314126932080726e+00,2.138720761345266e-09
	1.000000000000000e+00,0.000000000000000e+00
	0.000000000000000e+00,0.000000000000000e+00
	1.314126932080726e-04,-2.138720761345265e-13
	1.984248520378958e-22,7.522949527360152e-13
	1.314126921430486e-12,-1.765430524481863e-14
	-1.314126945221996e-04,-5.207685713566701e-13
	-1.314126932080726e-04,2.138720761345266e-13
	-1.984248520378958e-22,-7.522949527360152e-13
	-1.314126932080726e-04,2.138720761345266e-13
25		1.778279410038922e+00,0.000000000000000e+00
	-1.314126932080726e+00,2.188537967529969e-09
	1.000000000000000e+00,0.000000000000000e+00
	0.000000000000000e+00,0.000000000000000e+00
	1.314126932080726e-04,-2.188537967529970e-13
	2.077763272116564e-22,7.698181532629456e-13
	1.314126921430486e-12,-1.806552684060827e-14
	-1.314126945221996e-04,-5.328988296693404e-13
	-1.314126932080726e-04,2.188537967529970e-13
	-2.077763272116564e-22,-7.698181532629456e-13
	-1.314126932080726e-04,2.188537967529970e-13
26		1.819700858609982e+00,0.000000000000000e+00
	-1.314126932080726e+00,2.239515565513782e-09
	1.000000000000000e+00,0.000000000000000e+00
	0.000000000000000e+00,0.000000000000000e+00
	1.314126932080726e-04,-2.239515565513782e-13
	2.175685238324903e-22,7.877495215644836e-13
	1.314126921430486e-12,-1.848632701785427e-14
	-1.314126945221996e-04,-5.453116379952511e-13
	-1.314126932080726e-04,2.239515565513782e-13
	-2.175685238324903e-22,-7.877495215644836e-13
	-1.314126932080726e-04,2.239515565513782e-13
27		1.862087136662866e+00,0.000000000000000e+00
	-1.314126932080726e+00,2.291680584293923e-09
	1.000000000000000e+00,0.000000000000000e+00
	0.000000000000000e+00,0.000000000000000e+00
	1.314126932080726e-04,-2.291680584293924e-13
	2.278222124622931e-22,8.060985650894529e-13
	1.314126921430486e-12,-1.891692889038065e-14
	-1.314126945221996e-04,-5.580135777696799e-13
	-1.314126932080726e-04,2.291680584293923e-13
	-2.278222124622931e-22,-8.060985650894529e-13
	-1.314126932080726e-04,2.291680584293923e-13
28		1.905460717963246e+00,0.000000000000000e+00
	-1.314126932080726e+00,2.345060682453836e-09
	1.000000000000000e+00,0.000000000000000e+00
	0.000000000000000e+00,0.000000000000000e+00
	1.314126932080726e-04,-2.345060682453836e-13
	2.385591425493845e-22,8.248750127436085e-13
	1.314126921430486e-12,-1.935756076899995e-14
	-1.314126945221996e-04,-5.710113837292250e-13
	-1.314126932080726e-04,2.345060682453836e-13
	-2.385591425493845e-22,-8.248750127436085e-13
	-1.314126932080726e-04,2.345060682453836e-13
29		1.949844599758044e+00,0.000000000000000e+00
	-1.314126932080726e+00,2.399684162828133e-09
	1.000000000000000e+00,0.000000000000000e+00
	0.000000000000000e+00,0.000000000000000e+00
	1.314126932080726e-04,-2.399684162828133e-13
	2.498020885620046e-22,8.440888200480324e-13
	1.314126921430486e-12,-1.980845628256641e-14
	-1.314126945221996e-04,-5.843119474826527e-13
	-1.314126932080726e-04,2.399684162828133e-13
	-2.498020885620046e-22,-8.440888200480324e-13
	-1.314126932080726e-04,2.399684162828133e-13
30		1.995262314968878e+00,0.000000000000000e+00
	-1.314126932080726e+00,2.455579987509136e-09
	1.000000000000000e+00,0.000000000000000e+00
	0.000000000000000e+00,0.000000000000000e+00
	1.314126932080726e-04,-2.455579987509137e-13
	2.615748982960140e-22,8.637501744176819e-13
	1.314126921430486e-12,-2.026985450184979e-14
	-1.314126945221996e-04,-5.979223211649184e-13
	-1.314126932080726e-04,2.455579987509136e-13
	-2.615748982960140e-22,-8.637501744176819e-13
	-1.314126932080726e-04,2.455579987509136e-13
31		2.041737944669527e+00,0.000000000000000e+00
	-1.314126932080726e+00,2.512777793202961e-09
	1.000000000000000e+00,0.000000000000000e+00
	0.000000000000000e+00,0.000000000000000e+00
	1.314126932080726e-04,-2.512777793202961e-13
	2.739025434592668e-22,8.838695005628929e-13
	1.314126921430486e-12,-2.074200006629351e-14
	-1.314126945221996e-04,-6.118497211763033e-13
	-1.314126932080726e-04,2.512777793202961e-13
	-2.739025434592668e-22,-8.838695005628929e-13
	-1.314126932080726e-04,2.512777793202961e-13
32		2.089296130854037e+00,0.000000000000000e+00
	-1.314126932080726e+00,2.571307906943288e-09
	1.000000000000000e+00,0.000000000000000e+00
	0.000000000000000e+00,0.000000000000000e+00
	1.314126932080726e-04,-2.571307906943288e-13
	2.868111726399505e-22,9.044574660166984e-13
	1.314126921430486e-12,-2.122514331372501e-14
	-1.314126945221996e-04,-6.261015320086446e-13
	-1.314126932080726e-04,2.571307906943288e-13
	-2.868111726399505e-22,-9.044574660166984e-13
	-1.314126932080726e-04,2.571307906943288e-13
33		2.137962089502230e+00,0.000000000000000e+00
	-1.314126932080726e+00,2.631201362171160e-09
	1.000000000000000e+00,0.000000000000000e+00
	0.000000000000000e+00,0.000000000000000e+00
	1.314126932080726e-04,-2.631201362171160e-13
	3.003281667712472e-22,9.255249867908957e-13
	1.314126921430486e-12,-2.171954041308936e-14
	-1.314126945221996e-04,-6.406853101606903e-13
	-1.314126932080726e-04,2.631201362171160e-13
	-3.003281667712472e-22,-9.255249867908957e-13
	-1.314126932080726e-04,2.631201362171160e-13
34		2.187761623949550e+00,0.000000000000000e+00
	-1.314126932080726e+00,2.692489915189322e-09
	1.000000000000000e+00,0.000000000000000e+00
	0.000000000000000e+00,0.000000000000000e+00
	1.314126932080726e-04,-2.692489915189322e-13
	3.144821972099645e-22,9.470832331638612e-13
	1.314126921430486e-12,-2.222545350027312e-14
	-1.314126945221996e-04,-6.556087881446558e-13
	-1.314126932080726e-04,2.692489915189322e-13
	-3.144821972099645e-22,-9.470832331638612e-13
	-1.314126932080726e-04,2.692489915189322e-13
35		2.238721138568337e+00,0.000000000000000e+00
	-1.314126932080726e+00,2.755206061999836e-09
	1.000000000000000e+00,0.000000000000000e+00
	0.000000000000000e+00,0.000000000000000e+00
	1.314126932080726e-04,-2.755206061999836e-13
	3.293032865523267e-22,9.691436356031787e-13
	1.314126921430486e-12,-2.274315081709138e-14
	-1.314126945221996e-04,-6.708798785861037e-13
	-1.314126932080726e-04,2.755206061999836e-13
	-3.293032865523267e-22,-9.691436356031787e-13
	-1.314126932080726e-04,2.755206061999836e-13
36		2.290867652767770e+00,0.000000000000000e+00
	-1.314126932080726e+00,2.819383055533885e-09
	1.000000000000000e+00,0.000000000000000e+00
	0.000000000000000e+00,0.000000000000000e+00
	1.314126932080726e-04,-2.819383055533885e-13
	3.448228723159272e-22,9.917178908262254e-13
	1.314126921430486e-12,-2.327290685351380e-14
	-1.314126945221996e-04,-6.865066784193232e-13
	-1.314126932080726e-04,2.819383055533885e-13
	-3.448228723159272e-22,-9.917178908262254e-13
	-1.314126932080726e-04,2.819383055533885e-13
37		2.344228815319919e+00,0.000000000000000e+00
	-1.314126932080726e+00,2.885054923282924e-09
	1.000000000000000e+00,0.000000000000000e+00
	0.000000000000000e+00,0.000000000000000e+00
	1.314126932080726e-04,-2.885054923282924e-13
	3.610738736229175e-22,1.014817968001926e-12
	1.314126921430486e-12,-2.381500249320343e-14
	-1.314126945221996e-04,-7.024974731804305e-13
	-1.314126932080726e-04,2.885054923282924e-13
	-3.610738736229175e-22,-1.014817968001926e-12
	-1.314126932080726e-04,2.885054923282924e-13
38		2.398832919019488e+00,0.000000000000000e+00
	-1.314126932080726e+00,2.952256485340505e-09
	1.000000000000000e+00,0.000000000000000e+00
	0.000000000000000e+00,0.000000000000000e+00
