Title: * GA CMOS Amp | W=4.80008941780013e-06 L=6.235530453534383e-07 Vbias=1.2829953047889362
Date: Sat Sep  6 22:09:37 2025
Plotname: AC Analysis
Flags: complex forward log
No. Variables: 13
No. Points:          901
Offset:    0.0000000000000000e+00
Command: Linear Technology Corporation LTspice
Variables:
	0	frequency	frequency
	1	V(out)	voltage
	2	V(g)	voltage
	3	V(vdd)	voltage
	4	V(m1#dbody)	voltage
	5	V(m1#sbody)	voltage
	6	Id(M1)	device_current
	7	Ig(M1)	device_current
	8	Ib(M1)	device_current
	9	Is(M1)	device_current
	10	I(Rload)	device_current
	11	I(Vg)	device_current
	12	I(Vdd)	device_current
Values:
0		1.000000000000000e+00,0.000000000000000e+00
	-1.186184783142434e-02,6.150012814628541e-10
	1.000000000000000e+00,0.000000000000000e+00
	0.000000000000000e+00,0.000000000000000e+00
	2.011324077258098e-05,4.688147280455862e-14
	2.011324086154403e-05,4.812656166410322e-14
	1.186184783142434e-06,-6.150012814628532e-14
	1.435274917649892e-05,7.706021067445276e-13
	-1.072706179499948e-05,-2.558594952015029e-14
	-4.811872164641879e-06,-6.835160290780919e-13
	-1.186184783142434e-06,6.150012814628541e-14
	-1.435274917649387e-05,-7.706021067445277e-13
	-1.186184783142434e-06,6.150012814628541e-14
1		1.023292992280754e+00,0.000000000000000e+00
	-1.186184783142434e-02,6.293265015646223e-10
	1.000000000000000e+00,0.000000000000000e+00
	0.000000000000000e+00,0.000000000000000e+00
	2.011324077258098e-05,4.797348258870559e-14
	2.011324086154403e-05,4.924757329344442e-14
	1.186184783142434e-06,-6.293265015646217e-14
	1.435274917649892e-05,7.885517356684608e-13
	-1.072706179499948e-05,-2.618192284481892e-14
	-4.811872164641879e-06,-6.994371626671797e-13
	-1.186184783142434e-06,6.293265015646224e-14
	-1.435274917649387e-05,-7.885517356684610e-13
	-1.186184783142434e-06,6.293265015646224e-14
2		1.047128548050899e+00,0.000000000000000e+00
	-1.186184783142434e-02,6.439853989076409e-10
	1.000000000000000e+00,0.000000000000000e+00
	0.000000000000000e+00,0.000000000000000e+00
	2.011324077258098e-05,4.909092854832518e-14
	2.011324086154403e-05,5.039469663801447e-14
	1.186184783142434e-06,-6.439853989076409e-14
	1.435274917649892e-05,8.069194651603613e-13
	-1.072706179499948e-05,-2.679177817153857e-14
	-4.811872164641879e-06,-7.157291470980587e-13
	-1.186184783142434e-06,6.439853989076410e-14
	-1.435274917649387e-05,-8.069194651603614e-13
	-1.186184783142434e-06,6.439853989076410e-14
3		1.071519305237606e+00,0.000000000000000e+00
	-1.186184783142434e-02,6.589857458333149e-10
	1.000000000000000e+00,0.000000000000000e+00
	0.000000000000000e+00,0.000000000000000e+00
	2.011324077258098e-05,5.023440316805637e-14
	2.011324086154403e-05,5.156853991779468e-14
	1.186184783142434e-06,-6.589857458333153e-14
	1.435274917649892e-05,8.257150340335319e-13
	-1.072706179499948e-05,-2.741583885367589e-14
	-4.811872164641879e-06,-7.324006205965245e-13
	-1.186184783142434e-06,6.589857458333150e-14
	-1.435274917649387e-05,-8.257150340335318e-13
	-1.186184783142434e-06,6.589857458333150e-14
4		1.096478196143185e+00,0.000000000000000e+00
	-1.186184783142434e-02,6.743354957241371e-10
	1.000000000000000e+00,0.000000000000000e+00
	0.000000000000000e+00,0.000000000000000e+00
	2.011324077258098e-05,5.140451273327818e-14
	2.011324086154403e-05,5.276972552002963e-14
	1.186184783142434e-06,-6.743354957241384e-14
	1.435274917649892e-05,8.449484079473776e-13
	-1.072706179499948e-05,-2.805443577646496e-14
	-4.811872164641879e-06,-7.494604225984988e-13
	-1.186184783142434e-06,6.743354957241371e-14
	-1.435274917649387e-05,-8.449484079473775e-13
	-1.186184783142434e-06,6.743354957241371e-14
5		1.122018454301963e+00,0.000000000000000e+00
	-1.186184783142434e-02,6.900427872206782e-10
	1.000000000000000e+00,0.000000000000000e+00
	0.000000000000000e+00,0.000000000000000e+00
	2.011324077258098e-05,5.260187765157039e-14
	2.011324086154403e-05,5.399889032922522e-14
	1.186184783142434e-06,-6.900427872206785e-14
	1.435274917649892e-05,8.646297846913314e-13
	-1.072706179499948e-05,-2.870790753244709e-14
	-4.811872164641879e-06,-7.669175984368164e-13
	-1.186184783142434e-06,6.900427872206782e-14
	-1.435274917649387e-05,-8.646297846913314e-13
	-1.186184783142434e-06,6.900427872206782e-14
6		1.148153621496882e+00,0.000000000000000e+00
	-1.186184783142434e-02,7.061159485367994e-10
	1.000000000000000e+00,0.000000000000000e+00
	0.000000000000000e+00,0.000000000000000e+00
	2.011324077258098e-05,5.382713278166157e-14
	2.011324086154403e-05,5.525668606483313e-14
	1.186184783142434e-06,-7.061159485367992e-14
	1.435274917649892e-05,8.847695995918565e-13
	-1.072706179499948e-05,-2.937660060099697e-14
	-4.811872164641879e-06,-7.847814041371796e-13
	-1.186184783142434e-06,7.061159485367994e-14
	-1.435274917649387e-05,-8.847695995918567e-13
	-1.186184783142434e-06,7.061159485367994e-14
7		1.174897554939529e+00,0.000000000000000e+00
	-1.186184783142434e-02,7.225635018753844e-10
	1.000000000000000e+00,0.000000000000000e+00
	0.000000000000000e+00,0.000000000000000e+00
	2.011324077258098e-05,5.508092777003996e-14
	2.011324086154403e-05,5.654377962680136e-14
	1.186184783142434e-06,-7.225635018753847e-14
	1.435274917649892e-05,9.053785310453956e-13
	-1.072706179499948e-05,-3.006086953203080e-14
	-4.811872164641879e-06,-8.030613113258264e-13
	-1.186184783142434e-06,7.225635018753844e-14
	-1.435274917649387e-05,-9.053785310453955e-13
	-1.186184783142434e-06,7.225635018753844e-14
8		1.202264434617413e+00,0.000000000000000e+00
	-1.186184783142434e-02,7.393941679469226e-10
	1.000000000000000e+00,0.000000000000000e+00
	0.000000000000000e+00,0.000000000000000e+00
	2.011324077258098e-05,5.636392739540425e-14
	2.011324086154403e-05,5.786085344917308e-14
	1.186184783142434e-06,-7.393941679469221e-14
	1.435274917649892e-05,9.264675061801965e-13
	-1.072706179499948e-05,-3.076107713399314e-14
	-4.811872164641879e-06,-8.217670122515111e-13
	-1.186184783142434e-06,7.393941679469226e-14
	-1.435274917649387e-05,-9.264675061801965e-13
	-1.186184783142434e-06,7.393941679469226e-14
9		1.230268770812381e+00,0.000000000000000e+00
	-1.186184783142434e-02,7.566168705933447e-10
	1.000000000000000e+00,0.000000000000000e+00
	0.000000000000000e+00,0.000000000000000e+00
	2.011324077258098e-05,5.767681192113841e-14
	2.011324086154403e-05,5.920860586192254e-14
	1.186184783142434e-06,-7.566168705933454e-14
	1.435274917649892e-05,9.480477066500213e-13
	-1.072706179499948e-05,-3.147759466622293e-14
	-4.811872164641879e-06,-8.409084249244638e-13
	-1.186184783142434e-06,7.566168705933447e-14
	-1.435274917649387e-05,-9.480477066500215e-13
	-1.186184783142434e-06,7.566168705933447e-14
10		1.258925411794167e+00,0.000000000000000e+00
	-1.186184783142434e-02,7.742407415195639e-10
	1.000000000000000e+00,0.000000000000000e+00
	0.000000000000000e+00,0.000000000000000e+00
	2.011324077258098e-05,5.902027745599600e-14
	2.011324086154403e-05,6.058775146121853e-14
	1.186184783142434e-06,-7.742407415195647e-14
	1.435274917649892e-05,9.701305745628069e-13
	-1.072706179499948e-05,-3.221080203579998e-14
	-4.811872164641879e-06,-8.604956983750505e-13
	-1.186184783142434e-06,7.742407415195639e-14
	-1.435274917649387e-05,-9.701305745628069e-13
	-1.186184783142434e-06,7.742407415195639e-14
11		1.288249551693134e+00,0.000000000000000e+00
	-1.186184783142434e-02,7.922751251352247e-10
	1.000000000000000e+00,0.000000000000000e+00
	0.000000000000000e+00,0.000000000000000e+00
	2.011324077258098e-05,6.039503632318648e-14
	2.011324086154403e-05,6.199902148831292e-14
	1.186184783142434e-06,-7.922751251352250e-14
	1.435274917649892e-05,9.927278185474222e-13
	-1.072706179499948e-05,-3.296108799897675e-14
	-4.811872164641879e-06,-8.805392180349229e-13
	-1.186184783142434e-06,7.922751251352247e-14
	-1.435274917649387e-05,-9.927278185474222e-13
	-1.186184783142434e-06,7.922751251352247e-14
12		1.318256738556407e+00,0.000000000000000e+00
	-1.186184783142434e-02,8.107295835092326e-10
	1.000000000000000e+00,0.000000000000000e+00
	0.000000000000000e+00,0.000000000000000e+00
	2.011324077258098e-05,6.180181743805833e-14
	2.011324086154403e-05,6.344316421725451e-14
	1.186184783142434e-06,-8.107295835092331e-14
	1.435274917649892e-05,1.015851419961737e-12
	-1.072706179499948e-05,-3.372885036730218e-14
	-4.811872164641879e-06,-9.010496112435115e-13
	-1.186184783142434e-06,8.107295835092327e-14
	-1.435274917649387e-05,-1.015851419961737e-12
	-1.186184783142434e-06,8.107295835092327e-14
13		1.348962882591653e+00,0.000000000000000e+00
	-1.186184783142434e-02,8.296139014396923e-10
	1.000000000000000e+00,0.000000000000000e+00
	0.000000000000000e+00,0.000000000000000e+00
	2.011324077258098e-05,6.324136669457958e-14
	2.011324086154403e-05,6.492094535163363e-14
	1.186184783142434e-06,-8.296139014396926e-14
	1.435274917649892e-05,1.039513639245299e-12
	-1.072706179499948e-05,-3.451449621854646e-14
	-4.811872164641879e-06,-9.220377528827833e-13
	-1.186184783142434e-06,8.296139014396923e-14
	-1.435274917649387e-05,-1.039513639245299e-12
	-1.186184783142434e-06,8.296139014396923e-14
14		1.380384264602885e+00,0.000000000000000e+00
	-1.186184783142434e-02,8.489380916419335e-10
	1.000000000000000e+00,0.000000000000000e+00
	0.000000000000000e+00,0.000000000000000e+00
	2.011324077258098e-05,6.471444736082078e-14
	2.011324086154403e-05,6.643314843056850e-14
	1.186184783142433e-06,-8.489380916419333e-14
	1.435274917649892e-05,1.063727022419978e-12
	-1.072706179499948e-05,-3.531844211253918e-14
	-4.811872164641879e-06,-9.435147711432458e-13
	-1.186184783142434e-06,8.489380916419335e-14
	-1.435274917649387e-05,-1.063727022419978e-12
	-1.186184783142434e-06,8.489380916419335e-14
15		1.412537544622754e+00,0.000000000000000e+00
	-1.186184783142434e-02,8.687124000573870e-10
	1.000000000000000e+00,0.000000000000000e+00
	0.000000000000000e+00,0.000000000000000e+00
	2.011324077258098e-05,6.622184048364963e-14
	2.011324086154403e-05,6.798057524414791e-14
	1.186184783142433e-06,-8.687124000573876e-14
	1.435274917649892e-05,1.088504407742036e-12
	-1.072706179499948e-05,-3.614111431203481e-14
	-4.811872164641879e-06,-9.654920534242629e-13
	-1.186184783142434e-06,8.687124000573871e-14
	-1.435274917649387e-05,-1.088504407742036e-12
	-1.186184783142434e-06,8.687124000573871e-14
16		1.445439770745927e+00,0.000000000000000e+00
	-1.186184783142434e-02,8.889473112861191e-10
	1.000000000000000e+00,0.000000000000000e+00
	0.000000000000000e+00,0.000000000000000e+00
	2.011324077258098e-05,6.776434530285261e-14
	2.011324086154403e-05,6.956404625855107e-14
	1.186184783142433e-06,-8.889473112861194e-14
	1.435274917649892e-05,1.113858932509138e-12
	-1.072706179499948e-05,-3.698294900872289e-14
	-4.811872164641879e-06,-9.879812523718036e-13
	-1.186184783142434e-06,8.889473112861191e-14
	-1.435274917649387e-05,-1.113858932509138e-12
	-1.186184783142434e-06,8.889473112861191e-14
17		1.479108388168207e+00,0.000000000000000e+00
	-1.186184783142434e-02,9.096535541459037e-10
	1.000000000000000e+00,0.000000000000000e+00
	0.000000000000000e+00,0.000000000000000e+00
	2.011324077258098e-05,6.934277967490231e-14
	2.011324086154403e-05,7.118440105106951e-14
	1.186184783142433e-06,-9.096535541459040e-14
	1.435274917649892e-05,1.139804040025923e-12
	-1.072706179499948e-05,-3.784439255450259e-14
	-4.811872164641879e-06,-1.010994292056830e-12
	-1.186184783142434e-06,9.096535541459038e-14
	-1.435274917649387e-05,-1.139804040025922e-12
	-1.186184783142434e-06,9.096535541459038e-14
18		1.513561248436208e+00,0.000000000000000e+00
	-1.186184783142434e-02,9.308421073607848e-10
	1.000000000000000e+00,0.000000000000000e+00
	0.000000000000000e+00,0.000000000000000e+00
	2.011324077258098e-05,7.095798050659585e-14
	2.011324086154403e-05,7.284249875526218e-14
	1.186184783142433e-06,-9.308421073607849e-14
	1.435274917649892e-05,1.166353486731819e-12
	-1.072706179499948e-05,-3.872590169814445e-14
	-4.811872164641879e-06,-1.034543374297596e-12
	-1.186184783142434e-06,9.308421073607848e-14
	-1.435274917649387e-05,-1.166353486731819e-12
	-1.186184783142434e-06,9.308421073607848e-14
19		1.548816618912481e+00,0.000000000000000e+00
	-1.186184783142434e-02,9.525242053821404e-10
	1.000000000000000e+00,0.000000000000000e+00
	0.000000000000000e+00,0.000000000000000e+00
	2.011324077258098e-05,7.261080419879388e-14
	2.011324086154403e-05,7.453921851647934e-14
	1.186184783142434e-06,-9.525242053821404e-14
	1.435274917649892e-05,1.193521349494894e-12
	-1.072706179499948e-05,-3.962794382746457e-14
	-4.811872164641880e-06,-1.058640985129215e-12
	-1.186184783142434e-06,9.525242053821405e-14
	-1.435274917649387e-05,-1.193521349494894e-12
	-1.186184783142434e-06,9.525242053821405e-14
20		1.584893192461113e+00,0.000000000000000e+00
	-1.186184783142434e-02,9.747113443453382e-10
	1.000000000000000e+00,0.000000000000000e+00
	0.000000000000000e+00,0.000000000000000e+00
	2.011324077258098e-05,7.430212710049573e-14
	2.011324086154403e-05,7.627545995799715e-14
	1.186184783142434e-06,-9.747113443453402e-14
	1.435274917649892e-05,1.221322033075594e-12
	-1.072706179499948e-05,-4.055099721713986e-14
	-4.811872164641880e-06,-1.083299901423920e-12
	-1.186184783142434e-06,9.747113443453382e-14
	-1.435274917649387e-05,-1.221322033075593e-12
	-1.186184783142434e-06,9.747113443453382e-14
21		1.621810097358929e+00,0.000000000000000e+00
	-1.186184783142434e-02,9.974152881651374e-10
	1.000000000000000e+00,0.000000000000000e+00
	0.000000000000000e+00,0.000000000000000e+00
	2.011324077258098e-05,7.603284597349120e-14
	2.011324086154403e-05,7.805214365800975e-14
	1.186184783142434e-06,-9.974152881651381e-14
	1.435274917649892e-05,1.249770277764338e-12
	-1.072706179499948e-05,-4.149555128229559e-14
	-4.811872164641880e-06,-1.108533197665529e-12
	-1.186184783142434e-06,9.974152881651374e-14
	-1.435274917649387e-05,-1.249770277764338e-12
	-1.186184783142434e-06,9.974152881651374e-14
22		1.659586907437560e+00,0.000000000000000e+00
	-1.186184783142434e-02,1.020648074773074e-09
	1.000000000000000e+00,0.000000000000000e+00
	0.000000000000000e+00,0.000000000000000e+00
	2.011324077258098e-05,7.780387846783548e-14
	2.011324086154403e-05,7.987021163773207e-14
	1.186184783142434e-06,-1.020648074773074e-13
	1.435274917649892e-05,1.278881167197019e-12
	-1.072706179499948e-05,-4.246210683799972e-14
	-4.811872164641880e-06,-1.134354252881712e-12
	-1.186184783142434e-06,1.020648074773074e-13
	-1.435274917649387e-05,-1.278881167197019e-12
	-1.186184783142434e-06,1.020648074773074e-13
23		1.698243652461743e+00,0.000000000000000e+00
	-1.186184783142434e-02,1.044422022500130e-09
	1.000000000000000e+00,0.000000000000000e+00
	0.000000000000000e+00,0.000000000000000e+00
	2.011324077258098e-05,7.961616360839950e-14
	2.011324086154403e-05,8.173062786087196e-14
	1.186184783142434e-06,-1.044422022500130e-13
	1.435274917649892e-05,1.308670136352541e-12
	-1.072706179499948e-05,-4.345117636480181e-14
	-4.811872164641880e-06,-1.160776757737726e-12
	-1.186184783142434e-06,1.044422022500130e-13
	-1.435274917649387e-05,-1.308670136352541e-12
	-1.186184783142434e-06,1.044422022500130e-13
24		1.737800828749374e+00,0.000000000000000e+00
	-1.186184783142434e-02,1.068749736608075e-09
	1.000000000000000e+00,0.000000000000000e+00
	0.000000000000000e+00,0.000000000000000e+00
	2.011324077258098e-05,8.147066229275322e-14
	2.011324086154403e-05,8.363437874473644e-14
	1.186184783142434e-06,-1.068749736608076e-13
	1.435274917649892e-05,1.339152979736654e-12
	-1.072706179499948e-05,-4.446328428045682e-14
	-4.811872164641880e-06,-1.187814721795389e-12
	-1.186184783142434e-06,1.068749736608075e-13
	-1.435274917649387e-05,-1.339152979736654e-12
	-1.186184783142434e-06,1.068749736608075e-13
25		1.778279410038922e+00,0.000000000000000e+00
	-1.186184783142434e-02,1.093644115972945e-09
	1.000000000000000e+00,0.000000000000000e+00
	0.000000000000000e+00,0.000000000000000e+00
	2.011324077258098e-05,8.336835780064625e-14
	2.011324086154403e-05,8.558247368324326e-14
	1.186184783142434e-06,-1.093644115972944e-13
	1.435274917649892e-05,1.370345859756409e-12
	-1.072706179499948e-05,-4.549896721797848e-14
	-4.811872164641880e-06,-1.215482480941136e-12
	-1.186184783142434e-06,1.093644115972945e-13
	-1.435274917649387e-05,-1.370345859756409e-12
	-1.186184783142434e-06,1.093644115972945e-13
26		1.819700858609982e+00,0.000000000000000e+00
	-1.186184783142434e-02,1.119118359924195e-09
	1.000000000000000e+00,0.000000000000000e+00
	0.000000000000000e+00,0.000000000000000e+00
	2.011324077258098e-05,8.531025631535583e-14
	2.011324086154403e-05,8.757594558211487e-14
	1.186184783142434e-06,-1.119118359924194e-13
	1.435274917649892e-05,1.402265315289678e-12
	-1.072706179499948e-05,-4.655877431016913e-14
	-4.811872164641880e-06,-1.243794704987089e-12
	-1.186184783142434e-06,1.119118359924195e-13
	-1.435274917649387e-05,-1.402265315289678e-12
	-1.186184783142434e-06,1.119118359924195e-13
27		1.862087136662866e+00,0.000000000000000e+00
	-1.186184783142434e-02,1.145185975243159e-09
	1.000000000000000e+00,0.000000000000000e+00
	0.000000000000000e+00,0.000000000000000e+00
	2.011324077258098e-05,8.729738745717856e-14
	2.011324086154403e-05,8.961585140653880e-14
	1.186184783142434e-06,-1.145185975243159e-13
	1.435274917649892e-05,1.434928270454290e-12
	-1.072706179499948e-05,-4.764326748077726e-14
	-4.811872164641880e-06,-1.272766405449197e-12
	-1.186184783142434e-06,1.145185975243160e-13
	-1.435274917649387e-05,-1.434928270454290e-12
	-1.186184783142434e-06,1.145185975243160e-13
28		1.905460717963246e+00,0.000000000000000e+00
	-1.186184783142434e-02,1.171860783324526e-09
	1.000000000000000e+00,0.000000000000000e+00
	0.000000000000000e+00,0.000000000000000e+00
	2.011324077258098e-05,8.933080482934863e-14
	2.011324086154403e-05,9.170327274158453e-14
	1.186184783142434e-06,-1.171860783324528e-13
	1.435274917649892e-05,1.468352043581418e-12
	-1.072706179499948e-05,-4.875302174243692e-14
	-4.811872164641880e-06,-1.302412943506528e-12
	-1.186184783142434e-06,1.171860783324526e-13
	-1.435274917649387e-05,-1.468352043581417e-12
	-1.186184783142434e-06,1.171860783324526e-13
29		1.949844599758044e+00,0.000000000000000e+00
	-1.186184783142434e-02,1.199156927504623e-09
	1.000000000000000e+00,0.000000000000000e+00
	0.000000000000000e+00,0.000000000000000e+00
	2.011324077258098e-05,9.141158657667221e-14
	2.011324086154403e-05,9.383931636567415e-14
	1.186184783142434e-06,-1.199156927504622e-13
	1.435274917649892e-05,1.502554356397989e-12
	-1.072706179499948e-05,-4.988862550154694e-14
	-4.811872164641880e-06,-1.332750038145980e-12
	-1.186184783142434e-06,1.199156927504623e-13
	-1.435274917649387e-05,-1.502554356397989e-12
	-1.186184783142434e-06,1.199156927504623e-13
30		1.995262314968878e+00,0.000000000000000e+00
	-1.186184783142434e-02,1.227088880560401e-09
	1.000000000000000e+00,0.000000000000000e+00
	0.000000000000000e+00,0.000000000000000e+00
	2.011324077258098e-05,9.354083595717413e-14
	2.011324086154403e-05,9.602511483741104e-14
	1.186184783142434e-06,-1.227088880560401e-13
	1.435274917649892e-05,1.537553343422980e-12
	-1.072706179499948e-05,-5.105068087025192e-14
	-4.811872164641880e-06,-1.363793774496688e-12
	-1.186184783142434e-06,1.227088880560401e-13
	-1.435274917649387e-05,-1.537553343422981e-12
	-1.186184783142434e-06,1.227088880560401e-13
31		2.041737944669527e+00,0.000000000000000e+00
	-1.186184783142434e-02,1.255671452383093e-09
	1.000000000000000e+00,0.000000000000000e+00
	0.000000000000000e+00,0.000000000000000e+00
	2.011324077258098e-05,9.571968192705984e-14
	2.011324086154403e-05,9.826182709607735e-14
	1.186184783142434e-06,-1.255671452383093e-13
	1.435274917649892e-05,1.573367561582579e-12
	-1.072706179499948e-05,-5.223980398568992e-14
	-4.811872164641880e-06,-1.395560612358580e-12
	-1.186184783142434e-06,1.255671452383093e-13
	-1.435274917649387e-05,-1.573367561582579e-12
	-1.186184783142434e-06,1.255671452383093e-13
32		2.089296130854037e+00,0.000000000000000e+00
	-1.186184783142434e-02,1.284919797830616e-09
	1.000000000000000e+00,0.000000000000000e+00
	0.000000000000000e+00,0.000000000000000e+00
	2.011324077258098e-05,9.794927973930308e-14
