LTspice 24.0.9 for Windows
Circuit: * GA CMOS Amp | W=1.5493948364455068e-06 L=6.587050767844754e-07 Vbias=1.4892410995967975
Start Time: Sat Sep  6 22:08:13 2025
solver = Normal
Maximum thread count: 2
tnom = 27
temp = 27
method = modified trap
AsciiRawFile = 1
Direct Newton iteration for .op point succeeded.
Semiconductor Device Operating Points:
                        --- BSIM4 MOSFETS ---
Name:      m1
Model:      n
Id:      9.67e-05
Vgs:     1.49e+00
Vds:     8.33e-01
Vbs:     0.00e+00
Vth:     2.43e-01
Vdsat:   8.60e-01
Gm:      4.18e-05
Gds:     2.01e-05
Gmb      5.18e-05
Cbd:     6.34e-16
Cbs:     1.24e-15


.measure op idd find i(vdd)
  Error: FIND can not be evaluated over an interval.

gain_db: MAX(db(v(out)/v(g)))=(29.2029dB,108.942°) FROM 1 TO 1e+09
gain_lin: MAX(mag(v(out)/v(g)))=(-2.76372dB,0°) FROM 1 TO 1e+09

Measurement "fc" FAIL'ed

Total elapsed time: 2.138 seconds.

