LTspice 24.0.9 for Windows
Circuit: * GA CMOS Amp | W=3.019187671260256e-05 L=9.278033488603798e-07 Vbias=0.5276533255217709
Start Time: Mon Sep  8 18:47:35 2025
solver = Normal
Maximum thread count: 2
tnom = 27
temp = 27
method = modified trap
AsciiRawFile = 1
Instance "m1": Length shorter than recommended for a level 3 MOSFET.
Direct Newton iteration for .op point succeeded.
Semiconductor Device Operating Points:
                        --- MOSFET Transistors ---
Name:          m1
Model:        n_1u
Id:          5.45e-08
Vgs:         5.28e-01
Vds:         1.80e+00
Vbs:         0.00e+00
Vth:         8.03e-01
Vdsat:       4.87e-02
Gm:          9.93e-07
Gds:         3.40e-09
Gmb:         2.53e-07
Cbd:         0.00e+00
Cbs:         0.00e+00
Cgsov:       6.04e-15
Cgdov:       6.04e-15
Cgbov:       7.28e-17
Cgs:         5.41e-15
Cgd:         0.00e+00
Cgb:         1.49e-14



gain_db: MAX(db(v(out)/v(g)))=(33.7092dB,145.737°) FROM 1 TO 1e+09
gain_lin: MAX(mag(v(out)/v(g)))=(-8.99934dB,0°) FROM 1 TO 1e+09

Measurement "fc" FAIL'ed

Total elapsed time: 0.439 seconds.

