Title: * GA CMOS Amp | W=3.287267348282133e-06 L=2.2374475989087246e-07 Vbias=1.2516023109923866
Date: Sat Sep  6 22:09:53 2025
Plotname: AC Analysis
Flags: complex forward log
No. Variables: 13
No. Points:          901
Offset:    0.0000000000000000e+00
Command: Linear Technology Corporation LTspice
Variables:
	0	frequency	frequency
	1	V(out)	voltage
	2	V(g)	voltage
	3	V(vdd)	voltage
	4	V(m1#dbody)	voltage
	5	V(m1#sbody)	voltage
	6	Id(M1)	device_current
	7	Ig(M1)	device_current
	8	Ib(M1)	device_current
	9	Is(M1)	device_current
	10	I(Rload)	device_current
	11	I(Vg)	device_current
	12	I(Vdd)	device_current
Values:
0		1.000000000000000e+00,0.000000000000000e+00
	-8.974717348710222e-03,8.467932782881706e-11
	1.000000000000000e+00,0.000000000000000e+00
	0.000000000000000e+00,0.000000000000000e+00
	2.496993302013731e-06,6.291664273931549e-15
	2.496993369455292e-06,6.957875702849490e-15
	8.974717348710231e-07,-8.467932782881700e-15
	2.065984810749589e-06,2.055469974592610e-13
	-1.331729793553111e-06,-3.666576727023970e-15
	-1.631726752067501e-06,-1.934124879493553e-13
	-8.974717348710222e-07,8.467932782881706e-15
	-2.065984810672994e-06,-2.055469974592610e-13
	-8.974717348710222e-07,8.467932782881706e-15
1		1.023292992280754e+00,0.000000000000000e+00
	-8.974717348710222e-03,8.665176275827316e-11
	1.000000000000000e+00,0.000000000000000e+00
	0.000000000000000e+00,0.000000000000000e+00
	2.496993302013731e-06,6.438215961297331e-15
	2.496993369455292e-06,7.119945447886407e-15
	8.974717348710231e-07,-8.665176275827323e-15
	2.065984810749589e-06,2.103348020844117e-13
	-1.331729793553111e-06,-3.751982270423332e-15
	-1.631726752067501e-06,-1.979176435381611e-13
	-8.974717348710222e-07,8.665176275827317e-15
	-2.065984810672994e-06,-2.103348020844117e-13
	-8.974717348710222e-07,8.665176275827317e-15
2		1.047128548050899e+00,0.000000000000000e+00
	-8.974717348710222e-03,8.867014159931533e-11
	1.000000000000000e+00,0.000000000000000e+00
	0.000000000000000e+00,0.000000000000000e+00
	2.496993302013731e-06,6.588181275985659e-15
	2.496993369455292e-06,7.285790282243417e-15
	8.974717348710231e-07,-8.867014159931538e-15
	2.065984810749589e-06,2.152341290057378e-13
	-1.331729793553111e-06,-3.839377164485829e-15
	-1.631726752067501e-06,-2.025277376813205e-13
	-8.974717348710222e-07,8.867014159931534e-15
	-2.065984810672994e-06,-2.152341290057378e-13
	-8.974717348710222e-07,8.867014159931534e-15
3		1.071519305237606e+00,0.000000000000000e+00
	-8.974717348710222e-03,9.073553452312155e-11
	1.000000000000000e+00,0.000000000000000e+00
	0.000000000000000e+00,0.000000000000000e+00
	2.496993302013731e-06,6.741639731591400e-15
	2.496993369455292e-06,7.455498139046905e-15
	8.974717348710231e-07,-9.073553452312147e-15
	2.065984810749589e-06,2.202475759112233e-13
	-1.331729793553111e-06,-3.928807747141101e-15
	-1.631726752067501e-06,-2.072452147117701e-13
	-8.974717348710222e-07,9.073553452312156e-15
	-2.065984810672994e-06,-2.202475759112233e-13
	-8.974717348710222e-07,9.073553452312156e-15
4		1.096478196143185e+00,0.000000000000000e+00
	-8.974717348710222e-03,9.284903662835871e-11
	1.000000000000000e+00,0.000000000000000e+00
	0.000000000000000e+00,0.000000000000000e+00
	2.496993302013731e-06,6.898672693818981e-15
	2.496993369455292e-06,7.629158999648900e-15
	8.974717348710231e-07,-9.284903662835889e-15
	2.065984810749589e-06,2.253778009967782e-13
	-1.331729793553111e-06,-4.020321435667825e-15
	-1.631726752067501e-06,-2.120725758982745e-13
	-8.974717348710222e-07,9.284903662835871e-15
	-2.065984810672994e-06,-2.253778009967782e-13
	-8.974717348710222e-07,9.284903662835871e-15
5		1.122018454301963e+00,0.000000000000000e+00
	-8.974717348710222e-03,9.501176852181854e-11
	1.000000000000000e+00,0.000000000000000e+00
	0.000000000000000e+00,0.000000000000000e+00
	2.496993302013731e-06,7.059363423623557e-15
	2.496993369455292e-06,7.806864941336368e-15
	8.974717348710231e-07,-9.501176852181874e-15
	2.065984810749589e-06,2.306275243756496e-13
	-1.331729793553111e-06,-4.113966751834987e-15
	-1.631726752067501e-06,-2.170123807716327e-13
	-8.974717348710222e-07,9.501176852181855e-15
	-2.065984810672994e-06,-2.306275243756496e-13
	-8.974717348710222e-07,9.501176852181855e-15
6		1.148153621496882e+00,0.000000000000000e+00
	-8.974717348710222e-03,9.722487691257807e-11
	1.000000000000000e+00,0.000000000000000e+00
	0.000000000000000e+00,0.000000000000000e+00
	2.496993302013731e-06,7.223797121357059e-15
	2.496993369455292e-06,7.988710186151807e-15
	8.974717348710231e-07,-9.722487691257804e-15
	2.065984810749589e-06,2.359995295206610e-13
	-1.331729793553111e-06,-4.209793347628757e-15
	-1.631726752067501e-06,-2.220672484817745e-13
	-8.974717348710222e-07,9.722487691257808e-15
	-2.065984810672994e-06,-2.359995295206610e-13
	-8.974717348710222e-07,9.722487691257808e-15
7		1.174897554939529e+00,0.000000000000000e+00
	-8.974717348710222e-03,9.948953521999999e-11
	1.000000000000000e+00,0.000000000000000e+00
	0.000000000000000e+00,0.000000000000000e+00
	2.496993302013731e-06,7.392060971942561e-15
	2.496993369455292e-06,8.174791150851022e-15
	8.974717348710231e-07,-9.948953521999980e-15
	2.065984810749589e-06,2.414966647400473e-13
	-1.331729793553111e-06,-4.307852031578644e-15
	-1.631726752067501e-06,-2.272398591864687e-13
	-8.974717348710222e-07,9.948953521999999e-15
	-2.065984810672994e-06,-2.414966647400473e-13
	-8.974717348710222e-07,9.948953521999999e-15
8		1.202264434617413e+00,0.000000000000000e+00
	-8.974717348710222e-03,1.018069441958953e-10
	1.000000000000000e+00,0.000000000000000e+00
	0.000000000000000e+00,0.000000000000000e+00
	2.496993302013731e-06,7.564244191100886e-15
	2.496993369455292e-06,8.365206498024572e-15
	8.974717348710231e-07,-1.018069441958953e-14
	2.065984810749589e-06,2.471218446876652e-13
	-1.331729793553111e-06,-4.408194795696837e-15
	-1.631726752067501e-06,-2.325329554723788e-13
	-8.974717348710222e-07,1.018069441958953e-14
	-2.065984810672994e-06,-2.471218446876651e-13
	-8.974717348710222e-07,1.018069441958953e-14
9		1.230268770812381e+00,0.000000000000000e+00
	-8.974717348710222e-03,1.041783325611774e-10
	1.000000000000000e+00,0.000000000000000e+00
	0.000000000000000e+00,0.000000000000000e+00
	2.496993302013731e-06,7.740438072653934e-15
	2.496993369455292e-06,8.560057188409970e-15
	8.974717348710231e-07,-1.041783325611775e-14
	2.065984810749589e-06,2.528780519083806e-13
	-1.331729793553111e-06,-4.510874843045062e-15
	-1.631726752067501e-06,-2.379493438092178e-13
	-8.974717348710222e-07,1.041783325611774e-14
	-2.065984810672994e-06,-2.528780519083807e-13
	-8.974717348710222e-07,1.041783325611774e-14
10		1.258925411794167e+00,0.000000000000000e+00
	-8.974717348710222e-03,1.066049576573468e-10
	1.000000000000000e+00,0.000000000000000e+00
	0.000000000000000e+00,0.000000000000000e+00
	2.496993302013731e-06,7.920736036929920e-15
	2.496993369455292e-06,8.759446534422420e-15
	8.974717348710231e-07,-1.066049576573470e-14
	2.065984810749589e-06,2.587683384194547e-13
	-1.331729793553111e-06,-4.615946615943560e-15
	-1.631726752067501e-06,-2.434918960377764e-13
	-8.974717348710222e-07,1.066049576573468e-14
	-2.065984810672994e-06,-2.587683384194546e-13
	-8.974717348710222e-07,1.066049576573468e-14
11		1.288249551693134e+00,0.000000000000000e+00
	-8.974717348710222e-03,1.090881061131495e-10
	1.000000000000000e+00,0.000000000000000e+00
	0.000000000000000e+00,0.000000000000000e+00
	2.496993302013731e-06,8.105233680296021e-15
	2.496993369455292e-06,8.963480254932402e-15
	8.974717348710231e-07,-1.090881061131495e-14
	2.065984810749589e-06,2.647958273287626e-13
	-1.331729793553111e-06,-4.723465824837107e-15
	-1.631726752067501e-06,-2.491635508926105e-13
	-8.974717348710222e-07,1.090881061131495e-14
	-2.065984810672994e-06,-2.647958273287626e-13
	-8.974717348710222e-07,1.090881061131495e-14
12		1.318256738556407e+00,0.000000000000000e+00
	-8.974717348710222e-03,1.116290945267652e-10
	1.000000000000000e+00,0.000000000000000e+00
	0.000000000000000e+00,0.000000000000000e+00
	2.496993302013731e-06,8.294028825844864e-15
	2.496993369455292e-06,9.172266531319233e-15
	8.974717348710231e-07,-1.116290945267651e-14
	2.065984810749589e-06,2.709637144907074e-13
	-1.331729793553111e-06,-4.833489477833444e-15
	-1.631726752067501e-06,-2.549673155601974e-13
	-8.974717348710222e-07,1.116290945267652e-14
	-2.065984810672994e-06,-2.709637144907074e-13
	-8.974717348710222e-07,1.116290945267652e-14
13		1.348962882591653e+00,0.000000000000000e+00
	-8.974717348710222e-03,1.142292701638847e-10
	1.000000000000000e+00,0.000000000000000e+00
	0.000000000000000e+00,0.000000000000000e+00
	2.496993302013731e-06,8.487221575261621e-15
	2.496993369455292e-06,9.385916064830273e-15
	8.974717348710231e-07,-1.142292701638852e-14
	2.065984810749589e-06,2.772752702007040e-13
	-1.331729793553111e-06,-4.946075910929724e-15
	-1.631726752067501e-06,-2.609062672733857e-13
	-8.974717348710222e-07,1.142292701638847e-14
	-2.065984810672994e-06,-2.772752702007039e-13
	-8.974717348710222e-07,1.142292701638847e-14
14		1.380384264602885e+00,0.000000000000000e+00
	-8.974717348710222e-03,1.168900116720482e-10
	1.000000000000000e+00,0.000000000000000e+00
	0.000000000000000e+00,0.000000000000000e+00
	2.496993302013731e-06,8.684914361899242e-15
	2.496993369455292e-06,9.604542135276172e-15
	8.974717348710231e-07,-1.168900116720483e-14
	2.065984810749589e-06,2.837338409291329e-13
	-1.331729793553111e-06,-5.061284818943035e-15
	-1.631726752067501e-06,-2.669835549429850e-13
	-8.974717348710222e-07,1.168900116720482e-14
	-2.065984810672994e-06,-2.837338409291330e-13
	-8.974717348710222e-07,1.168900116720482e-14
15		1.412537544622754e+00,0.000000000000000e+00
	-8.974717348710222e-03,1.196127298116225e-10
	1.000000000000000e+00,0.000000000000000e+00
	0.000000000000000e+00,0.000000000000000e+00
	2.496993302013731e-06,8.887212005089971e-15
	2.496993369455292e-06,9.828260661093338e-15
	8.974717348710231e-07,-1.196127298116228e-14
	2.065984810749589e-06,2.903428510956840e-13
	-1.331729793553111e-06,-5.179177287161374e-15
	-1.631726752067501e-06,-2.732024008273603e-13
	-8.974717348710222e-07,1.196127298116225e-14
	-2.065984810672994e-06,-2.903428510956839e-13
	-8.974717348710222e-07,1.196127298116225e-14
16		1.445439770745927e+00,0.000000000000000e+00
	-8.974717348710222e-03,1.223988682038046e-10
	1.000000000000000e+00,0.000000000000000e+00
	0.000000000000000e+00,0.000000000000000e+00
	2.496993302013731e-06,9.094221765721953e-15
	2.496993369455292e-06,1.005719026080542e-14
	8.974717348710231e-07,-1.223988682038044e-14
	2.065984810749589e-06,2.971058048850279e-13
	-1.331729793553111e-06,-5.299815823731879e-15
	-1.631726752067501e-06,-2.795661022409155e-13
	-8.974717348710222e-07,1.223988682038046e-14
	-2.065984810672994e-06,-2.971058048850278e-13
	-8.974717348710222e-07,1.223988682038046e-14
17		1.479108388168207e+00,0.000000000000000e+00
	-8.974717348710222e-03,1.252499040960488e-10
	1.000000000000000e+00,0.000000000000000e+00
	0.000000000000000e+00,0.000000000000000e+00
	2.496993302013731e-06,9.306053403110382e-15
	2.496993369455292e-06,1.029145231591644e-14
	8.974717348710231e-07,-1.252499040960486e-14
	2.065984810749589e-06,3.040262881047820e-13
	-1.331729793553111e-06,-5.423264392803484e-15
	-1.631726752067501e-06,-2.860780333023736e-13
	-8.974717348710222e-07,1.252499040960488e-14
	-2.065984810672994e-06,-3.040262881047820e-13
	-8.974717348710222e-07,1.252499040960488e-14
18		1.513561248436208e+00,0.000000000000000e+00
	-8.974717348710222e-03,1.281673491453232e-10
	1.000000000000000e+00,0.000000000000000e+00
	0.000000000000000e+00,0.000000000000000e+00
	2.496993302013731e-06,9.522819233193317e-15
	2.496993369455292e-06,1.053117103526882e-14
	8.974717348710231e-07,-1.281673491453231e-14
	2.065984810749589e-06,3.111079700867531e-13
	-1.331729793553111e-06,-5.549588448441544e-15
	-1.631726752067501e-06,-2.927416467237792e-13
	-8.974717348710222e-07,1.281673491453232e-14
	-2.065984810672994e-06,-3.111079700867530e-13
	-8.974717348710222e-07,1.281673491453232e-14
19		1.548816618912481e+00,0.000000000000000e+00
	-8.974717348710222e-03,1.311527502196100e-10
	1.000000000000000e+00,0.000000000000000e+00
	0.000000000000000e+00,0.000000000000000e+00
	2.496993302013731e-06,9.744634188083106e-15
	2.496993369455292e-06,1.077647352090064e-14
	8.974717348710231e-07,-1.311527502196100e-14
	2.065984810749589e-06,3.183546056324648e-13
	-1.331729793553111e-06,-5.678854969332455e-15
	-1.631726752067501e-06,-2.995604756411714e-13
	-8.974717348710222e-07,1.311527502196100e-14
	-2.065984810672994e-06,-3.183546056324648e-13
	-8.974717348710222e-07,1.311527502196100e-14
20		1.584893192461113e+00,0.000000000000000e+00
	-8.974717348710222e-03,1.342076902180750e-10
	1.000000000000000e+00,0.000000000000000e+00
	0.000000000000000e+00,0.000000000000000e+00
	2.496993302013731e-06,9.971615877004899e-15
	2.496993369455292e-06,1.102748983543673e-14
	8.974717348710231e-07,-1.342076902180751e-14
	2.065984810749589e-06,3.257700370040044e-13
	-1.331729793553111e-06,-5.811132494296639e-15
	-1.631726752067501e-06,-3.065381354879003e-13
	-8.974717348710222e-07,1.342076902180751e-14
	-2.065984810672994e-06,-3.257700370040044e-13
	-8.974717348710222e-07,1.342076902180751e-14
21		1.621810097358929e+00,0.000000000000000e+00
	-8.974717348710222e-03,1.373337889103425e-10
	1.000000000000000e+00,0.000000000000000e+00
	0.000000000000000e+00,0.000000000000000e+00
	2.496993302013731e-06,1.020388464865462e-14
	2.496993369455292e-06,1.128435307104966e-14
	8.974717348710231e-07,-1.373337889103424e-14
	2.065984810749589e-06,3.333581959612396e-13
	-1.331729793553111e-06,-5.946491158628729e-15
	-1.631726752067501e-06,-3.136783259115766e-13
	-8.974717348710222e-07,1.373337889103425e-14
	-2.065984810672994e-06,-3.333581959612396e-13
	-8.974717348710222e-07,1.373337889103425e-14
22		1.659586907437560e+00,0.000000000000000e+00
	-8.974717348710222e-03,1.405327037953178e-10
	1.000000000000000e+00,0.000000000000000e+00
	0.000000000000000e+00,0.000000000000000e+00
	2.496993302013731e-06,1.044156365500943e-14
	2.496993369455292e-06,1.154719942002692e-14
	8.974717348710231e-07,-1.405327037953179e-14
	2.065984810749589e-06,3.411231058464908e-13
	-1.331729793553111e-06,-6.085002731284240e-15
	-1.631726752067501e-06,-3.209848327356748e-13
	-8.974717348710222e-07,1.405327037953178e-14
	-2.065984810672994e-06,-3.411231058464908e-13
	-8.974717348710222e-07,1.405327037953178e-14
23		1.698243652461743e+00,0.000000000000000e+00
	-8.974717348710222e-03,1.438061309800157e-10
	1.000000000000000e+00,0.000000000000000e+00
	0.000000000000000e+00,0.000000000000000e+00
	2.496993302013731e-06,1.068477891662457e-14
	2.496993369455292e-06,1.181616824698193e-14
	8.974717348710231e-07,-1.438061309800159e-14
	2.065984810749589e-06,3.490688837177601e-13
	-1.331729793553111e-06,-6.226740652932412e-15
	-1.631726752067501e-06,-3.284615299668262e-13
	-8.974717348710222e-07,1.438061309800157e-14
	-2.065984810672994e-06,-3.490688837177600e-13
	-8.974717348710222e-07,1.438061309800157e-14
24		1.737800828749374e+00,0.000000000000000e+00
	-8.974717348710222e-03,1.471558060788583e-10
	1.000000000000000e+00,0.000000000000000e+00
	0.000000000000000e+00,0.000000000000000e+00
	2.496993302013731e-06,1.093365938945107e-14
	2.496993369455292e-06,1.209140216274698e-14
	8.974717348710231e-07,-1.471558060788584e-14
	2.065984810749589e-06,3.571997425316494e-13
	-1.331729793553111e-06,-6.371780074895425e-15
	-1.631726752067501e-06,-3.361123818488681e-13
	-8.974717348710222e-07,1.471558060788583e-14
	-2.065984810672994e-06,-3.571997425316492e-13
	-8.974717348710222e-07,1.471558060788583e-14
25		1.778279410038922e+00,0.000000000000000e+00
	-8.974717348710222e-03,1.505835051339213e-10
	1.000000000000000e+00,0.000000000000000e+00
	0.000000000000000e+00,0.000000000000000e+00
	2.496993302013731e-06,1.118833703320995e-14
	2.496993369455292e-06,1.237304709998733e-14
	8.974717348710231e-07,-1.505835051339214e-14
	2.065984810749589e-06,3.655199933771264e-13
	-1.331729793553111e-06,-6.520197898994624e-15
	-1.631726752067501e-06,-3.439414449647396e-13
	-8.974717348710222e-07,1.505835051339213e-14
	-2.065984810672994e-06,-3.655199933771263e-13
	-8.974717348710222e-07,1.505835051339213e-14
26		1.819700858609982e+00,0.000000000000000e+00
	-8.974717348710222e-03,1.540910455566145e-10
	1.000000000000000e+00,0.000000000000000e+00
	0.000000000000000e+00,0.000000000000000e+00
	2.496993302013731e-06,1.144894688135899e-14
	2.496993369455292e-06,1.266125239057675e-14
	8.974717348710231e-07,-1.540910455566150e-14
	2.065984810749589e-06,3.740340477613210e-13
	-1.331729793553111e-06,-6.672072818324896e-15
	-1.631726752067501e-06,-3.519528703873346e-13
	-8.974717348710222e-07,1.540910455566146e-14
	-2.065984810672994e-06,-3.740340477613210e-13
	-8.974717348710222e-07,1.540910455566146e-14
27		1.862087136662866e+00,0.000000000000000e+00
	-8.974717348710222e-03,1.576802870912981e-10
	1.000000000000000e+00,0.000000000000000e+00
	0.000000000000000e+00,0.000000000000000e+00
	2.496993302013731e-06,1.171562711268925e-14
	2.496993369455292e-06,1.295617084477513e-14
	8.974717348710231e-07,-1.576802870912983e-14
	2.065984810749589e-06,3.827464199485647e-13
	-1.331729793553111e-06,-6.827485358978768e-15
	-1.631726752067501e-06,-3.601509058804561e-13
	-8.974717348710222e-07,1.576802870912981e-14
	-2.065984810672994e-06,-3.827464199485647e-13
	-8.974717348710222e-07,1.576802870912981e-14
28		1.905460717963246e+00,0.000000000000000e+00
	-8.974717348710222e-03,1.613531328013428e-10
	1.000000000000000e+00,0.000000000000000e+00
	0.000000000000000e+00,0.000000000000000e+00
	2.496993302013731e-06,1.198851912458931e-14
	2.496993369455292e-06,1.325795883225061e-14
	8.974717348710231e-07,-1.613531328013428e-14
	2.065984810749589e-06,3.916617293539129e-13
	-1.331729793553111e-06,-6.986517922742423e-15
	-1.631726752067501e-06,-3.685398981510362e-13
	-8.974717348710222e-07,1.613531328013429e-14
	-2.065984810672994e-06,-3.916617293539128e-13
	-8.974717348710222e-07,1.613531328013429e-14
29		1.949844599758044e+00,0.000000000000000e+00
	-8.974717348710222e-03,1.651115300781600e-10
	1.000000000000000e+00,0.000000000000000e+00
	0.000000000000000e+00,0.000000000000000e+00
	2.496993302013731e-06,1.226776760801604e-14
	2.496993369455292e-06,1.356677636498878e-14
	8.974717348710231e-07,-1.651115300781599e-14
	2.065984810749589e-06,4.007847029924203e-13
	-1.331729793553111e-06,-7.149254830786212e-15
	-1.631726752067501e-06,-3.771242951538182e-13
	-8.974717348710222e-07,1.651115300781600e-14
	-2.065984810672994e-06,-4.007847029924203e-13
	-8.974717348710222e-07,1.651115300781600e-14
30		1.995262314968878e+00,0.000000000000000e+00
	-8.974717348710222e-03,1.689574716737341e-10
	1.000000000000000e+00,0.000000000000000e+00
	0.000000000000000e+00,0.000000000000000e+00
	2.496993302013731e-06,1.255352062421164e-14
	2.496993369455292e-06,1.388278718213318e-14
	8.974717348710231e-07,-1.689574716737341e-14
	2.065984810749589e-06,4.101201779854671e-13
	-1.331729793553111e-06,-7.315782368372859e-15
	-1.631726752067501e-06,-3.859086484497208e-13
	-8.974717348710222e-07,1.689574716737341e-14
	-2.065984810672994e-06,-4.101201779854671e-13
	-8.974717348710222e-07,1.689574716737341e-14
31		2.041737944669527e+00,0.000000000000000e+00
	-8.974717348710222e-03,1.728929967572060e-10
	1.000000000000000e+00,0.000000000000000e+00
	0.000000000000000e+00,0.000000000000000e+00
	2.496993302013731e-06,1.284592968320769e-14
	2.496993369455292e-06,1.420615883680196e-14
	8.974717348710231e-07,-1.728929967572063e-14
	2.065984810749589e-06,4.196731041254640e-13
	-1.331729793553111e-06,-7.486188830607042e-15
	-1.631726752067501e-06,-3.948976156191364e-13
	-8.974717348710222e-07,1.728929967572060e-14
	-2.065984810672994e-06,-4.196731041254640e-13
	-8.974717348710222e-07,1.728929967572060e-14
32		2.089296130854037e+00,0.000000000000000e+00
	-8.974717348710222e-03,1.769201919960681e-10
	1.000000000000000e+00,0.000000000000000e+00
	0.000000000000000e+00,0.000000000000000e+00
	2.496993302013731e-06,1.314514982415775e-14
