LTspice 24.0.9 for Windows
Circuit: * GA CMOS Amp | W=5e-05 L=1e-07 Vbias=1.1226788382841897
Start Time: Sat Sep  6 22:03:53 2025
solver = Normal
Maximum thread count: 2
tnom = 27
temp = 27
method = modified trap
AsciiRawFile = 1
Direct Newton iteration for .op point succeeded.
Semiconductor Device Operating Points:
                        --- BSIM4 MOSFETS ---
Name:      m1
Model:      n
Id:      1.80e-04
Vgs:     1.12e+00
Vds:     4.39e-03
Vbs:     0.00e+00
Vth:     3.62e-01
Vdsat:   5.59e-01
Gm:      3.81e-05
Gds:     4.09e-02
Gmb      9.56e-05
Cbd:     2.50e-14
Cbs:     4.00e-14


.measure op idd find i(vdd)
  Error: FIND can not be evaluated over an interval.

gain_db: MAX(db(v(out)/v(g)))=(36.4936dB,155.884°) FROM 1 TO 1e+09
gain_lin: MAX(mag(v(out)/v(g)))=(-34.3943dB,0°) FROM 1 TO 1e+09

Measurement "fc" FAIL'ed

Total elapsed time: 0.681 seconds.

