Title: * GA CMOS Amp | W=1.8687349102183846e-05 L=1e-06 Vbias=0.8660617135963599
Date: Sat Sep  6 22:06:44 2025
Plotname: AC Analysis
Flags: complex forward log
No. Variables: 13
No. Points:          901
Offset:    0.0000000000000000e+00
Command: Linear Technology Corporation LTspice
Variables:
	0	frequency	frequency
	1	V(out)	voltage
	2	V(g)	voltage
	3	V(vdd)	voltage
	4	V(m1#dbody)	voltage
	5	V(m1#sbody)	voltage
	6	Id(M1)	device_current
	7	Ig(M1)	device_current
	8	Ib(M1)	device_current
	9	Is(M1)	device_current
	10	I(Rload)	device_current
	11	I(Vg)	device_current
	12	I(Vdd)	device_current
Values:
0		1.000000000000000e+00,0.000000000000000e+00
	-4.185176695531605e-02,1.520698557667981e-09
	1.000000000000000e+00,0.000000000000000e+00
	0.000000000000000e+00,0.000000000000000e+00
	8.820276645280301e-07,5.933168004865433e-14
	8.820279807239243e-07,7.717533132384382e-14
	4.185176695531600e-06,-1.520698557667988e-13
	4.617599079373125e-06,4.747848327312076e-12
	-4.704149023287009e-07,-3.997084853794759e-14
	-8.332360872576024e-06,-4.555807623007330e-12
	-4.185176695531606e-06,1.520698557667981e-13
	-4.617599079326240e-06,-4.747848327312076e-12
	-4.185176695531606e-06,1.520698557667981e-13
1		1.023292992280754e+00,0.000000000000000e+00
	-4.185176695531605e-02,1.556120177433095e-09
	1.000000000000000e+00,0.000000000000000e+00
	0.000000000000000e+00,0.000000000000000e+00
	8.820276645280300e-07,6.071369241403186e-14
	8.820279807239242e-07,7.897297572063479e-14
	4.185176695531600e-06,-1.556120177433104e-13
	4.617599079373125e-06,4.858439921750348e-12
	-4.704149023287009e-07,-4.090188920439722e-14
	-8.332360872576024e-06,-4.661926014802640e-12
	-4.185176695531606e-06,1.556120177433095e-13
	-4.617599079326240e-06,-4.858439921750348e-12
	-4.185176695531606e-06,1.556120177433095e-13
2		1.047128548050899e+00,0.000000000000000e+00
	-4.185176695531605e-02,1.592366872713970e-09
	1.000000000000000e+00,0.000000000000000e+00
	0.000000000000000e+00,0.000000000000000e+00
	8.820276645280297e-07,6.212789598276792e-14
	8.820279807239240e-07,8.081249263448366e-14
	4.185176695531600e-06,-1.592366872713974e-13
	4.617599079373125e-06,4.971607525344185e-12
	-4.704149023287008e-07,-4.185461659390346e-14
	-8.332360872576024e-06,-4.770516221478884e-12
	-4.185176695531606e-06,1.592366872713970e-13
	-4.617599079326240e-06,-4.971607525344185e-12
	-4.185176695531606e-06,1.592366872713970e-13
3		1.071519305237606e+00,0.000000000000000e+00
	-4.185176695531605e-02,1.629457861988225e-09
	1.000000000000000e+00,0.000000000000000e+00
	0.000000000000000e+00,0.000000000000000e+00
	8.820276645280295e-07,6.357504058431406e-14
	8.820279807239237e-07,8.269485740160723e-14
	4.185176695531600e-06,-1.629457861988225e-13
	4.617599079373125e-06,5.087411141054968e-12
	-4.704149023287007e-07,-4.282953585513920e-14
	-8.332360872576024e-06,-4.881635819001005e-12
	-4.185176695531606e-06,1.629457861988225e-13
	-4.617599079326240e-06,-5.087411141054967e-12
	-4.185176695531606e-06,1.629457861988225e-13
4		1.096478196143185e+00,0.000000000000000e+00
	-4.185176695531605e-02,1.667412811389331e-09
	1.000000000000000e+00,0.000000000000000e+00
	0.000000000000000e+00,0.000000000000000e+00
	8.820276645280293e-07,6.505589351389309e-14
	8.820279807239235e-07,8.462106807672089e-14
	4.185176695531600e-06,-1.667412811389335e-13
	4.617599079373124e-06,5.205912169492582e-12
	-4.704149023287005e-07,-4.382716390320123e-14
	-8.332360872576024e-06,-4.995343724450447e-12
	-4.185176695531606e-06,1.667412811389331e-13
	-4.617599079326240e-06,-5.205912169492582e-12
	-4.185176695531606e-06,1.667412811389331e-13
5		1.122018454301963e+00,0.000000000000000e+00
	-4.185176695531605e-02,1.706251845133854e-09
	1.000000000000000e+00,0.000000000000000e+00
	0.000000000000000e+00,0.000000000000000e+00
	8.820276645280290e-07,6.657123993932977e-14
	8.820279807239233e-07,8.659214596222114e-14
	4.185176695531600e-06,-1.706251845133849e-13
	4.617599079373124e-06,5.327173441470858e-12
	-4.704149023287004e-07,-4.484802969368584e-14
	-8.332360872576024e-06,-5.111700227263787e-12
	-4.185176695531606e-06,1.706251845133854e-13
	-4.617599079326240e-06,-5.327173441470857e-12
	-4.185176695531606e-06,1.706251845133854e-13
6		1.148153621496882e+00,0.000000000000000e+00
	-4.185176695531605e-02,1.745995556191578e-09
	1.000000000000000e+00,0.000000000000000e+00
	0.000000000000000e+00,0.000000000000000e+00
	8.820276645280287e-07,6.812188331735682e-14
	8.820279807239230e-07,8.860913614969309e-14
	4.185176695531600e-06,-1.745995556191581e-13
	4.617599079373124e-06,5.451259251321277e-12
	-4.704149023287003e-07,-4.589267450314790e-14
	-8.332360872576024e-06,-5.230767021198970e-12
	-4.185176695531606e-06,1.745995556191579e-13
	-4.617599079326240e-06,-5.451259251321277e-12
	-4.185176695531606e-06,1.745995556191579e-13
7		1.174897554939529e+00,0.000000000000000e+00
	-4.185176695531605e-02,1.786665017204180e-09
	1.000000000000000e+00,0.000000000000000e+00
	0.000000000000000e+00,0.000000000000000e+00
	8.820276645280284e-07,6.970864581961838e-14
	8.820279807239228e-07,9.067310807403211e-14
	4.185176695531600e-06,-1.786665017204186e-13
	4.617599079373124e-06,5.578235390982692e-12
	-4.704149023287001e-07,-4.696165221609285e-14
	-8.332360872576024e-06,-5.352607237046181e-12
	-4.185176695531606e-06,1.786665017204180e-13
	-4.617599079326240e-06,-5.578235390982692e-12
	-4.185176695531606e-06,1.786665017204180e-13
8		1.202264434617413e+00,0.000000000000000e+00
	-4.185176695531605e-02,1.828281791658210e-09
	1.000000000000000e+00,0.000000000000000e+00
	0.000000000000000e+00,0.000000000000000e+00
	8.820276645280280e-07,7.133236876859661e-14
	8.820279807239225e-07,9.278515608047259e-14
	4.185176695531600e-06,-1.828281791658214e-13
	4.617599079373124e-06,5.708169184885081e-12
	-4.704149023287000e-07,-4.805552961865379e-14
	-8.332360872576024e-06,-5.477285476100606e-12
	-4.185176695531606e-06,1.828281791658210e-13
	-4.617599079326240e-06,-5.708169184885082e-12
	-4.185176695531606e-06,1.828281791658210e-13
9		1.230268770812381e+00,0.000000000000000e+00
	-4.185176695531605e-02,1.870867945318348e-09
	1.000000000000000e+00,0.000000000000000e+00
	0.000000000000000e+00,0.000000000000000e+00
	8.820276645280278e-07,7.299391308369147e-14
	8.820279807239223e-07,9.494640000482363e-14
	4.185176695531600e-06,-1.870867945318357e-13
	4.617599079373123e-06,5.841129525645849e-12
	-4.704149023286999e-07,-4.917488669910866e-14
	-8.332360872576024e-06,-5.604867844414905e-12
	-4.185176695531606e-06,1.870867945318348e-13
	-4.617599079326240e-06,-5.841129525645849e-12
	-4.185176695531606e-06,1.870867945318348e-13
10		1.258925411794167e+00,0.000000000000000e+00
	-4.185176695531605e-02,1.914446057926960e-09
	1.000000000000000e+00,0.000000000000000e+00
	0.000000000000000e+00,0.000000000000000e+00
	8.820276645280274e-07,7.469415973769185e-14
	8.820279807239219e-07,9.715798576722132e-14
	4.185176695531600e-06,-1.914446057926954e-13
	4.617599079373123e-06,5.977186910597602e-12
	-4.704149023286996e-07,-5.032031695539792e-14
	-8.332360872576024e-06,-5.735421987849508e-12
	-4.185176695531606e-06,1.914446057926960e-13
	-4.617599079326240e-06,-5.977186910597601e-12
	-4.185176695531606e-06,1.914446057926960e-13
11		1.288249551693134e+00,0.000000000000000e+00
	-4.185176695531605e-02,1.959039235176172e-09
	1.000000000000000e+00,0.000000000000000e+00
	0.000000000000000e+00,0.000000000000000e+00
	8.820276645280271e-07,7.643401022387940e-14
	8.820279807239216e-07,9.942108597971088e-14
	4.185176695531607e-06,-1.959039235176175e-13
	4.617599079373130e-06,6.116413479166779e-12
	-4.704149023286995e-07,-5.149242770980514e-14
	-8.332360872576038e-06,-5.869017127939356e-12
	-4.185176695531605e-06,1.959039235176172e-13
	-4.617599079326240e-06,-6.116413479166778e-12
	-4.185176695531605e-06,1.959039235176172e-13
12		1.318256738556407e+00,0.000000000000000e+00
	-4.185176695531605e-02,2.004671120958825e-09
	1.000000000000000e+00,0.000000000000000e+00
	0.000000000000000e+00,0.000000000000000e+00
	8.820276645280266e-07,7.821438703401132e-14
	8.820279807239213e-07,1.017369005679805e-13
	4.185176695531607e-06,-2.004671120958825e-13
	4.617599079373130e-06,6.258883051122908e-12
	-4.704149023286993e-07,-5.269184043096692e-14
	-8.332360872576038e-06,-6.005724098596059e-12
	-4.185176695531605e-06,2.004671120958825e-13
	-4.617599079326240e-06,-6.258883051122911e-12
	-4.185176695531605e-06,2.004671120958825e-13
13		1.348962882591653e+00,0.000000000000000e+00
	-4.185176695531605e-02,2.051365909904770e-09
	1.000000000000000e+00,0.000000000000000e+00
	0.000000000000000e+00,0.000000000000000e+00
	8.820276645280263e-07,8.003623414743850e-14
	8.820279807239210e-07,1.041066574075783e-13
	4.185176695531607e-06,-2.051365909904769e-13
	4.617599079373130e-06,6.404671165718859e-12
	-4.704149023286991e-07,-5.391919106338418e-14
	-8.332360872576038e-06,-6.145615383664997e-12
	-4.185176695531605e-06,2.051365909904770e-13
	-4.617599079326240e-06,-6.404671165718858e-12
	-4.185176695531605e-06,2.051365909904770e-13
14		1.380384264602885e+00,0.000000000000000e+00
	-4.185176695531605e-02,2.099148360209184e-09
	1.000000000000000e+00,0.000000000000000e+00
	0.000000000000000e+00,0.000000000000000e+00
	8.820276645280259e-07,8.190051753161539e-14
	8.820279807239207e-07,1.065316129749482e-13
	4.185176695531607e-06,-2.099148360209185e-13
	4.617599079373130e-06,6.553855121742716e-12
	-4.704149023286990e-07,-5.517513036460810e-14
	-8.332360872576038e-06,-6.288765155357190e-12
	-4.185176695531605e-06,2.099148360209184e-13
	-4.617599079326240e-06,-6.553855121742716e-12
	-4.185176695531605e-06,2.099148360209184e-13
15		1.412537544622754e+00,0.000000000000000e+00
	-4.185176695531605e-02,2.148043806759694e-09
	1.000000000000000e+00,0.000000000000000e+00
	0.000000000000000e+00,0.000000000000000e+00
	8.820276645280255e-07,8.380822565426899e-14
	8.820279807239203e-07,1.090130530136298e-13
	4.185176695531607e-06,-2.148043806759687e-13
	4.617599079373129e-06,6.706514018502649e-12
	-4.704149023286987e-07,-5.646032425028045e-14
	-8.332360872576038e-06,-6.435249313576401e-12
	-4.185176695531605e-06,2.148043806759694e-13
	-4.617599079326240e-06,-6.706514018502652e-12
	-4.185176695531605e-06,2.148043806759694e-13
16		1.445439770745927e+00,0.000000000000000e+00
	-4.185176695531605e-02,2.198078174569269e-09
	1.000000000000000e+00,0.000000000000000e+00
	0.000000000000000e+00,0.000000000000000e+00
	8.820276645280251e-07,8.576037000749763e-14
	8.820279807239199e-07,1.115522932159778e-13
	4.185176695531607e-06,-2.198078174569271e-13
	4.617599079373129e-06,6.862728797766399e-12
	-4.704149023286986e-07,-5.777545414721114e-14
	-8.332360872576038e-06,-6.585145526162261e-12
	-4.185176695531605e-06,2.198078174569269e-13
	-4.617599079326240e-06,-6.862728797766401e-12
	-4.185176695531605e-06,2.198078174569269e-13
17		1.479108388168207e+00,0.000000000000000e+00
	-4.185176695531605e-02,2.249277992522004e-09
	1.000000000000000e+00,0.000000000000000e+00
	0.000000000000000e+00,0.000000000000000e+00
	8.820276645280246e-07,8.775798564407686e-14
	8.820279807239195e-07,1.141506799207580e-13
	4.185176695531607e-06,-2.249277992522011e-13
	4.617599079373129e-06,7.022582286677682e-12
	-4.704149023286983e-07,-5.912121735467918e-14
	-8.332360872576038e-06,-6.738533270070801e-12
	-4.185176695531605e-06,2.249277992522005e-13
	-4.617599079326240e-06,-7.022582286677682e-12
	-4.185176695531605e-06,2.249277992522005e-13
18		1.513561248436208e+00,0.000000000000000e+00
	-4.185176695531605e-02,2.301670407439090e-09
	1.000000000000000e+00,0.000000000000000e+00
	0.000000000000000e+00,0.000000000000000e+00
	8.820276645280241e-07,8.980213172625891e-14
	8.820279807239191e-07,1.168095908269950e-13
	4.185176695531607e-06,-2.301670407439091e-13
	4.617599079373128e-06,7.186159241672225e-12
	-4.704149023286982e-07,-6.049832741415052e-14
	-8.332360872576038e-06,-6.895493873514166e-12
	-4.185176695531605e-06,2.301670407439090e-13
	-4.617599079326240e-06,-7.186159241672227e-12
	-4.185176695531605e-06,2.301670407439090e-13
19		1.548816618912481e+00,0.000000000000000e+00
	-4.185176695531605e-02,2.355283198472409e-09
	1.000000000000000e+00,0.000000000000000e+00
	0.000000000000000e+00,0.000000000000000e+00
	8.820276645280236e-07,9.189389208735396e-14
	8.820279807239187e-07,1.195304357244463e-13
	4.185176695531607e-06,-2.355283198472417e-13
	4.617599079373135e-06,7.353546393416766e-12
	-4.704149023286978e-07,-6.190751448760690e-14
	-8.332360872576045e-06,-7.056110559081918e-12
	-4.185176695531605e-06,2.355283198472409e-13
	-4.617599079326240e-06,-7.353546393416768e-12
	-4.185176695531605e-06,2.355283198472409e-13
20		1.584893192461113e+00,0.000000000000000e+00
	-4.185176695531605e-02,2.410144791833417e-09
	1.000000000000000e+00,0.000000000000000e+00
	0.000000000000000e+00,0.000000000000000e+00
	8.820276645280230e-07,9.403437580639314e-14
	8.820279807239181e-07,1.223146572410910e-13
	4.185176695531607e-06,-2.410144791833417e-13
	4.617599079373135e-06,7.524832492794791e-12
	-4.704149023286975e-07,-6.334952574468739e-14
	-8.332360872576045e-06,-7.220468487866762e-12
	-4.185176695531605e-06,2.410144791833417e-13
	-4.617599079326240e-06,-7.524832492794790e-12
	-4.185176695531605e-06,2.410144791833417e-13
21		1.621810097358929e+00,0.000000000000000e+00
	-4.185176695531605e-02,2.466284275865092e-09
	1.000000000000000e+00,0.000000000000000e+00
	0.000000000000000e+00,0.000000000000000e+00
	8.820276645280225e-07,9.622471779617695e-14
	8.820279807239177e-07,1.251637316080308e-13
	4.185176695531607e-06,-2.466284275865094e-13
	4.617599079373135e-06,7.700108357963429e-12
	-4.704149023286974e-07,-6.482512575884780e-14
	-8.332360872576045e-06,-7.388654804618071e-12
	-4.185176695531605e-06,2.466284275865092e-13
	-4.617599079326240e-06,-7.700108357963427e-12
	-4.185176695531605e-06,2.466284275865092e-13
22		1.659586907437560e+00,0.000000000000000e+00
	-4.185176695531605e-02,2.523731416464963e-09
	1.000000000000000e+00,0.000000000000000e+00
	0.000000000000000e+00,0.000000000000000e+00
	8.820276645280219e-07,9.846607940502106e-14
	8.820279807239172e-07,1.280791694422070e-13
	4.185176695531607e-06,-2.523731416464967e-13
	4.617599079373134e-06,7.879466922506441e-12
	-4.704149023286970e-07,-6.633509691274757e-14
	-8.332360872576045e-06,-7.560758683947196e-12
	-4.185176695531605e-06,2.523731416464963e-13
	-4.617599079326240e-06,-7.879466922506439e-12
	-4.185176695531605e-06,2.523731416464963e-13
23		1.698243652461743e+00,0.000000000000000e+00
	-4.185176695531605e-02,2.582516672867378e-09
	1.000000000000000e+00,0.000000000000000e+00
	0.000000000000000e+00,0.000000000000000e+00
	8.820276645280212e-07,1.007596490325183e-13
	8.820279807239167e-07,1.310625165473497e-13
	4.185176695531607e-06,-2.582516672867377e-13
	4.617599079373134e-06,8.063003284708840e-12
	-4.704149023286968e-07,-6.788023981307925e-14
	-8.332360872576045e-06,-7.736871377609023e-12
	-4.185176695531605e-06,2.582516672867378e-13
	-4.617599079326240e-06,-8.063003284708842e-12
	-4.185176695531605e-06,2.582516672867378e-13
24		1.737800828749374e+00,0.000000000000000e+00
	-4.185176695531605e-02,2.642671213793396e-09
	1.000000000000000e+00,0.000000000000000e+00
	0.000000000000000e+00,0.000000000000000e+00
	8.820276645280207e-07,1.031066427596444e-13
	8.820279807239161e-07,1.341153547335835e-13
	4.185176695531600e-06,-2.642671213793404e-13
	4.617599079373140e-06,8.250814757979256e-12
	-4.704149023286965e-07,-6.946137371506110e-14
	-8.332360872576045e-06,-7.917086262884855e-12
	-4.185176695531605e-06,2.642671213793396e-13
	-4.617599079326240e-06,-8.250814757979256e-12
	-4.185176695531605e-06,2.642671213793396e-13
25		1.778279410038922e+00,0.000000000000000e+00
	-4.185176695531605e-02,2.704226933976857e-09
	1.000000000000000e+00,0.000000000000000e+00
	0.000000000000000e+00,0.000000000000000e+00
	8.820276645280200e-07,1.055083049935392e-13
	8.820279807239155e-07,1.372393026561234e-13
	4.185176695531600e-06,-2.704226933976862e-13
	4.617599079373140e-06,8.443000922446800e-12
	-4.704149023286961e-07,-7.107933695681659e-14
	-8.332360872576045e-06,-8.101498892092298e-12
	-4.185176695531605e-06,2.704226933976857e-13
	-4.617599079326240e-06,-8.443000922446799e-12
	-4.185176695531605e-06,2.704226933976857e-13
26		1.819700858609982e+00,0.000000000000000e+00
	-4.185176695531605e-02,2.767216471075387e-09
	1.000000000000000e+00,0.000000000000000e+00
	0.000000000000000e+00,0.000000000000000e+00
	8.820276645280193e-07,1.079659091273090e-13
	8.820279807239150e-07,1.404360166735085e-13
	4.185176695531600e-06,-2.767216471075390e-13
	4.617599079373140e-06,8.639663677759753e-12
	-4.704149023286958e-07,-7.273498740387278e-14
	-8.332360872576045e-06,-8.290207043248341e-12
	-4.185176695531605e-06,2.767216471075388e-13
	-4.617599079326240e-06,-8.639663677759753e-12
	-4.185176695531605e-06,2.767216471075388e-13
27		1.862087136662866e+00,0.000000000000000e+00
	-4.185176695531605e-02,2.831673222975323e-09
	1.000000000000000e+00,0.000000000000000e+00
	0.000000000000000e+00,0.000000000000000e+00
	8.820276645280185e-07,1.104807582151961e-13
	8.820279807239142e-07,1.437071917258244e-13
	4.185176695531600e-06,-2.831673222975306e-13
	4.617599079373139e-06,8.840907297114121e-12
	-4.704149023286955e-07,-7.442920290401199e-14
	-8.332360872576045e-06,-8.483310771912579e-12
	-4.185176695531605e-06,2.831673222975323e-13
	-4.617599079326240e-06,-8.840907297114123e-12
	-4.185176695531605e-06,2.831673222975323e-13
28		1.905460717963246e+00,0.000000000000000e+00
	-4.185176695531605e-02,2.897631365499704e-09
	1.000000000000000e+00,0.000000000000000e+00
	0.000000000000000e+00,0.000000000000000e+00
	8.820276645280177e-07,1.130541856634745e-13
	8.820279807239136e-07,1.470545622333829e-13
	4.185176695531600e-06,-2.897631365499693e-13
	4.617599079373139e-06,9.046838482540663e-12
	-4.704149023286951e-07,-7.616288175271779e-14
	-8.332360872576045e-06,-8.680912464237975e-12
	-4.185176695531605e-06,2.897631365499704e-13
	-4.617599079326240e-06,-9.046838482540663e-12
	-4.185176695531605e-06,2.897631365499704e-13
29		1.949844599758044e+00,0.000000000000000e+00
	-4.185176695531605e-02,2.965125870528760e-09
	1.000000000000000e+00,0.000000000000000e+00
	0.000000000000000e+00,0.000000000000000e+00
	8.820276645280170e-07,1.156875559374408e-13
	8.820279807239129e-07,1.504799030163348e-13
	4.185176695531600e-06,-2.965125870528751e-13
	4.617599079373139e-06,9.257566421479710e-12
	-4.704149023286948e-07,-7.793694316946385e-14
	-8.332360872576045e-06,-8.883116891257372e-12
	-4.185176695531605e-06,2.965125870528760e-13
	-4.617599079326240e-06,-9.257566421479714e-12
	-4.185176695531605e-06,2.965125870528760e-13
30		1.995262314968878e+00,0.000000000000000e+00
	-4.185176695531605e-02,3.034192524542450e-09
	1.000000000000000e+00,0.000000000000000e+00
	0.000000000000000e+00,0.000000000000000e+00
	8.820276645280162e-07,1.183822652848709e-13
	8.820279807239122e-07,1.539850302357029e-13
	4.185176695531600e-06,-3.034192524542460e-13
	4.617599079373139e-06,9.473202844673810e-12
	-4.704149023286944e-07,-7.975232778509575e-14
	-8.332360872576045e-06,-9.090031264434468e-12
	-4.185176695531605e-06,3.034192524542450e-13
	-4.617599079326240e-06,-9.473202844673808e-12
	-4.185176695531605e-06,3.034192524542450e-13
31		2.041737944669527e+00,0.000000000000000e+00
	-4.185176695531605e-02,3.104867947594940e-09
	1.000000000000000e+00,0.000000000000000e+00
	0.000000000000000e+00,0.000000000000000e+00
	8.820276645280151e-07,1.211397424763295e-13
	8.820279807239114e-07,1.575718023563347e-13
	4.185176695531600e-06,-3.104867947594933e-13
	4.617599079373138e-06,9.693862085408813e-12
	-4.704149023286939e-07,-8.160999814056611e-14
	-8.332360872576045e-06,-9.301765292508753e-12
	-4.185176695531605e-06,3.104867947594940e-13
	-4.617599079326240e-06,-9.693862085408813e-12
	-4.185176695531605e-06,3.104867947594940e-13
32		2.089296130854037e+00,0.000000000000000e+00
	-4.185176695531605e-02,3.177189612731029e-09
	1.000000000000000e+00,0.000000000000000e+00
	0.000000000000000e+00,0.000000000000000e+00
	8.820276645280143e-07,1.239614495627232e-13
