Title: * GA CMOS Amp | W=2.4063790636460856e-05 L=7.770352203190817e-07 Vbias=0.7436665549799375
Date: Mon Sep  8 18:46:05 2025
Plotname: AC Analysis
Flags: complex forward log
No. Variables: 11
No. Points:          901
Offset:    0.0000000000000000e+00
Command: Linear Technology Corporation LTspice
Variables:
	0	frequency	frequency
	1	V(out)	voltage
	2	V(g)	voltage
	3	V(vdd)	voltage
	4	Id(M1)	device_current
	5	Ig(M1)	device_current
	6	Ib(M1)	device_current
	7	Is(M1)	device_current
	8	I(Rload)	device_current
	9	I(Vg)	device_current
	10	I(Vdd)	device_current
Values:
0		1.000000000000000e+00,0.000000000000000e+00
	-5.917761007105512e-01,4.798986902814313e-10
	1.000000000000000e+00,0.000000000000000e+00
	0.000000000000000e+00,0.000000000000000e+00
	5.917761007105512e-05,-4.798986902814313e-14
	1.451187300287150e-23,1.831060274032260e-13
	5.917760991522650e-13,-4.307649897685930e-15
	-5.917761066283122e-05,-1.308085084773969e-13
	-5.917761007105512e-05,4.798986902814313e-14
	-1.451187300287150e-23,-1.831060274032260e-13
	-5.917761007105512e-05,4.798986902814313e-14
1		1.023292992280754e+00,0.000000000000000e+00
	-5.917761007105512e-01,4.910769667697007e-10
	1.000000000000000e+00,0.000000000000000e+00
	0.000000000000000e+00,0.000000000000000e+00
	5.917761007105512e-05,-4.910769667697007e-14
	1.519579650699588e-23,1.873711146860889e-13
	5.917760991522650e-13,-4.407987953500922e-15
	-5.917761066283122e-05,-1.338554300556179e-13
	-5.917761007105512e-05,4.910769667697007e-14
	-1.519579650699588e-23,-1.873711146860889e-13
	-5.917761007105512e-05,4.910769667697007e-14
2		1.047128548050899e+00,0.000000000000000e+00
	-5.917761007105512e-01,5.025156187659234e-10
	1.000000000000000e+00,0.000000000000000e+00
	0.000000000000000e+00,0.000000000000000e+00
	5.917761007105512e-05,-5.025156187659234e-14
	1.591195233284753e-23,1.917355486141082e-13
	5.917760991522650e-13,-4.510663182875437e-15
	-5.917761066283122e-05,-1.369733235546404e-13
	-5.917761007105512e-05,5.025156187659235e-14
	-1.591195233284753e-23,-1.917355486141082e-13
	-5.917761007105512e-05,5.025156187659235e-14
3		1.071519305237606e+00,0.000000000000000e+00
	-5.917761007105512e-01,5.142207111947964e-10
	1.000000000000000e+00,0.000000000000000e+00
	0.000000000000000e+00,0.000000000000000e+00
	5.917761007105512e-05,-5.142207111947965e-14
	1.666185954294975e-23,1.962016432679228e-13
	5.917760991522650e-13,-4.615730025575277e-15
	-5.917761066283122e-05,-1.401638421228679e-13
	-5.917761007105512e-05,5.142207111947964e-14
	-1.666185954294975e-23,-1.962016432679228e-13
	-5.917761007105512e-05,5.142207111947964e-14
4		1.096478196143185e+00,0.000000000000000e+00
	-5.917761007105512e-01,5.261984502512606e-10
	1.000000000000000e+00,0.000000000000000e+00
	0.000000000000000e+00,0.000000000000000e+00
	5.917761007105512e-05,-5.261984502512606e-14
	1.744710879103699e-23,2.007717666300338e-13
	5.917760991522650e-13,-4.723244189431057e-15
	-5.917761066283122e-05,-1.434286774154766e-13
	-5.917761007105512e-05,5.261984502512606e-14
	-1.744710879103699e-23,-2.007717666300338e-13
	-5.917761007105512e-05,5.261984502512606e-14
5		1.122018454301963e+00,0.000000000000000e+00
	-5.917761007105512e-01,5.384551866911081e-10
	1.000000000000000e+00,0.000000000000000e+00
	0.000000000000000e+00,0.000000000000000e+00
	5.917761007105512e-05,-5.384551866911081e-14
	1.826936569604466e-23,2.054483418403405e-13
	5.917760991522650e-13,-4.833262679875571e-15
	-5.917761066283122e-05,-1.467695604913542e-13
	-5.917761007105512e-05,5.384551866911081e-14
	-1.826936569604466e-23,-2.054483418403405e-13
	-5.917761007105512e-05,5.384551866911081e-14
6		1.148153621496882e+00,0.000000000000000e+00
	-5.917761007105512e-01,5.509974191982360e-10
	1.000000000000000e+00,0.000000000000000e+00
	0.000000000000000e+00,0.000000000000000e+00
	5.917761007105512e-05,-5.509974191982361e-14
	1.913037437511015e-23,2.102338484809213e-13
	5.917760991522650e-13,-4.945843830168752e-15
	-5.917761066283122e-05,-1.501882627309289e-13
	-5.917761007105512e-05,5.509974191982360e-14
	-1.913037437511015e-23,-2.102338484809213e-13
	-5.917761007105512e-05,5.509974191982360e-14
7		1.174897554939529e+00,0.000000000000000e+00
	-5.917761007105512e-01,5.638317978303359e-10
	1.000000000000000e+00,0.000000000000000e+00
	0.000000000000000e+00,0.000000000000000e+00
	5.917761007105512e-05,-5.638317978303359e-14
	2.003196114307922e-23,2.151308238907406e-13
	5.917760991522650e-13,-5.061047332326715e-15
	-5.917761066283122e-05,-1.536865967753803e-13
	-5.917761007105512e-05,5.638317978303359e-14
	-2.003196114307922e-23,-2.151308238907406e-13
	-5.917761007105512e-05,5.638317978303359e-14
8		1.202264434617413e+00,0.000000000000000e+00
	-5.917761007105512e-01,5.769651275448418e-10
	1.000000000000000e+00,0.000000000000000e+00
	0.000000000000000e+00,0.000000000000000e+00
	5.917761007105512e-05,-5.769651275448418e-14
	2.097603838636459e-23,2.201418645109799e-13
	5.917760991522650e-13,-5.178934268771107e-15
	-5.917761066283122e-05,-1.572664174877247e-13
	-5.917761007105512e-05,5.769651275448418e-14
	-2.097603838636459e-23,-2.201418645109799e-13
	-5.917761007105512e-05,5.769651275448418e-14
9		1.230268770812381e+00,0.000000000000000e+00
	-5.917761007105512e-01,5.904043718070081e-10
	1.000000000000000e+00,0.000000000000000e+00
	0.000000000000000e+00,0.000000000000000e+00
	5.917761007105512e-05,-5.904043718070081e-14
	2.196460861937389e-23,2.252696272617050e-13
	5.917760991522650e-13,-5.299567144716163e-15
	-5.917761066283122e-05,-1.609296229362881e-13
	-5.917761007105512e-05,5.904043718070081e-14
	-2.196460861937389e-23,-2.252696272617050e-13
	-5.917761007105512e-05,5.904043718070081e-14
10		1.258925411794167e+00,0.000000000000000e+00
	-5.917761007105512e-01,6.041566562820322e-10
	1.000000000000000e+00,0.000000000000000e+00
	0.000000000000000e+00,0.000000000000000e+00
	5.917761007105512e-05,-6.041566562820322e-14
	2.299976873211125e-23,2.305168309506003e-13
	5.917760991522650e-13,-5.423009921309375e-15
	-5.917761066283122e-05,-1.646781554010877e-13
	-5.917761007105512e-05,6.041566562820322e-14
	-2.299976873211125e-23,-2.305168309506003e-13
	-5.917761007105512e-05,6.041566562820322e-14
11		1.288249551693134e+00,0.000000000000000e+00
	-5.917761007105512e-01,6.182292726131759e-10
	1.000000000000000e+00,0.000000000000000e+00
	0.000000000000000e+00,0.000000000000000e+00
	5.917761007105512e-05,-6.182292726131760e-14
	2.408371443796214e-23,2.358862577145165e-13
	5.917760991522650e-13,-5.549328049544864e-15
	-5.917761066283122e-05,-1.685140024036541e-13
	-5.917761007105512e-05,6.182292726131760e-14
	-2.408371443796214e-23,-2.358862577145165e-13
	-5.917761007105512e-05,6.182292726131760e-14
12		1.318256738556407e+00,0.000000000000000e+00
	-5.917761007105512e-01,6.326296822878907e-10
	1.000000000000000e+00,0.000000000000000e+00
	0.000000000000000e+00,0.000000000000000e+00
	5.917761007105512e-05,-6.326296822878908e-14
	2.521874493109577e-23,2.413807544945967e-13
	5.917760991522650e-13,-5.678588504966270e-15
	-5.917761066283122e-05,-1.724391977608414e-13
	-5.917761007105512e-05,6.326296822878907e-14
	-2.521874493109577e-23,-2.413807544945967e-13
	-5.917761007105512e-05,6.326296822878907e-14
13		1.348962882591653e+00,0.000000000000000e+00
	-5.917761007105512e-01,6.473655205939985e-10
	1.000000000000000e+00,0.000000000000000e+00
	0.000000000000000e+00,0.000000000000000e+00
	5.917761007105512e-05,-6.473655205939986e-14
	2.640726776336430e-23,2.470032345457620e-13
	5.917760991522650e-13,-5.810859823178052e-15
	-5.917761066283122e-05,-1.764558226631841e-13
	-5.917761007105512e-05,6.473655205939985e-14
	-2.640726776336430e-23,-2.470032345457620e-13
	-5.917761007105512e-05,6.473655205939985e-14
14		1.380384264602885e+00,0.000000000000000e+00
	-5.917761007105512e-01,6.624446006680210e-10
	1.000000000000000e+00,0.000000000000000e+00
	0.000000000000000e+00,0.000000000000000e+00
	5.917761007105512e-05,-6.624446006680211e-14
	2.765180395104299e-23,2.527566789813577e-13
	5.917760991522650e-13,-5.946212136183863e-15
	-5.917761066283122e-05,-1.805660067783718e-13
	-5.917761007105512e-05,6.624446006680210e-14
	-2.765180395104299e-23,-2.527566789813577e-13
	-5.917761007105512e-05,6.624446006680210e-14
15		1.412537544622754e+00,0.000000000000000e+00
	-5.917761007105512e-01,6.778749176378085e-10
	1.000000000000000e+00,0.000000000000000e+00
	0.000000000000000e+00,0.000000000000000e+00
	5.917761007105512e-05,-6.778749176378086e-14
	2.895499332224378e-23,2.586441383537796e-13
	5.917760991522650e-13,-6.084717209571717e-15
	-5.917761066283122e-05,-1.847719293804270e-13
	-5.917761007105512e-05,6.778749176378086e-14
	-2.895499332224378e-23,-2.586441383537796e-13
	-5.917761007105512e-05,6.778749176378086e-14
16		1.445439770745927e+00,0.000000000000000e+00
	-5.917761007105512e-01,6.936646528616627e-10
	1.000000000000000e+00,0.000000000000000e+00
	0.000000000000000e+00,0.000000000000000e+00
	5.917761007105512e-05,-6.936646528616627e-14
	3.031960011634460e-23,2.646687342719164e-13
	5.917760991522650e-13,-6.226448480564860e-15
	-5.917761066283122e-05,-1.890758205051853e-13
	-5.917761007105512e-05,6.936646528616627e-14
	-3.031960011634460e-23,-2.646687342719164e-13
	-5.917761007105512e-05,6.936646528616627e-14
17		1.479108388168207e+00,0.000000000000000e+00
	-5.917761007105512e-01,7.098221782662012e-10
	1.000000000000000e+00,0.000000000000000e+00
	0.000000000000000e+00,0.000000000000000e+00
	5.917761007105512e-05,-7.098221782662012e-14
	3.174851884731180e-23,2.708336610562691e-13
	5.917760991522650e-13,-6.371481096959191e-15
	-5.917761066283122e-05,-1.934799621326898e-13
	-5.917761007105512e-05,7.098221782662013e-14
	-3.174851884731180e-23,-2.708336610562691e-13
	-5.917761007105512e-05,7.098221782662013e-14
18		1.513561248436208e+00,0.000000000000000e+00
	-5.917761007105512e-01,7.263560607852639e-10
	1.000000000000000e+00,0.000000000000000e+00
	0.000000000000000e+00,0.000000000000000e+00
	5.917761007105512e-05,-7.263560607852641e-14
	3.324478044335222e-23,2.771421874326212e-13
	5.917760991522650e-13,-6.519891956967638e-15
	-5.917761066283122e-05,-1.979866893971272e-13
	-5.917761007105512e-05,7.263560607852640e-14
	-3.324478044335222e-23,-2.771421874326212e-13
	-5.917761007105512e-05,7.263560607852640e-14
19		1.548816618912481e+00,0.000000000000000e+00
	-5.917761007105512e-01,7.432750669022141e-10
	1.000000000000000e+00,0.000000000000000e+00
	0.000000000000000e+00,0.000000000000000e+00
	5.917761007105512e-05,-7.432750669022141e-14
	3.481155867591835e-23,2.835976582651605e-13
	5.917760991522650e-13,-6.671759749992609e-15
	-5.917761066283122e-05,-2.025983918249465e-13
	-5.917761007105512e-05,7.432750669022141e-14
	-3.481155867591835e-23,-2.835976582651605e-13
	-5.917761007105512e-05,7.432750669022141e-14
20		1.584893192461113e+00,0.000000000000000e+00
	-5.917761007105512e-01,7.605881672980444e-10
	1.000000000000000e+00,0.000000000000000e+00
	0.000000000000000e+00,0.000000000000000e+00
	5.917761007105512e-05,-7.605881672980445e-14
	3.645217689170308e-23,2.902034963299708e-13
	5.917760991522650e-13,-6.827164998348245e-15
	-5.917761066283122e-05,-2.073175146018181e-13
	-5.917761007105512e-05,7.605881672980445e-14
	-3.645217689170308e-23,-2.902034963299708e-13
	-5.917761007105512e-05,7.605881672980445e-14
21		1.621810097358929e+00,0.000000000000000e+00
	-5.917761007105512e-01,7.783045416077507e-10
	1.000000000000000e+00,0.000000000000000e+00
	0.000000000000000e+00,0.000000000000000e+00
	5.917761007105512e-05,-7.783045416077507e-14
	3.817011506190360e-23,2.969632041298327e-13
	5.917760991522650e-13,-6.986190099954175e-15
	-5.917761066283122e-05,-2.121465598691034e-13
	-5.917761007105512e-05,7.783045416077507e-14
	-3.817011506190360e-23,-2.969632041298327e-13
	-5.917761007105512e-05,7.783045416077507e-14
22		1.659586907437560e+00,0.000000000000000e+00
	-5.917761007105512e-01,7.964335832874958e-10
	1.000000000000000e+00,0.000000000000000e+00
	0.000000000000000e+00,0.000000000000000e+00
	5.917761007105512e-05,-7.964335832874959e-14
	3.996901716370688e-23,3.038803657512969e-13
	5.917760991522650e-13,-7.148919372024340e-15
	-5.917761066283122e-05,-2.170880880505230e-13
	-5.917761007105512e-05,7.964335832874958e-14
	-3.996901716370688e-23,-3.038803657512969e-13
	-5.917761007105512e-05,7.964335832874958e-14
23		1.698243652461743e+00,0.000000000000000e+00
	-5.917761007105512e-01,8.149849045951449e-10
	1.000000000000000e+00,0.000000000000000e+00
	0.000000000000000e+00,0.000000000000000e+00
	5.917761007105512e-05,-8.149849045951451e-14
	4.185269890965387e-23,3.109586487650146e-13
	5.917760991522650e-13,-7.315439095772556e-15
	-5.917761066283122e-05,-2.221447192097275e-13
	-5.917761007105512e-05,8.149849045951449e-14
	-4.185269890965387e-23,-3.109586487650146e-13
	-5.917761007105512e-05,8.149849045951449e-14
24		1.737800828749374e+00,0.000000000000000e+00
	-5.917761007105512e-01,8.339683416868106e-10
	1.000000000000000e+00,0.000000000000000e+00
	0.000000000000000e+00,0.000000000000000e+00
	5.917761007105512e-05,-8.339683416868107e-14
	4.382515584127732e-23,3.182018061703318e-13
	5.917760991522650e-13,-7.485837562160759e-15
	-5.917761066283122e-05,-2.273191344394900e-13
	-5.917761007105512e-05,8.339683416868106e-14
	-4.382515584127732e-23,-3.182018061703318e-13
	-5.917761007105512e-05,8.339683416868106e-14
25		1.778279410038922e+00,0.000000000000000e+00
	-5.917761007105512e-01,8.533939598321147e-10
	1.000000000000000e+00,0.000000000000000e+00
	0.000000000000000e+00,0.000000000000000e+00
	5.917761007105512e-05,-8.533939598321149e-14
	4.589057180418111e-23,3.256136783851793e-13
	5.917760991522650e-13,-7.660205118711105e-15
	-5.917761066283122e-05,-2.326140772832567e-13
	-5.917761007105512e-05,8.533939598321148e-14
	-4.589057180418111e-23,-3.256136783851793e-13
	-5.917761007105512e-05,8.533939598321148e-14
26		1.819700858609982e+00,0.000000000000000e+00
	-5.917761007105512e-01,8.732720587509264e-10
	1.000000000000000e+00,0.000000000000000e+00
	0.000000000000000e+00,0.000000000000000e+00
	5.917761007105512e-05,-8.732720587509264e-14
	4.805332782253770e-23,3.331981952823132e-13
	5.917760991522650e-13,-7.838634217410205e-15
	-5.917761066283122e-05,-2.380323551898104e-13
	-5.917761007105512e-05,8.732720587509264e-14
	-4.805332782253770e-23,-3.331981952823132e-13
	-5.917761007105512e-05,8.732720587509264e-14
27		1.862087136662866e+00,0.000000000000000e+00
	-5.917761007105512e-01,8.936131780744098e-10
	1.000000000000000e+00,0.000000000000000e+00
	0.000000000000000e+00,0.000000000000000e+00
	5.917761007105512e-05,-8.936131780744101e-14
	5.031801139182780e-23,3.409593782729853e-13
	5.917760991522650e-13,-8.021219463728022e-15
	-5.917761066283122e-05,-2.435768410018163e-13
	-5.917761007105512e-05,8.936131780744098e-14
	-5.031801139182780e-23,-3.409593782729853e-13
	-5.917761007105512e-05,8.936131780744098e-14
28		1.905460717963246e+00,0.000000000000000e+00
	-5.917761007105512e-01,9.144281029332773e-10
	1.000000000000000e+00,0.000000000000000e+00
	0.000000000000000e+00,0.000000000000000e+00
	5.917761007105512e-05,-9.144281029332774e-14
	5.268942620953326e-23,3.489013424391487e-13
	5.917760991522650e-13,-8.208057666778925e-15
	-5.917761066283122e-05,-2.492504744790421e-13
	-5.917761007105512e-05,9.144281029332774e-14
	-5.268942620953326e-23,-3.489013424391487e-13
	-5.917761007105512e-05,9.144281029332774e-14
29		1.949844599758044e+00,0.000000000000000e+00
	-5.917761007105512e-01,9.357278696762068e-10
	1.000000000000000e+00,0.000000000000000e+00
	0.000000000000000e+00,0.000000000000000e+00
	5.917761007105512e-05,-9.357278696762069e-14
	5.517260236442358e-23,3.570282987153286e-13
	5.917760991522650e-13,-8.399247890651185e-15
	-5.917761066283122e-05,-2.550562638570567e-13
	-5.917761007105512e-05,9.357278696762069e-14
	-5.517260236442358e-23,-3.570282987153286e-13
	-5.917761007105512e-05,9.357278696762069e-14
30		1.995262314968878e+00,0.000000000000000e+00
	-5.917761007105512e-01,9.575237717214611e-10
	1.000000000000000e+00,0.000000000000000e+00
	0.000000000000000e+00,0.000000000000000e+00
	5.917761007105512e-05,-9.575237717214614e-14
	5.777280700604849e-23,3.653445561213154e-13
	5.917760991522650e-13,-8.594891506932204e-15
	-5.917761066283122e-05,-2.609972874422371e-13
	-5.917761007105512e-05,9.575237717214611e-14
	-5.777280700604849e-23,-3.653445561213154e-13
	-5.917761007105512e-05,9.575237717214611e-14
31		2.041737944669527e+00,0.000000000000000e+00
	-5.917761007105512e-01,9.798273655448075e-10
	1.000000000000000e+00,0.000000000000000e+00
	0.000000000000000e+00,0.000000000000000e+00
	5.917761007105512e-05,-9.798273655448075e-14
	6.049555551706835e-23,3.738545240468647e-13
	5.917760991522650e-13,-8.795092248457155e-15
	-5.917761066283122e-05,-2.670766952439268e-13
	-5.917761007105512e-05,9.798273655448075e-14
	-6.049555551706835e-23,-3.738545240468647e-13
	-5.917761007105512e-05,9.798273655448075e-14
32		2.089296130854037e+00,0.000000000000000e+00
	-5.917761007105512e-01,1.002650476806915e-09
	1.000000000000000e+00,0.000000000000000e+00
	0.000000000000000e+00,0.000000000000000e+00
	5.917761007105512e-05,-1.002650476806915e-13
	6.334662321212040e-23,3.825627145896135e-13
	5.917760991522650e-13,-8.999956264309015e-15
	-5.917761066283122e-05,-2.732977106446130e-13
	-5.917761007105512e-05,1.002650476806915e-13
	-6.334662321212040e-23,-3.825627145896135e-13
	-5.917761007105512e-05,1.002650476806915e-13
33		2.137962089502230e+00,0.000000000000000e+00
	-5.917761007105512e-01,1.026005206623472e-09
	1.000000000000000e+00,0.000000000000000e+00
	0.000000000000000e+00,0.000000000000000e+00
	5.917761007105512e-05,-1.026005206623472e-13
	6.633205758803503e-23,3.914737449474536e-13
	5.917760991522650e-13,-9.209592176100667e-15
	-5.917761066283122e-05,-2.796636321090057e-13
	-5.917761007105512e-05,1.026005206623472e-13
	-6.633205758803503e-23,-3.914737449474536e-13
	-5.917761007105512e-05,1.026005206623472e-13
34		2.187761623949550e+00,0.000000000000000e+00
	-5.917761007105512e-01,1.049903937981366e-09
	1.000000000000000e+00,0.000000000000000e+00
	0.000000000000000e+00,0.000000000000000e+00
	5.917761007105512e-05,-1.049903937981366e-13
	6.945819115138775e-23,4.005923398666325e-13
	5.917760991522650e-13,-9.424111135567473e-15
	-5.917761066283122e-05,-2.861778349329284e-13
	-5.917761007105512e-05,1.049903937981366e-13
	-6.945819115138775e-23,-4.005923398666325e-13
	-5.917761007105512e-05,1.049903937981366e-13
35		2.238721138568337e+00,0.000000000000000e+00
	-5.917761007105512e-01,1.074359342304300e-09
	1.000000000000000e+00,0.000000000000000e+00
	0.000000000000000e+00,0.000000000000000e+00
	5.917761007105512e-05,-1.074359342304300e-13
	7.273165485059451e-23,4.099233341468753e-13
	5.917760991522650e-13,-9.643626883501205e-15
	-5.917761066283122e-05,-2.928437730329441e-13
	-5.917761007105512e-05,1.074359342304300e-13
	-7.273165485059451e-23,-4.099233341468753e-13
	-5.917761007105512e-05,1.074359342304300e-13
36		2.290867652767770e+00,0.000000000000000e+00
	-5.917761007105512e-01,1.099384386171350e-09
	1.000000000000000e+00,0.000000000000000e+00
	0.000000000000000e+00,0.000000000000000e+00
	5.917761007105512e-05,-1.099384386171350e-13
	7.615939214104218e-23,4.194716752048594e-13
	5.917760991522650e-13,-9.868255810057022e-15
	-5.917761066283122e-05,-2.996649807776674e-13
	-5.917761007105512e-05,1.099384386171350e-13
	-7.615939214104218e-23,-4.194716752048594e-13
	-5.917761007105512e-05,1.099384386171350e-13
37		2.344228815319919e+00,0.000000000000000e+00
	-5.917761007105512e-01,1.124992338192021e-09
	1.000000000000000e+00,0.000000000000000e+00
	0.000000000000000e+00,0.000000000000000e+00
	5.917761007105512e-05,-1.124992338192021e-13
	7.974867371308857e-23,4.292424256974011e-13
	5.917760991522650e-13,-1.009811701646521e-14
	-5.917761066283122e-05,-3.066450748617339e-13
	-5.917761007105512e-05,1.124992338192021e-13
	-7.974867371308857e-23,-4.292424256974011e-13
	-5.917761007105512e-05,1.124992338192021e-13
38		2.398832919019488e+00,0.000000000000000e+00
	-5.917761007105512e-01,1.151196776041435e-09
	1.000000000000000e+00,0.000000000000000e+00
