LTspice 24.0.9 for Windows
Circuit: * GA CMOS Amp | W=2.767814705131233e-05 L=2.558879161354333e-07 Vbias=1.0363239389366927
Start Time: Sat Sep  6 22:04:49 2025
solver = Normal
Maximum thread count: 2
tnom = 27
temp = 27
method = modified trap
AsciiRawFile = 1
Direct Newton iteration for .op point succeeded.
Semiconductor Device Operating Points:
                        --- BSIM4 MOSFETS ---
Name:      m1
Model:      n
Id:      1.78e-04
Vgs:     1.04e+00
Vds:     1.81e-02
Vbs:     0.00e+00
Vth:     2.79e-01
Vdsat:   5.48e-01
Gm:      2.23e-05
Gds:     9.71e-03
Gmb      1.14e-04
Cbd:     1.38e-14
Cbs:     2.21e-14


.measure op idd find i(vdd)
  Error: FIND can not be evaluated over an interval.

gain_db: MAX(db(v(out)/v(g)))=(35.5693dB,152.97°) FROM 1 TO 1e+09
gain_lin: MAX(mag(v(out)/v(g)))=(-20.1737dB,0°) FROM 1 TO 1e+09

Measurement "fc" FAIL'ed

Total elapsed time: 5.376 seconds.

