Title: * GA CMOS Amp | W=1.616757766327189e-05 L=6.935146507133185e-07 Vbias=1.0107546004766867
Date: Mon Sep  8 18:44:26 2025
Plotname: AC Analysis
Flags: complex forward log
No. Variables: 11
No. Points:          901
Offset:    0.0000000000000000e+00
Command: Linear Technology Corporation LTspice
Variables:
	0	frequency	frequency
	1	V(out)	voltage
	2	V(g)	voltage
	3	V(vdd)	voltage
	4	Id(M1)	device_current
	5	Ig(M1)	device_current
	6	Ib(M1)	device_current
	7	Is(M1)	device_current
	8	I(Rload)	device_current
	9	I(Vg)	device_current
	10	I(Vdd)	device_current
Values:
0		1.000000000000000e+00,0.000000000000000e+00
	-4.730689206235778e+00,2.451912341835095e-09
	1.000000000000000e+00,0.000000000000000e+00
	0.000000000000000e+00,0.000000000000000e+00
	4.730689206235777e-04,-2.451912341835094e-13
	1.129968829404849e-22,3.391885938427714e-13
	4.730689256125797e-12,9.544636890802662e-15
	-4.730689253542669e-04,-1.035419965500646e-13
	-4.730689206235778e-04,2.451912341835094e-13
	-1.129968829404849e-22,-3.391885938427714e-13
	-4.730689206235778e-04,2.451912341835094e-13
1		1.023292992280754e+00,0.000000000000000e+00
	-4.730689206235778e+00,2.509024717086545e-09
	1.000000000000000e+00,0.000000000000000e+00
	0.000000000000000e+00,0.000000000000000e+00
	4.730689206235777e-04,-2.509024717086545e-13
	1.183222619677474e-22,3.470893111408710e-13
	4.730689256125797e-12,9.766960044222669e-15
	-4.730689253542669e-04,-1.059537994764392e-13
	-4.730689206235778e-04,2.509024717086545e-13
	-1.183222619677474e-22,-3.470893111408710e-13
	-4.730689206235778e-04,2.509024717086545e-13
2		1.047128548050899e+00,0.000000000000000e+00
	-4.730689206235778e+00,2.567467410453863e-09
	1.000000000000000e+00,0.000000000000000e+00
	0.000000000000000e+00,0.000000000000000e+00
	4.730689206235777e-04,-2.567467410453864e-13
	1.238986183763855e-22,3.551740597860075e-13
	4.730689256125797e-12,9.994461769139271e-15
	-4.730689253542669e-04,-1.084217805097604e-13
	-4.730689206235778e-04,2.567467410453863e-13
	-1.238986183763855e-22,-3.551740597860075e-13
	-4.730689206235778e-04,2.567467410453863e-13
3		1.071519305237606e+00,0.000000000000000e+00
	-4.730689206235778e+00,2.627271409026652e-09
	1.000000000000000e+00,0.000000000000000e+00
	0.000000000000000e+00,0.000000000000000e+00
	4.730689206235777e-04,-2.627271409026653e-13
	1.297377803659770e-22,3.634471264189271e-13
	4.730689256125797e-12,1.022726268997803e-14
	-4.730689253542669e-04,-1.109472482062399e-13
	-4.730689206235778e-04,2.627271409026652e-13
	-1.297377803659770e-22,-3.634471264189271e-13
	-4.730689206235778e-04,2.627271409026652e-13
4		1.096478196143185e+00,0.000000000000000e+00
	-4.730689206235778e+00,2.688468421676556e-09
	1.000000000000000e+00,0.000000000000000e+00
	0.000000000000000e+00,0.000000000000000e+00
	4.730689206235777e-04,-2.688468421676556e-13
	1.358521335819720e-22,3.719128975290653e-13
	4.730689256125797e-12,1.046548624086897e-14
	-4.730689253542669e-04,-1.135315416022787e-13
	-4.730689206235778e-04,2.688468421676556e-13
	-1.358521335819720e-22,-3.719128975290653e-13
	-4.730689206235778e-04,2.688468421676556e-13
5		1.122018454301963e+00,0.000000000000000e+00
	-4.730689206235778e+00,2.751090895869719e-09
	1.000000000000000e+00,0.000000000000000e+00
	0.000000000000000e+00,0.000000000000000e+00
	4.730689206235777e-04,-2.751090895869719e-13
	1.422546473873072e-22,3.805758617803228e-13
	4.730689256125797e-12,1.070925873109188e-14
	-4.730689253542669e-04,-1.161760309244427e-13
	-4.730689206235778e-04,2.751090895869719e-13
	-1.422546473873072e-22,-3.805758617803228e-13
	-4.730689206235778e-04,2.751090895869719e-13
6		1.148153621496882e+00,0.000000000000000e+00
	-4.730689206235778e+00,2.815172034870866e-09
	1.000000000000000e+00,0.000000000000000e+00
	0.000000000000000e+00,0.000000000000000e+00
	4.730689206235777e-04,-2.815172034870865e-13
	1.489589023721637e-22,3.894406123910132e-13
	4.730689256125797e-12,1.095870941204778e-14
	-4.730689253542669e-04,-1.188821183159744e-13
	-4.730689206235778e-04,2.815172034870866e-13
	-1.489589023721637e-22,-3.894406123910132e-13
	-4.730689206235778e-04,2.815172034870866e-13
7		1.174897554939529e+00,0.000000000000000e+00
	-4.730689206235778e+00,2.880745815348107e-09
	1.000000000000000e+00,0.000000000000000e+00
	0.000000000000000e+00,0.000000000000000e+00
	4.730689206235777e-04,-2.880745815348108e-13
	1.559791191602194e-22,3.985118495692492e-13
	4.730689256125797e-12,1.121397054578970e-14
	-4.730689253542669e-04,-1.216512385802281e-13
	-4.730689206235778e-04,2.880745815348108e-13
	-1.559791191602194e-22,-3.985118495692492e-13
	-4.730689206235778e-04,2.880745815348108e-13
8		1.202264434617413e+00,0.000000000000000e+00
	-4.730689206235778e+00,2.947847005387826e-09
	1.000000000000000e+00,0.000000000000000e+00
	0.000000000000000e+00,0.000000000000000e+00
	4.730689206235777e-04,-2.947847005387825e-13
	1.633301885724988e-22,4.077943830050548e-13
	4.730689256125797e-12,1.147517747514927e-14
	-4.730689253542669e-04,-1.244848599414216e-13
	-4.730689206235778e-04,2.947847005387826e-13
	-1.633301885724988e-22,-4.077943830050548e-13
	-4.730689206235778e-04,2.947847005387826e-13
9		1.230268770812381e+00,0.000000000000000e+00
	-4.730689206235778e+00,3.016511182929169e-09
	1.000000000000000e+00,0.000000000000000e+00
	0.000000000000000e+00,0.000000000000000e+00
	4.730689206235777e-04,-3.016511182929168e-13
	1.710277032128003e-22,4.172931344205265e-13
	4.730689256125797e-12,1.174246869549824e-14
	-4.730689253542669e-04,-1.273844848231079e-13
	-4.730689206235778e-04,3.016511182929169e-13
	-1.710277032128003e-22,-4.172931344205265e-13
	-4.730689206235778e-04,3.016511182929169e-13
10		1.258925411794167e+00,0.000000000000000e+00
	-4.730689206235778e+00,3.086774754627946e-09
	1.000000000000000e+00,0.000000000000000e+00
	0.000000000000000e+00,0.000000000000000e+00
	4.730689206235777e-04,-3.086774754627946e-13
	1.790879905416998e-22,4.270131401793955e-13
	4.730689256125797e-12,1.201598592817946e-14
	-4.730689253542669e-04,-1.303516506447803e-13
	-4.730689206235778e-04,3.086774754627946e-13
	-1.790879905416998e-22,-4.270131401793955e-13
	-4.730689206235778e-04,3.086774754627946e-13
11		1.288249551693134e+00,0.000000000000000e+00
	-4.730689206235778e+00,3.158674975159922e-09
	1.000000000000000e+00,0.000000000000000e+00
	0.000000000000000e+00,0.000000000000000e+00
	4.730689206235777e-04,-3.158674975159922e-13
	1.875281475092834e-22,4.369595539573748e-13
	4.730689256125797e-12,1.229587419565021e-14
	-4.730689253542669e-04,-1.333879306370328e-13
	-4.730689206235778e-04,3.158674975159922e-13
	-1.875281475092834e-22,-4.369595539573748e-13
	-4.730689206235778e-04,3.158674975159922e-13
12		1.318256738556407e+00,0.000000000000000e+00
	-4.730689206235778e+00,3.232249966973734e-09
	1.000000000000000e+00,0.000000000000000e+00
	0.000000000000000e+00,0.000000000000000e+00
	4.730689206235777e-04,-3.232249966973733e-13
	1.963660768200707e-22,4.471376494747056e-13
	4.730689256125797e-12,1.258228189837469e-14
	-4.730689253542669e-04,-1.364949346757069e-13
	-4.730689206235778e-04,3.232249966973734e-13
	-1.963660768200707e-22,-4.471376494747056e-13
	-4.730689206235778e-04,3.232249966973734e-13
13		1.348962882591653e+00,0.000000000000000e+00
	-4.730689206235778e+00,3.307538740503920e-09
	1.000000000000000e+00,0.000000000000000e+00
	0.000000000000000e+00,0.000000000000000e+00
	4.730689206235777e-04,-3.307538740503920e-13
	2.056205249070521e-22,4.575528232923545e-13
	4.730689256125797e-12,1.287536089350770e-14
	-4.730689253542669e-04,-1.396743101354702e-13
	-4.730689206235778e-04,3.307538740503921e-13
	-2.056205249070521e-22,-4.575528232923545e-13
	-4.730689206235778e-04,3.307538740503921e-13
14		1.380384264602885e+00,0.000000000000000e+00
	-4.730689206235778e+00,3.384581214854773e-09
	1.000000000000000e+00,0.000000000000000e+00
	0.000000000000000e+00,0.000000000000000e+00
	4.730689206235777e-04,-3.384581214854774e-13
	2.153111216953853e-22,4.682105976733406e-13
	4.730689256125797e-12,1.317526657541214e-14
	-4.730689253542669e-04,-1.429277427632753e-13
	-4.730689206235778e-04,3.384581214854773e-13
	-2.153111216953853e-22,-4.682105976733406e-13
	-4.730689206235778e-04,3.384581214854773e-13
15		1.412537544622754e+00,0.000000000000000e+00
	-4.730689206235778e+00,3.463418238965971e-09
	1.000000000000000e+00,0.000000000000000e+00
	0.000000000000000e+00,0.000000000000000e+00
	4.730689206235777e-04,-3.463418238965972e-13
	2.254584222400994e-22,4.791166235107131e-13
	4.730689256125797e-12,1.348215795805006e-14
	-4.730689253542669e-04,-1.462569575721660e-13
	-4.730689206235778e-04,3.463418238965972e-13
	-2.254584222400994e-22,-4.791166235107131e-13
	-4.730689206235778e-04,3.463418238965972e-13
16		1.445439770745927e+00,0.000000000000000e+00
	-4.730689206235778e+00,3.544091613271228e-09
	1.000000000000000e+00,0.000000000000000e+00
	0.000000000000000e+00,0.000000000000000e+00
	4.730689206235777e-04,-3.544091613271227e-13
	2.360839503261217e-22,4.902766833237289e-13
	4.730689256125797e-12,1.379619775929488e-14
	-4.730689253542669e-04,-1.496637197559010e-13
	-4.730689206235778e-04,3.544091613271228e-13
	-2.360839503261217e-22,-4.902766833237289e-13
	-4.730689206235778e-04,3.544091613271228e-13
17		1.479108388168207e+00,0.000000000000000e+00
	-4.730689206235778e+00,3.626644111861439e-09
	1.000000000000000e+00,0.000000000000000e+00
	0.000000000000000e+00,0.000000000000000e+00
	4.730689206235777e-04,-3.626644111861440e-13
	2.472102441231125e-22,5.016966943238222e-13
	4.730689256125797e-12,1.411755248720588e-14
	-4.730689253542669e-04,-1.531498356248841e-13
	-4.730689206235778e-04,3.626644111861440e-13
	-2.472102441231125e-22,-5.016966943238222e-13
	-4.730689206235778e-04,3.626644111861440e-13
18		1.513561248436208e+00,0.000000000000000e+00
	-4.730689206235778e+00,3.711119505164071e-09
	1.000000000000000e+00,0.000000000000000e+00
	0.000000000000000e+00,0.000000000000000e+00
	4.730689206235777e-04,-3.711119505164071e-13
	2.588609039919433e-22,5.133827115519869e-13
	4.730689256125797e-12,1.444639252831355e-14
	-4.730689253542669e-04,-1.567171535638933e-13
	-4.730689206235778e-04,3.711119505164072e-13
	-2.588609039919433e-22,-5.133827115519869e-13
	-4.730689206235778e-04,3.711119505164072e-13
19		1.548816618912481e+00,0.000000000000000e+00
	-4.730689206235778e+00,3.797562583150814e-09
	1.000000000000000e+00,0.000000000000000e+00
	0.000000000000000e+00,0.000000000000000e+00
	4.730689206235777e-04,-3.797562583150813e-13
	2.710606425442268e-22,5.253409310892400e-13
	4.730689256125797e-12,1.478289223796016e-14
	-4.730689253542669e-04,-1.603675650121189e-13
	-4.730689206235778e-04,3.797562583150814e-13
	-2.710606425442268e-22,-5.253409310892400e-13
	-4.730689206235778e-04,3.797562583150814e-13
20		1.584893192461113e+00,0.000000000000000e+00
	-4.730689206235778e+00,3.886019179085826e-09
	1.000000000000000e+00,0.000000000000000e+00
	0.000000000000000e+00,0.000000000000000e+00
	4.730689206235777e-04,-3.886019179085827e-13
	2.838353370610801e-22,5.375776933418657e-13
	4.730689256125797e-12,1.512723003274640e-14
	-4.730689253542669e-04,-1.641030054660295e-13
	-4.730689206235778e-04,3.886019179085827e-13
	-2.838353370610801e-22,-5.375776933418657e-13
	-4.730689206235778e-04,3.886019179085827e-13
21		1.621810097358929e+00,0.000000000000000e+00
	-4.730689206235778e+00,3.976536193827134e-09
	1.000000000000000e+00,0.000000000000000e+00
	0.000000000000000e+00,0.000000000000000e+00
	4.730689206235777e-04,-3.976536193827134e-13
	2.972120843823064e-22,5.500994864031834e-13
	4.730689256125797e-12,1.547958848512820e-14
	-4.730689253542669e-04,-1.679254555055982e-13
	-4.730689206235778e-04,3.976536193827134e-13
	-2.972120843823064e-22,-5.500994864031834e-13
	-4.730689206235778e-04,3.976536193827134e-13
22		1.659586907437560e+00,0.000000000000000e+00
	-4.730689206235778e+00,4.069161620694090e-09
	1.000000000000000e+00,0.000000000000000e+00
	0.000000000000000e+00,0.000000000000000e+00
	4.730689206235777e-04,-4.069161620694089e-13
	3.112192583824260e-22,5.629129494936196e-13
	4.730689256125797e-12,1.584015442022156e-14
	-4.730689253542669e-04,-1.718369418444322e-13
	-4.730689206235778e-04,4.069161620694090e-13
	-3.112192583824260e-22,-5.629129494936196e-13
	-4.730689206235778e-04,4.069161620694090e-13
23		1.698243652461743e+00,0.000000000000000e+00
	-4.730689206235778e+00,4.163944570914058e-09
	1.000000000000000e+00,0.000000000000000e+00
	0.000000000000000e+00,0.000000000000000e+00
	4.730689206235777e-04,-4.163944570914058e-13
	3.258865701554675e-22,5.760248764809111e-13
	4.730689256125797e-12,1.620911901485772e-14
	-4.730689253542669e-04,-1.758395384043630e-13
	-4.730689206235778e-04,4.163944570914058e-13
	-3.258865701554675e-22,-5.760248764809111e-13
	-4.730689206235778e-04,4.163944570914058e-13
24		1.737800828749374e+00,0.000000000000000e+00
	-4.730689206235778e+00,4.260935299661846e-09
	1.000000000000000e+00,0.000000000000000e+00
	0.000000000000000e+00,0.000000000000000e+00
	4.730689206235777e-04,-4.260935299661846e-13
	3.412451310361821e-22,5.894422194823032e-13
	4.730689256125797e-12,1.658667789894860e-14
	-4.730689253542669e-04,-1.799353674150672e-13
	-4.730689206235778e-04,4.260935299661847e-13
	-3.412451310361821e-22,-5.894422194823032e-13
	-4.730689206235778e-04,4.260935299661847e-13
25		1.778279410038922e+00,0.000000000000000e+00
	-4.730689206235778e+00,4.360185232705662e-09
	1.000000000000000e+00,0.000000000000000e+00
	0.000000000000000e+00,0.000000000000000e+00
	4.730689206235777e-04,-4.360185232705663e-13
	3.573275185913563e-22,6.031720925506550e-13
	4.730689256125797e-12,1.697303125921229e-14
	-4.730689253542669e-04,-1.841266005393010e-13
	-4.730689206235778e-04,4.360185232705662e-13
	-3.573275185913563e-22,-6.031720925506550e-13
	-4.730689206235778e-04,4.360185232705662e-13
26		1.819700858609982e+00,0.000000000000000e+00
	-4.730689206235778e+00,4.461746993673733e-09
	1.000000000000000e+00,0.000000000000000e+00
	0.000000000000000e+00,0.000000000000000e+00
	4.730689206235777e-04,-4.461746993673733e-13
	3.741678457211977e-22,6.172217754464038e-13
	4.730689256125797e-12,1.736838394531393e-14
	-4.730689253542669e-04,-1.884154600243444e-13
	-4.730689206235778e-04,4.461746993673733e-13
	-3.741678457211977e-22,-6.172217754464038e-13
	-4.730689206235778e-04,4.461746993673733e-13
27		1.862087136662866e+00,0.000000000000000e+00
	-4.730689206235778e+00,4.565674431956053e-09
	1.000000000000000e+00,0.000000000000000e+00
	0.000000000000000e+00,0.000000000000000e+00
	4.730689206235777e-04,-4.565674431956055e-13
	3.918018330173708e-22,6.315987174973902e-13
	4.730689256125797e-12,1.777294557848150e-14
	-4.730689253542669e-04,-1.928042198802662e-13
	-4.730689206235778e-04,4.565674431956053e-13
	-3.918018330173708e-22,-6.315987174973902e-13
	-4.730689206235778e-04,4.565674431956053e-13
28		1.905460717963246e+00,0.000000000000000e+00
	-4.730689206235778e+00,4.672022651256042e-09
	1.000000000000000e+00,0.000000000000000e+00
	0.000000000000000e+00,0.000000000000000e+00
	4.730689206235777e-04,-4.672022651256042e-13
	4.102668845311603e-22,6.463105415485910e-13
	4.730689256125797e-12,1.818693066264728e-14
	-4.730689253542669e-04,-1.972952070856341e-13
	-4.730689206235778e-04,4.672022651256042e-13
	-4.102668845311603e-22,-6.463105415485910e-13
	-4.730689206235778e-04,4.672022651256042e-13
29		1.949844599758044e+00,0.000000000000000e+00
	-4.730689206235778e+00,4.780848038807257e-09
	1.000000000000000e+00,0.000000000000000e+00
	0.000000000000000e+00,0.000000000000000e+00
	4.730689206235777e-04,-4.780848038807259e-13
	4.296021671124801e-22,6.613650480038524e-13
	4.730689256125797e-12,1.861055869818297e-14
	-4.730689253542669e-04,-2.018908028213095e-13
	-4.730689206235778e-04,4.780848038807258e-13
	-4.296021671124801e-22,-6.613650480038524e-13
	-4.730689206235778e-04,4.780848038807258e-13
30		1.995262314968878e+00,0.000000000000000e+00
	-4.730689206235778e+00,4.892208295270653e-09
	1.000000000000000e+00,0.000000000000000e+00
	0.000000000000000e+00,0.000000000000000e+00
	4.730689206235777e-04,-4.892208295270653e-13
	4.498486934880111e-22,6.767702189617667e-13
	4.730689256125797e-12,1.904405429828007e-14
	-4.730689253542669e-04,-2.065934437329815e-13
	-4.730689206235778e-04,4.892208295270654e-13
	-4.498486934880111e-22,-6.767702189617667e-13
	-4.730689206235778e-04,4.892208295270654e-13
31		2.041737944669527e+00,0.000000000000000e+00
	-4.730689206235778e+00,5.006162465328233e-09
	1.000000000000000e+00,0.000000000000000e+00
	0.000000000000000e+00,0.000000000000000e+00
	4.730689206235777e-04,-5.006162465328233e-13
	4.710494092546951e-22,6.925342224478873e-13
	4.730689256125797e-12,1.948764730804420e-14
	-4.730689253542669e-04,-2.114056232231082e-13
	-4.730689206235778e-04,5.006162465328234e-13
	-4.710494092546951e-22,-6.925342224478873e-13
	-4.730689206235778e-04,5.006162465328234e-13
32		2.089296130854037e+00,0.000000000000000e+00
	-4.730689206235778e+00,5.122770968989324e-09
	1.000000000000000e+00,0.000000000000000e+00
	0.000000000000000e+00,0.000000000000000e+00
	4.730689206235777e-04,-5.122770968989326e-13
	4.932492839731028e-22,7.086654167455241e-13
	4.730689256125797e-12,1.994157292636051e-14
	-4.730689253542669e-04,-2.163298927729521e-13
	-4.730689206235778e-04,5.122770968989325e-13
	-4.932492839731028e-22,-7.086654167455241e-13
	-4.730689206235778e-04,5.122770968989325e-13
33		2.137962089502230e+00,0.000000000000000e+00
	-4.730689206235778e+00,5.242095633626065e-09
	1.000000000000000e+00,0.000000000000000e+00
	0.000000000000000e+00,0.000000000000000e+00
	4.730689206235777e-04,-5.242095633626065e-13
	5.164954065539010e-22,7.251723548274149e-13
	4.730689256125797e-12,2.040607183060040e-14
	-4.730689253542669e-04,-2.213688632954088e-13
	-4.730689206235778e-04,5.242095633626065e-13
	-5.164954065539010e-22,-7.251723548274149e-13
	-4.730689206235778e-04,5.242095633626065e-13
34		2.187761623949550e+00,0.000000000000000e+00
	-4.730689206235778e+00,5.364199726755091e-09
	1.000000000000000e+00,0.000000000000000e+00
	0.000000000000000e+00,0.000000000000000e+00
	4.730689206235777e-04,-5.364199726755091e-13
	5.408370851397454e-22,7.420637888906261e-13
	4.730689256125797e-12,2.088139030423113e-14
	-4.730689253542669e-04,-2.265252065193481e-13
	-4.730689206235778e-04,5.364199726755091e-13
	-5.408370851397454e-22,-7.420637888906261e-13
	-4.730689206235778e-04,5.364199726755091e-13
35		2.238721138568337e+00,0.000000000000000e+00
	-4.730689206235778e+00,5.489147989582821e-09
	1.000000000000000e+00,0.000000000000000e+00
	0.000000000000000e+00,0.000000000000000e+00
	4.730689206235777e-04,-5.489147989582820e-13
	5.663259516944623e-22,7.593486749970827e-13
	4.730689256125797e-12,2.136778036739886e-14
	-4.730689253542669e-04,-2.318016564061995e-13
	-4.730689206235778e-04,5.489147989582821e-13
	-5.663259516944623e-22,-7.593486749970827e-13
	-4.730689206235778e-04,5.489147989582821e-13
36		2.290867652767770e+00,0.000000000000000e+00
	-4.730689206235778e+00,5.617006671332090e-09
	1.000000000000000e+00,0.000000000000000e+00
	0.000000000000000e+00,0.000000000000000e+00
	4.730689206235777e-04,-5.617006671332091e-13
	5.930160715213661e-22,7.770361778221905e-13
	4.730689256125797e-12,2.186549991055374e-14
	-4.730689253542669e-04,-2.372010105995351e-13
	-4.730689206235778e-04,5.617006671332091e-13
	-5.930160715213661e-22,-7.770361778221905e-13
	-4.730689206235778e-04,5.617006671332091e-13
37		2.344228815319919e+00,0.000000000000000e+00
	-4.730689206235778e+00,5.747843564368372e-09
	1.000000000000000e+00,0.000000000000000e+00
	0.000000000000000e+00,0.000000000000000e+00
	4.730689206235777e-04,-5.747843564368373e-13
	6.209640579430164e-22,7.951356755140694e-13
	4.730689256125797e-12,2.237481283118505e-14
	-4.730689253542669e-04,-2.427261319084172e-13
	-4.730689206235778e-04,5.747843564368373e-13
	-6.209640579430164e-22,-7.951356755140694e-13
	-4.730689206235778e-04,5.747843564368373e-13
38		2.398832919019488e+00,0.000000000000000e+00
	-4.730689206235778e+00,5.881728040144188e-09
	1.000000000000000e+00,0.000000000000000e+00
	0.000000000000000e+00,0.000000000000000e+00
