LTspice 24.0.9 for Windows
Circuit: * GA CMOS Amp | W=2.0573221639193533e-06 L=1e-06 Vbias=1.4035856252029957
Start Time: Sat Sep  6 22:09:47 2025
solver = Normal
Maximum thread count: 2
tnom = 27
temp = 27
method = modified trap
AsciiRawFile = 1
Direct Newton iteration for .op point succeeded.
Semiconductor Device Operating Points:
                        --- BSIM4 MOSFETS ---
Name:      m1
Model:      n
Id:      8.32e-05
Vgs:     1.40e+00
Vds:     9.68e-01
Vbs:     0.00e+00
Vth:     2.35e-01
Vdsat:   8.09e-01
Gm:      4.52e-05
Gds:     7.44e-06
Gmb      4.86e-05
Cbd:     8.23e-16
Cbs:     1.65e-15


.measure op idd find i(vdd)
  Error: FIND can not be evaluated over an interval.

gain_db: MAX(db(v(out)/v(g)))=(29.0584dB,105.906°) FROM 1 TO 1e+09
gain_lin: MAX(mag(v(out)/v(g)))=(3.15081dB,0°) FROM 1 TO 1e+09
fc: mag(v(out)/v(g))=1 AT 6.56056e+08

Total elapsed time: 0.811 seconds.

