LTspice 24.0.9 for Windows
Circuit: * GA CMOS Amp | W=2.3518482065490754e-06 L=1e-06 Vbias=1.4732026882116225
Start Time: Sat Sep  6 22:14:15 2025
solver = Normal
Maximum thread count: 2
tnom = 27
temp = 27
method = modified trap
AsciiRawFile = 1
Direct Newton iteration for .op point succeeded.
Semiconductor Device Operating Points:
                        --- BSIM4 MOSFETS ---
Name:      m1
Model:      n
Id:      9.68e-05
Vgs:     1.47e+00
Vds:     8.32e-01
Vbs:     0.00e+00
Vth:     2.36e-01
Vdsat:   8.53e-01
Gm:      4.24e-05
Gds:     1.86e-05
Gmb      5.30e-05
Cbd:     9.63e-16
Cbs:     1.88e-15


.measure op idd find i(vdd)
  Error: FIND can not be evaluated over an interval.

gain_db: MAX(db(v(out)/v(g)))=(29.2033dB,108.95°) FROM 1 TO 1e+09
gain_lin: MAX(mag(v(out)/v(g)))=(3.39325dB,0°) FROM 1 TO 1e+09
fc: mag(v(out)/v(g))=1 AT 6.43153e+08

Total elapsed time: 2.131 seconds.

