LTspice 24.0.9 for Windows
Circuit: * GA CMOS Amp | W=1.7972207881656967e-05 L=8.065802983712611e-07 Vbias=1.2366145609112278
Start Time: Sat Sep  6 22:15:39 2025
solver = Normal
Maximum thread count: 2
tnom = 27
temp = 27
method = modified trap
AsciiRawFile = 1
Direct Newton iteration for .op point succeeded.
Semiconductor Device Operating Points:
                        --- BSIM4 MOSFETS ---
Name:      m1
Model:      n
Id:      1.72e-04
Vgs:     1.24e+00
Vds:     8.32e-02
Vbs:     0.00e+00
Vth:     2.39e-01
Vdsat:   7.00e-01
Gm:     -1.07e-05
Gds:     1.95e-03
Gmb      9.71e-05
Cbd:     8.75e-15
Cbs:     1.44e-14


.measure op idd find i(vdd)
  Error: FIND can not be evaluated over an interval.

gain_db: MAX(db(v(out)/v(g)))=(32.2236dB,180°) FROM 1 TO 1e+09
gain_lin: MAX(mag(v(out)/v(g)))=(-4.14646dB,0°) FROM 1 TO 1e+09

Measurement "fc" FAIL'ed

Total elapsed time: 1.335 seconds.

