Title: * GA CMOS Amp | W=1e-06 L=9.031439289171693e-07 Vbias=1.2395129125163957
Date: Mon Sep  8 18:46:38 2025
Plotname: AC Analysis
Flags: complex forward log
No. Variables: 11
No. Points:          901
Offset:    0.0000000000000000e+00
Command: Linear Technology Corporation LTspice
Variables:
	0	frequency	frequency
	1	V(out)	voltage
	2	V(g)	voltage
	3	V(vdd)	voltage
	4	Id(M1)	device_current
	5	Ig(M1)	device_current
	6	Ib(M1)	device_current
	7	Is(M1)	device_current
	8	I(Rload)	device_current
	9	I(Vg)	device_current
	10	I(Vdd)	device_current
Values:
0		1.000000000000000e+00,0.000000000000000e+00
	-2.954115137558925e-01,1.614043536455873e-11
	1.000000000000000e+00,0.000000000000000e+00
	0.000000000000000e+00,0.000000000000000e+00
	2.954115137558925e-05,-1.614043536455873e-15
	2.028266926681544e-26,8.611380384949780e-15
	2.954115156162708e-13,-6.415703263750394e-16
	-2.954115167100077e-05,-6.355766522118868e-15
	-2.954115137558926e-05,1.614043536455873e-15
	-2.028266926681544e-26,-8.611380384949780e-15
	-2.954115137558926e-05,1.614043536455873e-15
1		1.023292992280754e+00,0.000000000000000e+00
	-2.954115137558925e-01,1.651639440091341e-11
	1.000000000000000e+00,0.000000000000000e+00
	0.000000000000000e+00,0.000000000000000e+00
	2.954115137558925e-05,-1.651639440091341e-15
	2.123856201995705e-26,8.811965201783053e-15
	2.954115156162708e-13,-6.565144190348542e-16
	-2.954115167100077e-05,-6.503811342656858e-15
	-2.954115137558926e-05,1.651639440091341e-15
	-2.123856201995705e-26,-8.811965201783053e-15
	-2.954115137558926e-05,1.651639440091341e-15
2		1.047128548050899e+00,0.000000000000000e+00
	-2.954115137558925e-01,1.690111064819977e-11
	1.000000000000000e+00,0.000000000000000e+00
	0.000000000000000e+00,0.000000000000000e+00
	2.954115137558925e-05,-1.690111064819977e-15
	2.223950461064660e-26,9.017222239206459e-15
	2.954115156162708e-13,-6.718066043296372e-16
	-2.954115167100077e-05,-6.655304570056844e-15
	-2.954115137558926e-05,1.690111064819977e-15
	-2.223950461064660e-26,-9.017222239206459e-15
	-2.954115137558926e-05,1.690111064819977e-15
3		1.071519305237606e+00,0.000000000000000e+00
	-2.954115137558925e-01,1.729478808806446e-11
	1.000000000000000e+00,0.000000000000000e+00
	0.000000000000000e+00,0.000000000000000e+00
	2.954115137558925e-05,-1.729478808806446e-15
	2.328762017231766e-26,9.227260327218139e-15
	2.954115156162708e-13,-6.874549903784478e-16
	-2.954115167100077e-05,-6.810326528033245e-15
	-2.954115137558926e-05,1.729478808806446e-15
	-2.328762017231766e-26,-9.227260327218139e-15
	-2.954115137558926e-05,1.729478808806446e-15
4		1.096478196143185e+00,0.000000000000000e+00
	-2.954115137558925e-01,1.769763545349702e-11
	1.000000000000000e+00,0.000000000000000e+00
	0.000000000000000e+00,0.000000000000000e+00
	2.954115137558925e-05,-1.769763545349702e-15
	2.438513189859982e-26,9.442190830792537e-15
	2.954115156162708e-13,-7.034678741626975e-16
	-2.954115167100077e-05,-6.968959411280138e-15
	-2.954115137558926e-05,1.769763545349702e-15
	-2.438513189859982e-26,-9.442190830792537e-15
	-2.954115137558926e-05,1.769763545349702e-15
5		1.122018454301963e+00,0.000000000000000e+00
	-2.954115137558925e-01,1.810986633950293e-11
	1.000000000000000e+00,0.000000000000000e+00
	0.000000000000000e+00,0.000000000000000e+00
	2.954115137558925e-05,-1.810986633950293e-15
	2.553436775901052e-26,9.662127708927596e-15
	2.954115156162708e-13,-7.198537459253257e-16
	-2.954115167100077e-05,-7.131287329051977e-15
	-2.954115137558926e-05,1.810986633950293e-15
	-2.553436775901052e-26,-9.662127708927596e-15
	-2.954115137558926e-05,1.810986633950293e-15
6		1.148153621496882e+00,0.000000000000000e+00
	-2.954115137558925e-01,1.853169931635446e-11
	1.000000000000000e+00,0.000000000000000e+00
	0.000000000000000e+00,0.000000000000000e+00
	2.954115137558925e-05,-1.853169931635446e-15
	2.673776543689038e-26,9.887187575067307e-15
	2.954115156162708e-13,-7.366212936724373e-16
	-2.954115167100077e-05,-7.297396349759424e-15
	-2.954115137558926e-05,1.853169931635446e-15
	-2.673776543689038e-26,-9.887187575067307e-15
	-2.954115137558926e-05,1.853169931635446e-15
7		1.174897554939529e+00,0.000000000000000e+00
	-2.954115137558925e-01,1.896335804547956e-11
	1.000000000000000e+00,0.000000000000000e+00
	0.000000000000000e+00,0.000000000000000e+00
	2.954115137558925e-05,-1.896335804547956e-15
	2.799787750005654e-26,1.011748975893172e-14
	2.954115156162708e-13,-7.537794077797895e-16
	-2.954115167100077e-05,-7.467374546603972e-15
	-2.954115137558926e-05,1.896335804547956e-15
	-2.799787750005654e-26,-1.011748975893172e-14
	-2.954115137558926e-05,1.896335804547956e-15
8		1.202264434617413e+00,0.000000000000000e+00
	-2.954115137558925e-01,1.940507139805009e-11
	1.000000000000000e+00,0.000000000000000e+00
	0.000000000000000e+00,0.000000000000000e+00
	2.954115137558925e-05,-1.940507139805009e-15
	2.931737681514116e-26,1.035315636978712e-14
	2.954115156162708e-13,-7.713371857065959e-16
	-2.954115167100077e-05,-7.641312044275519e-15
	-2.954115137558926e-05,1.940507139805009e-15
	-2.931737681514116e-26,-1.035315636978712e-14
	-2.954115137558926e-05,1.940507139805009e-15
9		1.230268770812381e+00,0.000000000000000e+00
	-2.954115137558925e-01,1.985707357633235e-11
	1.000000000000000e+00,0.000000000000000e+00
	0.000000000000000e+00,0.000000000000000e+00
	2.954115137558925e-05,-1.985707357633235e-15
	3.069906221709986e-26,1.059431236119002e-14
	2.954115156162708e-13,-7.893039368191185e-16
	-2.954115167100077e-05,-7.819301066737662e-15
	-2.954115137558926e-05,1.985707357633236e-15
	-3.069906221709986e-26,-1.059431236119002e-14
	-2.954115137558926e-05,1.985707357633236e-15
10		1.258925411794167e+00,0.000000000000000e+00
	-2.954115137558925e-01,2.031960423786423e-11
	1.000000000000000e+00,0.000000000000000e+00
	0.000000000000000e+00,0.000000000000000e+00
	2.954115137558925e-05,-2.031960423786423e-15
	3.214586444591601e-26,1.084108559723911e-14
	2.954115156162708e-13,-8.076891873266144e-16
	-2.954115167100077e-05,-8.001435986126075e-15
	-2.954115137558926e-05,2.031960423786423e-15
	-3.214586444591601e-26,-1.084108559723911e-14
	-2.954115137558926e-05,2.031960423786423e-15
11		1.288249551693134e+00,0.000000000000000e+00
	-2.954115137558925e-01,2.079290862252479e-11
	1.000000000000000e+00,0.000000000000000e+00
	0.000000000000000e+00,0.000000000000000e+00
	2.954115137558925e-05,-2.079290862252478e-15
	3.366085236309308e-26,1.109360692037060e-14
	2.954115156162708e-13,-8.265026853322621e-16
	-2.954115167100077e-05,-8.187813372785859e-15
	-2.954115137558926e-05,2.079290862252479e-15
	-3.366085236309308e-26,-1.109360692037060e-14
	-2.954115137558926e-05,2.079290862252479e-15
12		1.318256738556407e+00,0.000000000000000e+00
	-2.954115137558925e-01,2.127723768256368e-11
	1.000000000000000e+00,0.000000000000000e+00
	0.000000000000000e+00,0.000000000000000e+00
	2.954115137558925e-05,-2.127723768256368e-15
	3.524723946112134e-26,1.135201022073251e-14
	2.954115156162708e-13,-8.457544060017287e-16
	-2.954115167100077e-05,-8.378532046474415e-15
	-2.954115137558926e-05,2.127723768256368e-15
	-3.524723946112134e-26,-1.135201022073251e-14
	-2.954115137558926e-05,2.127723768256368e-15
13		1.348962882591653e+00,0.000000000000000e+00
	-2.954115137558925e-01,2.177284821565941e-11
	1.000000000000000e+00,0.000000000000000e+00
	0.000000000000000e+00,0.000000000000000e+00
	2.954115137558925e-05,-2.177284821565941e-15
	3.690839067972636e-26,1.161643250717508e-14
	2.954115156162708e-13,-8.654545568521400e-16
	-2.954115167100077e-05,-8.573693128756994e-15
	-2.954115137558926e-05,2.177284821565941e-15
	-3.690839067972636e-26,-1.161643250717508e-14
	-2.954115137558926e-05,2.177284821565941e-15
14		1.380384264602885e+00,0.000000000000000e+00
	-2.954115137558925e-01,2.228000300107679e-11
	1.000000000000000e+00,0.000000000000000e+00
	0.000000000000000e+00,0.000000000000000e+00
	2.954115137558925e-05,-2.228000300107679e-15
	3.864782954335722e-26,1.188701397989461e-14
	2.954115156162708e-13,-8.856135831642425e-16
	-2.954115167100077e-05,-8.773400096622686e-15
	-2.954115137558926e-05,2.228000300107679e-15
	-3.864782954335722e-26,-1.188701397989461e-14
	-2.954115137558926e-05,2.228000300107679e-15
15		1.412537544622754e+00,0.000000000000000e+00
	-2.954115137558925e-01,2.279897093899605e-11
	1.000000000000000e+00,0.000000000000000e+00
	0.000000000000000e+00,0.000000000000000e+00
	2.954115137558925e-05,-2.279897093899605e-15
	4.046924563505431e-26,1.216389810476951e-14
	2.954115156162708e-13,-9.062421735206171e-16
	-2.954115167100077e-05,-8.977758837349287e-15
	-2.954115137558926e-05,2.279897093899605e-15
	-4.046924563505431e-26,-1.216389810476951e-14
	-2.954115137558926e-05,2.279897093899605e-15
16		1.445439770745927e+00,0.000000000000000e+00
	-2.954115137558925e-01,2.333002719308722e-11
	1.000000000000000e+00,0.000000000000000e+00
	0.000000000000000e+00,0.000000000000000e+00
	2.954115137558925e-05,-2.333002719308722e-15
	4.237650242254959e-26,1.244723168942778e-14
	2.954115156162708e-13,-9.273512654729262e-16
	-2.954115167100077e-05,-9.186877704646134e-15
	-2.954115137558926e-05,2.333002719308722e-15
	-4.237650242254959e-26,-1.244723168942778e-14
	-2.954115137558926e-05,2.333002719308722e-15
17		1.479108388168207e+00,0.000000000000000e+00
	-2.954115137558925e-01,2.387345333640558e-11
	1.000000000000000e+00,0.000000000000000e+00
	0.000000000000000e+00,0.000000000000000e+00
	2.954115137558925e-05,-2.387345333640558e-15
	4.437364545319978e-26,1.273716496108638e-14
	2.954115156162708e-13,-9.489520513411335e-16
	-2.954115167100077e-05,-9.400867576104688e-15
	-2.954115137558926e-05,2.387345333640558e-15
	-4.437364545319978e-26,-1.273716496108638e-14
	-2.954115137558926e-05,2.387345333640558e-15
18		1.513561248436208e+00,0.000000000000000e+00
	-2.954115137558925e-01,2.442953750068542e-11
	1.000000000000000e+00,0.000000000000000e+00
	0.000000000000000e+00,0.000000000000000e+00
	2.954115137558925e-05,-2.442953750068543e-15
	4.646491093513449e-26,1.303385164620366e-14
	2.954115156162708e-13,-9.710559841478294e-16
	-2.954115167100077e-05,-9.619841911987287e-15
	-2.954115137558926e-05,2.442953750068543e-15
	-4.646491093513449e-26,-1.303385164620366e-14
	-2.954115137558926e-05,2.442953750068543e-15
19		1.548816618912481e+00,0.000000000000000e+00
	-2.954115137558925e-01,2.499857452911128e-11
	1.000000000000000e+00,0.000000000000000e+00
	0.000000000000000e+00,0.000000000000000e+00
	2.954115137558925e-05,-2.499857452911128e-15
	4.865473472282174e-26,1.333744905198717e-14
	2.954115156162708e-13,-9.936747836907644e-16
	-2.954115167100077e-05,-9.843916815385281e-15
	-2.954115137558926e-05,2.499857452911128e-15
	-4.865473472282174e-26,-1.333744905198717e-14
	-2.954115137558926e-05,2.499857452911128e-15
20		1.584893192461113e+00,0.000000000000000e+00
	-2.954115137558925e-01,2.558086613264773e-11
	1.000000000000000e+00,0.000000000000000e+00
	0.000000000000000e+00,0.000000000000000e+00
	2.954115137558925e-05,-2.558086613264773e-15
	5.094776172611002e-26,1.364811814980006e-14
	2.954115156162708e-13,-1.016820442756852e-15
	-2.954115167100077e-05,-1.007321109377844e-14
	-2.954115137558926e-05,2.558086613264773e-15
	-5.094776172611002e-26,-1.364811814980006e-14
	-2.954115137558926e-05,2.558086613264773e-15
21		1.621810097358929e+00,0.000000000000000e+00
	-2.954115137558925e-01,2.617672105001049e-11
	1.000000000000000e+00,0.000000000000000e+00
	0.000000000000000e+00,0.000000000000000e+00
	2.954115137558925e-05,-2.617672105001049e-15
	5.334885576270476e-26,1.396602366051017e-14
	2.954115156162708e-13,-1.040505233480902e-15
	-2.954115167100077e-05,-1.030784632202822e-14
	-2.954115137558926e-05,2.617672105001049e-15
	-5.334885576270476e-26,-1.396602366051017e-14
	-2.954115137558926e-05,2.617672105001049e-15
22		1.659586907437560e+00,0.000000000000000e+00
	-2.954115137558925e-01,2.678645521136384e-11
	1.000000000000000e+00,0.000000000000000e+00
	0.000000000000000e+00,0.000000000000000e+00
	2.954115137558925e-05,-2.678645521136384e-15
	5.586310987497791e-26,1.429133414182727e-14
	2.954115156162708e-13,-1.064741713852456e-15
	-2.954115167100077e-05,-1.054794690683843e-14
	-2.954115137558926e-05,2.678645521136384e-15
	-5.586310987497791e-26,-1.429133414182727e-14
	-2.954115137558926e-05,2.678645521136384e-15
23		1.698243652461743e+00,0.000000000000000e+00
	-2.954115137558925e-01,2.741039190583091e-11
	1.000000000000000e+00,0.000000000000000e+00
	0.000000000000000e+00,0.000000000000000e+00
	2.954115137558925e-05,-2.741039190583091e-15
	5.849585713299348e-26,1.462422207767453e-14
	2.954115156162708e-13,-1.089542734374219e-15
	-2.954115167100077e-05,-1.079364015271722e-14
	-2.954115137558926e-05,2.741039190583091e-15
	-5.849585713299348e-26,-1.462422207767453e-14
	-2.954115137558926e-05,2.741039190583091e-15
24		1.737800828749374e+00,0.000000000000000e+00
	-2.954115137558925e-01,2.804886195290587e-11
	1.000000000000000e+00,0.000000000000000e+00
	0.000000000000000e+00,0.000000000000000e+00
	2.954115137558925e-05,-2.804886195290587e-15
	6.125268194666432e-26,1.496486396964184e-14
	2.954115156162708e-13,-1.114921444875551e-15
	-2.954115167100077e-05,-1.104505632947570e-14
	-2.954115137558926e-05,2.804886195290588e-15
	-6.125268194666432e-26,-1.496486396964184e-14
	-2.954115137558926e-05,2.804886195290588e-15
25		1.778279410038922e+00,0.000000000000000e+00
	-2.954115137558925e-01,2.870220387785885e-11
	1.000000000000000e+00,0.000000000000000e+00
	0.000000000000000e+00,0.000000000000000e+00
	2.954115137558925e-05,-2.870220387785885e-15
	6.413943191103416e-26,1.531344043056924e-14
	2.954115156162708e-13,-1.140891301484684e-15
	-2.954115167100077e-05,-1.130232874129867e-14
	-2.954115137558926e-05,2.870220387785885e-15
	-6.413943191103416e-26,-1.531344043056924e-14
	-2.954115137558926e-05,2.870220387785885e-15
26		1.819700858609982e+00,0.000000000000000e+00
	-2.954115137558925e-01,2.937076409122644e-11
	1.000000000000000e+00,0.000000000000000e+00
	0.000000000000000e+00,0.000000000000000e+00
	2.954115137558925e-05,-2.937076409122644e-15
	6.716223020981070e-26,1.567013628031027e-14
	2.954115156162708e-13,-1.167466073763346e-15
	-2.954115167100077e-05,-1.156559379742428e-14
	-2.954115137558926e-05,2.937076409122644e-15
	-6.716223020981070e-26,-1.567013628031027e-14
	-2.954115137558926e-05,2.937076409122644e-15
27		1.862087136662866e+00,0.000000000000000e+00
	-2.954115137558925e-01,3.005489707248323e-11
	1.000000000000000e+00,0.000000000000000e+00
	0.000000000000000e+00,0.000000000000000e+00
	2.954115137558925e-05,-3.005489707248323e-15
	7.032748860345935e-26,1.603514064372590e-14
	2.954115156162708e-13,-1.194659852007554e-15
	-2.954115167100077e-05,-1.183499108447002e-14
	-2.954115137558926e-05,3.005489707248323e-15
	-7.032748860345935e-26,-1.603514064372590e-14
	-2.954115137558926e-05,3.005489707248323e-15
28		1.905460717963246e+00,0.000000000000000e+00
	-2.954115137558925e-01,3.075496555799143e-11
	1.000000000000000e+00,0.000000000000000e+00
	0.000000000000000e+00,0.000000000000000e+00
	2.954115137558925e-05,-3.075496555799144e-15
	7.364192102940654e-26,1.640864705096102e-14
	2.954115156162708e-13,-1.222487054718494e-15
	-2.954115167100077e-05,-1.211066344044338e-14
	-2.954115137558926e-05,3.075496555799144e-15
	-7.364192102940654e-26,-1.640864705096102e-14
	-2.954115137558926e-05,3.075496555799144e-15
29		1.949844599758044e+00,0.000000000000000e+00
	-2.954115137558925e-01,3.147134073332859e-11
	1.000000000000000e+00,0.000000000000000e+00
	0.000000000000000e+00,0.000000000000000e+00
	2.954115137558925e-05,-3.147134073332859e-15
	7.711255784320150e-26,1.679085354005668e-14
	2.954115156162708e-13,-1.250962436247378e-15
	-2.954115167100077e-05,-1.239275703047644e-14
	-2.954115137558926e-05,3.147134073332859e-15
	-7.711255784320150e-26,-1.679085354005668e-14
	-2.954115137558926e-05,3.147134073332859e-15
30		1.995262314968878e+00,0.000000000000000e+00
	-2.954115137558925e-01,3.220440243009500e-11
	1.000000000000000e+00,0.000000000000000e+00
	0.000000000000000e+00,0.000000000000000e+00
	2.954115137558925e-05,-3.220440243009500e-15
	8.074676073084258e-26,1.718196276195248e-14
	2.954115156162708e-13,-1.280101094618397e-15
	-2.954115167100077e-05,-1.268142142432459e-14
	-2.954115137558926e-05,3.220440243009500e-15
	-8.074676073084258e-26,-1.718196276195248e-14
	-2.954115137558926e-05,3.220440243009500e-15
31		2.041737944669527e+00,0.000000000000000e+00
	-2.954115137558925e-01,3.295453932730549e-11
	1.000000000000000e+00,0.000000000000000e+00
	0.000000000000000e+00,0.000000000000000e+00
	2.954115137558925e-05,-3.295453932730549e-15
	8.455223832390053e-26,1.758218208793485e-14
	2.954115156162708e-13,-1.309918479533930e-15
	-2.954115167100077e-05,-1.297680967567037e-14
	-2.954115137558926e-05,3.295453932730549e-15
	-8.455223832390053e-26,-1.758218208793485e-14
	-2.954115137558926e-05,3.295453932730549e-15
32		2.089296130854037e+00,0.000000000000000e+00
	-2.954115137558925e-01,3.372214915747223e-11
	1.000000000000000e+00,0.000000000000000e+00
	0.000000000000000e+00,0.000000000000000e+00
	2.954115137558925e-05,-3.372214915747223e-15
	8.853706255055961e-26,1.799172371958793e-14
	2.954115156162708e-13,-1.340430400566131e-15
	-2.954115167100077e-05,-1.327907840327457e-14
	-2.954115137558926e-05,3.372214915747223e-15
	-8.853706255055961e-26,-1.799172371958793e-14
	-2.954115137558926e-05,3.372214915747223e-15
33		2.137962089502230e+00,0.000000000000000e+00
	-2.954115137558925e-01,3.450763891748767e-11
	1.000000000000000e+00,0.000000000000000e+00
	0.000000000000000e+00,0.000000000000000e+00
	2.954115137558925e-05,-3.450763891748767e-15
	9.270968575725916e-26,1.841080480130575e-14
	2.954115156162708e-13,-1.371653035539406e-15
	-2.954115167100077e-05,-1.358838787401758e-14
	-2.954115137558926e-05,3.450763891748767e-15
	-9.270968575725916e-26,-1.841080480130575e-14
	-2.954115137558926e-05,3.450763891748767e-15
34		2.187761623949550e+00,0.000000000000000e+00
	-2.954115137558925e-01,3.531142508441976e-11
	1.000000000000000e+00,0.000000000000000e+00
	0.000000000000000e+00,0.000000000000000e+00
	2.954115137558925e-05,-3.531142508441976e-15
	9.707895863725394e-26,1.883964753542503e-14
	2.954115156162708e-13,-1.403602939108097e-15
	-2.954115167100077e-05,-1.390490208787496e-14
	-2.954115137558926e-05,3.531142508441976e-15
	-9.707895863725394e-26,-1.883964753542503e-14
	-2.954115137558926e-05,3.531142508441976e-15
35		2.238721138568337e+00,0.000000000000000e+00
	-2.954115137558925e-01,3.613393383633357e-11
	1.000000000000000e+00,0.000000000000000e+00
	0.000000000000000e+00,0.000000000000000e+00
	2.954115137558925e-05,-3.613393383633357e-15
	1.016541490041210e-25,1.927847930003982e-14
	2.954115156162708e-13,-1.436297051533986e-15
	-2.954115167100077e-05,-1.422878886487247e-14
	-2.954115137558926e-05,3.613393383633357e-15
	-1.016541490041210e-25,-1.927847930003982e-14
	-2.954115137558926e-05,3.613393383633357e-15
36		2.290867652767770e+00,0.000000000000000e+00
	-2.954115137558925e-01,3.697560127825658e-11
	1.000000000000000e+00,0.000000000000000e+00
	0.000000000000000e+00,0.000000000000000e+00
	2.954115137558925e-05,-3.697560127825657e-15
	1.064449614500351e-25,1.972753276956032e-14
	2.954115156162708e-13,-1.469752707668239e-15
	-2.954115167100077e-05,-1.456021993406643e-14
	-2.954115137558926e-05,3.697560127825658e-15
	-1.064449614500351e-25,-1.972753276956032e-14
	-2.954115137558926e-05,3.697560127825658e-15
37		2.344228815319919e+00,0.000000000000000e+00
	-2.954115137558925e-01,3.783687367340724e-11
	1.000000000000000e+00,0.000000000000000e+00
	0.000000000000000e+00,0.000000000000000e+00
	2.954115137558925e-05,-3.783687367340724e-15
	1.114615579305092e-25,2.018704603808002e-14
	2.954115156162708e-13,-1.503987646142573e-15
	-2.954115167100077e-05,-1.489937102459672e-14
	-2.954115137558926e-05,3.783687367340724e-15
	-1.114615579305092e-25,-2.018704603808002e-14
	-2.954115137558926e-05,3.783687367340724e-15
38		2.398832919019488e+00,0.000000000000000e+00
	-2.954115137558925e-01,3.871820767980978e-11
	1.000000000000000e+00,0.000000000000000e+00
	0.000000000000000e+00,0.000000000000000e+00
