Title: * GA CMOS Amp | W=3.9979331966657794e-05 L=6.420975696185104e-07 Vbias=0.7214012623374196
Date: Mon Sep  8 18:44:05 2025
Plotname: AC Analysis
Flags: complex forward log
No. Variables: 11
No. Points:          901
Offset:    0.0000000000000000e+00
Command: Linear Technology Corporation LTspice
Variables:
	0	frequency	frequency
	1	V(out)	voltage
	2	V(g)	voltage
	3	V(vdd)	voltage
	4	Id(M1)	device_current
	5	Ig(M1)	device_current
	6	Ib(M1)	device_current
	7	Is(M1)	device_current
	8	I(Rload)	device_current
	9	I(Vg)	device_current
	10	I(Vdd)	device_current
Values:
0		1.000000000000000e+00,0.000000000000000e+00
	-1.422159315389960e+00,1.203154848875266e-09
	1.000000000000000e+00,0.000000000000000e+00
	0.000000000000000e+00,0.000000000000000e+00
	1.422159315389960e-04,-1.203154848875266e-13
	6.044591035127921e-23,3.050552850444869e-13
	1.422159292456884e-12,-5.299400367616977e-15
	-1.422159329611553e-04,-1.794403997893433e-13
	-1.422159315389960e-04,1.203154848875266e-13
	-6.044591035127921e-23,-3.050552850444869e-13
	-1.422159315389960e-04,1.203154848875266e-13
1		1.023292992280754e+00,0.000000000000000e+00
	-1.422159315389960e+00,1.231179925482669e-09
	1.000000000000000e+00,0.000000000000000e+00
	0.000000000000000e+00,0.000000000000000e+00
	1.422159315389960e-04,-1.231179925482669e-13
	6.329463834174982e-23,3.121609354442314e-13
	1.422159292456884e-12,-5.422839259472524e-15
	-1.422159329611553e-04,-1.836201036364919e-13
	-1.422159315389960e-04,1.231179925482669e-13
	-6.329463834174982e-23,-3.121609354442314e-13
	-1.422159315389960e-04,1.231179925482669e-13
2		1.047128548050899e+00,0.000000000000000e+00
	-1.422159315389960e+00,1.259857789983156e-09
	1.000000000000000e+00,0.000000000000000e+00
	0.000000000000000e+00,0.000000000000000e+00
	1.422159315389960e-04,-1.259857789983157e-13
	6.627762274620328e-23,3.194320977038869e-13
	1.422159292456884e-12,-5.549153412483181e-15
	-1.422159329611553e-04,-1.878971652930880e-13
	-1.422159315389960e-04,1.259857789983157e-13
	-6.627762274620328e-23,-3.194320977038869e-13
	-1.422159315389960e-04,1.259857789983157e-13
3		1.071519305237606e+00,0.000000000000000e+00
	-1.422159315389960e+00,1.289203647760082e-09
	1.000000000000000e+00,0.000000000000000e+00
	0.000000000000000e+00,0.000000000000000e+00
	1.422159315389960e-04,-1.289203647760082e-13
	6.940119087449708e-23,3.268726270899286e-13
	1.422159292456884e-12,-5.678409800084903e-15
	-1.422159329611553e-04,-1.922738525138355e-13
	-1.422159315389960e-04,1.289203647760082e-13
	-6.940119087449708e-23,-3.268726270899286e-13
	-1.422159315389960e-04,1.289203647760082e-13
4		1.096478196143185e+00,0.000000000000000e+00
	-1.422159315389960e+00,1.319233058375677e-09
	1.000000000000000e+00,0.000000000000000e+00
	0.000000000000000e+00,0.000000000000000e+00
	1.422159315389960e-04,-1.319233058375677e-13
	7.267196823341546e-23,3.344864686695240e-13
	1.422159292456884e-12,-5.810676955725163e-15
	-1.422159329611553e-04,-1.967524858762311e-13
	-1.422159315389960e-04,1.319233058375677e-13
	-7.267196823341546e-23,-3.344864686695240e-13
	-1.422159315389960e-04,1.319233058375677e-13
5		1.122018454301963e+00,0.000000000000000e+00
	-1.422159315389960e+00,1.349961943820938e-09
	1.000000000000000e+00,0.000000000000000e+00
	0.000000000000000e+00,0.000000000000000e+00
	1.422159315389960e-04,-1.349961943820938e-13
	7.609689258025746e-23,3.422776594022600e-13
	1.422159292456884e-12,-5.946025009200887e-15
	-1.422159329611553e-04,-2.013354400109653e-13
	-1.422159315389960e-04,1.349961943820938e-13
	-7.609689258025746e-23,-3.422776594022600e-13
	-1.422159315389960e-04,1.349961943820938e-13
6		1.148153621496882e+00,0.000000000000000e+00
	-1.422159315389960e+00,1.381406596957671e-09
	1.000000000000000e+00,0.000000000000000e+00
	0.000000000000000e+00,0.000000000000000e+00
	1.422159315389960e-04,-1.381406596957671e-13
	7.968322863875025e-23,3.502503302805914e-13
	1.422159292456884e-12,-6.084525723841346e-15
	-1.422159329611553e-04,-2.060251448609830e-13
	-1.422159315389960e-04,1.381406596957671e-13
	-7.968322863875025e-23,-3.502503302805914e-13
	-1.422159315389960e-04,1.381406596957671e-13
7		1.174897554939529e+00,0.000000000000000e+00
	-1.422159315389960e+00,1.413583690157188e-09
	1.000000000000000e+00,0.000000000000000e+00
	0.000000000000000e+00,0.000000000000000e+00
	1.422159315389960e-04,-1.413583690157189e-13
	8.343858350850237e-23,3.584087085201488e-13
	1.422159292456884e-12,-6.226252534558840e-15
	-1.422159329611553e-04,-2.108240869698711e-13
	-1.422159315389960e-04,1.413583690157189e-13
	-8.343858350850237e-23,-3.584087085201488e-13
	-1.422159315389960e-04,1.413583690157189e-13
8		1.202264434617413e+00,0.000000000000000e+00
	-1.422159315389960e+00,1.446510284140220e-09
	1.000000000000000e+00,0.000000000000000e+00
	0.000000000000000e+00,0.000000000000000e+00
	1.422159315389960e-04,-1.446510284140220e-13
	8.737092280068184e-23,3.667571198010637e-13
	1.422159292456884e-12,-6.371280586784376e-15
	-1.422159329611553e-04,-2.157348108002573e-13
	-1.422159315389960e-04,1.446510284140220e-13
	-8.737092280068184e-23,-3.667571198010637e-13
	-1.422159315389960e-04,1.446510284140220e-13
9		1.230268770812381e+00,0.000000000000000e+00
	-1.422159315389960e+00,1.480203837022730e-09
	1.000000000000000e+00,0.000000000000000e+00
	0.000000000000000e+00,0.000000000000000e+00
	1.422159315389960e-04,-1.480203837022730e-13
	9.148858753414522e-23,3.752999905615015e-13
	1.422159292456884e-12,-6.519686776310822e-15
	-1.422159329611553e-04,-2.207599200829177e-13
	-1.422159315389960e-04,1.480203837022730e-13
	-9.148858753414522e-23,-3.752999905615015e-13
	-1.422159315389960e-04,1.480203837022730e-13
10		1.258925411794167e+00,0.000000000000000e+00
	-1.422159315389960e+00,1.514682213572443e-09
	1.000000000000000e+00,0.000000000000000e+00
	0.000000000000000e+00,0.000000000000000e+00
	1.422159315389960e-04,-1.514682213572443e-13
	9.580031182785709e-23,3.840418503446176e-13
	1.422159292456884e-12,-6.671549790064395e-15
	-1.422159329611553e-04,-2.259020791973090e-13
	-1.422159315389960e-04,1.514682213572443e-13
	-9.580031182785709e-23,-3.840418503446176e-13
	-1.422159315389960e-04,1.514682213572443e-13
11		1.288249551693134e+00,0.000000000000000e+00
	-1.422159315389960e+00,1.549963694680981e-09
	1.000000000000000e+00,0.000000000000000e+00
	0.000000000000000e+00,0.000000000000000e+00
	1.422159315389960e-04,-1.549963694680981e-13
	1.003152414271274e-22,3.929873342001814e-13
	1.422159292456884e-12,-6.826950147825050e-15
	-1.422159329611553e-04,-2.311640145842582e-13
	-1.422159315389960e-04,1.549963694680981e-13
	-1.003152414271274e-22,-3.929873342001814e-13
	-1.422159315389960e-04,1.549963694680981e-13
12		1.318256738556407e+00,0.000000000000000e+00
	-1.422159315389960e+00,1.586066987056635e-09
	1.000000000000000e+00,0.000000000000000e+00
	0.000000000000000e+00,0.000000000000000e+00
	1.422159315389960e-04,-1.586066987056635e-13
	1.050429531029634e-22,4.021411851421403e-13
	1.422159292456884e-12,-6.985970244919359e-15
	-1.422159329611553e-04,-2.365485161915575e-13
	-1.422159315389960e-04,1.586066987056635e-13
	-1.050429531029634e-22,-4.021411851421403e-13
	-1.422159315389960e-04,1.586066987056635e-13
13		1.348962882591653e+00,0.000000000000000e+00
	-1.422159315389960e+00,1.623011233142904e-09
	1.000000000000000e+00,0.000000000000000e+00
	0.000000000000000e+00,0.000000000000000e+00
	1.422159315389960e-04,-1.623011233142903e-13
	1.099934749656848e-22,4.115082566634295e-13
	1.422159292456884e-12,-7.148694395907877e-15
	-1.422159329611553e-04,-2.420584389532313e-13
	-1.422159315389960e-04,1.623011233142904e-13
	-1.099934749656848e-22,-4.115082566634295e-13
	-1.422159315389960e-04,1.623011233142904e-13
14		1.380384264602885e+00,0.000000000000000e+00
	-1.422159315389960e+00,1.660816021268078e-09
	1.000000000000000e+00,0.000000000000000e+00
	0.000000000000000e+00,0.000000000000000e+00
	1.422159315389960e-04,-1.660816021268079e-13
	1.151773077358905e-22,4.210935153093574e-13
	1.422159292456884e-12,-7.315208879289248e-15
	-1.422159329611553e-04,-2.476967043032603e-13
	-1.422159315389960e-04,1.660816021268079e-13
	-1.151773077358905e-22,-4.210935153093574e-13
	-1.422159315389960e-04,1.660816021268079e-13
15		1.412537544622754e+00,0.000000000000000e+00
	-1.422159315389960e+00,1.699501396031229e-09
	1.000000000000000e+00,0.000000000000000e+00
	0.000000000000000e+00,0.000000000000000e+00
	1.422159315389960e-04,-1.699501396031229e-13
	1.206054470178947e-22,4.309020433109339e-13
	1.422159292456884e-12,-7.485601983246587e-15
	-1.422159329611553e-04,-2.534663017245644e-13
	-1.422159315389960e-04,1.699501396031229e-13
	-1.206054470178947e-22,-4.309020433109339e-13
	-1.422159315389960e-04,1.699501396031229e-13
16		1.445439770745927e+00,0.000000000000000e+00
	-1.422159315389960e+00,1.739087868930115e-09
	1.000000000000000e+00,0.000000000000000e+00
	0.000000000000000e+00,0.000000000000000e+00
	1.422159315389960e-04,-1.739087868930115e-13
	1.262894066228777e-22,4.409390412795366e-13
	1.422159292456884e-12,-7.659964052459196e-15
	-1.422159329611553e-04,-2.593702903340659e-13
	-1.422159315389960e-04,1.739087868930115e-13
	-1.262894066228777e-22,-4.409390412795366e-13
	-1.422159315389960e-04,1.739087868930115e-13
17		1.479108388168207e+00,0.000000000000000e+00
	-1.422159315389960e+00,1.779596429236657e-09
	1.000000000000000e+00,0.000000000000000e+00
	0.000000000000000e+00,0.000000000000000e+00
	1.422159315389960e-04,-1.779596429236657e-13
	1.322412429912235e-22,4.512098309643439e-13
	1.422159292456884e-12,-7.838387536003988e-15
	-1.422159329611553e-04,-2.654118005046742e-13
	-1.422159315389960e-04,1.779596429236657e-13
	-1.322412429912235e-22,-4.512098309643439e-13
	-1.422159315389960e-04,1.779596429236657e-13
18		1.513561248436208e+00,0.000000000000000e+00
	-1.422159315389960e+00,1.821048555125724e-09
	1.000000000000000e+00,0.000000000000000e+00
	0.000000000000000e+00,0.000000000000000e+00
	1.422159315389960e-04,-1.821048555125724e-13
	1.384735807658461e-22,4.617198580739968e-13
	1.422159292456884e-12,-8.020967036373641e-15
	-1.422159329611553e-04,-2.715940355250507e-13
	-1.422159315389960e-04,1.821048555125724e-13
	-1.384735807658461e-22,-4.617198580739968e-13
	-1.422159315389960e-04,1.821048555125724e-13
19		1.548816618912481e+00,0.000000000000000e+00
	-1.422159315389960e+00,1.863466225063146e-09
	1.000000000000000e+00,0.000000000000000e+00
	0.000000000000000e+00,0.000000000000000e+00
	1.422159315389960e-04,-1.863466225063146e-13
	1.449996395707494e-22,4.724746951639853e-13
	1.422159292456884e-12,-8.207799359636154e-15
	-1.422159329611553e-04,-2.779202732980345e-13
	-1.422159315389960e-04,1.863466225063146e-13
	-1.449996395707494e-22,-4.724746951639853e-13
	-1.422159315389960e-04,1.863466225063146e-13
20		1.584893192461113e+00,0.000000000000000e+00
	-1.422159315389960e+00,1.906871929458988e-09
	1.000000000000000e+00,0.000000000000000e+00
	0.000000000000000e+00,0.000000000000000e+00
	1.422159315389960e-04,-1.906871929458988e-13
	1.518332620516225e-22,4.834800445912917e-13
	1.422159292456884e-12,-8.398983566762110e-15
	-1.422159329611553e-04,-2.843938680786308e-13
	-1.422159315389960e-04,1.906871929458988e-13
	-1.518332620516225e-22,-4.834800445912917e-13
	-1.422159315389960e-04,1.906871929458988e-13
21		1.621810097358929e+00,0.000000000000000e+00
	-1.422159315389960e+00,1.951288682592263e-09
	1.000000000000000e+00,0.000000000000000e+00
	0.000000000000000e+00,0.000000000000000e+00
	1.422159315389960e-04,-1.951288682592263e-13
	1.589889432379472e-22,4.947417415378552e-13
	1.422159292456884e-12,-8.594621026148845e-15
	-1.422159329611553e-04,-2.910182522524801e-13
	-1.422159315389960e-04,1.951288682592263e-13
	-1.589889432379472e-22,-4.947417415378552e-13
	-1.422159315389960e-04,1.951288682592263e-13
22		1.659586907437560e+00,0.000000000000000e+00
	-1.422159315389960e+00,1.996740034813407e-09
	1.000000000000000e+00,0.000000000000000e+00
	0.000000000000000e+00,0.000000000000000e+00
	1.422159315389960e-04,-1.996740034813407e-13
	1.664818612888986e-22,5.062657571044633e-13
	1.422159292456884e-12,-8.794815467366970e-15
	-1.422159329611553e-04,-2.977969381557557e-13
	-1.422159315389960e-04,1.996740034813407e-13
	-1.664818612888986e-22,-5.062657571044633e-13
	-1.422159315389960e-04,1.996740034813407e-13
23		1.698243652461743e+00,0.000000000000000e+00
	-1.422159315389960e+00,2.043250085030988e-09
	1.000000000000000e+00,0.000000000000000e+00
	0.000000000000000e+00,0.000000000000000e+00
	1.422159315389960e-04,-2.043250085030989e-13
	1.743279096882556e-22,5.180582014767077e-13
	1.422159292456884e-12,-8.999673036158924e-15
	-1.422159329611553e-04,-3.047335199374499e-13
	-1.422159315389960e-04,2.043250085030988e-13
	-1.743279096882556e-22,-5.180582014767077e-13
	-1.422159315389960e-04,2.043250085030988e-13
24		1.737800828749374e+00,0.000000000000000e+00
	-1.422159315389960e+00,2.090843493489265e-09
	1.000000000000000e+00,0.000000000000000e+00
	0.000000000000000e+00,0.000000000000000e+00
	1.422159315389960e-04,-2.090843493489266e-13
	1.825437309566114e-22,5.301253271646860e-13
	1.422159292456884e-12,-9.209302350719587e-15
	-1.422159329611553e-04,-3.118316754650399e-13
	-1.422159315389960e-04,2.090843493489265e-13
	-1.825437309566114e-22,-5.301253271646860e-13
	-1.422159315389960e-04,2.090843493489265e-13
25		1.778279410038922e+00,0.000000000000000e+00
	-1.422159315389960e+00,2.139545494843375e-09
	1.000000000000000e+00,0.000000000000000e+00
	0.000000000000000e+00,0.000000000000000e+00
	1.422159315389960e-04,-2.139545494843376e-13
	1.911467519523905e-22,5.424735323181653e-13
	1.422159292456884e-12,-9.423814559285980e-15
	-1.422159329611553e-04,-3.190951682745417e-13
	-1.422159315389960e-04,2.139545494843375e-13
	-1.911467519523905e-22,-5.424735323181653e-13
	-1.422159315389960e-04,2.139545494843375e-13
26		1.819700858609982e+00,0.000000000000000e+00
	-1.422159315389960e+00,2.189381911539084e-09
	1.000000000000000e+00,0.000000000000000e+00
	0.000000000000000e+00,0.000000000000000e+00
	1.422159315389960e-04,-2.189381911539085e-13
	2.001552208365521e-22,5.551093641189657e-13
	1.422159292456884e-12,-9.643323399070682e-15
	-1.422159329611553e-04,-3.265278495659865e-13
	-1.422159315389960e-04,2.189381911539084e-13
	-2.001552208365521e-22,-5.551093641189657e-13
	-1.422159315389960e-04,2.189381911539084e-13
27		1.862087136662866e+00,0.000000000000000e+00
	-1.422159315389960e+00,2.240379167504187e-09
	1.000000000000000e+00,0.000000000000000e+00
	0.000000000000000e+00,0.000000000000000e+00
	1.422159315389960e-04,-2.240379167504187e-13
	2.095882457793860e-22,5.680395222523631e-13
	1.422159292456884e-12,-9.867945256566089e-15
	-1.422159329611553e-04,-3.341336602453783e-13
	-1.422159315389960e-04,2.240379167504187e-13
	-2.095882457793860e-22,-5.680395222523631e-13
	-1.422159315389960e-04,2.240379167504187e-13
28		1.905460717963246e+00,0.000000000000000e+00
	-1.422159315389960e+00,2.292564302158824e-09
	1.000000000000000e+00,0.000000000000000e+00
	0.000000000000000e+00,0.000000000000000e+00
	1.422159315389960e-04,-2.292564302158825e-13
	2.194658354915035e-22,5.812708624593506e-13
	1.422159292456884e-12,-1.009779922925414e-14
	-1.422159329611553e-04,-3.419166330142140e-13
	-1.422159315389960e-04,2.292564302158825e-13
	-2.194658354915035e-22,-5.812708624593506e-13
	-1.422159315389960e-04,2.292564302158825e-13
29		1.949844599758044e+00,0.000000000000000e+00
	-1.422159315389960e+00,2.345964984752143e-09
	1.000000000000000e+00,0.000000000000000e+00
	0.000000000000000e+00,0.000000000000000e+00
	1.422159315389960e-04,-2.345964984752142e-13
	2.298089416649956e-22,5.948104001716436e-13
	1.422159292456884e-12,-1.033300718875385e-14
	-1.422159329611553e-04,-3.498808945076755e-13
	-1.422159315389960e-04,2.345964984752142e-13
	-2.298089416649956e-22,-5.948104001716436e-13
	-1.422159315389960e-04,2.345964984752142e-13
30		1.995262314968878e+00,0.000000000000000e+00
	-1.422159315389960e+00,2.400609529032894e-09
	1.000000000000000e+00,0.000000000000000e+00
	0.000000000000000e+00,0.000000000000000e+00
	1.422159315389960e-04,-2.400609529032894e-13
	2.406395034147808e-22,6.086653142313538e-13
	1.422159292456884e-12,-1.057369384543832e-14
	-1.422159329611553e-04,-3.580306674826261e-13
	-1.422159315389960e-04,2.400609529032894e-13
	-2.406395034147808e-22,-6.086653142313538e-13
	-1.422159315389960e-04,2.400609529032894e-13
31		2.041737944669527e+00,0.000000000000000e+00
	-1.422159315389960e+00,2.456526908261761e-09
	1.000000000000000e+00,0.000000000000000e+00
	0.000000000000000e+00,0.000000000000000e+00
	1.422159315389960e-04,-2.456526908261761e-13
	2.519804938144088e-22,6.228429506973075e-13
	1.422159292456884e-12,-1.081998681455923e-14
	-1.422159329611553e-04,-3.663702730565722e-13
	-1.422159315389960e-04,2.456526908261761e-13
	-2.519804938144088e-22,-6.228429506973075e-13
	-1.422159315389960e-04,2.456526908261761e-13
32		2.089296130854037e+00,0.000000000000000e+00
	-1.422159315389960e+00,2.513746770573367e-09
	1.000000000000000e+00,0.000000000000000e+00
	0.000000000000000e+00,0.000000000000000e+00
	1.422159315389960e-04,-2.513746770573367e-13
	2.638559686250305e-22,6.373508267400221e-13
	1.422159292456884e-12,-1.107201668390869e-14
	-1.422159329611553e-04,-3.749041329987767e-13
	-1.422159315389960e-04,2.513746770573367e-13
	-2.638559686250305e-22,-6.373508267400221e-13
	-1.422159315389960e-04,2.513746770573367e-13
33		2.137962089502230e+00,0.000000000000000e+00
	-1.422159315389960e+00,2.572299454696103e-09
	1.000000000000000e+00,0.000000000000000e+00
	0.000000000000000e+00,0.000000000000000e+00
	1.422159315389960e-04,-2.572299454696103e-13
	2.762911173208919e-22,6.521966346274096e-13
	1.422159292456884e-12,-1.132991708305928e-14
	-1.422159329611553e-04,-3.836367720747400e-13
	-1.422159315389960e-04,2.572299454696103e-13
	-2.762911173208919e-22,-6.521966346274096e-13
	-1.422159315389960e-04,2.572299454696103e-13
34		2.187761623949550e+00,0.000000000000000e+00
	-1.422159315389960e+00,2.632216006038128e-09
	1.000000000000000e+00,0.000000000000000e+00
	0.000000000000000e+00,0.000000000000000e+00
	1.422159315389960e-04,-2.632216006038127e-13
	2.893123165195862e-22,6.673882458033197e-13
	1.422159292456884e-12,-1.159382475421668e-14
	-1.422159329611553e-04,-3.925728204452903e-13
	-1.422159315389960e-04,2.632216006038127e-13
	-2.893123165195862e-22,-6.673882458033197e-13
	-1.422159315389960e-04,2.632216006038127e-13
35		2.238721138568337e+00,0.000000000000000e+00
	-1.422159315389960e+00,2.693528193148051e-09
	1.000000000000000e+00,0.000000000000000e+00
	0.000000000000000e+00,0.000000000000000e+00
	1.422159315389960e-04,-2.693528193148051e-13
	3.029471859303966e-22,6.829337150610824e-13
	1.422159292456884e-12,-1.186387962472089e-14
	-1.422159329611553e-04,-4.017170161215564e-13
	-1.422159315389960e-04,2.693528193148051e-13
	-3.029471859303966e-22,-6.829337150610824e-13
	-1.422159315389960e-04,2.693528193148051e-13
36		2.290867652767770e+00,0.000000000000000e+00
	-1.422159315389960e+00,2.756268524559042e-09
	1.000000000000000e+00,0.000000000000000e+00
	0.000000000000000e+00,0.000000000000000e+00
	1.422159315389960e-04,-2.756268524559042e-13
	3.172246469394020e-22,6.988412848142669e-13
	1.422159292456884e-12,-1.214022488123947e-14
	-1.422159329611553e-04,-4.110742074771233e-13
	-1.422159315389960e-04,2.756268524559042e-13
	-3.172246469394020e-22,-6.988412848142669e-13
	-1.422159315389960e-04,2.756268524559042e-13
37		2.344228815319919e+00,0.000000000000000e+00
	-1.422159315389960e+00,2.820470266025281e-09
	1.000000000000000e+00,0.000000000000000e+00
	0.000000000000000e+00,0.000000000000000e+00
	1.422159315389960e-04,-2.820470266025281e-13
	3.321749839556153e-22,7.151193894669179e-13
	1.422159292456884e-12,-1.242300704568472e-14
	-1.422159329611553e-04,-4.206493558187050e-13
	-1.422159315389960e-04,2.820470266025281e-13
	-3.321749839556153e-22,-7.151193894669179e-13
	-1.422159315389960e-04,2.820470266025281e-13
38		2.398832919019488e+00,0.000000000000000e+00
	-1.422159315389960e+00,2.886167458159905e-09
	1.000000000000000e+00,0.000000000000000e+00
