Title: * GA CMOS Amp | W=1.5493948364455068e-06 L=6.182237355423474e-07 Vbias=1.4892410995967975
Date: Sat Sep  6 22:09:26 2025
Plotname: AC Analysis
Flags: complex forward log
No. Variables: 13
No. Points:          901
Offset:    0.0000000000000000e+00
Command: Linear Technology Corporation LTspice
Variables:
	0	frequency	frequency
	1	V(out)	voltage
	2	V(g)	voltage
	3	V(vdd)	voltage
	4	V(m1#dbody)	voltage
	5	V(m1#sbody)	voltage
	6	Id(M1)	device_current
	7	Ig(M1)	device_current
	8	Ib(M1)	device_current
	9	Is(M1)	device_current
	10	I(Rload)	device_current
	11	I(Vg)	device_current
	12	I(Vdd)	device_current
Values:
0		1.000000000000000e+00,0.000000000000000e+00
	-3.034779780453576e-01,6.147602196710185e-10
	1.000000000000000e+00,0.000000000000000e+00
	0.000000000000000e+00,0.000000000000000e+00
	3.093259513365505e-05,5.785310160740397e-14
	3.093259740973835e-05,6.700441748871262e-14
	3.034779780453577e-05,-6.147602196710184e-14
	1.856740382054543e-05,2.191726321102813e-13
	-1.649738514592135e-05,-3.512632434813800e-14
	-3.241781647915985e-05,-1.225702857950415e-13
	-3.034779780453577e-05,6.147602196710185e-14
	-1.856740382066846e-05,-2.191726321102813e-13
	-3.034779780453577e-05,6.147602196710185e-14
1		1.023292992280754e+00,0.000000000000000e+00
	-3.034779780453576e-01,6.290798247223303e-10
	1.000000000000000e+00,0.000000000000000e+00
	0.000000000000000e+00,0.000000000000000e+00
	3.093259513365505e-05,5.920067345656294e-14
	3.093259740973835e-05,6.856515086805364e-14
	3.034779780453577e-05,-6.290798247223303e-14
	1.856740382054543e-05,2.242778185381787e-13
	-1.649738514592135e-05,-3.594452155003045e-14
	-3.241781647915985e-05,-1.254253145159152e-13
	-3.034779780453577e-05,6.290798247223303e-14
	-1.856740382066846e-05,-2.242778185381787e-13
	-3.034779780453577e-05,6.290798247223303e-14
2		1.047128548050899e+00,0.000000000000000e+00
	-3.034779780453576e-01,6.437329762235656e-10
	1.000000000000000e+00,0.000000000000000e+00
	0.000000000000000e+00,0.000000000000000e+00
	3.093259513365505e-05,6.057963428640206e-14
	3.093259740973835e-05,7.016223839795192e-14
	3.034779780453577e-05,-6.437329762235656e-14
	1.856740382054543e-05,2.295019200341329e-13
	-1.649738514592135e-05,-3.678177701303069e-14
	-3.241781647915985e-05,-1.283468453987456e-13
	-3.034779780453577e-05,6.437329762235656e-14
	-1.856740382066846e-05,-2.295019200341329e-13
	-3.034779780453577e-05,6.437329762235656e-14
3		1.071519305237606e+00,0.000000000000000e+00
	-3.034779780453576e-01,6.587274434696080e-10
	1.000000000000000e+00,0.000000000000000e+00
	0.000000000000000e+00,0.000000000000000e+00
	3.093259513365505e-05,6.199071524020614e-14
	3.093259740973835e-05,7.179652687535584e-14
	3.034779780453577e-05,-6.587274434696078e-14
	1.856740382054543e-05,2.348477064859061e-13
	-1.649738514592135e-05,-3.763853466106764e-14
	-3.241781647915985e-05,-1.313364274778777e-13
	-3.034779780453577e-05,6.587274434696080e-14
	-1.856740382066846e-05,-2.348477064859061e-13
	-3.034779780453577e-05,6.587274434696080e-14
4		1.096478196143185e+00,0.000000000000000e+00
	-3.034779780453576e-01,6.740711767254663e-10
	1.000000000000000e+00,0.000000000000000e+00
	0.000000000000000e+00,0.000000000000000e+00
	3.093259513365505e-05,6.343466449177468e-14
	3.093259740973835e-05,7.346888282164845e-14
	3.034779780453577e-05,-6.740711767254663e-14
	1.856740382054543e-05,2.403180123002351e-13
	-1.649738514592135e-05,-3.851524875838678e-14
	-3.241781647915985e-05,-1.343956458693017e-13
	-3.034779780453577e-05,6.740711767254663e-14
	-1.856740382066846e-05,-2.403180123002351e-13
	-3.034779780453577e-05,6.740711767254663e-14
5		1.122018454301963e+00,0.000000000000000e+00
	-3.034779780453576e-01,6.897723114416114e-10
	1.000000000000000e+00,0.000000000000000e+00
	0.000000000000000e+00,0.000000000000000e+00
	3.093259513365505e-05,6.491224764211385e-14
	3.093259740973835e-05,7.518019294208879e-14
	3.034779780453577e-05,-6.897723114416115e-14
	1.856740382054543e-05,2.459157379056707e-13
	-1.649738514592135e-05,-3.941238415040722e-14
	-3.241781647915985e-05,-1.375261226111023e-13
	-3.034779780453577e-05,6.897723114416115e-14
	-1.856740382066846e-05,-2.459157379056707e-13
	-3.034779780453577e-05,6.897723114416115e-14
6		1.148153621496882e+00,0.000000000000000e+00
	-3.034779780453576e-01,7.058391725674989e-10
	1.000000000000000e+00,0.000000000000000e+00
	0.000000000000000e+00,0.000000000000000e+00
	3.093259513365505e-05,6.642424812536799e-14
	3.093259740973835e-05,7.693136459595445e-14
	3.034779780453577e-05,-7.058391725674989e-14
	1.856740382054543e-05,2.516438512904234e-13
	-1.649738514592135e-05,-4.033041651018876e-14
	-3.241781647915985e-05,-1.407295175234848e-13
	-3.034779780453577e-05,7.058391725674989e-14
	-1.856740382066846e-05,-2.516438512904234e-13
	-3.034779780453577e-05,7.058391725674989e-14
7		1.174897554939529e+00,0.000000000000000e+00
	-3.034779780453576e-01,7.222802789655675e-10
	1.000000000000000e+00,0.000000000000000e+00
	0.000000000000000e+00,0.000000000000000e+00
	3.093259513365505e-05,6.797146762420709e-14
	3.093259740973835e-05,7.872332627763590e-14
	3.034779780453577e-05,-7.222802789655675e-14
	1.856740382054543e-05,2.575053895760305e-13
	-1.649738514592135e-05,-4.126983259064019e-14
	-3.241781647915985e-05,-1.440075290888336e-13
	-3.034779780453577e-05,7.222802789655676e-14
	-1.856740382066846e-05,-2.575053895760305e-13
	-3.034779780453577e-05,7.222802789655676e-14
8		1.202264434617413e+00,0.000000000000000e+00
	-3.034779780453576e-01,7.391043479280534e-10
	1.000000000000000e+00,0.000000000000000e+00
	0.000000000000000e+00,0.000000000000000e+00
	3.093259513365505e-05,6.955472649488928e-14
	3.093259740973835e-05,8.055702810893615e-14
	3.034779780453577e-05,-7.391043479280534e-14
	1.856740382054543e-05,2.635034606276776e-13
	-1.649738514592135e-05,-4.223113048260200e-14
	-3.241781647915985e-05,-1.473618953522702e-13
	-3.034779780453577e-05,7.391043479280534e-14
	-1.856740382066846e-05,-2.635034606276776e-13
	-3.034779780453577e-05,7.391043479280534e-14
9		1.230268770812381e+00,0.000000000000000e+00
	-3.034779780453576e-01,7.563202997990133e-10
	1.000000000000000e+00,0.000000000000000e+00
	0.000000000000000e+00,0.000000000000000e+00
	3.093259513365505e-05,7.117486420222468e-14
	3.093259740973835e-05,8.243344234283809e-14
	3.034779780453577e-05,-7.563202997990134e-14
	1.856740382054543e-05,2.696412447020301e-13
	-1.649738514592135e-05,-4.321481987894076e-14
	-3.241781647915985e-05,-1.507943948431880e-13
	-3.034779780453577e-05,7.563202997990134e-14
	-1.856740382066846e-05,-2.696412447020300e-13
	-3.034779780453577e-05,7.563202997990134e-14
10		1.258925411794167e+00,0.000000000000000e+00
	-3.034779780453576e-01,7.739372627040095e-10
	1.000000000000000e+00,0.000000000000000e+00
	0.000000000000000e+00,0.000000000000000e+00
	3.093259513365505e-05,7.283273976467083e-14
	3.093259740973835e-05,8.435356387900582e-14
	3.034779780453577e-05,-7.739372627040093e-14
	1.856740382054543e-05,2.759219961334474e-13
	-1.649738514592135e-05,-4.422142234479511e-14
	-3.241781647915985e-05,-1.543068475182513e-13
	-3.034779780453577e-05,7.739372627040095e-14
	-1.856740382066846e-05,-2.759219961334474e-13
	-3.034779780453577e-05,7.739372627040095e-14
11		1.288249551693134e+00,0.000000000000000e+00
	-3.034779780453576e-01,7.919645773899620e-10
	1.000000000000000e+00,0.000000000000000e+00
	0.000000000000000e+00,0.000000000000000e+00
	3.093259513365505e-05,7.452923220979547e-14
	3.093259740973835e-05,8.631841079129360e-14
	3.034779780453577e-05,-7.919645773899619e-14
	1.856740382054543e-05,2.823490450594741e-13
	-1.649738514592135e-05,-4.525147159411639e-14
	-3.241781647915985e-05,-1.579011157263615e-13
	-3.034779780453577e-05,7.919645773899621e-14
	-1.856740382066846e-05,-2.823490450594741e-13
	-3.034779780453577e-05,7.919645773899621e-14
12		1.318256738556407e+00,0.000000000000000e+00
	-3.034779780453576e-01,8.104118021777371e-10
	1.000000000000000e+00,0.000000000000000e+00
	0.000000000000000e+00,0.000000000000000e+00
	3.093259513365505e-05,7.626524104034878e-14
	3.093259740973835e-05,8.832902486754217e-14
	3.034779780453577e-05,-8.104118021777370e-14
	1.856740382054543e-05,2.889257991865227e-13
	-1.649738514592135e-05,-4.630551377265091e-14
	-3.241781647915985e-05,-1.615791051960981e-13
	-3.034779780453577e-05,8.104118021777371e-14
	-1.856740382066846e-05,-2.889257991865227e-13
	-3.034779780453577e-05,8.104118021777371e-14
13		1.348962882591653e+00,0.000000000000000e+00
	-3.034779780453576e-01,8.292887180300949e-10
	1.000000000000000e+00,0.000000000000000e+00
	0.000000000000000e+00,0.000000000000000e+00
	3.093259513365505e-05,7.804168671119145e-14
	3.093259740973835e-05,9.038647216194835e-14
	3.034779780453577e-05,-8.292887180300950e-14
	1.856740382054543e-05,2.956557455966851e-13
	-1.649738514592135e-05,-4.738410774751361e-14
	-3.241781647915985e-05,-1.653427660461619e-13
	-3.034779780453577e-05,8.292887180300950e-14
	-1.856740382066846e-05,-2.956557455966851e-13
	-3.034779780453577e-05,8.292887180300950e-14
14		1.380384264602885e+00,0.000000000000000e+00
	-3.034779780453576e-01,8.486053337376867e-10
	1.000000000000000e+00,0.000000000000000e+00
	0.000000000000000e+00,0.000000000000000e+00
	3.093259513365505e-05,7.985951111733231e-14
	3.093259740973835e-05,9.249184356030124e-14
	3.034779780453577e-05,-8.486053337376867e-14
	1.856740382054543e-05,3.025424525966292e-13
	-1.649738514592135e-05,-4.848782540350688e-14
	-3.241781647915985e-05,-1.691940938193537e-13
	-3.034779780453577e-05,8.486053337376867e-14
	-1.856740382066846e-05,-3.025424525966293e-13
	-3.034779780453577e-05,8.486053337376867e-14
15		1.412537544622754e+00,0.000000000000000e+00
	-3.034779780453576e-01,8.683718912258452e-10
	1.000000000000000e+00,0.000000000000000e+00
	0.000000000000000e+00,0.000000000000000e+00
	3.093259513365505e-05,8.171967809333312e-14
	3.093259740973835e-05,9.464625535838405e-14
	3.034779780453577e-05,-8.683718912258454e-14
	1.856740382054543e-05,3.095895716095630e-13
	-1.649738514592135e-05,-4.961725194634132e-14
	-3.241781647915985e-05,-1.731351305406371e-13
	-3.034779780453577e-05,8.683718912258452e-14
	-1.856740382066846e-05,-3.095895716095629e-13
	-3.034779780453577e-05,8.683718912258452e-14
16		1.445439770745927e+00,0.000000000000000e+00
	-3.034779780453576e-01,8.885988709849927e-10
	1.000000000000000e+00,0.000000000000000e+00
	0.000000000000000e+00,0.000000000000000e+00
	3.093259513365505e-05,8.362317392434682e-14
	3.093259740973835e-05,9.685084985384914e-14
	3.034779780453577e-05,-8.885988709849927e-14
	1.856740382054543e-05,3.168008391112664e-13
	-1.649738514592135e-05,-5.077298621291967e-14
	-3.241781647915985e-05,-1.771679657998475e-13
	-3.034779780453577e-05,8.885988709849927e-14
	-1.856740382066846e-05,-3.168008391112665e-13
	-3.034779780453577e-05,8.885988709849927e-14
17		1.479108388168207e+00,0.000000000000000e+00
	-3.034779780453576e-01,9.092969976275329e-10
	1.000000000000000e+00,0.000000000000000e+00
	0.000000000000000e+00,0.000000000000000e+00
	3.093259513365505e-05,8.557100786905877e-14
	3.093259740973835e-05,9.910679595187932e-14
	3.034779780453577e-05,-9.092969976275328e-14
	1.856740382054543e-05,3.241800786112215e-13
	-1.649738514592135e-05,-5.195564098884803e-14
	-3.241781647915985e-05,-1.812947378596203e-13
	-3.034779780453577e-05,9.092969976275330e-14
	-1.856740382066846e-05,-3.241800786112216e-13
	-3.034779780453577e-05,9.092969976275330e-14
18		1.513561248436208e+00,0.000000000000000e+00
	-3.034779780453576e-01,9.304772455741840e-10
	1.000000000000000e+00,0.000000000000000e+00
	0.000000000000000e+00,0.000000000000000e+00
	3.093259513365505e-05,8.756421269480912e-14
	3.093259740973835e-05,1.014152897849567e-13
	3.034779780453577e-05,-9.304772455741840e-14
	1.856740382054543e-05,3.317312026798871e-13
	-1.649738514592135e-05,-5.316584333334291e-14
	-3.241781647915985e-05,-1.855176347891258e-13
	-3.034779780453577e-05,9.304772455741840e-14
	-1.856740382066846e-05,-3.317312026798870e-13
	-3.034779780453577e-05,9.304772455741840e-14
19		1.548816618912481e+00,0.000000000000000e+00
	-3.034779780453576e-01,9.521508448727608e-10
	1.000000000000000e+00,0.000000000000000e+00
	0.000000000000000e+00,0.000000000000000e+00
	3.093259513365505e-05,8.960384522517963e-14
	3.093259740973835e-05,1.037775553470682e-13
	3.034779780453577e-05,-9.521508448727611e-14
	1.856740382054543e-05,3.394582150231950e-13
	-1.649738514592135e-05,-5.440423491170625e-14
	-3.241781647915985e-05,-1.898388956242126e-13
	-3.034779780453577e-05,9.521508448727609e-14
	-1.856740382066846e-05,-3.394582150231949e-13
	-3.034779780453577e-05,9.521508448727609e-14
20		1.584893192461113e+00,0.000000000000000e+00
	-3.034779780453576e-01,9.743292871524955e-10
	1.000000000000000e+00,0.000000000000000e+00
	0.000000000000000e+00,0.000000000000000e+00
	3.093259513365505e-05,9.169098690033562e-14
	3.093259740973835e-05,1.061948451426830e-13
	3.034779780453577e-05,-9.743292871524954e-14
	1.856740382054543e-05,3.473652126053688e-13
	-1.649738514592135e-05,-5.567147233554495e-14
	-3.241781647915985e-05,-1.942608115545743e-13
	-3.034779780453577e-05,9.743292871524955e-14
	-1.856740382066846e-05,-3.473652126053687e-13
	-3.034779780453577e-05,9.743292871524955e-14
21		1.621810097358929e+00,0.000000000000000e+00
	-3.034779780453576e-01,9.970243317170510e-10
	1.000000000000000e+00,0.000000000000000e+00
	0.000000000000000e+00,0.000000000000000e+00
	3.093259513365505e-05,9.382674435041984e-14
	3.093259740973835e-05,1.086684408508473e-13
	3.034779780453577e-05,-9.970243317170512e-14
	1.856740382054543e-05,3.554563878211881e-13
	-1.649738514592135e-05,-5.696822751091500e-14
	-3.241781647915985e-05,-1.987857271385680e-13
	-3.034779780453577e-05,9.970243317170510e-14
	-1.856740382066846e-05,-3.554563878211882e-13
	-3.034779780453577e-05,9.970243317170510e-14
22		1.659586907437560e+00,0.000000000000000e+00
	-3.034779780453576e-01,1.020248011779460e-09
	1.000000000000000e+00,0.000000000000000e+00
	0.000000000000000e+00,0.000000000000000e+00
	3.093259513365505e-05,9.601224998230249e-14
	3.093259740973835e-05,1.111996540047477e-13
	3.034779780453577e-05,-1.020248011779460e-13
	1.856740382054543e-05,3.637360307188519e-13
	-1.649738514592135e-05,-5.829518799457502e-14
	-3.241781647915985e-05,-2.034160415463308e-13
	-3.034779780453577e-05,1.020248011779460e-13
	-1.856740382066846e-05,-3.637360307188519e-13
	-3.034779780453577e-05,1.020248011779460e-13
23		1.698243652461743e+00,0.000000000000000e+00
	-3.034779780453576e-01,1.044012640842294e-09
	1.000000000000000e+00,0.000000000000000e+00
	0.000000000000000e+00,0.000000000000000e+00
	3.093259513365505e-05,9.824866257999805e-14
	3.093259740973835e-05,1.137898266871028e-13
	3.034779780453577e-05,-1.044012640842294e-13
	1.856740382054543e-05,3.722085312746182e-13
	-1.649738514592135e-05,-5.965305735853774e-14
	-3.241781647915985e-05,-2.081542098318510e-13
	-3.034779780453577e-05,1.044012640842294e-13
	-1.856740382066846e-05,-3.722085312746182e-13
	-3.034779780453577e-05,1.044012640842294e-13
24		1.737800828749374e+00,0.000000000000000e+00
	-3.034779780453576e-01,1.068330819226443e-09
	1.000000000000000e+00,0.000000000000000e+00
	0.000000000000000e+00,0.000000000000000e+00
	3.093259513365505e-05,1.005371679190684e-13
	3.093259740973835e-05,1.164403322417539e-13
	3.034779780453577e-05,-1.068330819226443e-13
	1.856740382054543e-05,3.808783817204286e-13
	-1.649738514592135e-05,-6.104255556311354e-14
	-3.241781647915985e-05,-2.130027442346708e-13
	-3.034779780453577e-05,1.068330819226443e-13
	-1.856740382066846e-05,-3.808783817204287e-13
	-3.034779780453577e-05,1.068330819226443e-13
25		1.778279410038922e+00,0.000000000000000e+00
	-3.034779780453576e-01,1.093215440751976e-09
	1.000000000000000e+00,0.000000000000000e+00
	0.000000000000000e+00,0.000000000000000e+00
	3.093259513365505e-05,1.028789793953361e-13
	3.093259740973835e-05,1.191525760018295e-13
	3.034779780453577e-05,-1.093215440751976e-13
	1.856740382054543e-05,3.897501789257487e-13
	-1.649738514592135e-05,-6.246441933864264e-14
	-3.241781647915985e-05,-2.179642155119084e-13
	-3.034779780453577e-05,1.093215440751976e-13
	-1.856740382066846e-05,-3.897501789257486e-13
	-3.034779780453577e-05,1.093215440751976e-13
26		1.819700858609982e+00,0.000000000000000e+00
	-3.034779780453576e-01,1.118679699574613e-09
	1.000000000000000e+00,0.000000000000000e+00
	0.000000000000000e+00,0.000000000000000e+00
	3.093259513365505e-05,1.052753386682435e-13
	3.093259740973835e-05,1.219279960348720e-13
	3.034779780453577e-05,-1.118679699574613e-13
	1.856740382054543e-05,3.988286268348886e-13
	-1.649738514592135e-05,-6.391940257611942e-14
	-3.241781647915985e-05,-2.230412543013079e-13
	-3.034779780453577e-05,1.118679699574614e-13
	-1.856740382066846e-05,-3.988286268348886e-13
	-3.034779780453577e-05,1.118679699574614e-13
27		1.862087136662866e+00,0.000000000000000e+00
	-3.034779780453576e-01,1.144737097181441e-09
	1.000000000000000e+00,0.000000000000000e+00
	0.000000000000000e+00,0.000000000000000e+00
	3.093259513365505e-05,1.077275163191967e-13
	3.093259740973835e-05,1.247680639053201e-13
	3.034779780453577e-05,-1.144737097181441e-13
	1.856740382054543e-05,4.081185389610975e-13
	-1.649738514592135e-05,-6.540827672691539e-14
	-3.241781647915985e-05,-2.282365525160380e-13
	-3.034779780453577e-05,1.144737097181442e-13
	-1.856740382066846e-05,-4.081185389610975e-13
	-3.034779780453577e-05,1.144737097181442e-13
28		1.905460717963246e+00,0.000000000000000e+00
	-3.034779780453576e-01,1.171401449549582e-09
	1.000000000000000e+00,0.000000000000000e+00
	0.000000000000000e+00,0.000000000000000e+00
	3.093259513365505e-05,1.102368125252446e-13
	3.093259740973835e-05,1.276742854547514e-13
	3.034779780453577e-05,-1.171401449549581e-13
	1.856740382054543e-05,4.176248409387510e-13
	-1.649738514592135e-05,-6.693183121181288e-14
	-3.241781647915985e-05,-2.335528647719800e-13
	-3.034779780453577e-05,1.171401449549582e-13
	-1.856740382066846e-05,-4.176248409387510e-13
	-3.034779780453577e-05,1.171401449549582e-13
29		1.949844599758044e+00,0.000000000000000e+00
	-3.034779780453576e-01,1.198686894471604e-09
	1.000000000000000e+00,0.000000000000000e+00
	0.000000000000000e+00,0.000000000000000e+00
	3.093259513365505e-05,1.128045577484501e-13
	3.093259740973835e-05,1.306482016002997e-13
	3.034779780453577e-05,-1.198686894471604e-13
	1.856740382054543e-05,4.273525731349885e-13
	-1.649738514592135e-05,-6.849087383956638e-14
	-3.241781647915985e-05,-2.389930098482618e-13
	-3.034779780453577e-05,1.198686894471604e-13
	-1.856740382066846e-05,-4.273525731349885e-13
	-3.034779780453577e-05,1.198686894471604e-13
30		1.995262314968878e+00,0.000000000000000e+00
	-3.034779780453576e-01,1.226607899051572e-09
	1.000000000000000e+00,0.000000000000000e+00
	0.000000000000000e+00,0.000000000000000e+00
	3.093259513365505e-05,1.154321134413186e-13
	3.093259740973835e-05,1.336913891516699e-13
	3.034779780453577e-05,-1.226607899051572e-13
	1.856740382054543e-05,4.373068933221822e-13
	-1.649738514592135e-05,-7.008623123521349e-14
	-3.241781647915985e-05,-2.445598721818115e-13
	-3.034779780453577e-05,1.226607899051572e-13
	-1.856740382066846e-05,-4.373068933221821e-13
	-3.034779780453577e-05,1.226607899051572e-13
31		2.041737944669527e+00,0.000000000000000e+00
	-3.034779780453576e-01,1.255179267375692e-09
	1.000000000000000e+00,0.000000000000000e+00
	0.000000000000000e+00,0.000000000000000e+00
	3.093259513365505e-05,1.181208727686583e-13
	3.093259740973835e-05,1.368054616471830e-13
	3.034779780453577e-05,-1.255179267375692e-13
	1.856740382054543e-05,4.474930794126563e-13
	-1.649738514592135e-05,-7.171874927836246e-14
	-3.241781647915985e-05,-2.502564033967246e-13
	-3.034779780453577e-05,1.255179267375693e-13
	-1.856740382066846e-05,-4.474930794126563e-13
	-3.034779780453577e-05,1.255179267375693e-13
32		2.089296130854037e+00,0.000000000000000e+00
	-3.034779780453576e-01,1.284416148361637e-09
	1.000000000000000e+00,0.000000000000000e+00
	0.000000000000000e+00,0.000000000000000e+00
	3.093259513365505e-05,1.208722613462546e-13
