Title: * GA CMOS Amp | W=9.14847411454924e-06 L=9.48806149089698e-07 Vbias=0.5472518141385732
Date: Mon Sep  8 18:45:43 2025
Plotname: AC Analysis
Flags: complex forward log
No. Variables: 11
No. Points:          901
Offset:    0.0000000000000000e+00
Command: Linear Technology Corporation LTspice
Variables:
	0	frequency	frequency
	1	V(out)	voltage
	2	V(g)	voltage
	3	V(vdd)	voltage
	4	Id(M1)	device_current
	5	Ig(M1)	device_current
	6	Ib(M1)	device_current
	7	Is(M1)	device_current
	8	I(Rload)	device_current
	9	I(Vg)	device_current
	10	I(Vdd)	device_current
Values:
0		1.000000000000000e+00,0.000000000000000e+00
	-3.090488968014123e-03,1.153172507102508e-10
	1.000000000000000e+00,0.000000000000000e+00
	0.000000000000000e+00,0.000000000000000e+00
	3.090488968014123e-07,-1.153172507102508e-14
	1.325723050241142e-24,7.498896634370858e-14
	3.090489017093691e-15,-2.416782443182886e-15
	-3.090488998919013e-07,-6.104045882950061e-14
	-3.090488968014124e-07,1.153172507102508e-14
	-1.325723050241142e-24,-7.498896634370859e-14
	-3.090488968014124e-07,1.153172507102508e-14
1		1.023292992280754e+00,0.000000000000000e+00
	-3.090488968014123e-03,1.180033345408824e-10
	1.000000000000000e+00,0.000000000000000e+00
	0.000000000000000e+00,0.000000000000000e+00
	3.090488968014123e-07,-1.180033345408824e-14
	1.388202452716617e-24,7.673568375789433e-14
	3.090489017093691e-15,-2.473076537976222e-15
	-3.090488998919013e-07,-6.246227376582986e-14
	-3.090488968014124e-07,1.180033345408825e-14
	-1.388202452716617e-24,-7.673568375789433e-14
	-3.090488968014124e-07,1.180033345408825e-14
2		1.047128548050899e+00,0.000000000000000e+00
	-3.090488968014123e-03,1.207519853014464e-10
	1.000000000000000e+00,0.000000000000000e+00
	0.000000000000000e+00,0.000000000000000e+00
	3.090488968014123e-07,-1.207519853014464e-14
	1.453626418713848e-24,7.852308744732534e-14
	3.090489017093691e-15,-2.530681890685004e-15
	-3.090488998919013e-07,-6.391720702649569e-14
	-3.090488968014124e-07,1.207519853014464e-14
	-1.453626418713848e-24,-7.852308744732535e-14
	-3.090488968014124e-07,1.207519853014464e-14
3		1.071519305237606e+00,0.000000000000000e+00
	-3.090488968014123e-03,1.235646603629588e-10
	1.000000000000000e+00,0.000000000000000e+00
	0.000000000000000e+00,0.000000000000000e+00
	3.090488968014123e-07,-1.235646603629588e-14
	1.522133721236260e-24,8.035212511709686e-14
	3.090489017093691e-15,-2.589629044429779e-15
	-3.090488998919013e-07,-6.540603003637120e-14
	-3.090488968014124e-07,1.235646603629588e-14
	-1.522133721236260e-24,-8.035212511709687e-14
	-3.090488968014124e-07,1.235646603629588e-14
4		1.096478196143185e+00,0.000000000000000e+00
	-3.090488968014123e-03,1.264428510429672e-10
	1.000000000000000e+00,0.000000000000000e+00
	0.000000000000000e+00,0.000000000000000e+00
	3.090488968014123e-07,-1.264428510429671e-14
	1.593869673457437e-24,8.222376654719157e-14
	3.090489017093691e-15,-2.649949253771692e-15
	-3.090488998919013e-07,-6.692953218912316e-14
	-3.090488968014124e-07,1.264428510429672e-14
	-1.593869673457437e-24,-8.222376654719158e-14
	-3.090488968014124e-07,1.264428510429672e-14
5		1.122018454301963e+00,0.000000000000000e+00
	-3.090488968014123e-03,1.293880833962676e-10
	1.000000000000000e+00,0.000000000000000e+00
	0.000000000000000e+00,0.000000000000000e+00
	3.090488968014123e-07,-1.293880833962675e-14
	1.668986436949848e-24,8.413900410666985e-14
	3.090489017093691e-15,-2.711674501284180e-15
	-3.090488998919013e-07,-6.848852126575891e-14
	-3.090488968014124e-07,1.293880833962676e-14
	-1.668986436949848e-24,-8.413900410666986e-14
	-3.090488968014124e-07,1.293880833962676e-14
6		1.148153621496882e+00,0.000000000000000e+00
	-3.090488968014123e-03,1.324019190240384e-10
	1.000000000000000e+00,0.000000000000000e+00
	0.000000000000000e+00,0.000000000000000e+00
	3.090488968014123e-07,-1.324019190240384e-14
	1.747643344439938e-24,8.609885327983685e-14
	3.090489017093691e-15,-2.774837514510522e-15
	-3.090488998919013e-07,-7.008382386292249e-14
	-3.090488968014124e-07,1.324019190240384e-14
	-1.747643344439938e-24,-8.609885327983685e-14
	-3.090488968014124e-07,1.324019190240384e-14
7		1.174897554939529e+00,0.000000000000000e+00
	-3.090488968014123e-03,1.354859559018223e-10
	1.000000000000000e+00,0.000000000000000e+00
	0.000000000000000e+00,0.000000000000000e+00
	3.090488968014123e-07,-1.354859559018223e-14
	1.830007237774210e-24,8.810435320466585e-14
	3.090489017093691e-15,-2.839471783316353e-15
	-3.090488998919013e-07,-7.171628583116727e-14
	-3.090488968014124e-07,1.354859559018223e-14
	-1.830007237774210e-24,-8.810435320466586e-14
	-3.090488968014124e-07,1.354859559018223e-14
8		1.202264434617413e+00,0.000000000000000e+00
	-3.090488968014123e-03,1.386418292267941e-10
	1.000000000000000e+00,0.000000000000000e+00
	0.000000000000000e+00,0.000000000000000e+00
	3.090488968014123e-07,-1.386418292267941e-14
	1.916252821813147e-24,9.015656722376298e-14
	3.090489017093691e-15,-2.905611577646572e-15
	-3.090488998919013e-07,-7.338677272343700e-14
	-3.090488968014124e-07,1.386418292267941e-14
	-1.916252821813147e-24,-9.015656722376299e-14
	-3.090488968014124e-07,1.386418292267941e-14
9		1.230268770812381e+00,0.000000000000000e+00
	-3.090488968014123e-03,1.418712122847634e-10
	1.000000000000000e+00,0.000000000000000e+00
	0.000000000000000e+00,0.000000000000000e+00
	3.090488968014123e-07,-1.418712122847634e-14
	2.006563035003639e-24,9.225658344816538e-14
	3.090489017093691e-15,-2.973291965695567e-15
	-3.090488998919013e-07,-7.509617025399347e-14
	-3.090488968014124e-07,1.418712122847634e-14
	-2.006563035003639e-24,-9.225658344816539e-14
	-3.090488968014124e-07,1.418712122847634e-14
10		1.258925411794167e+00,0.000000000000000e+00
	-3.090488968014123e-03,1.451758173373736e-10
	1.000000000000000e+00,0.000000000000000e+00
	0.000000000000000e+00,0.000000000000000e+00
	3.090488968014123e-07,-1.451758173373737e-14
	2.101129437415967e-24,9.440551533427225e-14
	3.090489017093691e-15,-3.042548832500937e-15
	-3.090488998919013e-07,-7.684538476803395e-14
	-3.090488968014124e-07,1.451758173373737e-14
	-2.101129437415967e-24,-9.440551533427227e-14
	-3.090488968014124e-07,1.451758173373737e-14
11		1.288249551693134e+00,0.000000000000000e+00
	-3.090488968014123e-03,1.485573965299653e-10
	1.000000000000000e+00,0.000000000000000e+00
	0.000000000000000e+00,0.000000000000000e+00
	3.090488968014123e-07,-1.485573965299653e-14
	2.200152617068386e-24,9.660450227421407e-14
	3.090489017093691e-15,-3.113418898970191e-15
	-3.090488998919013e-07,-7.863534372224735e-14
	-3.090488968014124e-07,1.485573965299653e-14
	-2.200152617068386e-24,-9.660450227421408e-14
	-3.090488968014124e-07,1.485573965299653e-14
12		1.318256738556407e+00,0.000000000000000e+00
	-3.090488968014123e-03,1.520177428205867e-10
	1.000000000000000e+00,0.000000000000000e+00
	0.000000000000000e+00,0.000000000000000e+00
	3.090488968014123e-07,-1.520177428205867e-14
	2.303842615401205e-24,9.885471019997344e-14
	3.090489017093691e-15,-3.185939741350662e-15
	-3.090488998919013e-07,-8.046699617656410e-14
	-3.090488968014124e-07,1.520177428205867e-14
	-2.303842615401205e-24,-9.885471019997345e-14
	-3.090488968014124e-07,1.520177428205867e-14
13		1.348962882591653e+00,0.000000000000000e+00
	-3.090488968014123e-03,1.555586909306443e-10
	1.000000000000000e+00,0.000000000000000e+00
	0.000000000000000e+00,0.000000000000000e+00
	3.090488968014123e-07,-1.555586909306443e-14
	2.412419372802851e-24,1.011573322015776e-13
	3.090489017093691e-15,-3.260149811152895e-15
	-3.090488998919013e-07,-8.234131329736029e-14
	-3.090488968014124e-07,1.555586909306443e-14
	-2.412419372802851e-24,-1.011573322015776e-13
	-3.090488968014124e-07,1.555586909306443e-14
14		1.380384264602885e+00,0.000000000000000e+00
	-3.090488968014123e-03,1.591821183176960e-10
	1.000000000000000e+00,0.000000000000000e+00
	0.000000000000000e+00,0.000000000000000e+00
	3.090488968014123e-07,-1.591821183176960e-14
	2.526113195132912e-24,1.035135891596906e-13
	3.090489017093691e-15,-3.336088455538173e-15
	-3.090488998919013e-07,-8.425928887238286e-14
	-3.090488968014124e-07,1.591821183176960e-14
	-2.526113195132912e-24,-1.035135891596906e-13
	-3.090488968014124e-07,1.591821183176960e-14
15		1.412537544622754e+00,0.000000000000000e+00
	-3.090488968014123e-03,1.628899461709042e-10
	1.000000000000000e+00,0.000000000000000e+00
	0.000000000000000e+00,0.000000000000000e+00
	3.090488968014123e-07,-1.628899461709042e-14
	2.645165242231744e-24,1.059247303929405e-13
	3.090489017093691e-15,-3.413795938180943e-15
	-3.090488998919013e-07,-8.622193983766910e-14
	-3.090488968014124e-07,1.628899461709042e-14
	-2.645165242231744e-24,-1.059247303929405e-13
	-3.090488968014124e-07,1.628899461709042e-14
16		1.445439770745927e+00,0.000000000000000e+00
	-3.090488968014123e-03,1.666841404296755e-10
	1.000000000000000e+00,0.000000000000000e+00
	0.000000000000000e+00,0.000000000000000e+00
	3.090488968014123e-07,-1.666841404296755e-14
	2.769828039452831e-24,1.083920343203242e-13
	3.090489017093691e-15,-3.493313460617056e-15
	-3.090488998919013e-07,-8.823030681673957e-14
	-3.090488968014124e-07,1.666841404296755e-14
	-2.769828039452831e-24,-1.083920343203242e-13
	-3.090488968014124e-07,1.666841404296755e-14
17		1.479108388168207e+00,0.000000000000000e+00
	-3.090488968014123e-03,1.705667128260280e-10
	1.000000000000000e+00,0.000000000000000e+00
	0.000000000000000e+00,0.000000000000000e+00
	3.090488968014123e-07,-1.705667128260280e-14
	2.900366013302912e-24,1.109168091390427e-13
	3.090489017093691e-15,-3.574683184089471e-15
	-3.090488998919013e-07,-9.028545467235044e-14
	-3.090488968014124e-07,1.705667128260280e-14
	-2.900366013302912e-24,-1.109168091390427e-13
	-3.090488968014124e-07,1.705667128260280e-14
18		1.513561248436208e+00,0.000000000000000e+00
	-3.090488968014123e-03,1.745397219512383e-10
	1.000000000000000e+00,0.000000000000000e+00
	0.000000000000000e+00,0.000000000000000e+00
	3.090488968014123e-07,-1.745397219512383e-14
	3.037056052326054e-24,1.135003935181243e-13
	3.090489017093691e-15,-3.657948251902608e-15
	-3.090488998919013e-07,-9.238847307109788e-14
	-3.090488968014124e-07,1.745397219512383e-14
	-3.037056052326054e-24,-1.135003935181243e-13
	-3.090488968014124e-07,1.745397219512383e-14
19		1.548816618912481e+00,0.000000000000000e+00
	-3.090488968014123e-03,1.786052743473335e-10
	1.000000000000000e+00,0.000000000000000e+00
	0.000000000000000e+00,0.000000000000000e+00
	3.090488968014123e-07,-1.786052743473335e-14
	3.180188094421377e-24,1.161441573082045e-13
	3.090489017093691e-15,-3.743152812297586e-15
	-3.090488998919013e-07,-9.454047706117362e-14
	-3.090488968014124e-07,1.786052743473335e-14
	-3.180188094421377e-24,-1.161441573082046e-13
	-3.090488968014124e-07,1.786052743473335e-14
20		1.584893192461113e+00,0.000000000000000e+00
	-3.090488968014123e-03,1.827655256240079e-10
	1.000000000000000e+00,0.000000000000000e+00
	0.000000000000000e+00,0.000000000000000e+00
	3.090488968014123e-07,-1.827655256240079e-14
	3.330065741840214e-24,1.188495022678392e-13
	3.090489017093691e-15,-3.830342041860086e-15
	-3.090488998919013e-07,-9.674260766357835e-14
	-3.090488968014124e-07,1.827655256240079e-14
	-3.330065741840214e-24,-1.188495022678392e-13
	-3.090488968014124e-07,1.827655256240079e-14
21		1.621810097358929e+00,0.000000000000000e+00
	-3.090488968014123e-03,1.870226816015559e-10
	1.000000000000000e+00,0.000000000000000e+00
	0.000000000000000e+00,0.000000000000000e+00
	3.090488968014123e-07,-1.870226816015558e-14
	3.487006905167185e-24,1.216178628067355e-13
	3.090489017093691e-15,-3.919562169473816e-15
	-3.090488998919013e-07,-9.899603247710609e-14
	-3.090488968014124e-07,1.870226816015559e-14
	-3.487006905167185e-24,-1.216178628067355e-13
	-3.090488968014124e-07,1.870226816015559e-14
22		1.659586907437560e+00,0.000000000000000e+00
	-3.090488968014123e-03,1.913789994804268e-10
	1.000000000000000e+00,0.000000000000000e+00
	0.000000000000000e+00,0.000000000000000e+00
	3.090488968014123e-07,-1.913789994804268e-14
	3.651344477651175e-24,1.244507067462946e-13
	3.090489017093691e-15,-4.010860500831279e-15
	-3.090488998919013e-07,-1.013019462974206e-13
	-3.090488968014124e-07,1.913789994804268e-14
	-3.651344477651175e-24,-1.244507067462946e-13
	-3.090488968014124e-07,1.913789994804268e-14
23		1.698243652461743e+00,0.000000000000000e+00
	-3.090488968014123e-03,1.958367890380229e-10
	1.000000000000000e+00,0.000000000000000e+00
	0.000000000000000e+00,0.000000000000000e+00
	3.090488968014123e-07,-1.958367890380229e-14
	3.823427041316546e-24,1.273495360978704e-13
	3.090489017093691e-15,-4.104285443516339e-15
	-3.090488998919013e-07,-1.036615717505518e-13
	-3.090488968014124e-07,1.958367890380229e-14
	-3.823427041316546e-24,-1.273495360978704e-13
	-3.090488968014124e-07,1.958367890380229e-14
24		1.737800828749374e+00,0.000000000000000e+00
	-3.090488968014123e-03,2.003984138533732e-10
	1.000000000000000e+00,0.000000000000000e+00
	0.000000000000000e+00,0.000000000000000e+00
	3.090488968014123e-07,-2.003984138533732e-14
	4.003619606352339e-24,1.303158878591557e-13
	3.090489017093691e-15,-4.199886532670187e-15
	-3.090488998919013e-07,-1.060761599411482e-13
	-3.090488968014124e-07,2.003984138533732e-14
	-4.003619606352339e-24,-1.303158878591557e-13
	-3.090488968014124e-07,2.003984138533732e-14
25		1.778279410038922e+00,0.000000000000000e+00
	-3.090488968014123e-03,2.050662925603352e-10
	1.000000000000000e+00,0.000000000000000e+00
	0.000000000000000e+00,0.000000000000000e+00
	3.090488968014123e-07,-2.050662925603352e-14
	4.192304385347840e-24,1.333513348291187e-13
	3.090489017093691e-15,-4.297714457255694e-15
	-3.090488998919013e-07,-1.085469911158295e-13
	-3.090488968014124e-07,2.050662925603352e-14
	-4.192304385347840e-24,-1.333513348291187e-13
	-3.090488968014124e-07,2.050662925603352e-14
26		1.819700858609982e+00,0.000000000000000e+00
	-3.090488968014123e-03,2.098429001299859e-10
	1.000000000000000e+00,0.000000000000000e+00
	0.000000000000000e+00,0.000000000000000e+00
	3.090488968014123e-07,-2.098429001299859e-14
	4.389881604016701e-24,1.364574864419216e-13
	3.090489017093691e-15,-4.397821086933428e-15
	-3.090488998919013e-07,-1.110753753419895e-13
	-3.090488968014124e-07,2.098429001299859e-14
	-4.389881604016701e-24,-1.364574864419216e-13
	-3.090488968014124e-07,2.098429001299859e-14
27		1.862087136662866e+00,0.000000000000000e+00
	-3.090488968014123e-03,2.147307691828847e-10
	1.000000000000000e+00,0.000000000000000e+00
	0.000000000000000e+00,0.000000000000000e+00
	3.090488968014123e-07,-2.147307691828847e-14
	4.596770350129361e-24,1.396359896202643e-13
	3.090489017093691e-15,-4.500259499563508e-15
	-3.090488998919013e-07,-1.136626532024124e-13
	-3.090488968014124e-07,2.147307691828847e-14
	-4.596770350129361e-24,-1.396359896202644e-13
	-3.090488968014124e-07,2.147307691828847e-14
28		1.905460717963246e+00,0.000000000000000e+00
	-3.090488968014123e-03,2.197324913319021e-10
	1.000000000000000e+00,0.000000000000000e+00
	0.000000000000000e+00,0.000000000000000e+00
	3.090488968014123e-07,-2.197324913319021e-14
	4.813409462454384e-24,1.428885296486046e-13
	3.090489017093691e-15,-4.605084009348239e-15
	-3.090488998919013e-07,-1.163101965060662e-13
	-3.090488968014124e-07,2.197324913319021e-14
	-4.813409462454384e-24,-1.428885296486047e-13
	-3.090488968014124e-07,2.197324913319021e-14
29		1.949844599758044e+00,0.000000000000000e+00
	-3.090488968014123e-03,2.248507185563269e-10
	1.000000000000000e+00,0.000000000000000e+00
	0.000000000000000e+00,0.000000000000000e+00
	3.090488968014123e-07,-2.248507185563269e-14
	5.040258461594320e-24,1.462168310667179e-13
	3.090489017093691e-15,-4.712350195630186e-15
	-3.090488998919013e-07,-1.190194090154550e-13
	-3.090488968014124e-07,2.248507185563269e-14
	-5.040258461594320e-24,-1.462168310667179e-13
	-3.090488968014124e-07,2.248507185563269e-14
30		1.995262314968878e+00,0.000000000000000e+00
	-3.090488968014123e-03,2.300881646079815e-10
	1.000000000000000e+00,0.000000000000000e+00
	0.000000000000000e+00,0.000000000000000e+00
	3.090488968014123e-07,-2.300881646079815e-14
	5.277798524690520e-24,1.496226585840713e-13
	3.090489017093691e-15,-4.822114932361226e-15
	-3.090488998919013e-07,-1.217917271909119e-13
	-3.090488968014124e-07,2.300881646079815e-14
	-5.277798524690520e-24,-1.496226585840713e-13
	-3.090488968014124e-07,2.300881646079815e-14
31		2.041737944669527e+00,0.000000000000000e+00
	-3.090488968014123e-03,2.354476064500880e-10
	1.000000000000000e+00,0.000000000000000e+00
	0.000000000000000e+00,0.000000000000000e+00
	3.090488968014123e-07,-2.354476064500880e-14
	5.526533506064361e-24,1.531078180154959e-13
	3.090489017093691e-15,-4.934436418257646e-15
	-3.090488998919013e-07,-1.246286209522295e-13
	-3.090488968014124e-07,2.354476064500880e-14
	-5.526533506064361e-24,-1.531078180154959e-13
	-3.090488968014124e-07,2.354476064500880e-14
32		2.089296130854037e+00,0.000000000000000e+00
	-3.090488968014123e-03,2.409318857296520e-10
	1.000000000000000e+00,0.000000000000000e+00
	0.000000000000000e+00,0.000000000000000e+00
	3.090488968014123e-07,-2.409318857296520e-14
	5.786991005959822e-24,1.566741572386540e-13
	3.090489017093691e-15,-5.049374207658003e-15
	-3.090488998919013e-07,-1.275315944580308e-13
	-3.090488968014124e-07,2.409318857296520e-14
	-5.786991005959822e-24,-1.566741572386540e-13
	-3.090488968014124e-07,2.409318857296520e-14
33		2.137962089502230e+00,0.000000000000000e+00
	-3.090488968014123e-03,2.465439102841403e-10
	1.000000000000000e+00,0.000000000000000e+00
	0.000000000000000e+00,0.000000000000000e+00
	3.090488968014123e-07,-2.465439102841403e-14
	6.059723489654323e-24,1.603235671738076e-13
	3.090489017093691e-15,-5.166989242099602e-15
	-3.090488998919013e-07,-1.305021869032940e-13
	-3.090488968014124e-07,2.465439102841403e-14
	-6.059723489654323e-24,-1.603235671738076e-13
	-3.090488968014124e-07,2.465439102841403e-14
34		2.187761623949550e+00,0.000000000000000e+00
	-3.090488968014123e-03,2.522866556832557e-10
	1.000000000000000e+00,0.000000000000000e+00
	0.000000000000000e+00,0.000000000000000e+00
	3.090488968014123e-07,-2.522866556832557e-14
	6.345309459311661e-24,1.640579827864101e-13
	3.090489017093691e-15,-5.287343882630577e-15
	-3.090488998919013e-07,-1.335419733354539e-13
	-3.090488968014124e-07,2.522866556832557e-14
	-6.345309459311661e-24,-1.640579827864101e-13
	-3.090488968014124e-07,2.522866556832557e-14
35		2.238721138568337e+00,0.000000000000000e+00
	-3.090488968014123e-03,2.581631668066231e-10
	1.000000000000000e+00,0.000000000000000e+00
	0.000000000000000e+00,0.000000000000000e+00
	3.090488968014123e-07,-2.581631668066230e-14
	6.644354681062658e-24,1.678793841130500e-13
	3.090489017093691e-15,-5.410501942874373e-15
	-3.090488998919013e-07,-1.366525654895133e-13
	-3.090488968014124e-07,2.581631668066231e-14
	-6.644354681062658e-24,-1.678793841130500e-13
	-3.090488968014124e-07,2.581631668066231e-14
36		2.290867652767770e+00,0.000000000000000e+00
	-3.090488968014123e-03,2.641765594582247e-10
	1.000000000000000e+00,0.000000000000000e+00
	0.000000000000000e+00,0.000000000000000e+00
	3.090488968014123e-07,-2.641765594582247e-14
	6.957493469916338e-24,1.717897973112930e-13
	3.090489017093691e-15,-5.536528722864759e-15
	-3.090488998919013e-07,-1.398356126426058e-13
	-3.090488968014124e-07,2.641765594582247e-14
	-6.957493469916338e-24,-1.717897973112931e-13
	-3.090488968014124e-07,2.641765594582247e-14
37		2.344228815319919e+00,0.000000000000000e+00
	-3.090488968014123e-03,2.703300220184413e-10
	1.000000000000000e+00,0.000000000000000e+00
	0.000000000000000e+00,0.000000000000000e+00
	3.090488968014123e-07,-2.703300220184413e-14
	7.285390035227108e-24,1.757912957339773e-13
	3.090489017093691e-15,-5.665491043668604e-15
	-3.090488998919013e-07,-1.430928024884645e-13
	-3.090488968014124e-07,2.703300220184413e-14
	-7.285390035227108e-24,-1.757912957339773e-13
	-3.090488968014124e-07,2.703300220184413e-14
38		2.398832919019488e+00,0.000000000000000e+00
	-3.090488968014123e-03,2.766268171345730e-10
	1.000000000000000e+00,0.000000000000000e+00
