LTspice 24.0.9 for Windows
Circuit: * GA CMOS Amp | W=2.5795991436598112e-05 L=9.655901161522955e-07 Vbias=1.1148298950998692
Start Time: Mon Sep  8 18:47:19 2025
solver = Normal
Maximum thread count: 2
tnom = 27
temp = 27
method = modified trap
AsciiRawFile = 1
Instance "m1": Length shorter than recommended for a level 3 MOSFET.
Direct Newton iteration for .op point succeeded.
Semiconductor Device Operating Points:
                        --- MOSFET Transistors ---
Name:          m1
Model:        n_1u
Id:          1.62e-04
Vgs:         1.11e+00
Vds:         1.83e-01
Vbs:         0.00e+00
Vth:         8.07e-01
Vdsat:       2.79e-01
Gm:          6.08e-04
Gds:         4.12e-04
Gmb:         1.45e-04
Cbd:         0.00e+00
Cbs:         0.00e+00
Cgsov:       5.16e-15
Cgdov:       5.16e-15
Cgbov:       7.66e-17
Cgs:         2.13e-14
Cgd:         1.01e-14
Cgb:         0.00e+00



gain_db: MAX(db(v(out)/v(g)))=(28.7322dB,86.8785°) FROM 1 TO 1e+09
gain_lin: MAX(mag(v(out)/v(g)))=(1.48811dB,0°) FROM 1 TO 1e+09

Measurement "fc" FAIL'ed

Total elapsed time: 0.449 seconds.

