Title: * GA CMOS Amp | W=2.803516744425162e-06 L=7.474480234180476e-07 Vbias=1.5
Date: Sat Sep  6 22:15:37 2025
Plotname: AC Analysis
Flags: complex forward log
No. Variables: 13
No. Points:          901
Offset:    0.0000000000000000e+00
Command: Linear Technology Corporation LTspice
Variables:
	0	frequency	frequency
	1	V(out)	voltage
	2	V(g)	voltage
	3	V(vdd)	voltage
	4	V(m1#dbody)	voltage
	5	V(m1#sbody)	voltage
	6	Id(M1)	device_current
	7	Ig(M1)	device_current
	8	Ib(M1)	device_current
	9	Is(M1)	device_current
	10	I(Rload)	device_current
	11	I(Vg)	device_current
	12	I(Vdd)	device_current
Values:
0		1.000000000000000e+00,0.000000000000000e+00
	-5.429145939024022e-02,8.605312707019234e-10
	1.000000000000000e+00,0.000000000000000e+00
	0.000000000000000e+00,0.000000000000000e+00
	7.593380655414337e-05,8.703434677590441e-14
	7.593380696132254e-05,9.015736604364033e-14
	5.429145939024022e-06,-8.605312707019231e-14
	4.580755379071301e-05,5.023688380018501e-13
	-4.049803038283078e-05,-4.787893749883810e-14
	-1.073866934690625e-05,-3.684367734328197e-13
	-5.429145939024023e-06,8.605312707019235e-14
	-4.580755379057777e-05,-5.023688380018501e-13
	-5.429145939024023e-06,8.605312707019235e-14
1		1.023292992280754e+00,0.000000000000000e+00
	-5.429145939024022e-02,8.805756189477309e-10
	1.000000000000000e+00,0.000000000000000e+00
	0.000000000000000e+00,0.000000000000000e+00
	7.593380655414337e-05,8.906163714351603e-14
	7.593380696132254e-05,9.225740087494796e-14
	5.429145939024022e-06,-8.805756189477305e-14
	4.580755379071301e-05,5.140705114675187e-13
	-4.049803038283078e-05,-4.899418122040924e-14
	-1.073866934690625e-05,-3.770187683523364e-13
	-5.429145939024023e-06,8.805756189477310e-14
	-4.580755379057777e-05,-5.140705114675185e-13
	-5.429145939024023e-06,8.805756189477310e-14
2		1.047128548050899e+00,0.000000000000000e+00
	-5.429145939024022e-02,9.010868600425005e-10
	1.000000000000000e+00,0.000000000000000e+00
	0.000000000000000e+00,0.000000000000000e+00
	7.593380655414337e-05,9.113614917001125e-14
	7.593380696132254e-05,9.440635180137054e-14
	5.429145939024022e-06,-9.010868600425003e-14
	4.580755379071301e-05,5.260447519228948e-13
	-4.049803038283078e-05,-5.013540230537809e-14
	-1.073866934690625e-05,-3.858006636132667e-13
	-5.429145939024023e-06,9.010868600425006e-14
	-4.580755379057777e-05,-5.260447519228948e-13
	-5.429145939024023e-06,9.010868600425006e-14
3		1.071519305237606e+00,0.000000000000000e+00
	-5.429145939024022e-02,9.220758693177594e-10
	1.000000000000000e+00,0.000000000000000e+00
	0.000000000000000e+00,0.000000000000000e+00
	7.593380655414337e-05,9.325898278912599e-14
	7.593380696132254e-05,9.660535822513404e-14
	5.429145939024022e-06,-9.220758693177588e-14
	4.580755379071301e-05,5.382979082687658e-13
	-4.049803038283078e-05,-5.130320584426978e-14
	-1.073866934690625e-05,-3.947871154927202e-13
	-5.429145939024023e-06,9.220758693177594e-14
	-4.580755379057777e-05,-5.382979082687658e-13
	-5.429145939024023e-06,9.220758693177594e-14
4		1.096478196143185e+00,0.000000000000000e+00
	-5.429145939024022e-02,9.435537754240474e-10
	1.000000000000000e+00,0.000000000000000e+00
	0.000000000000000e+00,0.000000000000000e+00
	7.593380655414337e-05,9.543126355534404e-14
	7.593380696132254e-05,9.885558608855152e-14
	5.429145939024022e-06,-9.435537754240471e-14
	4.580755379071301e-05,5.508364772908163e-13
	-4.049803038283078e-05,-5.249821102197826e-14
	-1.073866934690625e-05,-4.039828887264333e-13
	-5.429145939024023e-06,9.435537754240475e-14
	-4.580755379057777e-05,-5.508364772908161e-13
	-5.429145939024023e-06,9.435537754240475e-14
5		1.122018454301963e+00,0.000000000000000e+00
	-5.429145939024022e-02,9.655319662314761e-10
	1.000000000000000e+00,0.000000000000000e+00
	0.000000000000000e+00,0.000000000000000e+00
	7.593380655414337e-05,9.765414324068132e-14
	7.593380696132254e-05,1.011582284922216e-13
	5.429145939024022e-06,-9.655319662314759e-14
	4.580755379071301e-05,5.636671071043092e-13
	-4.049803038283078e-05,-5.372105144606663e-14
	-1.073866934690625e-05,-4.133928590350950e-13
	-5.429145939024023e-06,9.655319662314762e-14
	-4.580755379057777e-05,-5.636671071043091e-13
	-5.429145939024023e-06,9.655319662314762e-14
6		1.148153621496882e+00,0.000000000000000e+00
	-5.429145939024022e-02,9.880220948677276e-10
	1.000000000000000e+00,0.000000000000000e+00
	0.000000000000000e+00,0.000000000000000e+00
	7.593380655414337e-05,9.992880044537014e-14
	7.593380696132254e-05,1.035145063276257e-13
	5.429145939024022e-06,-9.880220948677269e-14
	4.580755379071301e-05,5.767966006790049e-13
	-4.049803038283078e-05,-5.497237548271385e-14
	-1.073866934690625e-05,-4.230220157095183e-13
	-5.429145939024023e-06,9.880220948677276e-14
	-4.580755379057777e-05,-5.767966006790047e-13
	-5.429145939024023e-06,9.880220948677276e-14
7		1.174897554939529e+00,0.000000000000000e+00
	-5.429145939024022e-02,1.011036085896696e-09
	1.000000000000000e+00,0.000000000000000e+00
	0.000000000000000e+00,0.000000000000000e+00
	7.593380655414337e-05,1.022564412227692e-13
	7.593380696132254e-05,1.059256689244611e-13
	5.429145939024022e-06,-1.011036085896695e-13
	4.580755379071301e-05,5.902319194461860e-13
	-4.049803038283078e-05,-5.625284660048740e-14
	-1.073866934690625e-05,-4.328754642560291e-13
	-5.429145939024023e-06,1.011036085896696e-13
	-4.580755379057777e-05,-5.902319194461859e-13
	-5.429145939024023e-06,1.011036085896696e-13
8		1.202264434617413e+00,0.000000000000000e+00
	-5.429145939024022e-02,1.034586141641051e-09
	1.000000000000000e+00,0.000000000000000e+00
	0.000000000000000e+00,0.000000000000000e+00
	7.593380655414337e-05,1.046382997188285e-13
	7.593380696132254e-05,1.083929947130523e-13
	5.429145939024022e-06,-1.034586141641051e-13
	4.580755379071301e-05,6.039801869897008e-13
	-4.049803038283078e-05,-5.756314372212301e-14
	-1.073866934690625e-05,-4.429584291034726e-13
	-5.429145939024023e-06,1.034586141641051e-13
	-4.580755379057777e-05,-6.039801869897007e-13
	-5.429145939024023e-06,1.034586141641051e-13
9		1.230268770812381e+00,0.000000000000000e+00
	-5.429145939024022e-02,1.058684748652072e-09
	1.000000000000000e+00,0.000000000000000e+00
	0.000000000000000e+00,0.000000000000000e+00
	7.593380655414337e-05,1.070756388264504e-13
	7.593380696132254e-05,1.109177919021913e-13
	5.429145939024022e-06,-1.058684748652071e-13
	4.580755379071301e-05,6.180486928229803e-13
	-4.049803038283078e-05,-5.890396158449835e-14
	-1.073866934690625e-05,-4.532762563732749e-13
	-5.429145939024023e-06,1.058684748652072e-13
	-4.580755379057777e-05,-6.180486928229803e-13
	-5.429145939024023e-06,1.058684748652072e-13
10		1.258925411794167e+00,0.000000000000000e+00
	-5.429145939024022e-02,1.083344684330177e-09
	1.000000000000000e+00,0.000000000000000e+00
	0.000000000000000e+00,0.000000000000000e+00
	7.593380655414337e-05,1.095697508550917e-13
	7.593380696132254e-05,1.135013991727673e-13
	5.429145939024022e-06,-1.083344684330176e-13
	4.580755379071301e-05,6.324448962540362e-13
	-4.049803038283078e-05,-6.027601110699192e-14
	-1.073866934690625e-05,-4.638344167140267e-13
	-5.429145939024023e-06,1.083344684330177e-13
	-4.580755379057777e-05,-6.324448962540359e-13
	-5.429145939024023e-06,1.083344684330177e-13
11		1.288249551693134e+00,0.000000000000000e+00
	-5.429145939024022e-02,1.108579023699676e-09
	1.000000000000000e+00,0.000000000000000e+00
	0.000000000000000e+00,0.000000000000000e+00
	7.593380655414337e-05,1.121219582159636e-13
	7.593380696132254e-05,1.161451863875534e-13
	5.429145939024022e-06,-1.108579023699675e-13
	4.580755379071301e-05,6.471764303404839e-13
	-4.049803038283078e-05,-6.168001976842174e-14
	-1.073866934690625e-05,-4.746385082020946e-13
	-5.429145939024023e-06,1.108579023699676e-13
	-4.580755379057777e-05,-6.471764303404839e-13
	-5.429145939024023e-06,1.108579023699676e-13
12		1.318256738556407e+00,0.000000000000000e+00
	-5.429145939024022e-02,1.134401146341318e-09
	1.000000000000000e+00,0.000000000000000e+00
	0.000000000000000e+00,0.000000000000000e+00
	7.593380655414337e-05,1.147336141231911e-13
	7.593380696132254e-05,1.188505553175254e-13
	5.429145939024022e-06,-1.134401146341317e-13
	4.580755379071301e-05,6.622511059366908e-13
	-4.049803038283078e-05,-6.311673199276435e-14
	-1.073866934690625e-05,-4.856942593097947e-13
	-5.429145939024023e-06,1.134401146341318e-13
	-4.580755379057777e-05,-6.622511059366908e-13
	-5.429145939024023e-06,1.134401146341318e-13
13		1.348962882591653e+00,0.000000000000000e+00
	-5.429145939024022e-02,1.160824743486325e-09
	1.000000000000000e+00,0.000000000000000e+00
	0.000000000000000e+00,0.000000000000000e+00
	7.593380655414337e-05,1.174061033113056e-13
	7.593380696132254e-05,1.216189403850999e-13
	5.429145939024022e-06,-1.160824743486324e-13
	4.580755379071301e-05,6.776769158351950e-13
	-4.049803038283078e-05,-6.458690954385824e-14
	-1.073866934690625e-05,-4.970075319427043e-13
	-5.429145939024023e-06,1.160824743486325e-13
	-4.580755379057777e-05,-6.776769158351950e-13
	-5.429145939024023e-06,1.160824743486325e-13
14		1.380384264602885e+00,0.000000000000000e+00
	-5.429145939024022e-02,1.187863825275660e-09
	1.000000000000000e+00,0.000000000000000e+00
	0.000000000000000e+00,0.000000000000000e+00
	7.593380655414337e-05,1.201408427694492e-13
	7.593380696132254e-05,1.244518094246835e-13
	5.429145939024022e-06,-1.187863825275660e-13
	4.580755379071301e-05,6.934620390045897e-13
	-4.049803038283078e-05,-6.609133192930111e-14
	-1.073866934690625e-05,-5.085843245477226e-13
	-5.429145939024023e-06,1.187863825275660e-13
	-4.580755379057777e-05,-6.934620390045895e-13
	-5.429145939024023e-06,1.187863825275660e-13
15		1.412537544622754e+00,0.000000000000000e+00
	-5.429145939024022e-02,1.215532728188393e-09
	1.000000000000000e+00,0.000000000000000e+00
	0.000000000000000e+00,0.000000000000000e+00
	7.593380655414337e-05,1.229392824926813e-13
	7.593380696132254e-05,1.273506644609386e-13
	5.429145939024022e-06,-1.215532728188393e-13
	4.580755379071301e-05,7.096148449261194e-13
	-4.049803038283078e-05,-6.763079681375508e-14
	-1.073866934690625e-05,-5.204307752935250e-13
	-5.429145939024023e-06,1.215532728188393e-13
	-4.580755379057777e-05,-7.096148449261194e-13
	-5.429145939024023e-06,1.215532728188393e-13
16		1.445439770745927e+00,0.000000000000000e+00
	-5.429145939024022e-02,1.243846122643089e-09
	1.000000000000000e+00,0.000000000000000e+00
	0.000000000000000e+00,0.000000000000000e+00
	7.593380655414337e-05,1.258029062507848e-13
	7.593380696132254e-05,1.303170425051761e-13
	5.429145939024022e-06,-1.243846122643089e-13
	4.580755379071301e-05,7.261438980312919e-13
	-4.049803038283078e-05,-6.920612044187910e-14
	-1.073866934690625e-05,-5.325531653251039e-13
	-5.429145939024023e-06,1.243846122643089e-13
	-4.580755379057777e-05,-7.261438980312919e-13
	-5.429145939024023e-06,1.243846122643089e-13
17		1.479108388168207e+00,0.000000000000000e+00
	-5.429145939024022e-02,1.272819020776261e-09
	1.000000000000000e+00,0.000000000000000e+00
	0.000000000000000e+00,0.000000000000000e+00
	7.593380655414337e-05,1.287332323749807e-13
	7.593380696132254e-05,1.333525163702998e-13
	5.429145939024022e-06,-1.272819020776260e-13
	4.580755379071301e-05,7.430579622428513e-13
	-4.049803038283078e-05,-7.081813807111271e-14
	-1.073866934690625e-05,-5.449579220941126e-13
	-5.429145939024023e-06,1.272819020776261e-13
	-4.580755379057777e-05,-7.430579622428515e-13
	-5.429145939024023e-06,1.272819020776261e-13
18		1.513561248436208e+00,0.000000000000000e+00
	-5.429145939024022e-02,1.302466784401999e-09
	1.000000000000000e+00,0.000000000000000e+00
	0.000000000000000e+00,0.000000000000000e+00
	7.593380655414337e-05,1.317318145629677e-13
	7.593380696132254e-05,1.364586955047324e-13
	5.429145939024022e-06,-1.302466784401999e-13
	4.580755379071301e-05,7.603660056215272e-13
	-4.049803038283078e-05,-7.246770441454053e-14
	-1.073866934690625e-05,-5.576516227667867e-13
	-5.429145939024023e-06,1.302466784401999e-13
	-4.580755379057777e-05,-7.603660056215269e-13
	-5.429145939024023e-06,1.302466784401999e-13
19		1.548816618912481e+00,0.000000000000000e+00
	-5.429145939024022e-02,1.332805133157014e-09
	1.000000000000000e+00,0.000000000000000e+00
	0.000000000000000e+00,0.000000000000000e+00
	7.593380655414337e-05,1.348002427027126e-13
	7.593380696132254e-05,1.396372268457659e-13
	5.429145939024022e-06,-1.332805133157013e-13
	4.580755379071301e-05,7.780772051210172e-13
	-4.049803038283078e-05,-7.415569409407238e-14
	-1.073866934690625e-05,-5.706409977112435e-13
	-5.429145939024023e-06,1.332805133157014e-13
	-4.580755379057777e-05,-7.780772051210171e-13
	-5.429145939024023e-06,1.332805133157014e-13
20		1.584893192461113e+00,0.000000000000000e+00
	-5.429145939024022e-02,1.363850152835389e-09
	1.000000000000000e+00,0.000000000000000e+00
	0.000000000000000e+00,0.000000000000000e+00
	7.593380655414337e-05,1.379401437154307e-13
	7.593380696132254e-05,1.428897956927902e-13
	5.429145939024022e-06,-1.363850152835389e-13
	4.580755379071301e-05,7.962009514537317e-13
	-4.049803038283078e-05,-7.588300210417959e-14
	-1.073866934690625e-05,-5.839329340660132e-13
	-5.429145939024023e-06,1.363850152835389e-13
	-4.580755379057777e-05,-7.962009514537316e-13
	-5.429145939024023e-06,1.363850152835389e-13
21		1.621810097358929e+00,0.000000000000000e+00
	-5.429145939024022e-02,1.395618303917490e-09
	1.000000000000000e+00,0.000000000000000e+00
	0.000000000000000e+00,0.000000000000000e+00
	7.593380655414337e-05,1.411531824182003e-13
	7.593380696132254e-05,1.462181266008609e-13
	5.429145939024022e-06,-1.395618303917488e-13
	4.580755379071301e-05,8.147468540698725e-13
	-4.049803038283078e-05,-7.765054428643270e-14
	-1.073866934690625e-05,-5.975344793916910e-13
	-5.429145939024023e-06,1.395618303917490e-13
	-4.580755379057777e-05,-8.147468540698724e-13
	-5.429145939024023e-06,1.395618303917490e-13
22		1.659586907437560e+00,0.000000000000000e+00
	-5.429145939024022e-02,1.428126430297519e-09
	1.000000000000000e+00,0.000000000000000e+00
	0.000000000000000e+00,0.000000000000000e+00
	7.593380655414337e-05,1.444410624066713e-13
	7.593380696132254e-05,1.496239842950811e-13
	5.429145939024022e-06,-1.428126430297518e-13
	4.580755379071301e-05,8.337247462524909e-13
	-4.049803038283078e-05,-7.945925781509291e-14
	-1.073866934690625e-05,-6.114528454076461e-13
	-5.429145939024023e-06,1.428126430297519e-13
	-4.580755379057777e-05,-8.337247462524908e-13
	-5.429145939024023e-06,1.428126430297519e-13
23		1.698243652461743e+00,0.000000000000000e+00
	-5.429145939024022e-02,1.461391768214380e-09
	1.000000000000000e+00,0.000000000000000e+00
	0.000000000000000e+00,0.000000000000000e+00
	7.593380655414337e-05,1.478055269583338e-13
	7.593380696132254e-05,1.531091746062821e-13
	5.429145939024022e-06,-1.461391768214379e-13
	4.580755379071301e-05,8.531446903312239e-13
	-4.049803038283078e-05,-8.131010169401433e-14
	-1.073866934690625e-05,-6.256954118157716e-13
	-5.429145939024023e-06,1.461391768214380e-13
	-4.580755379057777e-05,-8.531446903312238e-13
	-5.429145939024023e-06,1.461391768214380e-13
24		1.737800828749374e+00,0.000000000000000e+00
	-5.429145939024022e-02,1.495431955390555e-09
	1.000000000000000e+00,0.000000000000000e+00
	0.000000000000000e+00,0.000000000000000e+00
	7.593380655414337e-05,1.512483599568271e-13
	7.593380696132254e-05,1.566755454284989e-13
	5.429145939024022e-06,-1.495431955390555e-13
	4.580755379071301e-05,8.730169830174754e-13
	-4.049803038283078e-05,-8.320405726512033e-14
	-1.073866934690625e-05,-6.402697302132994e-13
	-5.429145939024023e-06,1.495431955390555e-13
	-4.580755379057777e-05,-8.730169830174752e-13
	-5.429145939024023e-06,1.495431955390555e-13
25		1.778279410038922e+00,0.000000000000000e+00
	-5.429145939024022e-02,1.530265040383860e-09
	1.000000000000000e+00,0.000000000000000e+00
	0.000000000000000e+00,0.000000000000000e+00
	7.593380655414337e-05,1.547713868377782e-13
	7.593380696132254e-05,1.603249876987478e-13
	5.429145939024022e-06,-1.530265040383860e-13
	4.580755379071301e-05,8.933521608638687e-13
	-4.049803038283078e-05,-8.514212872872421e-14
	-1.073866934690625e-05,-6.551835280967585e-13
	-5.429145939024023e-06,1.530265040383860e-13
	-4.580755379057777e-05,-8.933521608638685e-13
	-5.429145939024023e-06,1.530265040383860e-13
26		1.819700858609982e+00,0.000000000000000e+00
	-5.429145939024022e-02,1.565909492157029e-09
	1.000000000000000e+00,0.000000000000000e+00
	0.000000000000000e+00,0.000000000000000e+00
	7.593380655414337e-05,1.583764755566722e-13
	7.593380696132254e-05,1.640594363996267e-13
	5.429145939024022e-06,-1.565909492157029e-13
	4.580755379071301e-05,9.141610058508656e-13
	-4.049803038283078e-05,-8.712534367596933e-14
	-1.073866934690625e-05,-6.704447129591934e-13
	-5.429145939024023e-06,1.565909492157029e-13
	-4.580755379057777e-05,-9.141610058508658e-13
	-5.429145939024023e-06,1.565909492157029e-13
27		1.862087136662866e+00,0.000000000000000e+00
	-5.429145939024022e-02,1.602384209870202e-09
	1.000000000000000e+00,0.000000000000000e+00
	0.000000000000000e+00,0.000000000000000e+00
	7.593380655414337e-05,1.620655375792667e-13
	7.593380696132254e-05,1.678808715852681e-13
	5.429145939024022e-06,-1.602384209870201e-13
	4.580755379071301e-05,9.354545511035163e-13
	-4.049803038283078e-05,-8.915475363367175e-14
	-1.073866934690625e-05,-6.860613764828244e-13
	-5.429145939024023e-06,1.602384209870202e-13
	-4.580755379057777e-05,-9.354545511035163e-13
	-5.429145939024023e-06,1.602384209870202e-13
28		1.905460717963246e+00,0.000000000000000e+00
	-5.429145939024022e-02,1.639708532901511e-09
	1.000000000000000e+00,0.000000000000000e+00
	0.000000000000000e+00,0.000000000000000e+00
	7.593380655414337e-05,1.658405288950769e-13
	7.593380696132254e-05,1.717913194311900e-13
	5.429145939024022e-06,-1.639708532901511e-13
	4.580755379071301e-05,9.572440867413667e-13
	-4.049803038283078e-05,-9.123143462185338e-14
	-1.073866934690625e-05,-7.020417988293623e-13
	-5.429145939024023e-06,1.639708532901511e-13
	-4.580755379057777e-05,-9.572440867413665e-13
	-5.429145939024023e-06,1.639708532901511e-13
29		1.949844599758044e+00,0.000000000000000e+00
	-5.429145939024022e-02,1.677902251101073e-09
	1.000000000000000e+00,0.000000000000000e+00
	0.000000000000000e+00,0.000000000000000e+00
	7.593380655414337e-05,1.697034510544661e-13
	7.593380696132254e-05,1.757928533086013e-13
	5.429145939024022e-06,-1.677902251101072e-13
	4.580755379071301e-05,9.795411658646310e-13
	-4.049803038283078e-05,-9.335648772426236e-14
	-1.073866934690625e-05,-7.183944530302614e-13
	-5.429145939024023e-06,1.677902251101073e-13
	-4.580755379057777e-05,-9.795411658646310e-13
	-5.429145939024023e-06,1.677902251101073e-13
30		1.995262314968878e+00,0.000000000000000e+00
	-5.429145939024022e-02,1.716985615283830e-09
	1.000000000000000e+00,0.000000000000000e+00
	0.000000000000000e+00,0.000000000000000e+00
	7.593380655414337e-05,1.736563522298951e-13
	7.593380696132254e-05,1.798875948837302e-13
	5.429145939024022e-06,-1.716985615283829e-13
	4.580755379071301e-05,1.002357610679797e-12
	-4.049803038283078e-05,-9.553103967218190e-14
	-1.073866934690625e-05,-7.351280094792317e-13
	-5.429145939024023e-06,1.716985615283830e-13
	-4.580755379057777e-05,-1.002357610679797e-12
	-5.429145939024023e-06,1.716985615283830e-13
31		2.041737944669527e+00,0.000000000000000e+00
	-5.429145939024022e-02,1.756979347966802e-09
	1.000000000000000e+00,0.000000000000000e+00
	0.000000000000000e+00,0.000000000000000e+00
	7.593380655414337e-05,1.777013283018899e-13
	7.593380696132254e-05,1.840777152427604e-13
	5.429145939024022e-06,-1.756979347966801e-13
	4.580755379071301e-05,1.025705518767916e-12
	-4.049803038283078e-05,-9.775624344183845e-14
	-1.073866934690625e-05,-7.522513405293976e-13
	-5.429145939024023e-06,1.756979347966802e-13
	-4.580755379057777e-05,-1.025705518767916e-12
	-5.429145939024023e-06,1.756979347966802e-13
32		2.089296130854037e+00,0.000000000000000e+00
	-5.429145939024022e-02,1.797904654356437e-09
	1.000000000000000e+00,0.000000000000000e+00
	0.000000000000000e+00,0.000000000000000e+00
	7.593380655414337e-05,1.818405239703057e-13
